ROUT,V_IN,I_IN,P_IN,V_OUT,I_OUT,P_OUT,V_DS_A,V_DS_B,MR_FREQ,V_MR_PP,V_SEC_PP
50.0,25.072962,1.13219322,28.38743758171764,35.49609,0.7095734,25.19289,55.0,55.0,13500000.0,94.0,83.0
50.5,25.072686,1.14238464,28.64265136994304,35.84959,0.709534,25.4407,55.0,55.0,13500000.0,94.0,86.0
51.0,25.072624,1.15258882,28.89842611046368,36.2042,0.7096599,25.68942,55.0,56.0,13500000.0,94.0,84.0
51.5,25.07273,1.1626552,29.150939912696003,36.53946,0.7094613,25.93334,55.0,56.0,13500000.0,94.0,88.0
52.0,25.07294,1.17240637,29.3956745706278,36.8916,0.709372,26.1634,55.0,56.0,13600000.0,94.0,86.0
52.5,25.073045,1.18252029,29.649384444583053,37.24575,0.7093674,26.41498,55.0,56.0,13500000.0,95.0,88.0
53.0,25.073437,1.19217391,29.891897425428667,37.57155,0.7088346,26.63518,55.0,55.0,13600000.0,95.0,89.0
53.5,25.073637,1.20185747,30.13493792851839,37.92373,0.7089678,26.88701,55.0,56.0,13600000.0,95.0,89.0
54.0,25.073943,1.21209658,30.39204055741494,38.28008,0.7089106,27.13416,55.0,56.0,13500000.0,94.0,89.0
54.5,25.074312,1.22223682,30.64674736256784,38.63369,0.7087176,27.37643,55.0,56.0,13400000.0,94.0,91.0
55.0,25.074648,1.2323711,30.9012715378728,38.9869,0.7085421,27.62467,55.0,56.0,13300000.0,95.0,91.0
55.5,25.074944,1.24248948,31.155354131589117,39.3415,0.7085197,27.87194,55.0,56.0,13400000.0,95.0,92.0
56.0,25.075203,1.25217174,31.39846057136322,39.67629,0.7082677,28.09482,55.0,56.0,13300000.0,97.0,94.0
56.5,25.07518,1.26266598,31.6615767283764,40.04475,0.7082085,28.36479,55.0,56.0,13500000.0,94.0,94.0
57.0,25.074967,1.27195537,31.89423892822279,40.36688,0.7080662,28.58166,55.0,56.0,13500000.0,95.0,94.0
57.5,25.074571,1.28156665,32.13473395665715,40.71025,0.7078912,28.81859,55.0,56.0,13400000.0,94.0,95.0
58.0,25.073892,1.29087681,32.36730571924452,41.03842,0.7075384,29.03898,55.0,56.0,13500000.0,95.0,95.0
58.5,25.072839,1.3008475,32.615939931052495,41.39132,0.7073933,29.27923,55.0,56.0,13500000.0,94.0,95.0
59.0,25.071974,1.3090742,32.8210743064708,41.68136,0.7070309,29.46999,55.0,56.0,13500000.0,95.0,97.0
59.5,25.070824,1.32023459,33.09936904460216,42.0707,0.7068623,29.73952,55.0,56.0,13500000.0,94.0,98.0
60.0,25.069735,1.32910454,33.3202986050969,42.38721,0.706396,29.9405,55.0,56.0,13400000.0,95.0,97.0
60.5,25.068512,1.33918434,33.57135869750208,42.74339,0.7062992,30.19131,55.0,56.0,13400000.0,97.0,100.0
61.0,25.067049,1.34831581,33.79829847674469,43.06606,0.7058992,30.39584,55.0,56.0,13400000.0,97.0,100.0
61.5,25.065614,1.35831708,34.04705161688712,43.41674,0.7057476,30.63801,55.0,56.0,13300000.0,95.0,103.0
61.68502750680849,25.065013,1.36212096,34.14157956997248,43.55089,0.7057142,30.72407,55.0,57.0,13400000.0,95.0,98.0
62.0,25.064099,1.36799253,34.28750020318047,43.76427,0.7056479,30.86828,55.0,56.0,13500000.0,95.0,100.0
62.5,25.063533,1.37511612,34.465268252451956,44.01204,0.7053016,31.04946,55.0,56.0,13500000.0,95.0,102.0
63.0,25.062037,1.38696082,34.76006338839034,44.43697,0.7049398,31.32351,55.0,55.0,13600000.0,95.0,103.0
63.5,25.061585,1.39502195,34.961461176790756,44.71581,0.7048673,31.51853,55.0,57.0,13500000.0,95.0,102.0
64.0,25.060442,1.40600463,35.23509748184646,45.10435,0.7044683,31.76706,55.0,56.0,13500000.0,95.0,105.0
64.5,25.059812,1.41499773,35.459577094226766,45.41988,0.7044147,31.98899,55.0,56.0,13500000.0,95.0,105.0
65.0,25.05909,1.42498143,35.7087379026987,45.77373,0.7038306,32.21758,56.0,56.0,13400000.0,95.0,105.0
65.5,25.058645,1.43382714,35.9297652926253,46.08883,0.7036015,32.43029,55.0,56.0,13400000.0,95.0,106.0
66.0,25.0581,1.4436336,36.17471511216,46.44096,0.7033545,32.66388,55.0,56.0,13600000.0,94.0,106.0
66.5,25.057644,1.45253346,36.39706633876824,46.76193,0.7031152,32.8709,55.0,56.0,13600000.0,97.0,108.0
67.0,25.057414,1.46034269,36.59241136520367,47.03075,0.7027785,33.0477,55.0,56.0,13300000.0,97.0,106.0
67.5,25.057126,1.4701135,36.836819203801,47.38236,0.7024564,33.28225,55.0,56.0,13600000.0,95.0,109.0
68.0,25.057181,1.47997389,37.083973637004085,47.73191,0.7023785,33.5288,55.0,55.0,13500000.0,95.0,108.0
68.5,25.057077,1.48974393,37.328628364292605,48.08179,0.7020484,33.75267,55.0,56.0,13600000.0,95.0,111.0
69.0,25.056528,1.49957298,37.57409236141344,48.43563,0.7016155,33.98374,55.0,56.0,13500000.0,95.0,111.0
69.5,25.056009,1.50920634,37.81468763789706,48.78267,0.7013475,34.21844,55.0,56.0,13500000.0,95.0,111.0
70.0,25.055417,1.51582875,37.97972143183875,49.01423,0.7011203,34.36309,55.0,56.0,13600000.0,95.0,111.0
70.5,25.055088,1.52676002,38.25310665598176,49.40407,0.7005761,34.61575,56.0,56.0,13400000.0,97.0,113.0
71.0,25.053966,1.53549212,38.47016736774792,49.71807,0.7003415,34.8171,55.0,56.0,13400000.0,95.0,114.0
71.5,25.052655,1.54497323,38.70568131542566,50.06329,0.6998528,35.04033,55.0,56.0,13500000.0,95.0,114.0
72.0,25.051878,1.5539902,38.9303729035956,50.39757,0.699667,35.27197,55.0,56.0,13500000.0,95.0,113.0
72.5,25.050465,1.56304178,39.1549234034277,50.71412,0.6993434,35.45626,56.0,57.0,13500000.0,95.0,116.0
73.0,25.049225,1.57173596,39.370767702631,51.02691,0.6986562,35.64744,56.0,56.0,13400000.0,95.0,116.0
73.5,25.047888,1.58028067,39.58269323072496,51.34165,0.6982644,35.85743,55.0,57.0,13400000.0,95.0,116.0
74.0,25.046776,1.58879934,39.79430117792784,51.63972,0.6981118,36.05156,55.0,56.0,13400000.0,95.0,117.0
74.5,25.044765,1.59846395,40.03315398872175,51.99256,0.6976103,36.26726,55.0,56.0,13500000.0,95.0,116.0
