!Keysight Technologies,E5063A,MY54100949,A.07.30
!Date: Wed Nov 26 00:53:34 2025
!Data & Calibration Information:
!Freq	S11:SOLT1(ON)
# Hz S RI R 50
50000.000	1.013427e+000	1.309885e-004
51995.000	1.004803e+000	-1.771530e-005
53990.000	1.003399e+000	4.805064e-004
55985.000	1.002635e+000	1.026353e-004
57980.000	1.001964e+000	3.429109e-004
59975.000	1.001947e+000	4.587949e-004
61970.000	1.001920e+000	-1.085028e-005
63965.000	1.001593e+000	1.323314e-004
65960.000	1.001460e+000	9.900374e-005
67955.000	1.002596e+000	-3.528565e-005
69950.000	1.002183e+000	1.204572e-004
71945.000	1.001991e+000	-4.573578e-004
73940.000	1.001992e+000	-3.412402e-004
75935.000	1.001656e+000	-1.504619e-004
77930.000	1.001929e+000	-1.320015e-004
79925.000	1.001392e+000	-4.049420e-004
81920.000	1.001142e+000	-3.902125e-004
83915.000	1.001684e+000	-3.094150e-004
85910.000	1.001571e+000	-4.316955e-004
87905.000	1.001558e+000	-2.639662e-004
89900.000	1.001831e+000	-5.000816e-004
91895.000	1.001505e+000	-4.513173e-004
93890.000	1.001553e+000	-4.793988e-004
95885.000	1.001600e+000	-7.322074e-004
97880.000	1.001455e+000	-6.038052e-004
99875.000	1.001915e+000	-7.135760e-004
101870.000	1.001702e+000	-5.477473e-004
103865.000	1.001718e+000	-4.824009e-004
105860.000	1.001850e+000	-7.445602e-004
107855.000	1.001770e+000	-6.087755e-004
109850.000	1.001518e+000	-5.755079e-004
111845.000	1.001472e+000	-6.953207e-004
113840.000	1.001907e+000	-8.922900e-004
115835.000	1.001579e+000	-7.176229e-004
117830.000	1.001463e+000	-8.184039e-004
119825.000	1.001545e+000	-1.091590e-003
121820.000	1.001673e+000	-7.585249e-004
123815.000	1.001434e+000	-7.142592e-004
125810.000	1.001595e+000	-8.740817e-004
127805.000	1.001582e+000	-7.537947e-004
129800.000	1.001700e+000	-1.019433e-003
131795.000	1.001492e+000	-9.442815e-004
133790.000	1.001920e+000	-9.022637e-004
135785.000	1.002132e+000	-1.149932e-003
137780.000	1.001924e+000	-1.281541e-003
139775.000	1.001728e+000	-1.101186e-003
141770.000	1.001681e+000	-1.003497e-003
143765.000	1.001749e+000	-1.178788e-003
145760.000	1.001457e+000	-1.113082e-003
147755.000	1.001700e+000	-1.077471e-003
149750.000	1.001729e+000	-1.121237e-003
151745.000	1.001400e+000	-1.217350e-003
153740.000	1.001274e+000	-1.139114e-003
155735.000	1.001231e+000	-1.149494e-003
157730.000	1.001479e+000	-1.054232e-003
159725.000	1.001406e+000	-8.905904e-004
161720.000	1.001564e+000	-1.083798e-003
163715.000	1.001493e+000	-9.725297e-004
165710.000	1.001486e+000	-1.248375e-003
167705.000	1.001546e+000	-1.184721e-003
169700.000	1.001603e+000	-1.076526e-003
171695.000	1.001646e+000	-1.013081e-003
173690.000	1.001478e+000	-1.095035e-003
175685.000	1.001507e+000	-9.968873e-004
177680.000	1.001507e+000	-7.375171e-004
179675.000	1.001350e+000	-1.048620e-003
181670.000	1.001624e+000	-1.030371e-003
183665.000	1.001462e+000	-1.032537e-003
185660.000	1.001367e+000	-1.282294e-003
187655.000	1.001421e+000	-1.178880e-003
189650.000	1.001314e+000	-1.032466e-003
191645.000	1.001330e+000	-9.056339e-004
193640.000	1.001198e+000	-1.193209e-003
195635.000	1.001421e+000	-1.022256e-003
197630.000	1.001231e+000	-9.836729e-004
199625.000	1.001554e+000	-1.077012e-003
201620.000	1.001861e+000	-1.270237e-003
203615.000	1.001520e+000	-1.194515e-003
205610.000	1.001600e+000	-1.371571e-003
207605.000	1.001673e+000	-1.166469e-003
209600.000	1.001429e+000	-1.053486e-003
211595.000	1.001444e+000	-1.200650e-003
213590.000	1.001596e+000	-1.061847e-003
215585.000	1.001530e+000	-1.073222e-003
217580.000	1.001614e+000	-1.225365e-003
219575.000	1.001537e+000	-1.101184e-003
221570.000	1.001467e+000	-1.351329e-003
223565.000	1.001274e+000	-1.081460e-003
225560.000	1.001238e+000	-1.235490e-003
227555.000	1.001381e+000	-1.094482e-003
229550.000	1.001212e+000	-8.982349e-004
231545.000	1.001341e+000	-9.535751e-004
233540.000	1.001433e+000	-9.865953e-004
235535.000	1.001344e+000	-1.157675e-003
237530.000	1.001257e+000	-1.286413e-003
239525.000	1.001118e+000	-1.203806e-003
241520.000	1.001244e+000	-1.109134e-003
243515.000	1.001339e+000	-1.158808e-003
245510.000	1.001366e+000	-9.743152e-004
247505.000	1.001359e+000	-1.357236e-003
249500.000	1.001142e+000	-1.090841e-003
251495.000	1.001248e+000	-1.193827e-003
253490.000	1.001156e+000	-1.193683e-003
255485.000	1.001258e+000	-1.153204e-003
257480.000	1.001175e+000	-1.013514e-003
259475.000	1.000977e+000	-9.872417e-004
261470.000	1.001191e+000	-1.183022e-003
263465.000	1.001165e+000	-1.335829e-003
265460.000	1.001481e+000	-1.208727e-003
267455.000	1.001410e+000	-1.244418e-003
269450.000	1.001430e+000	-1.017192e-003
271445.000	1.001442e+000	-1.094161e-003
273440.000	1.001356e+000	-1.143330e-003
275435.000	1.001436e+000	-1.252545e-003
277430.000	1.001466e+000	-1.214369e-003
279425.000	1.001461e+000	-1.147163e-003
281420.000	1.001288e+000	-1.195281e-003
283415.000	1.001472e+000	-1.238557e-003
285410.000	1.001337e+000	-1.183123e-003
287405.000	1.001230e+000	-1.091380e-003
289400.000	1.001327e+000	-1.242015e-003
291395.000	1.001250e+000	-1.237252e-003
293390.000	1.001290e+000	-1.258341e-003
295385.000	1.001259e+000	-1.203444e-003
297380.000	1.001489e+000	-1.182673e-003
299375.000	1.001242e+000	-1.308249e-003
301370.000	1.001168e+000	-1.318618e-003
303365.000	1.001128e+000	-1.135327e-003
305360.000	1.001108e+000	-1.327104e-003
307355.000	1.001360e+000	-1.231283e-003
309350.000	1.001401e+000	-1.198409e-003
311345.000	1.001385e+000	-1.196047e-003
313340.000	1.001213e+000	-1.271120e-003
315335.000	1.001242e+000	-1.166401e-003
317330.000	1.001081e+000	-1.297639e-003
319325.000	1.001356e+000	-1.122343e-003
321320.000	1.001343e+000	-1.309487e-003
323315.000	1.001191e+000	-1.233082e-003
325310.000	1.000992e+000	-1.173794e-003
327305.000	1.001261e+000	-1.009127e-003
329300.000	1.001252e+000	-1.161254e-003
331295.000	1.001154e+000	-1.202875e-003
333290.000	1.001211e+000	-1.275739e-003
335285.000	1.001076e+000	-1.239704e-003
337280.000	1.001150e+000	-1.175912e-003
339275.000	1.001051e+000	-1.244886e-003
341270.000	1.001041e+000	-1.070535e-003
343265.000	1.000996e+000	-1.339512e-003
345260.000	1.001026e+000	-1.392024e-003
347255.000	1.001214e+000	-1.290609e-003
349250.000	1.001131e+000	-1.264850e-003
351245.000	1.000976e+000	-1.190638e-003
353240.000	1.001235e+000	-1.281700e-003
355235.000	1.001244e+000	-1.233105e-003
357230.000	1.000878e+000	-1.200968e-003
359225.000	1.001126e+000	-1.296047e-003
361220.000	1.001285e+000	-1.273478e-003
363215.000	1.001105e+000	-1.305646e-003
365210.000	1.001155e+000	-1.354598e-003
367205.000	1.001036e+000	-1.141298e-003
369200.000	1.001207e+000	-1.217582e-003
371195.000	1.001274e+000	-1.338769e-003
373190.000	1.001224e+000	-1.340234e-003
375185.000	1.001125e+000	-1.104519e-003
377180.000	1.001203e+000	-1.303737e-003
379175.000	1.001236e+000	-1.379007e-003
381170.000	1.001053e+000	-1.372044e-003
383165.000	1.001077e+000	-1.127294e-003
385160.000	1.001193e+000	-1.345975e-003
387155.000	1.001142e+000	-1.130104e-003
389150.000	1.001264e+000	-1.428482e-003
391145.000	1.001293e+000	-1.329991e-003
393140.000	1.001131e+000	-1.446080e-003
395135.000	1.001033e+000	-1.516023e-003
397130.000	1.001292e+000	-1.402332e-003
399125.000	1.001201e+000	-1.368126e-003
401120.000	1.001537e+000	-1.438940e-003
403115.000	1.001455e+000	-1.320955e-003
405110.000	1.001419e+000	-1.403046e-003
407105.000	1.001478e+000	-1.499163e-003
409100.000	1.001258e+000	-1.478066e-003
411095.000	1.001487e+000	-1.420569e-003
413090.000	1.001287e+000	-1.363076e-003
415085.000	1.001254e+000	-1.418552e-003
417080.000	1.001386e+000	-1.478346e-003
419075.000	1.001097e+000	-1.519005e-003
421070.000	1.001274e+000	-1.476147e-003
423065.000	1.001175e+000	-1.513270e-003
425060.000	1.001205e+000	-1.531243e-003
427055.000	1.001240e+000	-1.410884e-003
429050.000	1.001145e+000	-1.468647e-003
431045.000	1.001256e+000	-1.553797e-003
433040.000	1.001082e+000	-1.586867e-003
435035.000	1.001242e+000	-1.423262e-003
437030.000	1.001087e+000	-1.432049e-003
439025.000	1.001021e+000	-1.567618e-003
441020.000	1.001204e+000	-1.326204e-003
443015.000	1.001227e+000	-1.499634e-003
445010.000	1.001207e+000	-1.594260e-003
447005.000	1.001221e+000	-1.473175e-003
449000.000	1.001396e+000	-1.401348e-003
450995.000	1.001094e+000	-1.561569e-003
452990.000	1.001264e+000	-1.439549e-003
454985.000	1.001029e+000	-1.408641e-003
456980.000	1.001099e+000	-1.550748e-003
458975.000	1.001164e+000	-1.590939e-003
460970.000	1.001308e+000	-1.612307e-003
462965.000	1.001301e+000	-1.443486e-003
464960.000	1.001064e+000	-1.593473e-003
466955.000	1.001007e+000	-1.509690e-003
468950.000	1.001222e+000	-1.640015e-003
470945.000	1.001232e+000	-1.320826e-003
472940.000	1.001332e+000	-1.652922e-003
474935.000	1.001188e+000	-1.490700e-003
476930.000	1.001201e+000	-1.659897e-003
478925.000	1.001076e+000	-1.635675e-003
480920.000	1.001098e+000	-1.497543e-003
482915.000	1.001226e+000	-1.548829e-003
484910.000	1.001076e+000	-1.818219e-003
486905.000	1.001086e+000	-1.558332e-003
488900.000	1.000956e+000	-1.672880e-003
490895.000	1.001298e+000	-1.647327e-003
492890.000	1.001171e+000	-1.508520e-003
494885.000	1.001059e+000	-1.521560e-003
496880.000	1.001158e+000	-1.607635e-003
498875.000	1.001050e+000	-1.601214e-003
500870.000	1.001264e+000	-1.593337e-003
502865.000	1.001180e+000	-1.775510e-003
504860.000	1.001094e+000	-1.857419e-003
506855.000	1.001011e+000	-1.607467e-003
508850.000	1.001127e+000	-1.742198e-003
510845.000	1.001139e+000	-1.766110e-003
512840.000	1.001108e+000	-1.589496e-003
514835.000	1.001137e+000	-1.575161e-003
516830.000	1.001013e+000	-1.721739e-003
518825.000	1.001257e+000	-1.607012e-003
520820.000	1.001045e+000	-1.652531e-003
522815.000	1.001101e+000	-1.519399e-003
524810.000	1.001098e+000	-1.674260e-003
526805.000	1.001306e+000	-1.539611e-003
528800.000	1.001049e+000	-1.706737e-003
530795.000	1.001604e+000	-1.688534e-003
532790.000	1.001423e+000	-1.656312e-003
534785.000	1.001494e+000	-1.743462e-003
536780.000	1.001464e+000	-1.843309e-003
538775.000	1.001389e+000	-1.818074e-003
540770.000	1.001224e+000	-1.826614e-003
542765.000	1.001304e+000	-1.637679e-003
544760.000	1.001325e+000	-1.716724e-003
546755.000	1.001361e+000	-1.792381e-003
548750.000	1.001334e+000	-1.904297e-003
550745.000	1.001195e+000	-1.778578e-003
552740.000	1.001111e+000	-1.865484e-003
554735.000	1.001285e+000	-1.709714e-003
556730.000	1.000954e+000	-1.837841e-003
558725.000	1.001190e+000	-1.849705e-003
560720.000	1.001195e+000	-1.766187e-003
562715.000	1.001173e+000	-1.931697e-003
564710.000	1.001153e+000	-1.853469e-003
566705.000	1.001099e+000	-1.551954e-003
568700.000	1.001248e+000	-1.825601e-003
570695.000	1.001279e+000	-1.908170e-003
572690.000	1.001205e+000	-1.805116e-003
574685.000	1.001194e+000	-1.956120e-003
576680.000	1.001075e+000	-1.800994e-003
578675.000	1.001119e+000	-1.834406e-003
580670.000	1.001227e+000	-1.976748e-003
582665.000	1.001152e+000	-1.810326e-003
584660.000	1.001119e+000	-1.798162e-003
586655.000	1.000878e+000	-1.798854e-003
588650.000	1.001285e+000	-1.991038e-003
590645.000	1.001310e+000	-1.882937e-003
592640.000	1.001134e+000	-1.783895e-003
594635.000	1.001078e+000	-1.996307e-003
596630.000	1.000975e+000	-1.814958e-003
598625.000	1.001113e+000	-1.774529e-003
600620.000	1.001090e+000	-2.076119e-003
602615.000	1.001161e+000	-1.857235e-003
604610.000	1.001225e+000	-1.943817e-003
606605.000	1.001138e+000	-1.869529e-003
608600.000	1.001074e+000	-2.049960e-003
610595.000	1.001174e+000	-1.861345e-003
612590.000	1.001258e+000	-2.029447e-003
614585.000	1.001134e+000	-2.126210e-003
616580.000	1.001157e+000	-2.072779e-003
618575.000	1.001205e+000	-1.967942e-003
620570.000	1.001199e+000	-2.061948e-003
622565.000	1.001099e+000	-2.096908e-003
624560.000	1.001058e+000	-2.106405e-003
626555.000	1.001040e+000	-1.993986e-003
628550.000	1.001236e+000	-1.961706e-003
630545.000	1.001195e+000	-2.021709e-003
632540.000	1.001145e+000	-1.932081e-003
634535.000	1.001253e+000	-2.106622e-003
636530.000	1.001136e+000	-2.157427e-003
638525.000	1.000994e+000	-2.020847e-003
640520.000	1.001625e+000	-1.948063e-003
642515.000	1.001420e+000	-2.025718e-003
644510.000	1.001538e+000	-2.064691e-003
646505.000	1.001254e+000	-2.100269e-003
648500.000	1.001511e+000	-2.213831e-003
650495.000	1.001177e+000	-1.919407e-003
652490.000	1.001471e+000	-2.089827e-003
654485.000	1.001366e+000	-2.173875e-003
656480.000	1.001189e+000	-1.971206e-003
658475.000	1.001236e+000	-2.263661e-003
660470.000	1.001088e+000	-2.145761e-003
662465.000	1.001067e+000	-1.967468e-003
664460.000	1.001251e+000	-2.047605e-003
666455.000	1.001048e+000	-2.186460e-003
668450.000	1.001192e+000	-2.066446e-003
670445.000	1.001184e+000	-2.191515e-003
672440.000	1.001275e+000	-2.201986e-003
674435.000	1.001238e+000	-2.263106e-003
676430.000	1.001158e+000	-2.161028e-003
678425.000	1.001115e+000	-2.090786e-003
680420.000	1.001101e+000	-2.187862e-003
682415.000	1.001077e+000	-2.094353e-003
684410.000	1.001137e+000	-2.178013e-003
686405.000	1.001115e+000	-2.102236e-003
688400.000	1.001096e+000	-2.269449e-003
690395.000	1.001217e+000	-2.150486e-003
692390.000	1.001263e+000	-2.059220e-003
694385.000	1.001352e+000	-2.197853e-003
696380.000	1.001255e+000	-2.205516e-003
698375.000	1.001111e+000	-2.339383e-003
700370.000	1.001139e+000	-2.185316e-003
702365.000	1.001229e+000	-2.240268e-003
704360.000	1.001168e+000	-2.284970e-003
706355.000	1.001157e+000	-2.299028e-003
708350.000	1.001129e+000	-2.200839e-003
710345.000	1.001137e+000	-2.208680e-003
712340.000	1.001333e+000	-2.449532e-003
714335.000	1.001190e+000	-2.262793e-003
716330.000	1.001218e+000	-2.333040e-003
718325.000	1.000971e+000	-2.167296e-003
720320.000	1.000998e+000	-2.149225e-003
722315.000	1.001162e+000	-2.261334e-003
724310.000	1.001100e+000	-2.356528e-003
726305.000	1.001132e+000	-2.364500e-003
728300.000	1.001051e+000	-2.525481e-003
730295.000	1.001115e+000	-2.365466e-003
732290.000	1.001088e+000	-2.205666e-003
734285.000	1.001014e+000	-2.334013e-003
736280.000	1.001284e+000	-2.299109e-003
738275.000	1.001196e+000	-2.354179e-003
740270.000	1.001083e+000	-2.422652e-003
742265.000	1.001097e+000	-2.488972e-003
744260.000	1.000976e+000	-2.335835e-003
746255.000	1.001160e+000	-2.349205e-003
748250.000	1.001123e+000	-2.514374e-003
750245.000	1.001300e+000	-2.375500e-003
752240.000	1.001601e+000	-2.421354e-003
754235.000	1.001379e+000	-2.266995e-003
756230.000	1.001377e+000	-2.311698e-003
758225.000	1.001308e+000	-2.429332e-003
760220.000	1.001357e+000	-2.531885e-003
762215.000	1.001306e+000	-2.427986e-003
764210.000	1.001216e+000	-2.487275e-003
766205.000	1.001228e+000	-2.526825e-003
768200.000	1.001208e+000	-2.377408e-003
770195.000	1.001261e+000	-2.498247e-003
772190.000	1.001101e+000	-2.379224e-003
774185.000	1.001128e+000	-2.377415e-003
776180.000	1.001312e+000	-2.541988e-003
778175.000	1.001207e+000	-2.428409e-003
780170.000	1.001074e+000	-2.427407e-003
782165.000	1.001262e+000	-2.518535e-003
784160.000	1.001219e+000	-2.349050e-003
786155.000	1.001070e+000	-2.456667e-003
788150.000	1.001157e+000	-2.398417e-003
790145.000	1.001062e+000	-2.615782e-003
792140.000	1.001042e+000	-2.389363e-003
794135.000	1.001044e+000	-2.576574e-003
796130.000	1.001066e+000	-2.458036e-003
798125.000	1.001128e+000	-2.451839e-003
800120.000	1.001070e+000	-2.586292e-003
802115.000	1.001207e+000	-2.675177e-003
804110.000	1.001174e+000	-2.597755e-003
806105.000	1.001052e+000	-2.586633e-003
808100.000	1.001131e+000	-2.549322e-003
810095.000	1.001143e+000	-2.638783e-003
812090.000	1.001092e+000	-2.664226e-003
814085.000	1.001060e+000	-2.656874e-003
816080.000	1.001073e+000	-2.476339e-003
818075.000	1.001233e+000	-2.690511e-003
820070.000	1.000899e+000	-2.635263e-003
822065.000	1.001165e+000	-2.578198e-003
824060.000	1.001016e+000	-2.702971e-003
826055.000	1.001024e+000	-2.627160e-003
828050.000	1.001085e+000	-2.763730e-003
830045.000	1.001162e+000	-2.735116e-003
832040.000	1.001144e+000	-2.484417e-003
834035.000	1.001070e+000	-2.536960e-003
836030.000	1.001143e+000	-2.611053e-003
838025.000	1.000993e+000	-2.718892e-003
840020.000	1.001224e+000	-2.682923e-003
842015.000	1.001162e+000	-2.752693e-003
844010.000	1.001059e+000	-2.622583e-003
846005.000	1.001087e+000	-2.752392e-003
848000.000	1.000985e+000	-2.647514e-003
849995.000	1.001193e+000	-2.712889e-003
851990.000	1.001476e+000	-2.656621e-003
853985.000	1.001510e+000	-2.584451e-003
855980.000	1.001450e+000	-2.720275e-003
857975.000	1.001176e+000	-2.854900e-003
859970.000	1.001252e+000	-2.758232e-003
861965.000	1.001276e+000	-2.660346e-003
863960.000	1.001188e+000	-2.743228e-003
865955.000	1.001291e+000	-2.741662e-003
867950.000	1.001311e+000	-2.864452e-003
869945.000	1.001131e+000	-2.801520e-003
871940.000	1.001128e+000	-2.684381e-003
873935.000	1.001106e+000	-2.787421e-003
875930.000	1.001168e+000	-2.901598e-003
877925.000	1.000995e+000	-2.849132e-003
879920.000	1.000916e+000	-2.771528e-003
881915.000	1.001188e+000	-2.802266e-003
883910.000	1.001023e+000	-2.900335e-003
885905.000	1.001159e+000	-2.839659e-003
887900.000	1.001209e+000	-2.903494e-003
889895.000	1.001008e+000	-2.904078e-003
891890.000	1.001139e+000	-2.785107e-003
893885.000	1.001119e+000	-2.991415e-003
895880.000	1.001171e+000	-2.704430e-003
897875.000	1.001172e+000	-2.762840e-003
899870.000	1.001108e+000	-2.900792e-003
901865.000	1.001156e+000	-2.804250e-003
903860.000	1.001243e+000	-2.770917e-003
905855.000	1.001075e+000	-2.777552e-003
907850.000	1.001212e+000	-2.890584e-003
909845.000	1.000999e+000	-2.945935e-003
911840.000	1.001046e+000	-2.942748e-003
913835.000	1.001124e+000	-2.890782e-003
915830.000	1.001130e+000	-2.886214e-003
917825.000	1.001026e+000	-2.780627e-003
919820.000	1.001024e+000	-2.936740e-003
921815.000	1.001182e+000	-2.981412e-003
923810.000	1.001173e+000	-2.929939e-003
925805.000	1.001110e+000	-3.017840e-003
927800.000	1.001180e+000	-2.925604e-003
929795.000	1.001059e+000	-2.801727e-003
931790.000	1.001179e+000	-2.876207e-003
933785.000	1.001087e+000	-3.015945e-003
935780.000	1.001121e+000	-3.012317e-003
937775.000	1.001083e+000	-3.033307e-003
939770.000	1.001088e+000	-3.014417e-003
941765.000	1.001465e+000	-2.882128e-003
943760.000	1.001359e+000	-2.982644e-003
945755.000	1.001427e+000	-2.907228e-003
947750.000	1.001556e+000	-2.826898e-003
949745.000	1.001369e+000	-2.811380e-003
951740.000	1.001172e+000	-2.848407e-003
953735.000	1.001333e+000	-3.049112e-003
955730.000	1.001209e+000	-3.134371e-003
957725.000	1.001233e+000	-2.949332e-003
959720.000	1.001315e+000	-3.088283e-003
961715.000	1.001115e+000	-3.050301e-003
963710.000	1.001225e+000	-3.031215e-003
965705.000	1.001158e+000	-3.248985e-003
967700.000	1.001211e+000	-3.112753e-003
969695.000	1.001093e+000	-3.021945e-003
971690.000	1.001235e+000	-3.161344e-003
973685.000	1.001068e+000	-3.003285e-003
975680.000	1.001050e+000	-3.190134e-003
977675.000	1.001094e+000	-3.175732e-003
979670.000	1.001187e+000	-3.165501e-003
981665.000	1.001077e+000	-3.119470e-003
983660.000	1.001240e+000	-3.268501e-003
985655.000	1.001080e+000	-3.290616e-003
987650.000	1.000934e+000	-3.200176e-003
989645.000	1.001071e+000	-3.200693e-003
991640.000	1.001034e+000	-3.027738e-003
993635.000	1.001112e+000	-3.036674e-003
995630.000	1.001222e+000	-3.277018e-003
997625.000	1.001106e+000	-3.199939e-003
999620.000	1.001113e+000	-3.288388e-003
1001615.000	1.001142e+000	-3.300919e-003
1003610.000	1.001117e+000	-3.198807e-003
1005605.000	1.001169e+000	-3.260358e-003
1007600.000	1.001111e+000	-3.319769e-003
1009595.000	1.001180e+000	-3.265459e-003
1011590.000	1.001070e+000	-3.305680e-003
1013585.000	1.001010e+000	-3.355510e-003
1015580.000	1.001140e+000	-3.297514e-003
1017575.000	1.001207e+000	-3.355741e-003
1019570.000	1.001150e+000	-3.319886e-003
1021565.000	1.001043e+000	-3.374976e-003
1023560.000	1.000988e+000	-3.330730e-003
1025555.000	1.001201e+000	-3.230014e-003
1027550.000	1.001086e+000	-3.360335e-003
1029545.000	1.001173e+000	-3.350439e-003
1031540.000	1.001552e+000	-3.360349e-003
1033535.000	1.001374e+000	-3.338162e-003
1035530.000	1.001468e+000	-3.370774e-003
1037525.000	1.001207e+000	-3.174488e-003
