Time (s),V_PRI,V_SEC,V_IN,V_OUT
0.0,243.50010752000003,95.62503935999996,25.19387497216,49.86024999872
5e-10,227.87510655999995,95.62503935999996,25.16262497024,49.86962499776
1e-09,227.87510655999995,95.62503935999996,25.1782499712,49.87587499712
1.5000000000000002e-09,227.87510655999995,126.87504128,25.19387497216,49.87587499712
2e-09,243.50010752000003,95.62503935999996,25.1782499712,49.86962499776
2.5e-09,259.1251084799999,111.25004031999993,25.14699996928,49.850874999679995
3.0000000000000004e-09,227.87510655999995,95.62503935999996,25.14699996928,49.83837500096
3.5000000000000003e-09,243.50010752000003,111.25004031999993,25.11574996736,49.8165000032
4e-09,243.50010752000003,111.25004031999993,25.1001249664,49.7852500064
4.500000000000001e-09,243.50010752000003,111.25004031999993,25.08449996544,49.76025000896
5e-09,227.87510655999995,111.25004031999993,25.1001249664,49.74462501056
5.5000000000000004e-09,259.1251084799999,126.87504128,25.08449996544,49.73212501184
6.000000000000001e-09,227.87510655999995,111.25004031999993,25.1001249664,49.72900001216
6.5e-09,243.50010752000003,126.87504128,25.1001249664,49.74462501056
7.000000000000001e-09,243.50010752000003,142.50004223999997,25.08449996544,49.76025000896
7.500000000000001e-09,259.1251084799999,142.50004223999997,25.1001249664,49.78212500672
8e-09,243.50010752000003,142.50004223999997,25.1001249664,49.80712500416
8.5e-09,243.50010752000003,142.50004223999997,25.05324996352,49.82587500224
9.000000000000001e-09,227.87510655999995,142.50004223999997,25.0219999616,49.83837500096
9.5e-09,259.1251084799999,173.75004416000002,24.99074995968,49.84775
1e-08,259.1251084799999,158.12504319999994,24.99074995968,49.857124999039996
1.0500000000000001e-08,274.75010943999996,158.12504319999994,24.97512495872,49.84462500032
1.1000000000000001e-08,243.50010752000003,158.12504319999994,24.99074995968,49.84462500032
1.15e-08,259.1251084799999,173.75004416000002,25.00637496064,49.84462500032
1.2000000000000002e-08,274.75010943999996,173.75004416000002,25.03762496256,49.835250001279995
1.2500000000000001e-08,259.1251084799999,189.37504511999998,25.06887496448,49.82587500224
1.3e-08,259.1251084799999,189.37504511999998,25.1001249664,49.819625002879995
1.35e-08,259.1251084799999,189.37504511999998,25.11574996736,49.81337500352
1.4000000000000001e-08,243.50010752000003,189.37504511999998,25.13137496832,49.80712500416
1.45e-08,243.50010752000003,205.00004607999995,25.14699996928,49.81337500352
1.5000000000000002e-08,259.1251084799999,205.00004607999995,25.1001249664,49.8165000032
1.55e-08,259.1251084799999,220.62504704000003,25.06887496448,49.82587500224
1.6e-08,259.1251084799999,205.00004607999995,25.03762496256,49.841500000639996
1.6500000000000002e-08,243.50010752000003,236.250048,24.97512495872,49.84775
1.7e-08,227.87510655999995,220.62504704000003,24.95949995776,49.86024999872
1.75e-08,243.50010752000003,251.87504895999996,24.9438749568,49.86024999872
1.8000000000000002e-08,243.50010752000003,220.62504704000003,24.92824995584,49.872749997439996
1.85e-08,243.50010752000003,220.62504704000003,24.9438749568,49.872749997439996
1.9e-08,227.87510655999995,220.62504704000003,24.91262495488,49.86962499776
1.9500000000000003e-08,243.50010752000003,236.250048,24.9438749568,49.850874999679995
2e-08,243.50010752000003,251.87504895999996,24.95949995776,49.8321250016
2.05e-08,212.25010559999987,251.87504895999996,24.95949995776,49.81337500352
2.1000000000000003e-08,212.25010559999987,251.87504895999996,24.99074995968,49.804000004479995
2.15e-08,227.87510655999995,267.5000499199999,24.95949995776,49.79462500544
2.2000000000000002e-08,212.25010559999987,251.87504895999996,24.9438749568,49.78212500672
2.2500000000000003e-08,227.87510655999995,251.87504895999996,24.9438749568,49.772750007679996
2.3e-08,212.25010559999987,251.87504895999996,24.92824995584,49.76337500864
2.3500000000000002e-08,212.25010559999987,251.87504895999996,24.9438749568,49.77587500736
2.4000000000000003e-08,212.25010559999987,251.87504895999996,24.9438749568,49.80712500416
2.45e-08,196.62510464000002,283.12505088,24.9438749568,49.841500000639996
2.5000000000000002e-08,196.62510464000002,251.87504895999996,24.95949995776,49.87587499712
2.55e-08,196.62510464000002,283.12505088,24.99074995968,49.897749994879995
2.6e-08,181.00010367999994,251.87504895999996,25.00637496064,49.9102499936
2.6500000000000002e-08,212.25010559999987,251.87504895999996,25.00637496064,49.90712499392
2.7e-08,181.00010367999994,236.250048,24.99074995968,49.897749994879995
2.75e-08,181.00010367999994,267.5000499199999,24.99074995968,49.872749997439996
2.8000000000000003e-08,181.00010367999994,267.5000499199999,24.99074995968,49.835250001279995
2.85e-08,181.00010367999994,267.5000499199999,24.97512495872,49.804000004479995
2.9e-08,165.37510271999986,251.87504895999996,25.00637496064,49.7852500064
2.9500000000000003e-08,165.37510271999986,267.5000499199999,24.97512495872,49.77900000704
3.0000000000000004e-08,165.37510271999986,251.87504895999996,25.00637496064,49.78212500672
3.05e-08,149.75010176,267.5000499199999,24.99074995968,49.79462500544
3.1e-08,149.75010176,267.5000499199999,24.99074995968,49.82275000256
3.1500000000000004e-08,165.37510271999986,267.5000499199999,25.00637496064,49.850874999679995
3.2e-08,149.75010176,267.5000499199999,25.00637496064,49.8946249952
3.25e-08,149.75010176,283.12505088,24.97512495872,49.919624992639996
3.3000000000000004e-08,134.12510079999993,267.5000499199999,24.99074995968,49.93212499136
3.35e-08,149.75010176,283.12505088,24.99074995968,49.928999991679994
3.4e-08,149.75010176,267.5000499199999,24.97512495872,49.919624992639996
3.4500000000000005e-08,149.75010176,267.5000499199999,24.99074995968,49.8946249952
3.5e-08,118.50009983999985,236.250048,24.99074995968,49.86962499776
3.55e-08,118.50009983999985,251.87504895999996,25.0219999616,49.84775
3.6000000000000005e-08,118.50009983999985,267.5000499199999,25.1001249664,49.82587500224
3.65e-08,118.50009983999985,251.87504895999996,25.13137496832,49.819625002879995
3.7e-08,87.25009791999992,251.87504895999996,25.20949997312,49.8321250016
3.7500000000000005e-08,102.87509888,236.250048,25.20949997312,49.85399999936
3.8e-08,87.25009791999992,236.250048,25.20949997312,49.8789999968
3.85e-08,87.25009791999992,236.250048,25.19387497216,49.919624992639996
3.9000000000000005e-08,87.25009791999992,236.250048,25.14699996928,49.95399998912
3.95e-08,102.87509888,220.62504704000003,25.11574996736,49.97899998656
4e-08,71.62509695999984,220.62504704000003,25.08449996544,49.9883749856
4.0500000000000005e-08,56.000095999999985,220.62504704000003,25.05324996352,49.96962498752
4.1e-08,56.000095999999985,189.37504511999998,25.06887496448,49.928999991679994
4.15e-08,56.000095999999985,220.62504704000003,25.08449996544,49.8946249952
4.2000000000000006e-08,56.000095999999985,189.37504511999998,25.11574996736,49.857124999039996
4.2500000000000003e-08,56.000095999999985,173.75004416000002,25.13137496832,49.8165000032
4.3e-08,24.750094080000054,158.12504319999994,25.14699996928,49.78212500672
4.3500000000000006e-08,40.375095039999906,173.75004416000002,25.1782499712,49.76025000896
4.4000000000000004e-08,40.375095039999906,189.37504511999998,25.1782499712,49.7540000096
4.45e-08,9.125093119999974,158.12504319999994,25.13137496832,49.76025000896
4.5000000000000006e-08,9.125093119999974,158.12504319999994,25.11574996736,49.772750007679996
4.5500000000000004e-08,24.750094080000054,173.75004416000002,25.03762496256,49.788375006079995
4.6e-08,9.125093119999974,158.12504319999994,25.0219999616,49.79150000576
4.6500000000000006e-08,9.125093119999974,158.12504319999994,24.99074995968,49.81025000384
4.7000000000000004e-08,9.125093119999974,158.12504319999994,25.00637496064,49.82587500224
4.75e-08,9.125093119999974,158.12504319999994,25.06887496448,49.835250001279995
4.8000000000000006e-08,-6.499907840000105,158.12504319999994,25.14699996928,49.84775
4.8500000000000004e-08,-6.499907840000105,173.75004416000002,25.1782499712,49.83837500096
4.9e-08,-37.74990976000004,158.12504319999994,25.256374976,49.82900000192
4.95e-08,-6.499907840000105,173.75004416000002,25.27199997696,49.82900000192
5.0000000000000004e-08,-22.124908799999957,142.50004223999997,25.27199997696,49.8321250016
5.05e-08,-6.499907840000105,126.87504128,25.22512497408,49.82275000256
5.1e-08,-37.74990976000004,142.50004223999997,25.16262497024,49.8165000032
5.1500000000000005e-08,-22.124908799999957,158.12504319999994,25.1001249664,49.80712500416
5.2e-08,-22.124908799999957,142.50004223999997,25.03762496256,49.804000004479995
5.25e-08,-37.74990976000004,142.50004223999997,24.99074995968,49.8008750048
5.3000000000000005e-08,-53.374910720000116,158.12504319999994,24.99074995968,49.804000004479995
5.35e-08,-53.374910720000116,126.87504128,25.0219999616,49.804000004479995
5.4e-08,-53.374910720000116,126.87504128,25.05324996352,49.81025000384
5.4500000000000005e-08,-68.99991167999997,126.87504128,25.11574996736,49.82900000192
5.5e-08,-68.99991167999997,142.50004223999997,25.13137496832,49.850874999679995
5.55e-08,-68.99991167999997,126.87504128,25.20949997312,49.872749997439996
5.6000000000000005e-08,-68.99991167999997,126.87504128,25.20949997312,49.90087499456
5.65e-08,-84.62491264000005,126.87504128,25.16262497024,49.9102499936
5.7e-08,-100.24991360000013,111.25004031999993,25.13137496832,49.925874992
5.7500000000000005e-08,-84.62491264000005,126.87504128,25.05324996352,49.9414999904
5.8e-08,-100.24991360000013,95.62503935999996,24.97512495872,49.94462499008
5.85e-08,-84.62491264000005,80.0000384,24.91262495488,49.93212499136
5.9000000000000006e-08,-100.24991360000013,80.0000384,24.881374952959998,49.913374993279994
5.9500000000000003e-08,-100.24991360000013,95.62503935999996,24.91262495488,49.888374995839996
6.000000000000001e-08,-100.24991360000013,80.0000384,24.92824995584,49.857124999039996
6.05e-08,-115.87491455999998,80.0000384,24.99074995968,49.8321250016
6.1e-08,-147.12491648000014,80.0000384,25.06887496448,49.8008750048
6.15e-08,-131.49991552000006,48.75003647999995,25.1001249664,49.772750007679996
6.2e-08,-131.49991552000006,64.37503744000003,25.14699996928,49.74775001024
6.250000000000001e-08,-147.12491648000014,64.37503744000003,25.16262497024,49.74462501056
6.300000000000001e-08,-147.12491648000014,64.37503744000003,25.11574996736,49.7540000096
6.35e-08,-131.49991552000006,48.75003647999995,25.11574996736,49.77587500736
6.4e-08,-147.12491648000014,48.75003647999995,25.08449996544,49.8008750048
6.45e-08,-147.12491648000014,48.75003647999995,25.00637496064,49.82587500224
6.5e-08,-162.74991744,33.12503551999998,24.99074995968,49.850874999679995
6.55e-08,-162.74991744,48.75003647999995,24.97512495872,49.866499998079995
6.600000000000001e-08,-162.74991744,33.12503551999998,25.00637496064,49.88524999616
6.65e-08,-147.12491648000014,1.875033599999938,25.0219999616,49.8789999968
6.7e-08,-162.74991744,1.875033599999938,25.05324996352,49.87587499712
6.75e-08,-162.74991744,17.500034560000017,25.08449996544,49.86024999872
6.8e-08,-162.74991744,17.500034560000017,25.1001249664,49.850874999679995
6.85e-08,-162.74991744,1.875033599999938,25.08449996544,49.82900000192
6.900000000000001e-08,-193.99991936000015,17.500034560000017,25.06887496448,49.80712500416
6.950000000000001e-08,-178.37491840000007,17.500034560000017,25.0219999616,49.79462500544
7e-08,-178.37491840000007,-13.749967360000028,25.00637496064,49.788375006079995
7.05e-08,-193.99991936000015,-13.749967360000028,24.99074995968,49.79150000576
7.1e-08,-178.37491840000007,1.875033599999938,24.95949995776,49.8008750048
7.15e-08,-178.37491840000007,-13.749967360000028,25.0219999616,49.81025000384
7.200000000000001e-08,-193.99991936000015,-13.749967360000028,25.05324996352,49.8321250016
7.250000000000001e-08,-209.62492032,-13.749967360000028,25.06887496448,49.84462500032
7.3e-08,-193.99991936000015,-29.374968319999994,25.13137496832,49.872749997439996
7.35e-08,-209.62492032,1.875033599999938,25.14699996928,49.8946249952
7.4e-08,-209.62492032,-29.374968319999994,25.1782499712,49.919624992639996
7.45e-08,-193.99991936000015,-44.999969280000016,25.1782499712,49.925874992
7.500000000000001e-08,-209.62492032,-60.62497024000004,25.16262497024,49.928999991679994
7.550000000000001e-08,-225.24992128000008,-44.999969280000016,25.13137496832,49.92274999232
7.6e-08,-209.62492032,-60.62497024000004,25.1001249664,49.903999994239996
7.65e-08,-225.24992128000008,-60.62497024000004,25.06887496448,49.8789999968
7.7e-08,-225.24992128000008,-76.2499712,25.08449996544,49.84775
7.75e-08,-225.24992128000008,-76.2499712,25.05324996352,49.819625002879995
7.800000000000001e-08,-225.24992128000008,-91.87497216000003,25.06887496448,49.79150000576
7.850000000000001e-08,-225.24992128000008,-91.87497216000003,25.08449996544,49.77900000704
7.9e-08,-225.24992128000008,-91.87497216000003,25.11574996736,49.76337500864
7.95e-08,-225.24992128000008,-91.87497216000003,25.1782499712,49.7540000096
8e-08,-225.24992128000008,-107.49997311999999,25.20949997312,49.757125009279996
8.05e-08,-225.24992128000008,-107.49997311999999,25.19387497216,49.76337500864
8.100000000000001e-08,-240.87492223999993,-123.12497408000002,25.20949997312,49.78212500672
8.150000000000001e-08,-240.87492223999993,-123.12497408000002,25.1782499712,49.8008750048
8.2e-08,-225.24992128000008,-138.74997504000004,25.19387497216,49.82275000256
8.25e-08,-225.24992128000008,-138.74997504000004,25.1782499712,49.82900000192
8.3e-08,-240.87492223999993,-154.374976,25.1782499712,49.83837500096
8.35e-08,-240.87492223999993,-154.374976,25.1782499712,49.841500000639996
8.400000000000001e-08,-240.87492223999993,-154.374976,25.16262497024,49.841500000639996
8.450000000000001e-08,-256.4999232,-154.374976,25.16262497024,49.83837500096
8.500000000000001e-08,-272.1249241600001,-169.99997696000003,25.16262497024,49.82587500224
8.55e-08,-256.4999232,-169.99997696000003,25.16262497024,49.81025000384
8.6e-08,-256.4999232,-169.99997696000003,25.1782499712,49.79462500544
8.65e-08,-272.1249241600001,-169.99997696000003,25.19387497216,49.79150000576
8.700000000000001e-08,-272.1249241600001,-154.374976,25.1782499712,49.7852500064
8.750000000000001e-08,-256.4999232,-185.62497792,25.20949997312,49.788375006079995
8.800000000000001e-08,-256.4999232,-169.99997696000003,25.20949997312,49.79775000512
8.85e-08,-272.1249241600001,-169.99997696000003,25.19387497216,49.8008750048
8.9e-08,-287.74992511999994,-201.24997888000001,25.20949997312,49.80712500416
8.95e-08,-272.1249241600001,-169.99997696000003,25.1782499712,49.81337500352
9.000000000000001e-08,-287.74992511999994,-201.24997888000001,25.16262497024,49.82587500224
9.050000000000001e-08,-256.4999232,-216.87497984000004,25.13137496832,49.8321250016
9.100000000000001e-08,-287.74992511999994,-216.87497984000004,25.13137496832,49.850874999679995
9.15e-08,-272.1249241600001,-201.24997888000001,25.13137496832,49.8633749984
9.2e-08,-287.74992511999994,-216.87497984000004,25.14699996928,49.866499998079995
9.25e-08,-272.1249241600001,-216.87497984000004,25.11574996736,49.866499998079995
9.300000000000001e-08,-303.37492608,-216.87497984000004,25.13137496832,49.872749997439996
9.350000000000001e-08,-272.1249241600001,-216.87497984000004,25.1001249664,49.8789999968
9.400000000000001e-08,-287.74992511999994,-232.4999808,25.11574996736,49.872749997439996
9.45e-08,-303.37492608,-232.4999808,25.13137496832,49.8633749984
9.5e-08,-272.1249241600001,-232.4999808,25.11574996736,49.841500000639996
9.55e-08,-272.1249241600001,-232.4999808,25.14699996928,49.81337500352
9.600000000000001e-08,-287.74992511999994,-232.4999808,25.13137496832,49.79462500544
9.650000000000001e-08,-287.74992511999994,-248.12498176000003,25.11574996736,49.77587500736
9.700000000000001e-08,-287.74992511999994,-263.74998272,25.13137496832,49.757125009279996
9.75e-08,-287.74992511999994,-232.4999808,25.14699996928,49.74462501056
9.8e-08,-272.1249241600001,-279.37498368,25.13137496832,49.741500010879996
9.85e-08,-240.87492223999993,-294.99998464,25.11574996736,49.74462501056
9.9e-08,-287.74992511999994,-294.99998464,25.11574996736,49.772750007679996
9.950000000000001e-08,-272.1249241600001,-279.37498368,25.13137496832,49.804000004479995
1.0000000000000001e-07,-256.4999232,-294.99998464,25.13137496832,49.82587500224
1.005e-07,-256.4999232,-294.99998464,25.14699996928,49.84462500032
1.01e-07,-272.1249241600001,-279.37498368,25.16262497024,49.850874999679995
1.015e-07,-256.4999232,-294.99998464,25.11574996736,49.85399999936
1.02e-07,-256.4999232,-294.99998464,25.13137496832,49.84462500032
1.0250000000000001e-07,-272.1249241600001,-310.6249856,25.13137496832,49.83837500096
1.0300000000000001e-07,-256.4999232,-294.99998464,25.13137496832,49.819625002879995
1.0350000000000001e-07,-240.87492223999993,-294.99998464,25.14699996928,49.804000004479995
1.04e-07,-256.4999232,-294.99998464,25.13137496832,49.79462500544
1.045e-07,-240.87492223999993,-294.99998464,25.11574996736,49.78212500672
1.05e-07,-225.24992128000008,-326.24998656,25.14699996928,49.77900000704
1.0550000000000001e-07,-240.87492223999993,-279.37498368,25.14699996928,49.7852500064
1.0600000000000001e-07,-225.24992128000008,-326.24998656,25.16262497024,49.81025000384
1.0650000000000001e-07,-193.99991936000015,-326.24998656,25.1782499712,49.841500000639996
1.07e-07,-225.24992128000008,-326.24998656,25.16262497024,49.882124996479995
1.075e-07,-225.24992128000008,-294.99998464,25.1782499712,49.913374993279994
1.08e-07,-193.99991936000015,-310.6249856,25.19387497216,49.93837499072
1.0850000000000001e-07,-209.62492032,-326.24998656,25.20949997312,49.9571249888
1.0900000000000001e-07,-209.62492032,-326.24998656,25.24074997504,49.9727499872
1.0950000000000001e-07,-193.99991936000015,-310.6249856,25.20949997312,49.96337498816
1.1e-07,-193.99991936000015,-326.24998656,25.19387497216,49.935249991039996
1.105e-07,-209.62492032,-326.24998656,25.19387497216,49.897749994879995
1.11e-07,-178.37491840000007,-310.6249856,25.19387497216,49.857124999039996
1.1150000000000001e-07,-178.37491840000007,-326.24998656,25.22512497408,49.82587500224
1.1200000000000001e-07,-178.37491840000007,-310.6249856,25.19387497216,49.804000004479995
1.1250000000000001e-07,-178.37491840000007,-326.24998656,25.1782499712,49.78212500672
1.13e-07,-178.37491840000007,-326.24998656,25.16262497024,49.769625008
1.135e-07,-178.37491840000007,-310.6249856,25.1782499712,49.77900000704
1.14e-07,-162.74991744,-326.24998656,25.19387497216,49.8165000032
1.1450000000000001e-07,-162.74991744,-341.87498752,25.20949997312,49.841500000639996
1.1500000000000001e-07,-162.74991744,-341.87498752,25.22512497408,49.86962499776
1.1550000000000001e-07,-147.12491648000014,-326.24998656,25.256374976,49.882124996479995
1.16e-07,-147.12491648000014,-326.24998656,25.27199997696,49.88524999616
1.165e-07,-147.12491648000014,-326.24998656,25.303249978879997,49.882124996479995
1.17e-07,-147.12491648000014,-310.6249856,25.334499980799997,49.872749997439996
1.1750000000000001e-07,-115.87491455999998,-310.6249856,25.318874979839997,49.850874999679995
1.1800000000000001e-07,-131.49991552000006,-310.6249856,25.334499980799997,49.819625002879995
1.1850000000000001e-07,-115.87491455999998,-310.6249856,25.334499980799997,49.804000004479995
1.1900000000000001e-07,-115.87491455999998,-294.99998464,25.334499980799997,49.8008750048
1.195e-07,-100.24991360000013,-294.99998464,25.365749982719997,49.81337500352
1.2000000000000002e-07,-100.24991360000013,-279.37498368,25.381374983679997,49.835250001279995
1.205e-07,-100.24991360000013,-263.74998272,25.365749982719997,49.850874999679995
1.21e-07,-84.62491264000005,-294.99998464,25.365749982719997,49.8789999968
1.215e-07,-84.62491264000005,-248.12498176000003,25.381374983679997,49.9102499936
1.22e-07,-68.99991167999997,-263.74998272,25.396999984639997,49.94462499008
1.2250000000000002e-07,-68.99991167999997,-263.74998272,25.396999984639997,49.9571249888
1.23e-07,-84.62491264000005,-263.74998272,25.365749982719997,49.96024998848
