Time (s),V_PRI,V_SEC,V_IN,V_OUT
0.0,-17.50005759999999,-232.4999808,25.15000002176,40.79975000512
5e-10,-17.50005759999999,-232.4999808,25.1437500224,40.81225000384
1e-09,-17.50005759999999,-248.12498176000003,25.15000002176,40.81537500352
1.5000000000000002e-09,-23.750056959999938,-263.74998272,25.15000002176,40.81537500352
2e-09,-17.50005759999999,-232.4999808,25.16250002048,40.81537500352
2.5e-09,-17.50005759999999,-248.12498176000003,25.16875001984,40.82475000256
3.0000000000000004e-09,-11.25005823999993,-263.74998272,25.18125001856,40.82475000256
3.5000000000000003e-09,-17.50005759999999,-263.74998272,25.18750001792,40.82787500224
4e-09,-11.25005823999993,-263.74998272,25.19375001728,40.82475000256
4.500000000000001e-09,-11.25005823999993,-248.12498176000003,25.19375001728,40.8185000032
5e-09,-11.25005823999993,-248.12498176000003,25.20000001664,40.81225000384
5.5000000000000004e-09,-17.50005759999999,-232.4999808,25.18125001856,40.81225000384
6.000000000000001e-09,1.2499404800000775,-248.12498176000003,25.18125001856,40.8185000032
6.5e-09,1.2499404800000775,-279.37498368,25.18125001856,40.8185000032
7.000000000000001e-09,-5.000058879999983,-248.12498176000003,25.16250002048,40.82162500288
7.500000000000001e-09,1.2499404800000775,-248.12498176000003,25.16250002048,40.8185000032
8e-09,7.499939840000025,-248.12498176000003,25.1437500224,40.8185000032
8.5e-09,1.2499404800000775,-232.4999808,25.13125002368,40.82787500224
9.000000000000001e-09,1.2499404800000775,-232.4999808,25.13750002304,40.83100000192
9.5e-09,1.2499404800000775,-248.12498176000003,25.13750002304,40.8341250016
1e-08,7.499939840000025,-216.87497984000004,25.13125002368,40.83100000192
1.0500000000000001e-08,7.499939840000025,-248.12498176000003,25.125000024320002,40.83100000192
1.1000000000000001e-08,13.749939200000085,-248.12498176000003,25.13125002368,40.82787500224
1.15e-08,7.499939840000025,-248.12498176000003,25.125000024320002,40.83100000192
1.2000000000000002e-08,13.749939200000085,-248.12498176000003,25.11875002496,40.82787500224
1.2500000000000001e-08,19.999938560000032,-216.87497984000004,25.11875002496,40.82787500224
1.3e-08,13.749939200000085,-232.4999808,25.125000024320002,40.82787500224
1.35e-08,13.749939200000085,-216.87497984000004,25.1125000256,40.8341250016
1.4000000000000001e-08,19.999938560000032,-216.87497984000004,25.125000024320002,40.84662500032
1.45e-08,19.999938560000032,-216.87497984000004,25.13125002368,40.84975
1.5000000000000002e-08,13.749939200000085,-216.87497984000004,25.13125002368,40.85912499904
1.55e-08,19.999938560000032,-201.24997888000001,25.1437500224,40.86224999872
1.6e-08,32.49993728000004,-201.24997888000001,25.13125002368,40.85912499904
1.6500000000000002e-08,26.24993791999998,-201.24997888000001,25.13750002304,40.86224999872
1.7e-08,26.24993791999998,-185.62497792,25.15625002112,40.86224999872
1.75e-08,19.999938560000032,-201.24997888000001,25.15625002112,40.8653749984
1.8000000000000002e-08,26.24993791999998,-169.99997696000003,25.16250002048,40.85912499904
1.85e-08,32.49993728000004,-185.62497792,25.16250002048,40.85599999936
1.9e-08,32.49993728000004,-185.62497792,25.16250002048,40.84662500032
1.9500000000000003e-08,32.49993728000004,-185.62497792,25.16875001984,40.84662500032
2e-08,32.49993728000004,-169.99997696000003,25.16250002048,40.84037500096
2.05e-08,32.49993728000004,-169.99997696000003,25.15000002176,40.82787500224
2.1000000000000003e-08,32.49993728000004,-169.99997696000003,25.15000002176,40.81225000384
2.15e-08,26.24993791999998,-154.374976,25.125000024320002,40.8028750048
2.2000000000000002e-08,38.74993663999999,-154.374976,25.11875002496,40.79662500544
2.2500000000000003e-08,32.49993728000004,-154.374976,25.1125000256,40.79350000576
2.3e-08,38.74993663999999,-154.374976,25.10625002624,40.79037500608
2.3500000000000002e-08,32.49993728000004,-138.74997504000004,25.10625002624,40.7872500064
2.4000000000000003e-08,38.74993663999999,-138.74997504000004,25.10625002624,40.78100000704
2.45e-08,44.99993600000005,-138.74997504000004,25.1125000256,40.784125006720004
2.5000000000000002e-08,38.74993663999999,-123.12497408000002,25.13750002304,40.784125006720004
2.55e-08,44.99993600000005,-138.74997504000004,25.13750002304,40.78100000704
2.6e-08,44.99993600000005,-123.12497408000002,25.1437500224,40.77475000768
2.6500000000000002e-08,51.249935359999995,-138.74997504000004,25.15000002176,40.77475000768
2.7e-08,57.499934720000056,-138.74997504000004,25.175000019200002,40.768500008320004
2.75e-08,51.249935359999995,-154.374976,25.18125001856,40.77787500736
2.8000000000000003e-08,51.249935359999995,-123.12497408000002,25.19375001728,40.7872500064
2.85e-08,57.499934720000056,-123.12497408000002,25.20000001664,40.79975000512
2.9e-08,57.499934720000056,-138.74997504000004,25.206250016000002,40.80912500416
2.9500000000000003e-08,57.499934720000056,-107.49997311999999,25.20000001664,40.81537500352
3.0000000000000004e-08,69.99993344000006,-123.12497408000002,25.21875001472,40.8185000032
3.05e-08,63.74993408,-123.12497408000002,25.21875001472,40.82787500224
3.1e-08,63.74993408,-123.12497408000002,25.22500001408,40.84037500096
3.1500000000000004e-08,69.99993344000006,-123.12497408000002,25.23125001344,40.84350000064
3.2e-08,76.24993280000001,-107.49997311999999,25.206250016000002,40.84350000064
3.25e-08,76.24993280000001,-91.87497216000003,25.18750001792,40.84037500096
3.3000000000000004e-08,69.99993344000006,-91.87497216000003,25.18750001792,40.8341250016
3.35e-08,82.49993216000007,-107.49997311999999,25.18750001792,40.83100000192
3.4e-08,88.74993152000002,-76.2499712,25.18750001792,40.82475000256
3.4500000000000005e-08,82.49993216000007,-91.87497216000003,25.175000019200002,40.82475000256
3.5e-08,94.99993088000008,-91.87497216000003,25.15625002112,40.8185000032
3.55e-08,88.74993152000002,-91.87497216000003,25.1437500224,40.82475000256
3.6000000000000005e-08,88.74993152000002,-76.2499712,25.13750002304,40.8185000032
3.65e-08,101.24993024000003,-60.62497024000004,25.1437500224,40.81225000384
3.7e-08,101.24993024000003,-60.62497024000004,25.1437500224,40.80600000448
3.7500000000000005e-08,94.99993088000008,-60.62497024000004,25.125000024320002,40.79975000512
3.8e-08,107.49992960000009,-44.999969280000016,25.11875002496,40.8028750048
3.85e-08,101.24993024000003,-44.999969280000016,25.10625002624,40.80912500416
3.9000000000000005e-08,107.49992960000009,-44.999969280000016,25.10000002688,40.82162500288
3.95e-08,107.49992960000009,-29.374968319999994,25.11875002496,40.8185000032
4e-08,119.99992831999998,-29.374968319999994,25.13125002368,40.80912500416
4.0500000000000005e-08,113.74992896000003,-29.374968319999994,25.1437500224,40.80912500416
4.1e-08,113.74992896000003,-13.749967360000028,25.15625002112,40.80600000448
4.15e-08,113.74992896000003,-29.374968319999994,25.1437500224,40.81225000384
4.2000000000000006e-08,119.99992831999998,1.875033599999938,25.1437500224,40.80912500416
4.2500000000000003e-08,126.24992768000004,-13.749967360000028,25.15000002176,40.80912500416
4.3e-08,138.74992640000005,-29.374968319999994,25.16875001984,40.79975000512
4.3500000000000006e-08,119.99992831999998,-29.374968319999994,25.16875001984,40.79037500608
4.4000000000000004e-08,126.24992768000004,1.875033599999938,25.175000019200002,40.7872500064
4.45e-08,132.49992704,1.875033599999938,25.18125001856,40.7872500064
4.5000000000000006e-08,126.24992768000004,1.875033599999938,25.18125001856,40.79350000576
4.5500000000000004e-08,119.99992831999998,17.500034560000017,25.175000019200002,40.79662500544
4.6e-08,132.49992704,1.875033599999938,25.175000019200002,40.79975000512
4.6500000000000006e-08,126.24992768000004,17.500034560000017,25.175000019200002,40.79350000576
4.7000000000000004e-08,126.24992768000004,1.875033599999938,25.175000019200002,40.79350000576
4.75e-08,132.49992704,17.500034560000017,25.175000019200002,40.79662500544
4.8000000000000006e-08,132.49992704,1.875033599999938,25.16875001984,40.80912500416
4.8500000000000004e-08,132.49992704,33.12503551999998,25.175000019200002,40.82787500224
4.9e-08,126.24992768000004,33.12503551999998,25.18750001792,40.82787500224
4.95e-08,126.24992768000004,17.500034560000017,25.18750001792,40.81537500352
5.0000000000000004e-08,132.49992704,48.75003647999995,25.19375001728,40.80600000448
5.05e-08,132.49992704,33.12503551999998,25.19375001728,40.80600000448
5.1e-08,132.49992704,33.12503551999998,25.20000001664,40.80600000448
5.1500000000000005e-08,126.24992768000004,33.12503551999998,25.19375001728,40.81537500352
5.2e-08,126.24992768000004,48.75003647999995,25.20000001664,40.8185000032
5.25e-08,126.24992768000004,64.37503744000003,25.21875001472,40.80912500416
5.3000000000000005e-08,126.24992768000004,64.37503744000003,25.2375000128,40.8028750048
5.35e-08,126.24992768000004,64.37503744000003,25.2375000128,40.79662500544
5.4e-08,132.49992704,64.37503744000003,25.24375001216,40.8028750048
5.4500000000000005e-08,126.24992768000004,80.0000384,25.24375001216,40.80912500416
5.5e-08,113.74992896000003,80.0000384,25.2375000128,40.82162500288
5.55e-08,119.99992831999998,95.62503935999996,25.25000001152,40.82787500224
5.6000000000000005e-08,126.24992768000004,95.62503935999996,25.25000001152,40.8185000032
5.65e-08,119.99992831999998,95.62503935999996,25.256250010880002,40.82162500288
5.7e-08,113.74992896000003,111.25004031999993,25.26250001024,40.81537500352
5.7500000000000005e-08,113.74992896000003,111.25004031999993,25.25000001152,40.81225000384
5.8e-08,113.74992896000003,126.87504128,25.24375001216,40.81225000384
5.85e-08,113.74992896000003,111.25004031999993,25.23125001344,40.82162500288
5.9000000000000006e-08,113.74992896000003,95.62503935999996,25.2375000128,40.81225000384
5.9500000000000003e-08,107.49992960000009,111.25004031999993,25.24375001216,40.80912500416
6.000000000000001e-08,107.49992960000009,111.25004031999993,25.24375001216,40.79350000576
6.05e-08,107.49992960000009,126.87504128,25.24375001216,40.784125006720004
6.1e-08,101.24993024000003,126.87504128,25.26250001024,40.784125006720004
6.15e-08,94.99993088000008,126.87504128,25.256250010880002,40.7872500064
6.2e-08,101.24993024000003,126.87504128,25.26250001024,40.7872500064
6.250000000000001e-08,94.99993088000008,126.87504128,25.2687500096,40.78100000704
6.300000000000001e-08,94.99993088000008,126.87504128,25.2687500096,40.771625008
6.35e-08,94.99993088000008,142.50004223999997,25.28125000832,40.76225000896
6.4e-08,94.99993088000008,142.50004223999997,25.27500000896,40.76537500864
6.45e-08,88.74993152000002,142.50004223999997,25.28125000832,40.78100000704
6.5e-08,82.49993216000007,173.75004416000002,25.29375000704,40.784125006720004
6.55e-08,82.49993216000007,142.50004223999997,25.287500007680002,40.7872500064
6.600000000000001e-08,82.49993216000007,173.75004416000002,25.287500007680002,40.784125006720004
6.65e-08,76.24993280000001,142.50004223999997,25.287500007680002,40.79037500608
6.7e-08,82.49993216000007,142.50004223999997,25.287500007680002,40.79350000576
6.75e-08,76.24993280000001,158.12504319999994,25.287500007680002,40.80600000448
6.8e-08,69.99993344000006,158.12504319999994,25.29375000704,40.81537500352
6.85e-08,76.24993280000001,173.75004416000002,25.287500007680002,40.82162500288
6.900000000000001e-08,69.99993344000006,173.75004416000002,25.287500007680002,40.82475000256
6.950000000000001e-08,63.74993408,158.12504319999994,25.27500000896,40.82475000256
7e-08,69.99993344000006,173.75004416000002,25.2687500096,40.8185000032
7.05e-08,63.74993408,173.75004416000002,25.2687500096,40.80912500416
7.1e-08,57.499934720000056,189.37504511999998,25.25000001152,40.80912500416
7.15e-08,63.74993408,189.37504511999998,25.256250010880002,40.81225000384
7.200000000000001e-08,69.99993344000006,173.75004416000002,25.24375001216,40.81537500352
7.250000000000001e-08,63.74993408,205.00004607999995,25.26250001024,40.82162500288
7.3e-08,51.249935359999995,205.00004607999995,25.27500000896,40.81537500352
7.35e-08,57.499934720000056,189.37504511999998,25.2687500096,40.8028750048
7.4e-08,57.499934720000056,205.00004607999995,25.2687500096,40.79662500544
7.45e-08,57.499934720000056,189.37504511999998,25.2687500096,40.79975000512
7.500000000000001e-08,57.499934720000056,173.75004416000002,25.26250001024,40.79975000512
7.550000000000001e-08,51.249935359999995,189.37504511999998,25.25000001152,40.8028750048
7.6e-08,57.499934720000056,189.37504511999998,25.23125001344,40.8028750048
7.65e-08,57.499934720000056,205.00004607999995,25.21250001536,40.79975000512
7.7e-08,51.249935359999995,205.00004607999995,25.21250001536,40.79975000512
7.75e-08,44.99993600000005,189.37504511999998,25.206250016000002,40.8028750048
7.800000000000001e-08,44.99993600000005,205.00004607999995,25.206250016000002,40.80600000448
7.850000000000001e-08,38.74993663999999,189.37504511999998,25.206250016000002,40.80912500416
7.9e-08,38.74993663999999,205.00004607999995,25.206250016000002,40.81225000384
7.95e-08,44.99993600000005,205.00004607999995,25.206250016000002,40.81537500352
8e-08,38.74993663999999,189.37504511999998,25.206250016000002,40.8185000032
8.05e-08,38.74993663999999,189.37504511999998,25.20000001664,40.83100000192
8.100000000000001e-08,32.49993728000004,205.00004607999995,25.21250001536,40.8341250016
8.150000000000001e-08,32.49993728000004,189.37504511999998,25.20000001664,40.82787500224
8.2e-08,38.74993663999999,205.00004607999995,25.18750001792,40.82475000256
8.25e-08,32.49993728000004,173.75004416000002,25.18125001856,40.82162500288
8.3e-08,38.74993663999999,158.12504319999994,25.175000019200002,40.8185000032
8.35e-08,32.49993728000004,158.12504319999994,25.175000019200002,40.82162500288
8.400000000000001e-08,26.24993791999998,189.37504511999998,25.175000019200002,40.82787500224
8.450000000000001e-08,32.49993728000004,189.37504511999998,25.175000019200002,40.82787500224
8.500000000000001e-08,19.999938560000032,173.75004416000002,25.16875001984,40.83100000192
8.55e-08,19.999938560000032,173.75004416000002,25.16875001984,40.83100000192
8.6e-08,26.24993791999998,173.75004416000002,25.175000019200002,40.83725000128
8.65e-08,19.999938560000032,173.75004416000002,25.18125001856,40.8341250016
8.700000000000001e-08,26.24993791999998,158.12504319999994,25.175000019200002,40.84037500096
8.750000000000001e-08,19.999938560000032,173.75004416000002,25.18125001856,40.84662500032
8.800000000000001e-08,19.999938560000032,173.75004416000002,25.16875001984,40.85912499904
8.85e-08,19.999938560000032,173.75004416000002,25.175000019200002,40.87474999744
8.9e-08,13.749939200000085,173.75004416000002,25.175000019200002,40.87787499712
8.95e-08,19.999938560000032,158.12504319999994,25.16875001984,40.87162499776
9.000000000000001e-08,19.999938560000032,173.75004416000002,25.15625002112,40.85912499904
9.050000000000001e-08,13.749939200000085,142.50004223999997,25.15000002176,40.85912499904
9.100000000000001e-08,19.999938560000032,126.87504128,25.15625002112,40.84975
9.15e-08,13.749939200000085,126.87504128,25.15000002176,40.85287499968
9.2e-08,13.749939200000085,126.87504128,25.15625002112,40.85599999936
9.25e-08,7.499939840000025,126.87504128,25.1437500224,40.84662500032
9.300000000000001e-08,13.749939200000085,111.25004031999993,25.1437500224,40.83725000128
9.350000000000001e-08,7.499939840000025,111.25004031999993,25.125000024320002,40.83100000192
9.400000000000001e-08,7.499939840000025,111.25004031999993,25.125000024320002,40.82787500224
9.45e-08,1.2499404800000775,95.62503935999996,25.125000024320002,40.82162500288
9.5e-08,1.2499404800000775,111.25004031999993,25.1125000256,40.82475000256
9.55e-08,1.2499404800000775,111.25004031999993,25.11875002496,40.81537500352
9.600000000000001e-08,7.499939840000025,111.25004031999993,25.1125000256,40.80600000448
9.650000000000001e-08,1.2499404800000775,95.62503935999996,25.125000024320002,40.81225000384
9.700000000000001e-08,1.2499404800000775,95.62503935999996,25.13750002304,40.81225000384
9.75e-08,-5.000058879999983,95.62503935999996,25.13750002304,40.80912500416
9.8e-08,-5.000058879999983,111.25004031999993,25.13125002368,40.8028750048
9.85e-08,-5.000058879999983,80.0000384,25.13750002304,40.79662500544
9.9e-08,1.2499404800000775,64.37503744000003,25.15625002112,40.7872500064
9.950000000000001e-08,-11.25005823999993,64.37503744000003,25.16250002048,40.78100000704
1.0000000000000001e-07,-11.25005823999993,64.37503744000003,25.18125001856,40.771625008
1.005e-07,-11.25005823999993,80.0000384,25.18750001792,40.771625008
1.01e-07,-11.25005823999993,80.0000384,25.19375001728,40.771625008
1.015e-07,-17.50005759999999,80.0000384,25.18750001792,40.77787500736
1.02e-07,-11.25005823999993,80.0000384,25.19375001728,40.784125006720004
1.0250000000000001e-07,-23.750056959999938,64.37503744000003,25.19375001728,40.79037500608
1.0300000000000001e-07,-23.750056959999938,80.0000384,25.19375001728,40.79662500544
1.0350000000000001e-07,-23.750056959999938,80.0000384,25.18750001792,40.80912500416
1.04e-07,-23.750056959999938,80.0000384,25.16250002048,40.8185000032
1.045e-07,-30.00005632,64.37503744000003,25.15000002176,40.83725000128
1.05e-07,-36.250055679999946,64.37503744000003,25.15625002112,40.84350000064
1.0550000000000001e-07,-36.250055679999946,64.37503744000003,25.15000002176,40.84662500032
1.0600000000000001e-07,-36.250055679999946,80.0000384,25.1437500224,40.84037500096
1.0650000000000001e-07,-36.250055679999946,48.75003647999995,25.125000024320002,40.83725000128
1.07e-07,-42.50005504000001,33.12503551999998,25.1125000256,40.8341250016
1.075e-07,-42.50005504000001,17.500034560000017,25.093750027520002,40.8341250016
1.08e-07,-48.750054399999954,33.12503551999998,25.08750002816,40.83725000128
1.0850000000000001e-07,-55.000053760000014,33.12503551999998,25.093750027520002,40.8341250016
1.0900000000000001e-07,-48.750054399999954,33.12503551999998,25.10625002624,40.82787500224
1.0950000000000001e-07,-61.25005311999996,33.12503551999998,25.10000002688,40.82162500288
1.1e-07,-55.000053760000014,17.500034560000017,25.10625002624,40.81537500352
1.105e-07,-67.50005248000002,17.500034560000017,25.10000002688,40.80912500416
1.11e-07,-67.50005248000002,1.875033599999938,25.093750027520002,40.80912500416
1.1150000000000001e-07,-67.50005248000002,1.875033599999938,25.1125000256,40.80600000448
1.1200000000000001e-07,-61.25005311999996,-13.749967360000028,25.1125000256,40.80912500416
1.1250000000000001e-07,-73.75005183999997,17.500034560000017,25.125000024320002,40.81537500352
1.13e-07,-73.75005183999997,17.500034560000017,25.125000024320002,40.82162500288
1.135e-07,-73.75005183999997,-13.749967360000028,25.10625002624,40.81537500352
1.14e-07,-73.75005183999997,17.500034560000017,25.0812500288,40.81225000384
1.1450000000000001e-07,-73.75005183999997,-13.749967360000028,25.06875003008,40.81537500352
1.1500000000000001e-07,-73.75005183999997,-44.999969280000016,25.0812500288,40.80912500416
1.1550000000000001e-07,-86.25005055999998,-29.374968319999994,25.0812500288,40.81225000384
1.16e-07,-86.25005055999998,-44.999969280000016,25.0812500288,40.8185000032
1.165e-07,-80.00005119999997,-29.374968319999994,25.06250003072,40.81225000384
1.17e-07,-92.50004991999998,-29.374968319999994,25.050000032,40.8028750048
1.1750000000000001e-07,-92.50004991999998,-44.999969280000016,25.03125003392,40.79037500608
1.1800000000000001e-07,-86.25005055999998,-29.374968319999994,25.043750032640002,40.78100000704
1.1850000000000001e-07,-92.50004991999998,-60.62497024000004,25.050000032,40.77475000768
1.1900000000000001e-07,-92.50004991999998,-76.2499712,25.050000032,40.784125006720004
1.195e-07,-92.50004991999998,-44.999969280000016,25.050000032,40.784125006720004
1.2000000000000002e-07,-92.50004991999998,-60.62497024000004,25.043750032640002,40.784125006720004
1.205e-07,-92.50004991999998,-44.999969280000016,25.05625003136,40.784125006720004
1.21e-07,-98.75004927999998,-44.999969280000016,25.0812500288,40.78100000704
1.215e-07,-92.50004991999998,-60.62497024000004,25.08750002816,40.7872500064
1.22e-07,-92.50004991999998,-44.999969280000016,25.08750002816,40.79662500544
