Time (s),V_PRI,V_SEC,V_IN,V_OUT
0.0,-37.85005567999997,-216.87497984000004,25.212500016,40.98675000384
5e-10,-37.85005567999997,-216.87497984000004,25.200000017279997,40.999250002560004
1e-09,-31.60005632000002,-232.4999808,25.19375001792,40.999250002560004
1.5000000000000002e-09,-19.100057600000014,-232.4999808,25.17500001984,40.98675000384
2e-09,-25.35005695999996,-216.87497984000004,25.17500001984,40.983625004160004
2.5e-09,-31.60005632000002,-232.4999808,25.187500018559998,40.98050000448
3.0000000000000004e-09,-31.60005632000002,-248.12498176000003,25.187500018559998,40.9773750048
3.5000000000000003e-09,-19.100057600000014,-216.87497984000004,25.187500018559998,40.98050000448
4e-09,-19.100057600000014,-248.12498176000003,25.1812500192,40.9773750048
4.500000000000001e-09,-12.850058239999953,-263.74998272,25.187500018559998,40.968000005760004
5e-09,-25.35005695999996,-263.74998272,25.19375001792,40.974250005120005
5.5000000000000004e-09,-19.100057600000014,-263.74998272,25.200000017279997,40.983625004160004
6.000000000000001e-09,-12.850058239999953,-248.12498176000003,25.200000017279997,40.989875003520005
6.5e-09,-12.850058239999953,-263.74998272,25.20625001664,40.999250002560004
7.000000000000001e-09,-19.100057600000014,-248.12498176000003,25.200000017279997,40.99612500288
7.500000000000001e-09,-6.600058880000006,-248.12498176000003,25.218750015359998,40.9930000032
8e-09,-12.850058239999953,-263.74998272,25.22500001472,40.989875003520005
8.5e-09,-12.850058239999953,-263.74998272,25.218750015359998,40.99612500288
9.000000000000001e-09,-6.600058880000006,-248.12498176000003,25.218750015359998,40.9930000032
9.5e-09,-6.600058880000006,-248.12498176000003,25.200000017279997,40.989875003520005
1e-08,-6.600058880000006,-248.12498176000003,25.19375001792,40.983625004160004
1.0500000000000001e-08,-6.600058880000006,-248.12498176000003,25.200000017279997,40.983625004160004
1.1000000000000001e-08,-6.600058880000006,-248.12498176000003,25.19375001792,40.98675000384
1.15e-08,-0.3500595199999452,-232.4999808,25.1812500192,40.98675000384
1.2000000000000002e-08,-0.3500595199999452,-248.12498176000003,25.1812500192,40.9930000032
1.2500000000000001e-08,12.149939200000063,-263.74998272,25.17500001984,40.989875003520005
1.3e-08,-0.3500595199999452,-263.74998272,25.168750020479997,40.999250002560004
1.35e-08,5.899939840000002,-263.74998272,25.168750020479997,41.0086250016
1.4000000000000001e-08,18.39993856000001,-248.12498176000003,25.15625002176,41.01800000064
1.45e-08,12.149939200000063,-232.4999808,25.150000022399997,41.021125000320005
1.5000000000000002e-08,5.899939840000002,-232.4999808,25.13125002432,41.01175000128
1.55e-08,18.39993856000001,-216.87497984000004,25.13125002432,41.005500001920005
1.6e-08,12.149939200000063,-248.12498176000003,25.137500023679998,40.999250002560004
1.6500000000000002e-08,12.149939200000063,-232.4999808,25.13125002432,41.005500001920005
1.7e-08,18.39993856000001,-232.4999808,25.14375002304,41.00237500224
1.75e-08,24.649937919999957,-216.87497984000004,25.13125002432,41.0086250016
1.8000000000000002e-08,24.649937919999957,-216.87497984000004,25.137500023679998,41.01800000064
1.85e-08,18.39993856000001,-216.87497984000004,25.16250002112,41.01800000064
1.9e-08,18.39993856000001,-216.87497984000004,25.16250002112,41.02737499968
1.9500000000000003e-08,24.649937919999957,-201.24997888000001,25.17500001984,41.03362499904
2e-08,24.649937919999957,-216.87497984000004,25.17500001984,41.0398749984
2.05e-08,30.899937280000017,-216.87497984000004,25.17500001984,41.03362499904
2.1000000000000003e-08,24.649937919999957,-216.87497984000004,25.168750020479997,41.02737499968
2.15e-08,30.899937280000017,-201.24997888000001,25.17500001984,41.02425
2.2000000000000002e-08,30.899937280000017,-185.62497792,25.17500001984,41.021125000320005
2.2500000000000003e-08,30.899937280000017,-185.62497792,25.168750020479997,41.01800000064
2.3e-08,24.649937919999957,-185.62497792,25.150000022399997,41.01800000064
2.3500000000000002e-08,37.149936639999964,-169.99997696000003,25.150000022399997,41.01800000064
2.4000000000000003e-08,24.649937919999957,-169.99997696000003,25.150000022399997,41.0086250016
2.45e-08,30.899937280000017,-169.99997696000003,25.137500023679998,41.005500001920005
2.5000000000000002e-08,37.149936639999964,-154.374976,25.14375002304,40.999250002560004
2.55e-08,37.149936639999964,-154.374976,25.118750025599997,40.9930000032
2.6e-08,43.399936000000025,-154.374976,25.11250002624,40.98675000384
2.6500000000000002e-08,37.149936639999964,-123.12497408000002,25.12500002496,40.9773750048
2.7e-08,43.399936000000025,-154.374976,25.118750025599997,40.968000005760004
2.75e-08,43.399936000000025,-123.12497408000002,25.12500002496,40.96487500608
2.8000000000000003e-08,49.64993535999997,-154.374976,25.13125002432,40.9617500064
2.85e-08,55.89993472000003,-154.374976,25.14375002304,40.95550000704
2.9e-08,43.399936000000025,-154.374976,25.15625002176,40.94925000768
2.9500000000000003e-08,49.64993535999997,-123.12497408000002,25.187500018559998,40.946125008
3.0000000000000004e-08,49.64993535999997,-138.74997504000004,25.20625001664,40.943000008320006
3.05e-08,55.89993472000003,-123.12497408000002,25.212500016,40.943000008320006
3.1e-08,49.64993535999997,-123.12497408000002,25.200000017279997,40.94925000768
3.1500000000000004e-08,55.89993472000003,-123.12497408000002,25.200000017279997,40.94925000768
3.2e-08,55.89993472000003,-123.12497408000002,25.19375001792,40.946125008
3.25e-08,62.14993407999998,-123.12497408000002,25.200000017279997,40.95550000704
3.3000000000000004e-08,62.14993407999998,-123.12497408000002,25.19375001792,40.9617500064
3.35e-08,74.64993279999999,-123.12497408000002,25.1812500192,40.9773750048
3.4e-08,68.39993344000004,-107.49997311999999,25.17500001984,40.999250002560004
3.4500000000000005e-08,68.39993344000004,-107.49997311999999,25.1812500192,41.005500001920005
3.5e-08,68.39993344000004,-123.12497408000002,25.1812500192,41.0086250016
3.55e-08,74.64993279999999,-91.87497216000003,25.187500018559998,41.005500001920005
3.6000000000000005e-08,80.89993216000005,-107.49997311999999,25.187500018559998,41.01175000128
3.65e-08,99.64993024,-123.12497408000002,25.187500018559998,41.0086250016
3.7e-08,80.89993216000005,-123.12497408000002,25.168750020479997,41.014875000960004
3.7500000000000005e-08,87.14993152,-91.87497216000003,25.16250002112,41.014875000960004
3.8e-08,93.39993088000006,-91.87497216000003,25.15625002176,41.0086250016
3.85e-08,93.39993088000006,-91.87497216000003,25.16250002112,40.9930000032
3.9000000000000005e-08,93.39993088000006,-76.2499712,25.15625002176,40.983625004160004
3.95e-08,99.64993024,-76.2499712,25.16250002112,40.98050000448
4e-08,105.89992960000006,-91.87497216000003,25.150000022399997,40.983625004160004
4.0500000000000005e-08,99.64993024,-76.2499712,25.13125002432,40.989875003520005
4.1e-08,105.89992960000006,-60.62497024000004,25.12500002496,40.983625004160004
4.15e-08,112.14992896000001,-60.62497024000004,25.118750025599997,40.98050000448
4.2000000000000006e-08,118.39992831999996,-44.999969280000016,25.13125002432,40.98050000448
4.2500000000000003e-08,118.39992831999996,-44.999969280000016,25.14375002304,40.9773750048
4.3e-08,112.14992896000001,-44.999969280000016,25.14375002304,40.9773750048
4.3500000000000006e-08,118.39992831999996,-13.749967360000028,25.137500023679998,40.989875003520005
4.4000000000000004e-08,118.39992831999996,-44.999969280000016,25.14375002304,41.00237500224
4.45e-08,130.89992703999997,-29.374968319999994,25.16250002112,41.00237500224
4.5000000000000006e-08,124.64992768000002,-44.999969280000016,25.1812500192,40.99612500288
4.5500000000000004e-08,124.64992768000002,-29.374968319999994,25.19375001792,40.983625004160004
4.6e-08,130.89992703999997,-13.749967360000028,25.19375001792,40.97112500544
4.6500000000000006e-08,130.89992703999997,-29.374968319999994,25.200000017279997,40.96487500608
4.7000000000000004e-08,124.64992768000002,-13.749967360000028,25.19375001792,40.9617500064
4.75e-08,130.89992703999997,-13.749967360000028,25.200000017279997,40.96487500608
4.8000000000000006e-08,130.89992703999997,-13.749967360000028,25.20625001664,40.958625006720006
4.8500000000000004e-08,130.89992703999997,1.875033599999938,25.20625001664,40.958625006720006
4.9e-08,124.64992768000002,1.875033599999938,25.212500016,40.952375007360004
4.95e-08,137.14992640000003,1.875033599999938,25.212500016,40.958625006720006
5.0000000000000004e-08,124.64992768000002,17.500034560000017,25.218750015359998,40.9773750048
5.05e-08,130.89992703999997,33.12503551999998,25.23750001344,40.989875003520005
5.1e-08,124.64992768000002,1.875033599999938,25.23750001344,40.9930000032
5.1500000000000005e-08,130.89992703999997,33.12503551999998,25.23750001344,40.983625004160004
5.2e-08,124.64992768000002,17.500034560000017,25.231250014079997,40.974250005120005
5.25e-08,137.14992640000003,1.875033599999938,25.22500001472,40.968000005760004
5.3000000000000005e-08,124.64992768000002,17.500034560000017,25.218750015359998,40.9773750048
5.35e-08,130.89992703999997,33.12503551999998,25.20625001664,40.989875003520005
5.4e-08,130.89992703999997,33.12503551999998,25.212500016,40.9930000032
5.4500000000000005e-08,130.89992703999997,48.75003647999995,25.22500001472,40.983625004160004
5.5e-08,118.39992831999996,48.75003647999995,25.22500001472,40.974250005120005
5.55e-08,124.64992768000002,48.75003647999995,25.2437500128,40.968000005760004
5.6000000000000005e-08,118.39992831999996,48.75003647999995,25.25625001152,40.96487500608
5.65e-08,124.64992768000002,48.75003647999995,25.2437500128,40.9773750048
5.7e-08,124.64992768000002,64.37503744000003,25.2437500128,40.98050000448
5.7500000000000005e-08,124.64992768000002,64.37503744000003,25.23750001344,40.983625004160004
5.8e-08,124.64992768000002,80.0000384,25.2437500128,40.983625004160004
5.85e-08,118.39992831999996,80.0000384,25.268750010239998,40.9773750048
5.9000000000000006e-08,112.14992896000001,95.62503935999996,25.268750010239998,40.974250005120005
5.9500000000000003e-08,118.39992831999996,111.25004031999993,25.268750010239998,40.974250005120005
6.000000000000001e-08,112.14992896000001,95.62503935999996,25.25625001152,40.98050000448
6.05e-08,118.39992831999996,80.0000384,25.26250001088,40.989875003520005
6.1e-08,105.89992960000006,80.0000384,25.26250001088,40.999250002560004
6.15e-08,105.89992960000006,111.25004031999993,25.268750010239998,40.99612500288
6.2e-08,105.89992960000006,111.25004031999993,25.2750000096,40.98675000384
6.250000000000001e-08,105.89992960000006,111.25004031999993,25.28750000832,40.97112500544
6.300000000000001e-08,99.64993024,126.87504128,25.281250008959997,40.974250005120005
6.35e-08,105.89992960000006,126.87504128,25.28750000832,40.9773750048
6.4e-08,99.64993024,111.25004031999993,25.29375000768,40.98050000448
6.45e-08,99.64993024,126.87504128,25.29375000768,40.9773750048
6.5e-08,93.39993088000006,126.87504128,25.29375000768,40.958625006720006
6.55e-08,99.64993024,126.87504128,25.28750000832,40.94925000768
6.600000000000001e-08,93.39993088000006,142.50004223999997,25.300000007039998,40.94925000768
6.65e-08,87.14993152,142.50004223999997,25.312500005759997,40.946125008
6.7e-08,87.14993152,126.87504128,25.3062500064,40.946125008
6.75e-08,87.14993152,158.12504319999994,25.300000007039998,40.943000008320006
6.8e-08,80.89993216000005,142.50004223999997,25.29375000768,40.946125008
6.85e-08,87.14993152,126.87504128,25.29375000768,40.93987500864
6.900000000000001e-08,74.64993279999999,142.50004223999997,25.300000007039998,40.94925000768
6.950000000000001e-08,80.89993216000005,142.50004223999997,25.3062500064,40.95550000704
7e-08,74.64993279999999,158.12504319999994,25.3062500064,40.96487500608
7.05e-08,74.64993279999999,158.12504319999994,25.300000007039998,40.97112500544
7.1e-08,68.39993344000004,142.50004223999997,25.28750000832,40.974250005120005
7.15e-08,74.64993279999999,158.12504319999994,25.28750000832,40.974250005120005
7.200000000000001e-08,68.39993344000004,158.12504319999994,25.28750000832,40.968000005760004
7.250000000000001e-08,68.39993344000004,158.12504319999994,25.26250001088,40.974250005120005
7.3e-08,68.39993344000004,189.37504511999998,25.25625001152,40.974250005120005
7.35e-08,68.39993344000004,158.12504319999994,25.2437500128,40.98050000448
7.4e-08,62.14993407999998,189.37504511999998,25.25625001152,40.99612500288
7.45e-08,62.14993407999998,189.37504511999998,25.268750010239998,40.999250002560004
7.500000000000001e-08,55.89993472000003,158.12504319999994,25.281250008959997,40.99612500288
7.550000000000001e-08,55.89993472000003,205.00004607999995,25.281250008959997,40.98675000384
7.6e-08,55.89993472000003,189.37504511999998,25.28750000832,40.983625004160004
7.65e-08,62.14993407999998,158.12504319999994,25.28750000832,40.9773750048
7.7e-08,49.64993535999997,173.75004416000002,25.281250008959997,40.98675000384
7.75e-08,49.64993535999997,189.37504511999998,25.268750010239998,40.98675000384
7.800000000000001e-08,55.89993472000003,205.00004607999995,25.26250001088,40.983625004160004
7.850000000000001e-08,49.64993535999997,189.37504511999998,25.25625001152,40.974250005120005
7.9e-08,37.149936639999964,189.37504511999998,25.250000012159997,40.968000005760004
7.95e-08,49.64993535999997,189.37504511999998,25.26250001088,40.96487500608
8e-08,43.399936000000025,205.00004607999995,25.26250001088,40.96487500608
8.05e-08,37.149936639999964,205.00004607999995,25.250000012159997,40.968000005760004
8.100000000000001e-08,43.399936000000025,205.00004607999995,25.2437500128,40.968000005760004
8.150000000000001e-08,43.399936000000025,189.37504511999998,25.231250014079997,40.968000005760004
8.2e-08,37.149936639999964,205.00004607999995,25.22500001472,40.98050000448
8.25e-08,43.399936000000025,220.62504704000003,25.231250014079997,40.983625004160004
8.3e-08,30.899937280000017,173.75004416000002,25.22500001472,40.989875003520005
8.35e-08,30.899937280000017,220.62504704000003,25.212500016,40.989875003520005
8.400000000000001e-08,30.899937280000017,205.00004607999995,25.19375001792,40.989875003520005
8.450000000000001e-08,37.149936639999964,173.75004416000002,25.187500018559998,40.983625004160004
8.500000000000001e-08,30.899937280000017,189.37504511999998,25.1812500192,40.989875003520005
8.55e-08,30.899937280000017,189.37504511999998,25.187500018559998,40.9930000032
8.6e-08,30.899937280000017,189.37504511999998,25.187500018559998,40.999250002560004
8.65e-08,30.899937280000017,189.37504511999998,25.19375001792,41.005500001920005
8.700000000000001e-08,24.649937919999957,189.37504511999998,25.187500018559998,41.005500001920005
8.750000000000001e-08,30.899937280000017,173.75004416000002,25.200000017279997,41.005500001920005
8.800000000000001e-08,24.649937919999957,173.75004416000002,25.212500016,40.999250002560004
8.85e-08,24.649937919999957,173.75004416000002,25.212500016,41.00237500224
8.9e-08,18.39993856000001,189.37504511999998,25.20625001664,40.999250002560004
8.95e-08,24.649937919999957,158.12504319999994,25.19375001792,40.999250002560004
9.000000000000001e-08,18.39993856000001,173.75004416000002,25.19375001792,41.01175000128
9.050000000000001e-08,12.149939200000063,189.37504511999998,25.200000017279997,41.01800000064
9.100000000000001e-08,12.149939200000063,158.12504319999994,25.200000017279997,41.021125000320005
9.15e-08,12.149939200000063,189.37504511999998,25.187500018559998,41.02425
9.2e-08,12.149939200000063,158.12504319999994,25.1812500192,41.03362499904
9.25e-08,24.649937919999957,142.50004223999997,25.1812500192,41.03362499904
9.300000000000001e-08,12.149939200000063,142.50004223999997,25.1812500192,41.0398749984
9.350000000000001e-08,18.39993856000001,142.50004223999997,25.187500018559998,41.04299999808
9.400000000000001e-08,12.149939200000063,158.12504319999994,25.187500018559998,41.0398749984
9.45e-08,12.149939200000063,142.50004223999997,25.17500001984,41.02425
9.5e-08,5.899939840000002,142.50004223999997,25.150000022399997,41.01175000128
9.55e-08,5.899939840000002,142.50004223999997,25.14375002304,41.005500001920005
9.600000000000001e-08,5.899939840000002,126.87504128,25.137500023679998,40.999250002560004
9.650000000000001e-08,-0.3500595199999452,126.87504128,25.12500002496,41.00237500224
9.700000000000001e-08,5.899939840000002,111.25004031999993,25.12500002496,41.00237500224
9.75e-08,5.899939840000002,111.25004031999993,25.106250026879998,40.999250002560004
9.8e-08,-0.3500595199999452,111.25004031999993,25.118750025599997,41.005500001920005
9.85e-08,-0.3500595199999452,126.87504128,25.137500023679998,41.00237500224
9.9e-08,-0.3500595199999452,111.25004031999993,25.14375002304,40.999250002560004
9.950000000000001e-08,-0.3500595199999452,111.25004031999993,25.15625002176,41.00237500224
1.0000000000000001e-07,-6.600058880000006,95.62503935999996,25.168750020479997,40.99612500288
1.005e-07,-0.3500595199999452,95.62503935999996,25.1812500192,40.983625004160004
1.01e-07,-6.600058880000006,80.0000384,25.19375001792,40.9773750048
1.015e-07,-6.600058880000006,80.0000384,25.200000017279997,40.974250005120005
1.02e-07,-12.850058239999953,80.0000384,25.20625001664,40.968000005760004
1.0250000000000001e-07,-12.850058239999953,80.0000384,25.212500016,40.9617500064
1.0300000000000001e-07,-19.100057600000014,80.0000384,25.20625001664,40.95550000704
1.0350000000000001e-07,-12.850058239999953,80.0000384,25.212500016,40.94925000768
1.04e-07,-19.100057600000014,64.37503744000003,25.22500001472,40.936750008960004
1.045e-07,-25.35005695999996,80.0000384,25.22500001472,40.943000008320006
1.05e-07,-25.35005695999996,80.0000384,25.218750015359998,40.936750008960004
1.0550000000000001e-07,-25.35005695999996,80.0000384,25.19375001792,40.943000008320006
1.0600000000000001e-07,-25.35005695999996,64.37503744000003,25.1812500192,40.9617500064
1.0650000000000001e-07,-31.60005632000002,95.62503935999996,25.1812500192,40.9773750048
1.07e-07,-31.60005632000002,64.37503744000003,25.1812500192,40.983625004160004
1.075e-07,-37.85005567999997,80.0000384,25.168750020479997,40.9930000032
1.08e-07,-37.85005567999997,64.37503744000003,25.15625002176,40.9930000032
1.0850000000000001e-07,-31.60005632000002,48.75003647999995,25.137500023679998,40.9930000032
1.0900000000000001e-07,-44.10005504000003,33.12503551999998,25.11250002624,40.999250002560004
1.0950000000000001e-07,-44.10005504000003,48.75003647999995,25.10000002752,41.0086250016
1.1e-07,-50.350054399999976,48.75003647999995,25.09375002816,41.014875000960004
1.105e-07,-50.350054399999976,48.75003647999995,25.10000002752,41.014875000960004
1.11e-07,-56.60005376000004,64.37503744000003,25.087500028799997,41.014875000960004
1.1150000000000001e-07,-56.60005376000004,33.12503551999998,25.08125002944,41.01175000128
1.1200000000000001e-07,-62.850053119999984,33.12503551999998,25.08125002944,40.999250002560004
1.1250000000000001e-07,-62.850053119999984,17.500034560000017,25.07500003008,40.99612500288
1.13e-07,-69.10005248000004,33.12503551999998,25.09375002816,40.983625004160004
1.135e-07,-69.10005248000004,33.12503551999998,25.106250026879998,40.98050000448
1.14e-07,-69.10005248000004,33.12503551999998,25.12500002496,40.98050000448
1.1450000000000001e-07,-75.35005183999999,17.500034560000017,25.14375002304,40.98050000448
1.1500000000000001e-07,-81.6000512,1.875033599999938,25.13125002432,40.9773750048
1.1550000000000001e-07,-81.6000512,33.12503551999998,25.118750025599997,40.98050000448
1.16e-07,-81.6000512,1.875033599999938,25.11250002624,40.98050000448
1.165e-07,-69.10005248000004,-29.374968319999994,25.118750025599997,40.983625004160004
1.17e-07,-87.85005056,-29.374968319999994,25.118750025599997,40.9930000032
1.1750000000000001e-07,-87.85005056,-13.749967360000028,25.11250002624,41.00237500224
1.1800000000000001e-07,-81.6000512,-13.749967360000028,25.10000002752,41.00237500224
1.1850000000000001e-07,-87.85005056,-29.374968319999994,25.07500003008,40.9930000032
1.1900000000000001e-07,-94.10004992,-29.374968319999994,25.056250031999998,40.98050000448
1.195e-07,-81.6000512,-29.374968319999994,25.06250003136,40.974250005120005
