Time (s),V_PRI,V_SEC,V_IN,V_OUT
0.0,-42.50005504000001,-201.24997888000001,25.198500017279997,41.12162500864
5e-10,-36.250055679999946,-216.87497984000004,25.20475001664,41.127875008000004
1e-09,-30.00005632,-201.24997888000001,25.217250015359998,41.13100000768
1.5000000000000002e-09,-36.250055679999946,-201.24997888000001,25.211000016,41.14037500672001
2e-09,-30.00005632,-216.87497984000004,25.211000016,41.16225000448
2.5e-09,-36.250055679999946,-216.87497984000004,25.211000016,41.16850000384
3.0000000000000004e-09,-36.250055679999946,-216.87497984000004,25.198500017279997,41.171625003520006
3.5000000000000003e-09,-23.750056959999938,-201.24997888000001,25.19225001792,41.165375004160005
4e-09,-17.50005759999999,-232.4999808,25.19225001792,41.165375004160005
4.500000000000001e-09,-30.00005632,-232.4999808,25.19225001792,41.1591250048
5e-09,-17.50005759999999,-248.12498176000003,25.19225001792,41.16850000384
5.5000000000000004e-09,-17.50005759999999,-232.4999808,25.19225001792,41.171625003520006
6.000000000000001e-09,-23.750056959999938,-232.4999808,25.186000018559998,41.16225000448
6.5e-09,-23.750056959999938,-232.4999808,25.20475001664,41.156000005120006
7.000000000000001e-09,-11.25005823999993,-232.4999808,25.198500017279997,41.149750005760005
7.500000000000001e-09,-17.50005759999999,-248.12498176000003,25.211000016,41.15287500544
8e-09,-17.50005759999999,-248.12498176000003,25.22350001472,41.15287500544
8.5e-09,-11.25005823999993,-248.12498176000003,25.229750014079997,41.165375004160005
9.000000000000001e-09,-11.25005823999993,-248.12498176000003,25.229750014079997,41.16225000448
9.5e-09,-11.25005823999993,-263.74998272,25.211000016,41.16850000384
1e-08,-5.000058879999983,-232.4999808,25.20475001664,41.181000002560005
1.0500000000000001e-08,-11.25005823999993,-248.12498176000003,25.211000016,41.181000002560005
1.1000000000000001e-08,1.2499404800000775,-248.12498176000003,25.19225001792,41.18412500224
1.15e-08,-5.000058879999983,-216.87497984000004,25.186000018559998,41.17787500288
1.2000000000000002e-08,7.499939840000025,-248.12498176000003,25.186000018559998,41.171625003520006
1.2500000000000001e-08,1.2499404800000775,-263.74998272,25.1797500192,41.16225000448
1.3e-08,1.2499404800000775,-263.74998272,25.1797500192,41.1591250048
1.35e-08,1.2499404800000775,-279.37498368,25.1797500192,41.16225000448
1.4000000000000001e-08,7.499939840000025,-248.12498176000003,25.1797500192,41.16225000448
1.45e-08,1.2499404800000775,-248.12498176000003,25.1797500192,41.16225000448
1.5000000000000002e-08,7.499939840000025,-248.12498176000003,25.167250020479997,41.16850000384
1.55e-08,7.499939840000025,-248.12498176000003,25.1797500192,41.171625003520006
1.6e-08,1.2499404800000775,-248.12498176000003,25.17350001984,41.17787500288
1.6500000000000002e-08,13.749939200000085,-248.12498176000003,25.16100002112,41.1903750016
1.7e-08,13.749939200000085,-232.4999808,25.154750021759998,41.196625000960005
1.75e-08,13.749939200000085,-216.87497984000004,25.12975002432,41.19350000128
1.8000000000000002e-08,19.999938560000032,-232.4999808,25.12975002432,41.19975000064
1.85e-08,13.749939200000085,-232.4999808,25.14225002304,41.196625000960005
1.9e-08,19.999938560000032,-248.12498176000003,25.136000023679998,41.202875000320006
1.9500000000000003e-08,19.999938560000032,-201.24997888000001,25.12975002432,41.19350000128
2e-08,32.49993728000004,-216.87497984000004,25.12975002432,41.1903750016
2.05e-08,19.999938560000032,-232.4999808,25.14225002304,41.181000002560005
2.1000000000000003e-08,19.999938560000032,-263.74998272,25.154750021759998,41.1903750016
2.15e-08,26.24993791999998,-232.4999808,25.167250020479997,41.202875000320006
2.2000000000000002e-08,26.24993791999998,-216.87497984000004,25.1797500192,41.21537499904
2.2500000000000003e-08,19.999938560000032,-216.87497984000004,25.186000018559998,41.20912499968
2.3e-08,26.24993791999998,-201.24997888000001,25.1797500192,41.206
2.3500000000000002e-08,19.999938560000032,-201.24997888000001,25.1797500192,41.202875000320006
2.4000000000000003e-08,26.24993791999998,-201.24997888000001,25.1797500192,41.1903750016
2.45e-08,32.49993728000004,-201.24997888000001,25.186000018559998,41.19975000064
2.5000000000000002e-08,32.49993728000004,-185.62497792,25.1797500192,41.196625000960005
2.55e-08,38.74993663999999,-185.62497792,25.154750021759998,41.196625000960005
2.6e-08,32.49993728000004,-185.62497792,25.154750021759998,41.19975000064
2.6500000000000002e-08,32.49993728000004,-169.99997696000003,25.154750021759998,41.19350000128
2.7e-08,38.74993663999999,-169.99997696000003,25.148500022399997,41.19350000128
2.75e-08,38.74993663999999,-154.374976,25.154750021759998,41.1903750016
2.8000000000000003e-08,38.74993663999999,-154.374976,25.16100002112,41.187250001920006
2.85e-08,38.74993663999999,-169.99997696000003,25.167250020479997,41.1747500032
2.9e-08,44.99993600000005,-169.99997696000003,25.167250020479997,41.16850000384
2.9500000000000003e-08,44.99993600000005,-154.374976,25.17350001984,41.1591250048
3.0000000000000004e-08,51.249935359999995,-154.374976,25.167250020479997,41.156000005120006
3.05e-08,38.74993663999999,-138.74997504000004,25.17350001984,41.14662500608
3.1e-08,57.499934720000056,-154.374976,25.186000018559998,41.14037500672001
3.1500000000000004e-08,51.249935359999995,-123.12497408000002,25.211000016,41.13725000704
3.2e-08,51.249935359999995,-138.74997504000004,25.22350001472,41.13100000768
3.25e-08,57.499934720000056,-138.74997504000004,25.229750014079997,41.13725000704
3.3000000000000004e-08,69.99993344000006,-123.12497408000002,25.229750014079997,41.13100000768
3.35e-08,63.74993408,-123.12497408000002,25.217250015359998,41.12475000832001
3.4e-08,63.74993408,-123.12497408000002,25.217250015359998,41.12162500864
3.4500000000000005e-08,63.74993408,-123.12497408000002,25.229750014079997,41.118500008960005
3.5e-08,69.99993344000006,-138.74997504000004,25.217250015359998,41.12475000832001
3.55e-08,76.24993280000001,-107.49997311999999,25.198500017279997,41.13725000704
3.6000000000000005e-08,82.49993216000007,-123.12497408000002,25.186000018559998,41.149750005760005
3.65e-08,76.24993280000001,-123.12497408000002,25.186000018559998,41.149750005760005
3.7e-08,88.74993152000002,-138.74997504000004,25.186000018559998,41.1591250048
3.7500000000000005e-08,88.74993152000002,-123.12497408000002,25.198500017279997,41.16850000384
3.8e-08,88.74993152000002,-107.49997311999999,25.20475001664,41.18412500224
3.85e-08,88.74993152000002,-107.49997311999999,25.198500017279997,41.19975000064
3.9000000000000005e-08,101.24993024000003,-107.49997311999999,25.17350001984,41.20912499968
3.95e-08,94.99993088000008,-107.49997311999999,25.186000018559998,41.202875000320006
4e-08,101.24993024000003,-91.87497216000003,25.19225001792,41.1903750016
4.0500000000000005e-08,101.24993024000003,-107.49997311999999,25.198500017279997,41.18412500224
4.1e-08,113.74992896000003,-76.2499712,25.186000018559998,41.1747500032
4.15e-08,113.74992896000003,-91.87497216000003,25.154750021759998,41.17787500288
4.2000000000000006e-08,113.74992896000003,-76.2499712,25.136000023679998,41.18412500224
4.2500000000000003e-08,113.74992896000003,-76.2499712,25.148500022399997,41.17787500288
4.3e-08,119.99992831999998,-76.2499712,25.167250020479997,41.165375004160005
4.3500000000000006e-08,119.99992831999998,-44.999969280000016,25.186000018559998,41.156000005120006
4.4000000000000004e-08,126.24992768000004,-60.62497024000004,25.198500017279997,41.149750005760005
4.45e-08,126.24992768000004,-76.2499712,25.186000018559998,41.149750005760005
4.5000000000000006e-08,126.24992768000004,-76.2499712,25.167250020479997,41.1591250048
4.5500000000000004e-08,126.24992768000004,-44.999969280000016,25.16100002112,41.16850000384
4.6e-08,119.99992831999998,-44.999969280000016,25.167250020479997,41.1747500032
4.6500000000000006e-08,119.99992831999998,-29.374968319999994,25.186000018559998,41.171625003520006
4.7000000000000004e-08,132.49992704,-29.374968319999994,25.186000018559998,41.16850000384
4.75e-08,126.24992768000004,-29.374968319999994,25.198500017279997,41.16225000448
4.8000000000000006e-08,126.24992768000004,-44.999969280000016,25.211000016,41.156000005120006
4.8500000000000004e-08,126.24992768000004,-29.374968319999994,25.217250015359998,41.165375004160005
4.9e-08,132.49992704,-13.749967360000028,25.229750014079997,41.16225000448
4.95e-08,132.49992704,-13.749967360000028,25.217250015359998,41.156000005120006
5.0000000000000004e-08,132.49992704,1.875033599999938,25.217250015359998,41.143500006400004
5.05e-08,126.24992768000004,1.875033599999938,25.22350001472,41.127875008000004
5.1e-08,132.49992704,1.875033599999938,25.22350001472,41.127875008000004
5.1500000000000005e-08,132.49992704,17.500034560000017,25.2422500128,41.13725000704
5.2e-08,132.49992704,1.875033599999938,25.25475001152,41.156000005120006
5.25e-08,126.24992768000004,-13.749967360000028,25.267250010239998,41.1591250048
5.3000000000000005e-08,126.24992768000004,-13.749967360000028,25.267250010239998,41.15287500544
5.35e-08,132.49992704,17.500034560000017,25.267250010239998,41.14662500608
5.4e-08,132.49992704,17.500034560000017,25.26100001088,41.143500006400004
5.4500000000000005e-08,126.24992768000004,17.500034560000017,25.248500012159997,41.15287500544
5.5e-08,132.49992704,33.12503551999998,25.229750014079997,41.165375004160005
5.55e-08,126.24992768000004,33.12503551999998,25.236000013439998,41.16850000384
5.6000000000000005e-08,126.24992768000004,17.500034560000017,25.236000013439998,41.16225000448
5.65e-08,126.24992768000004,33.12503551999998,25.248500012159997,41.156000005120006
5.7e-08,132.49992704,48.75003647999995,25.248500012159997,41.15287500544
5.7500000000000005e-08,126.24992768000004,33.12503551999998,25.2422500128,41.156000005120006
5.8e-08,126.24992768000004,48.75003647999995,25.229750014079997,41.165375004160005
5.85e-08,119.99992831999998,64.37503744000003,25.236000013439998,41.16850000384
5.9000000000000006e-08,119.99992831999998,48.75003647999995,25.2422500128,41.16850000384
5.9500000000000003e-08,119.99992831999998,80.0000384,25.267250010239998,41.165375004160005
6.000000000000001e-08,126.24992768000004,64.37503744000003,25.279750008959997,41.156000005120006
6.05e-08,113.74992896000003,48.75003647999995,25.28600000832,41.14662500608
6.1e-08,119.99992831999998,64.37503744000003,25.2735000096,41.143500006400004
6.15e-08,119.99992831999998,64.37503744000003,25.25475001152,41.14662500608
6.2e-08,107.49992960000009,80.0000384,25.248500012159997,41.1591250048
6.250000000000001e-08,101.24993024000003,95.62503935999996,25.26100001088,41.165375004160005
6.300000000000001e-08,119.99992831999998,95.62503935999996,25.267250010239998,41.165375004160005
6.35e-08,101.24993024000003,95.62503935999996,25.28600000832,41.16225000448
6.4e-08,101.24993024000003,95.62503935999996,25.311000005759997,41.149750005760005
6.45e-08,101.24993024000003,95.62503935999996,25.31725000512,41.16225000448
6.5e-08,107.49992960000009,126.87504128,25.32350000448,41.16850000384
6.55e-08,101.24993024000003,126.87504128,25.311000005759997,41.16850000384
6.600000000000001e-08,94.99993088000008,111.25004031999993,25.298500007039998,41.16850000384
6.65e-08,88.74993152000002,126.87504128,25.3047500064,41.156000005120006
6.7e-08,88.74993152000002,111.25004031999993,25.311000005759997,41.143500006400004
6.75e-08,88.74993152000002,142.50004223999997,25.311000005759997,41.13725000704
6.8e-08,94.99993088000008,126.87504128,25.311000005759997,41.143500006400004
6.85e-08,82.49993216000007,111.25004031999993,25.311000005759997,41.134125007360005
6.900000000000001e-08,82.49993216000007,126.87504128,25.31725000512,41.13100000768
6.950000000000001e-08,82.49993216000007,142.50004223999997,25.32350000448,41.127875008000004
7e-08,76.24993280000001,142.50004223999997,25.32350000448,41.12162500864
7.05e-08,76.24993280000001,142.50004223999997,25.32350000448,41.12475000832001
7.1e-08,76.24993280000001,142.50004223999997,25.311000005759997,41.127875008000004
7.15e-08,69.99993344000006,142.50004223999997,25.311000005759997,41.13725000704
7.200000000000001e-08,69.99993344000006,142.50004223999997,25.311000005759997,41.14037500672001
7.250000000000001e-08,69.99993344000006,158.12504319999994,25.298500007039998,41.14662500608
7.3e-08,76.24993280000001,158.12504319999994,25.298500007039998,41.14037500672001
7.35e-08,69.99993344000006,158.12504319999994,25.2735000096,41.13725000704
7.4e-08,69.99993344000006,173.75004416000002,25.25475001152,41.14037500672001
7.45e-08,63.74993408,173.75004416000002,25.25475001152,41.143500006400004
7.500000000000001e-08,63.74993408,142.50004223999997,25.25475001152,41.14662500608
7.550000000000001e-08,57.499934720000056,189.37504511999998,25.25475001152,41.156000005120006
7.6e-08,69.99993344000006,158.12504319999994,25.26100001088,41.165375004160005
7.65e-08,57.499934720000056,158.12504319999994,25.267250010239998,41.16225000448
7.7e-08,57.499934720000056,158.12504319999994,25.279750008959997,41.16225000448
7.75e-08,57.499934720000056,189.37504511999998,25.28600000832,41.16225000448
7.800000000000001e-08,57.499934720000056,189.37504511999998,25.279750008959997,41.165375004160005
7.850000000000001e-08,44.99993600000005,189.37504511999998,25.279750008959997,41.171625003520006
7.9e-08,57.499934720000056,173.75004416000002,25.267250010239998,41.1747500032
7.95e-08,44.99993600000005,173.75004416000002,25.267250010239998,41.171625003520006
8e-08,38.74993663999999,189.37504511999998,25.26100001088,41.16225000448
8.05e-08,44.99993600000005,189.37504511999998,25.267250010239998,41.16225000448
8.100000000000001e-08,51.249935359999995,205.00004607999995,25.279750008959997,41.156000005120006
8.150000000000001e-08,44.99993600000005,173.75004416000002,25.267250010239998,41.156000005120006
8.2e-08,44.99993600000005,205.00004607999995,25.25475001152,41.16225000448
8.25e-08,44.99993600000005,205.00004607999995,25.26100001088,41.16225000448
8.3e-08,44.99993600000005,189.37504511999998,25.25475001152,41.156000005120006
8.35e-08,38.74993663999999,220.62504704000003,25.25475001152,41.156000005120006
8.400000000000001e-08,44.99993600000005,205.00004607999995,25.248500012159997,41.15287500544
8.450000000000001e-08,32.49993728000004,189.37504511999998,25.2422500128,41.149750005760005
8.500000000000001e-08,38.74993663999999,189.37504511999998,25.22350001472,41.156000005120006
8.55e-08,38.74993663999999,189.37504511999998,25.20475001664,41.149750005760005
8.6e-08,32.49993728000004,205.00004607999995,25.186000018559998,41.149750005760005
8.65e-08,26.24993791999998,205.00004607999995,25.1797500192,41.15287500544
8.700000000000001e-08,32.49993728000004,189.37504511999998,25.167250020479997,41.165375004160005
8.750000000000001e-08,32.49993728000004,205.00004607999995,25.1797500192,41.17787500288
8.800000000000001e-08,26.24993791999998,189.37504511999998,25.186000018559998,41.18412500224
8.85e-08,26.24993791999998,189.37504511999998,25.19225001792,41.19350000128
8.9e-08,26.24993791999998,205.00004607999995,25.20475001664,41.19350000128
8.95e-08,26.24993791999998,189.37504511999998,25.20475001664,41.187250001920006
9.000000000000001e-08,26.24993791999998,189.37504511999998,25.20475001664,41.187250001920006
9.050000000000001e-08,19.999938560000032,189.37504511999998,25.22350001472,41.187250001920006
9.100000000000001e-08,26.24993791999998,173.75004416000002,25.217250015359998,41.181000002560005
9.15e-08,13.749939200000085,189.37504511999998,25.211000016,41.187250001920006
9.2e-08,26.24993791999998,173.75004416000002,25.211000016,41.1903750016
9.25e-08,19.999938560000032,173.75004416000002,25.217250015359998,41.18412500224
9.300000000000001e-08,19.999938560000032,158.12504319999994,25.211000016,41.19350000128
9.350000000000001e-08,13.749939200000085,158.12504319999994,25.211000016,41.19975000064
9.400000000000001e-08,13.749939200000085,173.75004416000002,25.211000016,41.206
9.45e-08,7.499939840000025,158.12504319999994,25.211000016,41.21537499904
9.5e-08,13.749939200000085,142.50004223999997,25.198500017279997,41.227874997760004
9.55e-08,7.499939840000025,158.12504319999994,25.198500017279997,41.234124997120006
9.600000000000001e-08,1.2499404800000775,142.50004223999997,25.19225001792,41.22474999808
9.650000000000001e-08,13.749939200000085,142.50004223999997,25.17350001984,41.212249999360004
9.700000000000001e-08,7.499939840000025,142.50004223999997,25.167250020479997,41.19975000064
9.75e-08,7.499939840000025,142.50004223999997,25.14225002304,41.187250001920006
9.8e-08,7.499939840000025,142.50004223999997,25.12350002496,41.18412500224
9.85e-08,1.2499404800000775,142.50004223999997,25.12975002432,41.181000002560005
9.9e-08,1.2499404800000775,126.87504128,25.12975002432,41.17787500288
9.950000000000001e-08,1.2499404800000775,158.12504319999994,25.12975002432,41.1747500032
1.0000000000000001e-07,7.499939840000025,111.25004031999993,25.136000023679998,41.181000002560005
1.005e-07,-5.000058879999983,111.25004031999993,25.148500022399997,41.18412500224
1.01e-07,-5.000058879999983,95.62503935999996,25.167250020479997,41.1903750016
1.015e-07,-5.000058879999983,95.62503935999996,25.1797500192,41.187250001920006
1.02e-07,-11.25005823999993,95.62503935999996,25.19225001792,41.17787500288
1.0250000000000001e-07,-11.25005823999993,95.62503935999996,25.211000016,41.171625003520006
1.0300000000000001e-07,-5.000058879999983,95.62503935999996,25.217250015359998,41.165375004160005
1.0350000000000001e-07,-11.25005823999993,80.0000384,25.22350001472,41.165375004160005
1.04e-07,-17.50005759999999,80.0000384,25.22350001472,41.1591250048
1.045e-07,-17.50005759999999,80.0000384,25.229750014079997,41.1591250048
1.05e-07,-17.50005759999999,80.0000384,25.229750014079997,41.14662500608
1.0550000000000001e-07,-17.50005759999999,80.0000384,25.22350001472,41.13725000704
1.0600000000000001e-07,-23.750056959999938,80.0000384,25.217250015359998,41.134125007360005
1.0650000000000001e-07,-30.00005632,80.0000384,25.217250015359998,41.127875008000004
1.07e-07,-30.00005632,64.37503744000003,25.198500017279997,41.12162500864
1.075e-07,-30.00005632,95.62503935999996,25.186000018559998,41.127875008000004
1.08e-07,-23.750056959999938,64.37503744000003,25.1797500192,41.14037500672001
1.0850000000000001e-07,-36.250055679999946,48.75003647999995,25.186000018559998,41.14037500672001
1.0900000000000001e-07,-36.250055679999946,48.75003647999995,25.17350001984,41.14037500672001
1.0950000000000001e-07,-42.50005504000001,64.37503744000003,25.154750021759998,41.143500006400004
1.1e-07,-42.50005504000001,64.37503744000003,25.12350002496,41.149750005760005
1.105e-07,-61.25005311999996,64.37503744000003,25.11100002624,41.15287500544
1.11e-07,-55.000053760000014,64.37503744000003,25.09225002816,41.16850000384
1.1150000000000001e-07,-61.25005311999996,64.37503744000003,25.104750026879998,41.18412500224
1.1200000000000001e-07,-61.25005311999996,48.75003647999995,25.11100002624,41.19350000128
1.1250000000000001e-07,-61.25005311999996,48.75003647999995,25.09850002752,41.19975000064
1.13e-07,-61.25005311999996,48.75003647999995,25.086000028799997,41.196625000960005
1.135e-07,-67.50005248000002,33.12503551999998,25.067250030719997,41.19350000128
1.14e-07,-67.50005248000002,48.75003647999995,25.067250030719997,41.19350000128
1.1450000000000001e-07,-73.75005183999997,64.37503744000003,25.104750026879998,41.18412500224
1.1500000000000001e-07,-73.75005183999997,33.12503551999998,25.11100002624,41.17787500288
1.1550000000000001e-07,-73.75005183999997,48.75003647999995,25.117250025599997,41.16850000384
1.16e-07,-73.75005183999997,17.500034560000017,25.104750026879998,41.1591250048
1.165e-07,-86.25005055999998,1.875033599999938,25.104750026879998,41.149750005760005
1.17e-07,-80.00005119999997,1.875033599999938,25.104750026879998,41.149750005760005
1.1750000000000001e-07,-80.00005119999997,1.875033599999938,25.11100002624,41.149750005760005
1.1800000000000001e-07,-86.25005055999998,17.500034560000017,25.117250025599997,41.156000005120006
