Time (s),V_PRI,V_SEC,V_IN,V_OUT
0.0,-48.750054399999954,-201.24997888000001,25.195500017279997,41.22387500864
5e-10,-42.50005504000001,-201.24997888000001,25.18925001792,41.230125008
1e-09,-42.50005504000001,-201.24997888000001,25.195500017279997,41.22387500864
1.5000000000000002e-09,-42.50005504000001,-201.24997888000001,25.18925001792,41.2145000096
2e-09,-36.250055679999946,-185.62497792,25.1767500192,41.20825001024
2.5e-09,-36.250055679999946,-216.87497984000004,25.195500017279997,41.20825001024
3.0000000000000004e-09,-36.250055679999946,-216.87497984000004,25.20175001664,41.2145000096
3.5000000000000003e-09,-30.00005632,-201.24997888000001,25.20175001664,41.23950000704
4e-09,-30.00005632,-201.24997888000001,25.20175001664,41.24887500608
4.500000000000001e-09,-30.00005632,-201.24997888000001,25.183000018559998,41.25512500544
5e-09,-30.00005632,-201.24997888000001,25.18925001792,41.2613750048
5.5000000000000004e-09,-30.00005632,-232.4999808,25.18925001792,41.2613750048
6.000000000000001e-09,-23.750056959999938,-201.24997888000001,25.18925001792,41.26762500416
6.5e-09,-23.750056959999938,-216.87497984000004,25.183000018559998,41.273875003520004
7.000000000000001e-09,-17.50005759999999,-248.12498176000003,25.1767500192,41.2770000032
7.500000000000001e-09,-23.750056959999938,-248.12498176000003,25.183000018559998,41.26762500416
8e-09,-17.50005759999999,-232.4999808,25.183000018559998,41.26450000448
8.5e-09,-17.50005759999999,-232.4999808,25.195500017279997,41.2613750048
9.000000000000001e-09,-17.50005759999999,-248.12498176000003,25.20175001664,41.25512500544
9.5e-09,-17.50005759999999,-232.4999808,25.214250015359998,41.25200000576
1e-08,-11.25005823999993,-248.12498176000003,25.20175001664,41.25200000576
1.0500000000000001e-08,-17.50005759999999,-248.12498176000003,25.208000016,41.25200000576
1.1000000000000001e-08,-17.50005759999999,-248.12498176000003,25.214250015359998,41.25200000576
1.15e-08,-17.50005759999999,-248.12498176000003,25.195500017279997,41.26450000448
1.2000000000000002e-08,-5.000058879999983,-248.12498176000003,25.195500017279997,41.27075000384
1.2500000000000001e-08,-5.000058879999983,-232.4999808,25.17050001984,41.2770000032
1.3e-08,-5.000058879999983,-248.12498176000003,25.15800002112,41.28637500224
1.35e-08,-5.000058879999983,-248.12498176000003,25.164250020479997,41.28325000256
1.4000000000000001e-08,1.2499404800000775,-232.4999808,25.151750021759998,41.28325000256
1.45e-08,1.2499404800000775,-248.12498176000003,25.151750021759998,41.2770000032
1.5000000000000002e-08,13.749939200000085,-263.74998272,25.151750021759998,41.2770000032
1.55e-08,1.2499404800000775,-279.37498368,25.151750021759998,41.26762500416
1.6e-08,7.499939840000025,-263.74998272,25.15800002112,41.26762500416
1.6500000000000002e-08,7.499939840000025,-248.12498176000003,25.17050001984,41.26450000448
1.7e-08,7.499939840000025,-248.12498176000003,25.164250020479997,41.27075000384
1.75e-08,7.499939840000025,-248.12498176000003,25.164250020479997,41.273875003520004
1.8000000000000002e-08,13.749939200000085,-232.4999808,25.145500022399997,41.273875003520004
1.85e-08,13.749939200000085,-248.12498176000003,25.13925002304,41.2770000032
1.9e-08,7.499939840000025,-232.4999808,25.133000023679998,41.273875003520004
1.9500000000000003e-08,13.749939200000085,-248.12498176000003,25.133000023679998,41.28637500224
2e-08,13.749939200000085,-232.4999808,25.133000023679998,41.29575000128
2.05e-08,13.749939200000085,-216.87497984000004,25.114250025599997,41.30200000064
2.1000000000000003e-08,13.749939200000085,-216.87497984000004,25.10800002624,41.31137499968
2.15e-08,19.999938560000032,-248.12498176000003,25.114250025599997,41.305125000320004
2.2000000000000002e-08,19.999938560000032,-201.24997888000001,25.114250025599997,41.29887500096
2.2500000000000003e-08,19.999938560000032,-232.4999808,25.12675002432,41.29887500096
2.3e-08,32.49993728000004,-232.4999808,25.133000023679998,41.30825
2.3500000000000002e-08,26.24993791999998,-232.4999808,25.145500022399997,41.30200000064
2.4000000000000003e-08,26.24993791999998,-216.87497984000004,25.151750021759998,41.31137499968
2.45e-08,26.24993791999998,-201.24997888000001,25.15800002112,41.30825
2.5000000000000002e-08,26.24993791999998,-201.24997888000001,25.15800002112,41.30825
2.55e-08,26.24993791999998,-201.24997888000001,25.15800002112,41.29575000128
2.6e-08,32.49993728000004,-185.62497792,25.145500022399997,41.29575000128
2.6500000000000002e-08,32.49993728000004,-185.62497792,25.145500022399997,41.29575000128
2.7e-08,26.24993791999998,-201.24997888000001,25.13925002304,41.289500001920004
2.75e-08,32.49993728000004,-185.62497792,25.133000023679998,41.289500001920004
2.8000000000000003e-08,38.74993663999999,-185.62497792,25.13925002304,41.289500001920004
2.85e-08,38.74993663999999,-169.99997696000003,25.12675002432,41.2926250016
2.9e-08,38.74993663999999,-154.374976,25.13925002304,41.30200000064
2.9500000000000003e-08,38.74993663999999,-169.99997696000003,25.15800002112,41.29887500096
3.0000000000000004e-08,44.99993600000005,-154.374976,25.15800002112,41.2926250016
3.05e-08,51.249935359999995,-169.99997696000003,25.164250020479997,41.28325000256
3.1e-08,57.499934720000056,-169.99997696000003,25.164250020479997,41.28012500288
3.1500000000000004e-08,51.249935359999995,-185.62497792,25.1767500192,41.26762500416
3.2e-08,51.249935359999995,-154.374976,25.1767500192,41.26450000448
3.25e-08,51.249935359999995,-138.74997504000004,25.195500017279997,41.258250005120004
3.3000000000000004e-08,57.499934720000056,-138.74997504000004,25.20175001664,41.25200000576
3.35e-08,51.249935359999995,-138.74997504000004,25.20175001664,41.2457500064
3.4e-08,57.499934720000056,-138.74997504000004,25.195500017279997,41.242625006720004
3.4500000000000005e-08,57.499934720000056,-138.74997504000004,25.20175001664,41.23637500736
3.5e-08,57.499934720000056,-138.74997504000004,25.208000016,41.227000008320005
3.55e-08,63.74993408,-123.12497408000002,25.214250015359998,41.22387500864
3.6000000000000005e-08,76.24993280000001,-123.12497408000002,25.214250015359998,41.2145000096
3.65e-08,76.24993280000001,-123.12497408000002,25.183000018559998,41.21762500928
3.7e-08,69.99993344000006,-107.49997311999999,25.164250020479997,41.227000008320005
3.7500000000000005e-08,76.24993280000001,-138.74997504000004,25.164250020479997,41.230125008
3.8e-08,82.49993216000007,-91.87497216000003,25.164250020479997,41.23325000768
3.85e-08,82.49993216000007,-123.12497408000002,25.164250020479997,41.23950000704
3.9000000000000005e-08,94.99993088000008,-123.12497408000002,25.164250020479997,41.25512500544
3.95e-08,88.74993152000002,-138.74997504000004,25.17050001984,41.26762500416
4e-08,94.99993088000008,-123.12497408000002,25.15800002112,41.29575000128
4.0500000000000005e-08,101.24993024000003,-91.87497216000003,25.164250020479997,41.30825
4.1e-08,101.24993024000003,-107.49997311999999,25.1767500192,41.305125000320004
4.15e-08,94.99993088000008,-91.87497216000003,25.183000018559998,41.29575000128
4.2000000000000006e-08,107.49992960000009,-107.49997311999999,25.164250020479997,41.2926250016
4.2500000000000003e-08,107.49992960000009,-107.49997311999999,25.145500022399997,41.29575000128
4.3e-08,107.49992960000009,-91.87497216000003,25.133000023679998,41.2926250016
4.3500000000000006e-08,113.74992896000003,-76.2499712,25.12050002496,41.29575000128
4.4000000000000004e-08,119.99992831999998,-91.87497216000003,25.13925002304,41.28012500288
4.45e-08,119.99992831999998,-76.2499712,25.151750021759998,41.258250005120004
4.5000000000000006e-08,119.99992831999998,-76.2499712,25.17050001984,41.25200000576
4.5500000000000004e-08,113.74992896000003,-76.2499712,25.1767500192,41.25200000576
4.6e-08,126.24992768000004,-29.374968319999994,25.164250020479997,41.258250005120004
4.6500000000000006e-08,126.24992768000004,-60.62497024000004,25.164250020479997,41.2613750048
4.7000000000000004e-08,138.74992640000005,-76.2499712,25.164250020479997,41.26762500416
4.75e-08,126.24992768000004,-76.2499712,25.17050001984,41.26450000448
4.8000000000000006e-08,126.24992768000004,-44.999969280000016,25.17050001984,41.26762500416
4.8500000000000004e-08,132.49992704,-44.999969280000016,25.17050001984,41.26450000448
4.9e-08,132.49992704,-29.374968319999994,25.164250020479997,41.26762500416
4.95e-08,126.24992768000004,-29.374968319999994,25.17050001984,41.273875003520004
5.0000000000000004e-08,132.49992704,-13.749967360000028,25.164250020479997,41.2770000032
5.05e-08,132.49992704,-29.374968319999994,25.183000018559998,41.27075000384
5.1e-08,126.24992768000004,-13.749967360000028,25.18925001792,41.258250005120004
5.1500000000000005e-08,132.49992704,1.875033599999938,25.18925001792,41.24887500608
5.2e-08,138.74992640000005,-13.749967360000028,25.208000016,41.23637500736
5.25e-08,132.49992704,17.500034560000017,25.214250015359998,41.242625006720004
5.3000000000000005e-08,132.49992704,17.500034560000017,25.226750014079997,41.25512500544
5.35e-08,126.24992768000004,-13.749967360000028,25.25175001152,41.25512500544
5.4e-08,132.49992704,17.500034560000017,25.25175001152,41.24887500608
5.4500000000000005e-08,126.24992768000004,1.875033599999938,25.25800001088,41.23325000768
5.5e-08,138.74992640000005,1.875033599999938,25.25175001152,41.23637500736
5.55e-08,126.24992768000004,-13.749967360000028,25.245500012159997,41.23950000704
5.6000000000000005e-08,132.49992704,1.875033599999938,25.245500012159997,41.258250005120004
5.65e-08,132.49992704,17.500034560000017,25.245500012159997,41.273875003520004
5.7e-08,132.49992704,17.500034560000017,25.2392500128,41.27075000384
5.7500000000000005e-08,126.24992768000004,33.12503551999998,25.245500012159997,41.258250005120004
5.8e-08,132.49992704,48.75003647999995,25.245500012159997,41.25200000576
5.85e-08,119.99992831999998,33.12503551999998,25.25175001152,41.258250005120004
5.9000000000000006e-08,119.99992831999998,33.12503551999998,25.2392500128,41.26450000448
5.9500000000000003e-08,126.24992768000004,48.75003647999995,25.226750014079997,41.28012500288
6.000000000000001e-08,126.24992768000004,48.75003647999995,25.2392500128,41.28325000256
6.05e-08,119.99992831999998,48.75003647999995,25.2392500128,41.2770000032
6.1e-08,119.99992831999998,64.37503744000003,25.25800001088,41.27075000384
6.15e-08,113.74992896000003,64.37503744000003,25.28300000832,41.258250005120004
6.2e-08,113.74992896000003,95.62503935999996,25.2705000096,41.2457500064
6.250000000000001e-08,113.74992896000003,64.37503744000003,25.25800001088,41.242625006720004
6.300000000000001e-08,119.99992831999998,64.37503744000003,25.25175001152,41.25200000576
6.35e-08,107.49992960000009,64.37503744000003,25.25175001152,41.25200000576
6.4e-08,107.49992960000009,95.62503935999996,25.264250010239998,41.258250005120004
6.45e-08,113.74992896000003,95.62503935999996,25.276750008959997,41.25512500544
6.5e-08,101.24993024000003,111.25004031999993,25.28925000768,41.24887500608
6.55e-08,94.99993088000008,111.25004031999993,25.308000005759997,41.25512500544
6.600000000000001e-08,101.24993024000003,111.25004031999993,25.308000005759997,41.26450000448
6.65e-08,101.24993024000003,111.25004031999993,25.314250005119998,41.2770000032
6.7e-08,94.99993088000008,111.25004031999993,25.314250005119998,41.273875003520004
6.75e-08,94.99993088000008,111.25004031999993,25.32050000448,41.27075000384
6.8e-08,101.24993024000003,126.87504128,25.32050000448,41.258250005120004
6.85e-08,88.74993152000002,126.87504128,25.308000005759997,41.25200000576
6.900000000000001e-08,88.74993152000002,142.50004223999997,25.308000005759997,41.25200000576
6.950000000000001e-08,88.74993152000002,126.87504128,25.32050000448,41.24887500608
7e-08,88.74993152000002,158.12504319999994,25.314250005119998,41.242625006720004
7.05e-08,82.49993216000007,126.87504128,25.308000005759997,41.23950000704
7.1e-08,88.74993152000002,126.87504128,25.314250005119998,41.23637500736
7.15e-08,76.24993280000001,126.87504128,25.32050000448,41.227000008320005
7.200000000000001e-08,82.49993216000007,142.50004223999997,25.3330000032,41.23637500736
7.250000000000001e-08,76.24993280000001,142.50004223999997,25.326750003839997,41.242625006720004
7.3e-08,76.24993280000001,142.50004223999997,25.326750003839997,41.242625006720004
7.35e-08,63.74993408,158.12504319999994,25.314250005119998,41.242625006720004
7.4e-08,69.99993344000006,142.50004223999997,25.28925000768,41.23950000704
7.45e-08,69.99993344000006,142.50004223999997,25.276750008959997,41.23325000768
7.500000000000001e-08,63.74993408,142.50004223999997,25.2705000096,41.22387500864
7.550000000000001e-08,63.74993408,173.75004416000002,25.25800001088,41.23325000768
7.6e-08,63.74993408,158.12504319999994,25.25800001088,41.23950000704
7.65e-08,57.499934720000056,158.12504319999994,25.245500012159997,41.24887500608
7.7e-08,63.74993408,189.37504511999998,25.25175001152,41.2613750048
7.75e-08,57.499934720000056,158.12504319999994,25.2705000096,41.258250005120004
7.800000000000001e-08,57.499934720000056,173.75004416000002,25.2705000096,41.25200000576
7.850000000000001e-08,63.74993408,158.12504319999994,25.276750008959997,41.24887500608
7.9e-08,69.99993344000006,158.12504319999994,25.276750008959997,41.25512500544
7.95e-08,51.249935359999995,158.12504319999994,25.264250010239998,41.258250005120004
8e-08,57.499934720000056,173.75004416000002,25.264250010239998,41.26762500416
8.05e-08,51.249935359999995,189.37504511999998,25.25175001152,41.2770000032
8.100000000000001e-08,51.249935359999995,189.37504511999998,25.25175001152,41.273875003520004
8.150000000000001e-08,51.249935359999995,173.75004416000002,25.25800001088,41.27075000384
8.2e-08,51.249935359999995,189.37504511999998,25.25800001088,41.26450000448
8.25e-08,44.99993600000005,189.37504511999998,25.2705000096,41.26450000448
8.3e-08,38.74993663999999,189.37504511999998,25.264250010239998,41.27075000384
8.35e-08,44.99993600000005,205.00004607999995,25.264250010239998,41.2770000032
8.400000000000001e-08,44.99993600000005,189.37504511999998,25.25800001088,41.273875003520004
8.450000000000001e-08,38.74993663999999,205.00004607999995,25.245500012159997,41.27075000384
8.500000000000001e-08,38.74993663999999,205.00004607999995,25.25175001152,41.26450000448
8.55e-08,32.49993728000004,173.75004416000002,25.25175001152,41.258250005120004
8.6e-08,38.74993663999999,220.62504704000003,25.233000013439998,41.2457500064
8.65e-08,38.74993663999999,189.37504511999998,25.214250015359998,41.23950000704
8.700000000000001e-08,38.74993663999999,189.37504511999998,25.18925001792,41.23637500736
8.750000000000001e-08,26.24993791999998,189.37504511999998,25.183000018559998,41.230125008
8.800000000000001e-08,32.49993728000004,189.37504511999998,25.17050001984,41.242625006720004
8.85e-08,32.49993728000004,189.37504511999998,25.17050001984,41.258250005120004
8.9e-08,26.24993791999998,189.37504511999998,25.164250020479997,41.273875003520004
8.95e-08,19.999938560000032,189.37504511999998,25.164250020479997,41.28637500224
9.000000000000001e-08,26.24993791999998,189.37504511999998,25.164250020479997,41.289500001920004
9.050000000000001e-08,19.999938560000032,189.37504511999998,25.1767500192,41.2926250016
9.100000000000001e-08,13.749939200000085,189.37504511999998,25.195500017279997,41.28637500224
9.15e-08,19.999938560000032,189.37504511999998,25.195500017279997,41.2926250016
9.2e-08,26.24993791999998,173.75004416000002,25.195500017279997,41.289500001920004
9.25e-08,19.999938560000032,205.00004607999995,25.183000018559998,41.28637500224
9.300000000000001e-08,19.999938560000032,189.37504511999998,25.1767500192,41.2926250016
9.350000000000001e-08,19.999938560000032,173.75004416000002,25.208000016,41.28637500224
9.400000000000001e-08,19.999938560000032,189.37504511999998,25.20175001664,41.28012500288
9.45e-08,19.999938560000032,158.12504319999994,25.20175001664,41.28012500288
9.5e-08,26.24993791999998,158.12504319999994,25.195500017279997,41.28637500224
9.55e-08,13.749939200000085,158.12504319999994,25.20175001664,41.289500001920004
9.600000000000001e-08,19.999938560000032,158.12504319999994,25.195500017279997,41.30825
9.650000000000001e-08,13.749939200000085,158.12504319999994,25.195500017279997,41.32699999808
9.700000000000001e-08,13.749939200000085,142.50004223999997,25.1767500192,41.336374997120004
9.75e-08,7.499939840000025,158.12504319999994,25.164250020479997,41.33012499776
9.8e-08,13.749939200000085,142.50004223999997,25.13925002304,41.320749998720004
9.85e-08,7.499939840000025,142.50004223999997,25.133000023679998,41.305125000320004
9.9e-08,1.2499404800000775,142.50004223999997,25.133000023679998,41.2926250016
9.950000000000001e-08,7.499939840000025,142.50004223999997,25.12050002496,41.2926250016
1.0000000000000001e-07,7.499939840000025,126.87504128,25.12050002496,41.28637500224
1.005e-07,1.2499404800000775,142.50004223999997,25.101750026879998,41.28325000256
1.01e-07,1.2499404800000775,142.50004223999997,25.114250025599997,41.28012500288
1.015e-07,1.2499404800000775,111.25004031999993,25.133000023679998,41.28012500288
1.02e-07,-5.000058879999983,142.50004223999997,25.151750021759998,41.28325000256
1.0250000000000001e-07,-5.000058879999983,111.25004031999993,25.17050001984,41.28637500224
1.0300000000000001e-07,1.2499404800000775,111.25004031999993,25.183000018559998,41.28637500224
1.0350000000000001e-07,-11.25005823999993,95.62503935999996,25.20175001664,41.273875003520004
1.04e-07,-11.25005823999993,95.62503935999996,25.208000016,41.273875003520004
1.045e-07,-11.25005823999993,95.62503935999996,25.214250015359998,41.273875003520004
1.05e-07,-11.25005823999993,80.0000384,25.214250015359998,41.2770000032
1.0550000000000001e-07,-23.750056959999938,80.0000384,25.22050001472,41.2770000032
1.0600000000000001e-07,-17.50005759999999,80.0000384,25.214250015359998,41.26762500416
1.0650000000000001e-07,-23.750056959999938,80.0000384,25.22050001472,41.258250005120004
1.07e-07,-23.750056959999938,80.0000384,25.22050001472,41.24887500608
1.075e-07,-23.750056959999938,80.0000384,25.214250015359998,41.24887500608
1.08e-07,-23.750056959999938,80.0000384,25.20175001664,41.242625006720004
1.0850000000000001e-07,-36.250055679999946,80.0000384,25.183000018559998,41.23950000704
1.0900000000000001e-07,-36.250055679999946,80.0000384,25.1767500192,41.23950000704
1.0950000000000001e-07,-42.50005504000001,64.37503744000003,25.183000018559998,41.23325000768
1.1e-07,-42.50005504000001,95.62503935999996,25.164250020479997,41.227000008320005
1.105e-07,-42.50005504000001,64.37503744000003,25.13925002304,41.227000008320005
1.11e-07,-42.50005504000001,48.75003647999995,25.114250025599997,41.230125008
1.1150000000000001e-07,-48.750054399999954,48.75003647999995,25.09550002752,41.227000008320005
1.1200000000000001e-07,-55.000053760000014,64.37503744000003,25.083000028799997,41.242625006720004
1.1250000000000001e-07,-55.000053760000014,48.75003647999995,25.09550002752,41.2613750048
1.13e-07,-61.25005311999996,64.37503744000003,25.08925002816,41.2770000032
1.135e-07,-67.50005248000002,48.75003647999995,25.083000028799997,41.289500001920004
1.14e-07,-61.25005311999996,48.75003647999995,25.064250030719997,41.29575000128
1.1450000000000001e-07,-67.50005248000002,48.75003647999995,25.07675002944,41.29887500096
1.1500000000000001e-07,-73.75005183999997,17.500034560000017,25.08925002816,41.2926250016
1.1550000000000001e-07,-73.75005183999997,48.75003647999995,25.101750026879998,41.30200000064
1.16e-07,-73.75005183999997,33.12503551999998,25.114250025599997,41.29887500096
1.165e-07,-80.00005119999997,33.12503551999998,25.09550002752,41.29575000128
1.17e-07,-80.00005119999997,48.75003647999995,25.07675002944,41.28637500224
1.1750000000000001e-07,-86.25005055999998,33.12503551999998,25.083000028799997,41.273875003520004
1.1800000000000001e-07,-86.25005055999998,33.12503551999998,25.083000028799997,41.2613750048
1.1850000000000001e-07,-86.25005055999998,17.500034560000017,25.09550002752,41.24887500608
1.1900000000000001e-07,-86.25005055999998,1.875033599999938,25.09550002752,41.25200000576
1.195e-07,-92.50004991999998,-13.749967360000028,25.08925002816,41.25200000576
