Time (s),V_PRI,V_SEC,V_IN,V_OUT
0.0,-178.87491840000007,108.09996544000003,25.52099998272,29.29900000704
5e-10,-178.87491840000007,95.59996672000003,25.55224998464,29.3052500064
1e-09,-178.87491840000007,89.34996736000002,25.61474998848,29.31462500544
1.5000000000000002e-09,-178.87491840000007,76.84996864000001,25.61474998848,29.3365000032
2e-09,-178.87491840000007,89.34996736000002,25.61474998848,29.358375000960002
2.5e-09,-178.87491840000007,83.09996800000002,25.58349998656,29.36150000064
3.0000000000000004e-09,-178.87491840000007,83.09996800000002,25.5678749856,29.3521250016
3.5000000000000003e-09,-210.12492032,70.59996928000001,25.55224998464,29.342750002560003
4e-09,-194.49991936000015,70.59996928000001,25.5678749856,29.327125004160003
4.500000000000001e-09,-178.87491840000007,64.34996992,25.58349998656,29.31150000576
5e-09,-194.49991936000015,64.34996992,25.59912498752,29.30212500672
5.5000000000000004e-09,-194.49991936000015,58.09997056,25.59912498752,29.28025000896
6.000000000000001e-09,-194.49991936000015,51.8499712,25.63037498944,29.258375011200002
6.5e-09,-194.49991936000015,51.8499712,25.69287499328,29.25212501184
7.000000000000001e-09,-210.12492032,58.09997056,25.73974999616,29.24900001216
7.500000000000001e-09,-194.49991936000015,45.599971839999995,25.70849999424,29.25212501184
8e-09,-194.49991936000015,58.09997056,25.70849999424,29.26462501056
8.5e-09,-194.49991936000015,45.599971839999995,25.66162499136,29.28025000896
9.000000000000001e-09,-178.87491840000007,33.09997311999999,25.63037498944,29.292750007680002
9.5e-09,-194.49991936000015,26.849973759999983,25.58349998656,29.3052500064
1e-08,-194.49991936000015,39.34997247999999,25.53662498368,29.308375006080002
1.0500000000000001e-08,-194.49991936000015,39.34997247999999,25.4897499808,29.30212500672
1.1000000000000001e-08,-194.49991936000015,39.34997247999999,25.442874977920003,29.29900000704
1.15e-08,-194.49991936000015,33.09997311999999,25.442874977920003,29.29900000704
1.2000000000000002e-08,-194.49991936000015,26.849973759999983,25.47412497984,29.29900000704
1.2500000000000001e-08,-194.49991936000015,26.849973759999983,25.47412497984,29.289625008
1.3e-08,-210.12492032,26.849973759999983,25.4897499808,29.28337500864
1.35e-08,-194.49991936000015,26.849973759999983,25.52099998272,29.2740000096
1.4000000000000001e-08,-178.87491840000007,26.849973759999983,25.52099998272,29.27087500992
1.45e-08,-178.87491840000007,26.849973759999983,25.5678749856,29.28025000896
1.5000000000000002e-08,-194.49991936000015,20.599974400000008,25.58349998656,29.28025000896
1.55e-08,-178.87491840000007,14.349975040000004,25.5678749856,29.277125009280002
1.6e-08,-178.87491840000007,20.599974400000008,25.58349998656,29.2740000096
1.6500000000000002e-08,-147.62491648000014,8.09997568,25.5678749856,29.2740000096
1.7e-08,-163.24991744,8.09997568,25.5678749856,29.277125009280002
1.75e-08,-163.24991744,1.8499763199999961,25.5678749856,29.28650000832
1.8000000000000002e-08,-147.62491648000014,1.8499763199999961,25.5678749856,29.292750007680002
1.85e-08,-147.62491648000014,-4.400023039999979,25.55224998464,29.289625008
1.9e-08,-147.62491648000014,-4.400023039999979,25.55224998464,29.289625008
1.9500000000000003e-08,-147.62491648000014,-4.400023039999979,25.55224998464,29.29587500736
2e-08,-131.99991552000006,-10.650022399999983,25.5678749856,29.3052500064
2.05e-08,-131.99991552000006,-16.900021759999987,25.53662498368,29.31150000576
2.1000000000000003e-08,-147.62491648000014,-16.900021759999987,25.52099998272,29.31462500544
2.15e-08,-116.37491455999998,-23.15002111999999,25.53662498368,29.3052500064
2.2000000000000002e-08,-116.37491455999998,-23.15002111999999,25.47412497984,29.29587500736
2.2500000000000003e-08,-147.62491648000014,-29.400020479999995,25.47412497984,29.29587500736
2.3e-08,-116.37491455999998,-29.400020479999995,25.45849997888,29.289625008
2.3500000000000002e-08,-131.99991552000006,-35.65001984,25.395999975040002,29.28337500864
2.4000000000000003e-08,-116.37491455999998,-29.400020479999995,25.364749973120002,29.26462501056
2.45e-08,-116.37491455999998,-41.9000192,25.317874970240002,29.258375011200002
2.5000000000000002e-08,-85.12491264000005,-54.40001792000001,25.28662496832,29.24900001216
2.55e-08,-116.37491455999998,-60.650017279999986,25.27099996736,29.25525001152
2.6e-08,-100.74991360000013,-48.15001856000001,25.2553749664,29.261500010880003
2.6500000000000002e-08,-100.74991360000013,-60.650017279999986,25.27099996736,29.26462501056
2.7e-08,-116.37491455999998,-60.650017279999986,25.27099996736,29.26775001024
2.75e-08,-131.99991552000006,-60.650017279999986,25.28662496832,29.27087500992
2.8000000000000003e-08,-116.37491455999998,-66.90001663999999,25.317874970240002,29.28025000896
2.85e-08,-116.37491455999998,-66.90001663999999,25.302249969280002,29.28337500864
2.9e-08,-116.37491455999998,-73.150016,25.28662496832,29.29900000704
2.9500000000000003e-08,-116.37491455999998,-66.90001663999999,25.28662496832,29.292750007680002
3.0000000000000004e-08,-100.74991360000013,-73.150016,25.2553749664,29.292750007680002
3.05e-08,-100.74991360000013,-73.150016,25.2553749664,29.30212500672
3.1e-08,-100.74991360000013,-73.150016,25.22412496448,29.30212500672
3.1500000000000004e-08,-100.74991360000013,-79.40001536,25.16162496064,29.3052500064
3.2e-08,-100.74991360000013,-73.150016,25.14599995968,29.29900000704
3.25e-08,-100.74991360000013,-85.65001472,25.11474995776,29.29587500736
3.3000000000000004e-08,-85.12491264000005,-91.90001408,25.08349995584,29.28025000896
3.35e-08,-100.74991360000013,-98.15001344000001,25.08349995584,29.277125009280002
3.4e-08,-69.49991167999997,-91.90001408,25.06787495488,29.277125009280002
3.4500000000000005e-08,-69.49991167999997,-98.15001344000001,25.0991249568,29.26775001024
3.5e-08,-85.12491264000005,-104.4000128,25.11474995776,29.258375011200002
3.55e-08,-100.74991360000013,-104.4000128,25.0991249568,29.258375011200002
3.6000000000000005e-08,-69.49991167999997,-104.4000128,25.14599995968,29.261500010880003
3.65e-08,-85.12491264000005,-104.4000128,25.11474995776,29.26462501056
3.7e-08,-69.49991167999997,-104.4000128,25.11474995776,29.28337500864
3.7500000000000005e-08,-69.49991167999997,-116.90001151999999,25.11474995776,29.28650000832
3.8e-08,-38.24990976000004,-116.90001151999999,25.0991249568,29.29587500736
3.85e-08,-53.874910720000116,-116.90001151999999,25.14599995968,29.30212500672
3.9000000000000005e-08,-53.874910720000116,-116.90001151999999,25.14599995968,29.30212500672
3.95e-08,-53.874910720000116,-123.15001088,25.14599995968,29.29587500736
4e-08,-38.24990976000004,-123.15001088,25.16162496064,29.29587500736
4.0500000000000005e-08,-53.874910720000116,-135.6500096,25.19287496256,29.28650000832
4.1e-08,-22.624908799999957,-141.90000896,25.20849996352,29.277125009280002
4.15e-08,-53.874910720000116,-141.90000896,25.22412496448,29.28025000896
4.2000000000000006e-08,-38.24990976000004,-141.90000896,25.2553749664,29.28337500864
4.2500000000000003e-08,-38.24990976000004,-148.15000831999998,25.28662496832,29.28337500864
4.3e-08,-38.24990976000004,-148.15000831999998,25.302249969280002,29.28337500864
4.3500000000000006e-08,-38.24990976000004,-148.15000831999998,25.317874970240002,29.28337500864
4.4000000000000004e-08,-38.24990976000004,-148.15000831999998,25.333499971200002,29.28025000896
4.45e-08,-38.24990976000004,-160.65000704,25.317874970240002,29.27087500992
4.5000000000000006e-08,-38.24990976000004,-154.40000768,25.317874970240002,29.27087500992
4.5500000000000004e-08,-22.624908799999957,-154.40000768,25.333499971200002,29.26775001024
4.6e-08,-6.999907840000105,-154.40000768,25.333499971200002,29.261500010880003
4.6500000000000006e-08,-22.624908799999957,-160.65000704,25.395999975040002,29.27087500992
4.7000000000000004e-08,-22.624908799999957,-154.40000768,25.427249976960002,29.2740000096
4.75e-08,-22.624908799999957,-166.9000064,25.427249976960002,29.28025000896
4.8000000000000006e-08,-22.624908799999957,-154.40000768,25.47412497984,29.289625008
4.8500000000000004e-08,-22.624908799999957,-166.9000064,25.4897499808,29.292750007680002
4.9e-08,24.250094080000054,-166.9000064,25.50537498176,29.28650000832
4.95e-08,-22.624908799999957,-173.15000576,25.50537498176,29.28650000832
5.0000000000000004e-08,-6.999907840000105,-173.15000576,25.50537498176,29.289625008
5.05e-08,8.625093119999974,-173.15000576,25.52099998272,29.28650000832
5.1e-08,8.625093119999974,-173.15000576,25.53662498368,29.28025000896
5.1500000000000005e-08,-6.999907840000105,-173.15000576,25.50537498176,29.2740000096
5.2e-08,24.250094080000054,-173.15000576,25.4897499808,29.27087500992
5.25e-08,24.250094080000054,-173.15000576,25.442874977920003,29.26775001024
5.3000000000000005e-08,24.250094080000054,-173.15000576,25.427249976960002,29.277125009280002
5.35e-08,24.250094080000054,-173.15000576,25.442874977920003,29.277125009280002
5.4e-08,39.875095039999906,-179.40000512,25.427249976960002,29.277125009280002
5.4500000000000005e-08,39.875095039999906,-173.15000576,25.45849997888,29.28650000832
5.5e-08,39.875095039999906,-173.15000576,25.442874977920003,29.289625008
5.55e-08,55.500095999999985,-179.40000512,25.411624976000002,29.29900000704
5.6000000000000005e-08,71.12509695999984,-166.9000064,25.442874977920003,29.308375006080002
5.65e-08,71.12509695999984,-179.40000512,25.442874977920003,29.31775000512
5.7e-08,102.37509888,-191.90000384,25.45849997888,29.3208750048
5.7500000000000005e-08,86.75009791999992,-191.90000384,25.442874977920003,29.33337500352
5.8e-08,102.37509888,-179.40000512,25.442874977920003,29.33337500352
5.85e-08,118.00009983999985,-185.65000448,25.442874977920003,29.33025000384
5.9000000000000006e-08,102.37509888,-185.65000448,25.4897499808,29.31775000512
5.9500000000000003e-08,86.75009791999992,-185.65000448,25.50537498176,29.30212500672
6.000000000000001e-08,133.62510079999993,-179.40000512,25.53662498368,29.289625008
6.05e-08,133.62510079999993,-191.90000384,25.52099998272,29.28337500864
6.1e-08,133.62510079999993,-185.65000448,25.52099998272,29.28025000896
6.15e-08,149.25010176,-185.65000448,25.55224998464,29.28025000896
6.2e-08,149.25010176,-185.65000448,25.58349998656,29.28337500864
6.250000000000001e-08,149.25010176,-179.40000512,25.6459999904,29.29587500736
6.300000000000001e-08,149.25010176,-173.15000576,25.6459999904,29.308375006080002
6.35e-08,133.62510079999993,-179.40000512,25.61474998848,29.31775000512
6.4e-08,164.87510271999986,-166.9000064,25.58349998656,29.31775000512
6.45e-08,164.87510271999986,-173.15000576,25.5678749856,29.31775000512
6.5e-08,180.50010367999994,-166.9000064,25.5678749856,29.31775000512
6.55e-08,164.87510271999986,-173.15000576,25.58349998656,29.33025000384
6.600000000000001e-08,164.87510271999986,-160.65000704,25.55224998464,29.339625002880002
6.65e-08,180.50010367999994,-160.65000704,25.55224998464,29.34587500224
6.7e-08,180.50010367999994,-154.40000768,25.55224998464,29.3365000032
6.75e-08,149.25010176,-148.15000831999998,25.5678749856,29.324000004480002
6.8e-08,164.87510271999986,-141.90000896,25.58349998656,29.3208750048
6.85e-08,164.87510271999986,-141.90000896,25.5678749856,29.33025000384
6.900000000000001e-08,180.50010367999994,-135.6500096,25.58349998656,29.342750002560003
6.950000000000001e-08,180.50010367999994,-135.6500096,25.5678749856,29.33337500352
7e-08,196.12510464000002,-129.40001024,25.5678749856,29.31150000576
7.05e-08,180.50010367999994,-123.15001088,25.61474998848,29.29587500736
7.1e-08,180.50010367999994,-116.90001151999999,25.61474998848,29.28337500864
7.15e-08,164.87510271999986,-123.15001088,25.58349998656,29.28025000896
7.200000000000001e-08,164.87510271999986,-104.4000128,25.58349998656,29.28337500864
7.250000000000001e-08,164.87510271999986,-116.90001151999999,25.61474998848,29.289625008
7.3e-08,196.12510464000002,-116.90001151999999,25.63037498944,29.289625008
7.35e-08,180.50010367999994,-110.65001216,25.6459999904,29.30212500672
7.4e-08,180.50010367999994,-104.4000128,25.6459999904,29.31462500544
7.45e-08,196.12510464000002,-104.4000128,25.66162499136,29.31775000512
7.500000000000001e-08,180.50010367999994,-91.90001408,25.66162499136,29.308375006080002
7.550000000000001e-08,164.87510271999986,-91.90001408,25.6459999904,29.29587500736
7.6e-08,196.12510464000002,-85.65001472,25.61474998848,29.289625008
7.65e-08,180.50010367999994,-91.90001408,25.55224998464,29.28650000832
7.7e-08,180.50010367999994,-91.90001408,25.4897499808,29.289625008
7.75e-08,180.50010367999994,-85.65001472,25.45849997888,29.289625008
7.800000000000001e-08,180.50010367999994,-85.65001472,25.411624976000002,29.28337500864
7.850000000000001e-08,180.50010367999994,-79.40001536,25.45849997888,29.292750007680002
7.9e-08,180.50010367999994,-73.150016,25.47412497984,29.29900000704
7.95e-08,149.25010176,-79.40001536,25.4897499808,29.3052500064
8e-08,164.87510271999986,-73.150016,25.52099998272,29.30212500672
8.05e-08,164.87510271999986,-79.40001536,25.5678749856,29.29900000704
8.100000000000001e-08,180.50010367999994,-85.65001472,25.61474998848,29.28650000832
8.150000000000001e-08,149.25010176,-79.40001536,25.59912498752,29.28025000896
8.2e-08,164.87510271999986,-73.150016,25.59912498752,29.28025000896
8.25e-08,164.87510271999986,-66.90001663999999,25.58349998656,29.2740000096
8.3e-08,149.25010176,-66.90001663999999,25.55224998464,29.2740000096
8.35e-08,133.62510079999993,-66.90001663999999,25.50537498176,29.28025000896
8.400000000000001e-08,149.25010176,-60.650017279999986,25.4897499808,29.28650000832
8.450000000000001e-08,133.62510079999993,-54.40001792000001,25.45849997888,29.292750007680002
8.500000000000001e-08,133.62510079999993,-54.40001792000001,25.45849997888,29.3052500064
8.55e-08,133.62510079999993,-48.15001856000001,25.50537498176,29.30212500672
8.6e-08,164.87510271999986,-48.15001856000001,25.53662498368,29.3052500064
8.65e-08,133.62510079999993,-41.9000192,25.59912498752,29.31150000576
8.700000000000001e-08,133.62510079999993,-35.65001984,25.59912498752,29.308375006080002
8.750000000000001e-08,102.37509888,-41.9000192,25.5678749856,29.29900000704
8.800000000000001e-08,118.00009983999985,-23.15002111999999,25.52099998272,29.289625008
8.85e-08,118.00009983999985,-29.400020479999995,25.45849997888,29.28650000832
8.9e-08,133.62510079999993,-23.15002111999999,25.380374974080002,29.277125009280002
8.95e-08,118.00009983999985,-29.400020479999995,25.27099996736,29.2740000096
9.000000000000001e-08,118.00009983999985,-16.900021759999987,25.19287496256,29.261500010880003
9.050000000000001e-08,118.00009983999985,-10.650022399999983,25.13037495872,29.24900001216
9.100000000000001e-08,102.37509888,-10.650022399999983,25.14599995968,29.245875012480003
9.15e-08,102.37509888,-10.650022399999983,25.16162496064,29.24900001216
9.2e-08,102.37509888,1.8499763199999961,25.20849996352,29.25212501184
9.25e-08,86.75009791999992,-4.400023039999979,25.23974996544,29.25212501184
9.300000000000001e-08,86.75009791999992,1.8499763199999961,25.2553749664,29.25525001152
9.350000000000001e-08,102.37509888,8.09997568,25.28662496832,29.25525001152
9.400000000000001e-08,102.37509888,8.09997568,25.2553749664,29.26775001024
9.45e-08,102.37509888,14.349975040000004,25.2553749664,29.292750007680002
9.5e-08,102.37509888,20.599974400000008,25.20849996352,29.308375006080002
9.55e-08,86.75009791999992,14.349975040000004,25.13037495872,29.31462500544
9.600000000000001e-08,86.75009791999992,26.849973759999983,25.06787495488,29.31775000512
9.650000000000001e-08,102.37509888,26.849973759999983,25.05224995392,29.31462500544
9.700000000000001e-08,86.75009791999992,20.599974400000008,25.06787495488,29.31150000576
9.75e-08,71.12509695999984,20.599974400000008,25.06787495488,29.31775000512
9.8e-08,86.75009791999992,26.849973759999983,25.11474995776,29.31150000576
9.85e-08,102.37509888,26.849973759999983,25.14599995968,29.30212500672
9.9e-08,71.12509695999984,33.09997311999999,25.1772499616,29.28650000832
9.950000000000001e-08,71.12509695999984,33.09997311999999,25.20849996352,29.2740000096
1.0000000000000001e-07,86.75009791999992,39.34997247999999,25.22412496448,29.27087500992
1.005e-07,86.75009791999992,33.09997311999999,25.1772499616,29.26462501056
1.01e-07,71.12509695999984,39.34997247999999,25.13037495872,29.27087500992
1.015e-07,71.12509695999984,45.599971839999995,25.0991249568,29.2740000096
1.02e-07,86.75009791999992,45.599971839999995,25.03662495296,29.277125009280002
1.0250000000000001e-07,71.12509695999984,51.8499712,25.05224995392,29.28650000832
1.0300000000000001e-07,55.500095999999985,58.09997056,25.03662495296,29.289625008
1.0350000000000001e-07,55.500095999999985,45.599971839999995,25.03662495296,29.28650000832
1.04e-07,55.500095999999985,70.59996928000001,25.08349995584,29.28650000832
1.045e-07,55.500095999999985,58.09997056,25.13037495872,29.289625008
1.05e-07,55.500095999999985,51.8499712,25.16162496064,29.289625008
1.0550000000000001e-07,39.875095039999906,64.34996992,25.16162496064,29.29900000704
1.0600000000000001e-07,39.875095039999906,70.59996928000001,25.14599995968,29.29900000704
1.0650000000000001e-07,39.875095039999906,76.84996864000001,25.16162496064,29.289625008
1.07e-07,39.875095039999906,76.84996864000001,25.16162496064,29.28650000832
1.075e-07,24.250094080000054,76.84996864000001,25.14599995968,29.28025000896
1.08e-07,39.875095039999906,89.34996736000002,25.14599995968,29.28025000896
1.0850000000000001e-07,24.250094080000054,89.34996736000002,25.0991249568,29.27087500992
1.0900000000000001e-07,24.250094080000054,89.34996736000002,25.0991249568,29.261500010880003
1.0950000000000001e-07,24.250094080000054,95.59996672000003,25.13037495872,29.245875012480003
1.1e-07,39.875095039999906,89.34996736000002,25.13037495872,29.23962501312
1.105e-07,24.250094080000054,101.84996608000003,25.19287496256,29.245875012480003
1.11e-07,24.250094080000054,108.09996544000003,25.20849996352,29.258375011200002
1.1150000000000001e-07,8.625093119999974,95.59996672000003,25.1772499616,29.27087500992
1.1200000000000001e-07,24.250094080000054,114.34996480000004,25.1772499616,29.277125009280002
1.1250000000000001e-07,24.250094080000054,101.84996608000003,25.1772499616,29.28337500864
1.13e-07,24.250094080000054,108.09996544000003,25.1772499616,29.28337500864
1.135e-07,8.625093119999974,101.84996608000003,25.19287496256,29.29587500736
1.14e-07,8.625093119999974,114.34996480000004,25.19287496256,29.30212500672
1.1450000000000001e-07,24.250094080000054,114.34996480000004,25.23974996544,29.30212500672
1.1500000000000001e-07,8.625093119999974,114.34996480000004,25.2553749664,29.30212500672
1.1550000000000001e-07,-6.999907840000105,114.34996480000004,25.317874970240002,29.29587500736
1.16e-07,8.625093119999974,120.59996415999998,25.395999975040002,29.292750007680002
1.165e-07,-6.999907840000105,114.34996480000004,25.427249976960002,29.28650000832
1.17e-07,-6.999907840000105,114.34996480000004,25.4897499808,29.28025000896
1.1750000000000001e-07,-6.999907840000105,114.34996480000004,25.50537498176,29.2740000096
1.1800000000000001e-07,-6.999907840000105,120.59996415999998,25.52099998272,29.27087500992
1.1850000000000001e-07,-6.999907840000105,126.84996351999999,25.52099998272,29.28025000896
1.1900000000000001e-07,-22.624908799999957,120.59996415999998,25.50537498176,29.28025000896
1.195e-07,-38.24990976000004,120.59996415999998,25.45849997888,29.277125009280002
1.2000000000000002e-07,-22.624908799999957,133.09996288,25.47412497984,29.2740000096
1.205e-07,-38.24990976000004,120.59996415999998,25.47412497984,29.277125009280002
1.21e-07,-22.624908799999957,120.59996415999998,25.4897499808,29.28337500864
1.215e-07,-53.874910720000116,120.59996415999998,25.4897499808,29.29900000704
1.22e-07,-53.874910720000116,126.84996351999999,25.53662498368,29.308375006080002
1.2250000000000002e-07,-53.874910720000116,133.09996288,25.55224998464,29.30212500672
1.23e-07,-69.49991167999997,126.84996351999999,25.58349998656,29.29900000704
1.2350000000000001e-07,-85.12491264000005,126.84996351999999,25.5678749856,29.29587500736
1.24e-07,-69.49991167999997,133.09996288,25.55224998464,29.29900000704
