!Keysight Technologies,E5063A,MY54100949,A.07.00
!Date: Tue Oct 17 16:55:34 2023
!Data & Calibration Information:
!Freq	S11:SOLT1(ON)
# Hz S RI R 50
50000.000	-7.903669e-001	3.962184e-003
2549750.000	-8.137573e-001	4.970324e-002
5049500.000	-8.097315e-001	9.697381e-002
7549250.000	-8.014694e-001	1.437449e-001
10049000.000	-7.914811e-001	1.895018e-001
12548750.000	-7.794262e-001	2.347385e-001
15048500.000	-7.644548e-001	2.786536e-001
17548250.000	-7.480462e-001	3.211160e-001
20048000.000	-7.291897e-001	3.629296e-001
22547750.000	-7.080754e-001	4.030919e-001
25047500.000	-6.847700e-001	4.408842e-001
27547250.000	-6.609656e-001	4.779778e-001
30047000.000	-6.349114e-001	5.129357e-001
32546750.000	-6.075288e-001	5.463350e-001
35046500.000	-5.787017e-001	5.788721e-001
37546250.000	-5.476999e-001	6.089173e-001
40046000.000	-5.169579e-001	6.367420e-001
42545750.000	-4.845676e-001	6.623979e-001
45045500.000	-4.514525e-001	6.861733e-001
47545250.000	-4.180716e-001	7.086515e-001
50045000.000	-3.857277e-001	7.283138e-001
52544750.000	-3.512069e-001	7.478096e-001
55044500.000	-3.153773e-001	7.638928e-001
57544250.000	-2.807492e-001	7.795532e-001
60044000.000	-2.461427e-001	7.916529e-001
62543750.000	-2.102965e-001	8.040767e-001
65043500.000	-1.756028e-001	8.132029e-001
67543250.000	-1.404031e-001	8.193982e-001
70043000.000	-1.064759e-001	8.264009e-001
72542750.000	-7.182026e-002	8.305234e-001
75042500.000	-3.806935e-002	8.342578e-001
77542250.000	-5.440426e-003	8.361455e-001
80042000.000	2.749715e-002	8.366575e-001
82541750.000	5.972315e-002	8.353629e-001
85041500.000	9.113844e-002	8.327479e-001
87541250.000	1.229298e-001	8.304168e-001
90041000.000	1.535507e-001	8.250535e-001
92540750.000	1.830305e-001	8.185483e-001
95040500.000	2.114927e-001	8.125821e-001
97540250.000	2.387067e-001	8.053913e-001
100040000.000	2.647248e-001	7.962484e-001
102539750.000	2.892478e-001	7.884344e-001
105039500.000	3.165267e-001	7.803052e-001
107539250.000	3.412773e-001	7.689522e-001
110039000.000	3.643770e-001	7.595656e-001
112538750.000	3.883008e-001	7.492783e-001
115038500.000	4.108165e-001	7.380669e-001
117538250.000	4.352150e-001	7.259649e-001
120038000.000	4.579858e-001	7.122772e-001
122537750.000	4.781498e-001	6.984208e-001
125037500.000	4.998996e-001	6.817617e-001
127537250.000	5.174858e-001	6.658584e-001
130037000.000	5.365082e-001	6.492721e-001
132536750.000	5.541208e-001	6.313353e-001
135036500.000	5.684202e-001	6.114646e-001
137536250.000	5.793536e-001	5.928293e-001
140036000.000	5.880982e-001	5.773379e-001
142535750.000	5.981769e-001	5.645486e-001
145035500.000	6.087105e-001	5.529655e-001
147535250.000	6.223721e-001	5.389458e-001
150035000.000	6.335334e-001	5.232283e-001
152534750.000	6.417805e-001	5.103459e-001
155034500.000	6.540633e-001	4.989525e-001
157534250.000	6.657231e-001	4.843950e-001
160034000.000	6.781767e-001	4.693081e-001
162533750.000	6.900134e-001	4.492644e-001
165033500.000	6.929970e-001	4.299099e-001
167533250.000	7.002935e-001	4.185569e-001
170033000.000	7.094523e-001	3.993314e-001
172532750.000	7.113934e-001	3.788943e-001
175032500.000	7.090751e-001	3.659160e-001
177532250.000	7.157292e-001	3.557785e-001
180032000.000	7.138563e-001	3.384637e-001
182531750.000	7.130407e-001	3.312688e-001
185031500.000	7.109945e-001	3.222784e-001
187531250.000	7.176921e-001	3.169743e-001
190031000.000	7.184836e-001	3.050080e-001
192530750.000	7.147106e-001	2.999675e-001
195030500.000	7.198267e-001	3.079490e-001
197530250.000	7.382713e-001	3.054316e-001
200030000.000	7.533062e-001	2.914060e-001
202529750.000	7.587614e-001	2.752344e-001
205029500.000	7.608163e-001	2.705438e-001
207529250.000	7.722934e-001	2.649386e-001
210029000.000	7.844024e-001	2.577432e-001
212528750.000	7.991197e-001	2.458337e-001
215028500.000	8.131222e-001	2.310288e-001
217528250.000	8.231698e-001	2.129861e-001
220028000.000	8.297533e-001	1.982728e-001
222527750.000	8.399887e-001	1.825758e-001
225027500.000	8.474332e-001	1.640780e-001
227527250.000	8.532818e-001	1.468556e-001
230027000.000	8.601712e-001	1.299761e-001
232526750.000	8.672541e-001	1.109807e-001
235026500.000	8.722676e-001	9.091179e-002
237526250.000	8.755685e-001	6.881043e-002
240026000.000	8.763469e-001	4.664983e-002
242525750.000	8.741092e-001	2.632043e-002
245025500.000	8.702042e-001	6.250619e-003
247525250.000	8.658617e-001	-1.240499e-002
250025000.000	8.589651e-001	-2.850374e-002
252524750.000	8.513255e-001	-4.142485e-002
255024500.000	8.479993e-001	-4.990146e-002
257524250.000	8.497860e-001	-6.181334e-002
260024000.000	8.514285e-001	-7.797587e-002
262523750.000	8.490701e-001	-9.647249e-002
265023500.000	8.435891e-001	-1.138239e-001
267523250.000	8.391850e-001	-1.287351e-001
270023000.000	8.343972e-001	-1.458825e-001
272522750.000	8.261287e-001	-1.636996e-001
275022500.000	8.145078e-001	-1.788141e-001
277522250.000	8.031474e-001	-1.888374e-001
280022000.000	7.942572e-001	-1.972005e-001
282521750.000	7.882566e-001	-2.043917e-001
285021500.000	7.851820e-001	-2.143957e-001
287521250.000	7.813215e-001	-2.276389e-001
290021000.000	7.755852e-001	-2.436563e-001
292520750.000	7.653149e-001	-2.611097e-001
295020500.000	7.491758e-001	-2.747080e-001
297520250.000	7.314629e-001	-2.848489e-001
300020000.000	7.148536e-001	-2.899693e-001
302519750.000	6.987813e-001	-2.911201e-001
305019500.000	6.858818e-001	-2.911643e-001
307519250.000	6.739302e-001	-2.899880e-001
310019000.000	6.641256e-001	-2.830489e-001
312518750.000	6.632869e-001	-2.773932e-001
315018500.000	6.643995e-001	-2.779152e-001
317518250.000	6.620240e-001	-2.833028e-001
320018000.000	6.555620e-001	-2.841361e-001
322517750.000	6.554020e-001	-2.812355e-001
325017500.000	6.588963e-001	-2.846797e-001
327517250.000	6.591812e-001	-2.887594e-001
330017000.000	6.612826e-001	-2.943941e-001
332516750.000	6.609736e-001	-3.057486e-001
335016500.000	6.524874e-001	-3.123064e-001
337516250.000	6.497778e-001	-3.138198e-001
340016000.000	6.483062e-001	-3.175628e-001
342515750.000	6.470484e-001	-3.219669e-001
345015500.000	6.472339e-001	-3.257606e-001
347515250.000	6.493713e-001	-3.330690e-001
350015000.000	6.468608e-001	-3.428185e-001
352514750.000	6.422163e-001	-3.483150e-001
355014500.000	6.384834e-001	-3.508856e-001
357514250.000	6.407700e-001	-3.525660e-001
360014000.000	6.447719e-001	-3.581029e-001
362513750.000	6.498023e-001	-3.665768e-001
365013500.000	6.533375e-001	-3.776730e-001
367513250.000	6.564688e-001	-3.899874e-001
370013000.000	6.572342e-001	-4.054494e-001
372512750.000	6.544826e-001	-4.217810e-001
375012500.000	6.495745e-001	-4.350159e-001
377512250.000	6.460621e-001	-4.473130e-001
380012000.000	6.433739e-001	-4.616140e-001
382511750.000	6.389458e-001	-4.765300e-001
385011500.000	6.334506e-001	-4.930448e-001
387511250.000	6.269356e-001	-5.093373e-001
390011000.000	6.178876e-001	-5.277449e-001
392510750.000	6.059918e-001	-5.443680e-001
395010500.000	5.920119e-001	-5.603667e-001
397510250.000	5.768221e-001	-5.743803e-001
400010000.000	5.593901e-001	-5.867910e-001
402509750.000	5.429303e-001	-5.942999e-001
405009500.000	5.278341e-001	-6.016996e-001
407509250.000	5.166753e-001	-6.074005e-001
410009000.000	5.074203e-001	-6.179773e-001
412508750.000	4.933318e-001	-6.303285e-001
415008500.000	4.787269e-001	-6.408712e-001
417508250.000	4.653339e-001	-6.521236e-001
420008000.000	4.503793e-001	-6.665057e-001
422507750.000	4.296006e-001	-6.806527e-001
425007500.000	4.083726e-001	-6.910713e-001
427507250.000	3.848445e-001	-7.013350e-001
430007000.000	3.617197e-001	-7.096559e-001
432506750.000	3.384550e-001	-7.169304e-001
435006500.000	3.142919e-001	-7.232359e-001
437506250.000	2.879706e-001	-7.308219e-001
440006000.000	2.595837e-001	-7.366023e-001
442505750.000	2.295015e-001	-7.413704e-001
445005500.000	1.956585e-001	-7.451273e-001
447505250.000	1.613132e-001	-7.428669e-001
450005000.000	1.265116e-001	-7.368395e-001
452504750.000	9.309422e-002	-7.284547e-001
455004500.000	5.892502e-002	-7.197933e-001
457504250.000	2.570763e-002	-7.068867e-001
460004000.000	-5.766605e-003	-6.933411e-001
462503750.000	-3.837113e-002	-6.798170e-001
465003500.000	-7.408927e-002	-6.644518e-001
467503250.000	-1.105045e-001	-6.467852e-001
470003000.000	-1.502179e-001	-6.255066e-001
472502750.000	-1.903984e-001	-5.988726e-001
475002500.000	-2.323503e-001	-5.662564e-001
477502250.000	-2.736225e-001	-5.264386e-001
480002000.000	-3.138688e-001	-4.783695e-001
482501750.000	-3.511034e-001	-4.224808e-001
485001500.000	-3.846523e-001	-3.579921e-001
487501250.000	-4.118118e-001	-2.825394e-001
490001000.000	-4.266703e-001	-1.959880e-001
492500750.000	-4.254417e-001	-1.019214e-001
495000500.000	-4.027831e-001	-4.515285e-003
497500250.000	-3.554915e-001	8.772029e-002
500000000.000	-2.847576e-001	1.630789e-001
