!Keysight Technologies,E5063A,MY54100949,A.07.00
!Date: Tue Oct 17 15:43:59 2023
!Data & Calibration Information:
!Freq	S11:SOLT2(ON)
# Hz S RI R 50
50000.000	-8.523441e-001	-6.936014e-003
149750.000	-8.414866e-001	1.065980e-003
249500.000	-8.470615e-001	5.389452e-003
349250.000	-8.473269e-001	4.737481e-003
449000.000	-8.459278e-001	1.008744e-002
548750.000	-8.459705e-001	8.563752e-003
648500.000	-8.463758e-001	1.100481e-002
748250.000	-8.472203e-001	1.470667e-002
848000.000	-8.446864e-001	1.779983e-002
947750.000	-8.457117e-001	1.672422e-002
1047500.000	-8.446895e-001	1.771758e-002
1147250.000	-8.445178e-001	2.173994e-002
1247000.000	-8.458763e-001	2.323044e-002
1346750.000	-8.471215e-001	2.534075e-002
1446500.000	-8.469766e-001	2.572619e-002
1546250.000	-8.461556e-001	2.647790e-002
1646000.000	-8.459523e-001	3.006813e-002
1745750.000	-8.457044e-001	3.061757e-002
1845500.000	-8.477072e-001	3.242340e-002
1945250.000	-8.458601e-001	3.510180e-002
2045000.000	-8.456607e-001	3.492647e-002
2144750.000	-8.457693e-001	3.641527e-002
2244500.000	-8.474583e-001	3.985113e-002
2344250.000	-8.454711e-001	4.176572e-002
2444000.000	-8.485203e-001	4.189749e-002
2543750.000	-8.450396e-001	4.427976e-002
2643500.000	-8.479397e-001	4.591878e-002
2743250.000	-8.435513e-001	4.627968e-002
2843000.000	-8.444950e-001	4.744375e-002
2942750.000	-8.454728e-001	4.960753e-002
3042500.000	-8.460914e-001	5.203079e-002
3142250.000	-8.453288e-001	5.203059e-002
3242000.000	-8.434508e-001	5.539276e-002
3341750.000	-8.448672e-001	5.684093e-002
3441500.000	-8.433629e-001	5.920084e-002
3541250.000	-8.441080e-001	5.884880e-002
3641000.000	-8.445771e-001	6.253175e-002
3740750.000	-8.434001e-001	6.374004e-002
3840500.000	-8.439431e-001	6.480148e-002
3940250.000	-8.447506e-001	6.637773e-002
4040000.000	-8.431576e-001	6.802095e-002
4139750.000	-8.441039e-001	6.831871e-002
4239500.000	-8.439875e-001	6.944688e-002
4339250.000	-8.432781e-001	7.260292e-002
4439000.000	-8.419907e-001	7.369154e-002
4538750.000	-8.427258e-001	7.402398e-002
4638500.000	-8.416366e-001	7.620670e-002
4738250.000	-8.450883e-001	7.792419e-002
4838000.000	-8.427331e-001	8.167832e-002
4937750.000	-8.416841e-001	8.180330e-002
5037500.000	-8.423464e-001	8.261089e-002
5137250.000	-8.430326e-001	8.329289e-002
5237000.000	-8.415354e-001	8.696708e-002
5336750.000	-8.402295e-001	8.798217e-002
5436500.000	-8.404501e-001	8.969753e-002
5536250.000	-8.417547e-001	9.211078e-002
5636000.000	-8.410331e-001	9.379550e-002
5735750.000	-8.408902e-001	9.257418e-002
5835500.000	-8.411802e-001	9.741719e-002
5935250.000	-8.412990e-001	9.838176e-002
6035000.000	-8.414215e-001	9.948086e-002
6134750.000	-8.389122e-001	1.005506e-001
6234500.000	-8.403139e-001	1.028730e-001
6334250.000	-8.398813e-001	1.032477e-001
6434000.000	-8.402223e-001	1.051386e-001
6533750.000	-8.397709e-001	1.057571e-001
6633500.000	-8.400160e-001	1.083467e-001
6733250.000	-8.402992e-001	1.092044e-001
6833000.000	-8.395362e-001	1.127570e-001
6932750.000	-8.380842e-001	1.129630e-001
7032500.000	-8.386001e-001	1.148362e-001
7132250.000	-8.378440e-001	1.160315e-001
7232000.000	-8.375916e-001	1.193844e-001
7331750.000	-8.360493e-001	1.201977e-001
7431500.000	-8.369839e-001	1.211746e-001
7531250.000	-8.374855e-001	1.223830e-001
7631000.000	-8.358342e-001	1.221340e-001
7730750.000	-8.369386e-001	1.249602e-001
7830500.000	-8.359797e-001	1.260315e-001
7930250.000	-8.361033e-001	1.275946e-001
8030000.000	-8.358653e-001	1.311615e-001
8129750.000	-8.346411e-001	1.341228e-001
8229500.000	-8.337195e-001	1.330285e-001
8329250.000	-8.338392e-001	1.339572e-001
8429000.000	-8.337002e-001	1.363467e-001
8528750.000	-8.349014e-001	1.375027e-001
8628500.000	-8.343492e-001	1.393009e-001
8728250.000	-8.342524e-001	1.412226e-001
8828000.000	-8.335442e-001	1.417487e-001
8927750.000	-8.329958e-001	1.440772e-001
9027500.000	-8.327467e-001	1.452242e-001
9127250.000	-8.327945e-001	1.467394e-001
9227000.000	-8.321737e-001	1.487590e-001
9326750.000	-8.326593e-001	1.501883e-001
9426500.000	-8.316537e-001	1.515650e-001
9526250.000	-8.323575e-001	1.534180e-001
9626000.000	-8.313122e-001	1.543438e-001
9725750.000	-8.315292e-001	1.566862e-001
9825500.000	-8.304814e-001	1.573398e-001
9925250.000	-8.300176e-001	1.588399e-001
10025000.000	-8.297199e-001	1.603101e-001
10124750.000	-8.299145e-001	1.617279e-001
10224500.000	-8.293104e-001	1.635470e-001
10324250.000	-8.290262e-001	1.646623e-001
10424000.000	-8.287370e-001	1.667719e-001
10523750.000	-8.281486e-001	1.679142e-001
10623500.000	-8.281523e-001	1.702555e-001
10723250.000	-8.277859e-001	1.713375e-001
10823000.000	-8.281519e-001	1.736768e-001
10922750.000	-8.270346e-001	1.747111e-001
11022500.000	-8.276549e-001	1.759104e-001
11122250.000	-8.252049e-001	1.773058e-001
11222000.000	-8.258618e-001	1.787063e-001
11321750.000	-8.259784e-001	1.805189e-001
11421500.000	-8.258305e-001	1.818556e-001
11521250.000	-8.252062e-001	1.838716e-001
11621000.000	-8.251774e-001	1.846390e-001
11720750.000	-8.242185e-001	1.861294e-001
11820500.000	-8.243828e-001	1.871723e-001
11920250.000	-8.245358e-001	1.892854e-001
12020000.000	-8.232970e-001	1.910965e-001
12119750.000	-8.234012e-001	1.924085e-001
12219500.000	-8.227662e-001	1.932500e-001
12319250.000	-8.234305e-001	1.957299e-001
12419000.000	-8.226388e-001	1.965706e-001
12518750.000	-8.214440e-001	1.983579e-001
12618500.000	-8.213198e-001	2.000499e-001
12718250.000	-8.213285e-001	2.015845e-001
12818000.000	-8.199623e-001	2.028486e-001
12917750.000	-8.196973e-001	2.046380e-001
13017500.000	-8.198884e-001	2.060604e-001
13117250.000	-8.194676e-001	2.073519e-001
13217000.000	-8.190668e-001	2.084940e-001
13316750.000	-8.183850e-001	2.109897e-001
13416500.000	-8.178891e-001	2.122844e-001
13516250.000	-8.173435e-001	2.136068e-001
13616000.000	-8.178219e-001	2.148430e-001
13715750.000	-8.167537e-001	2.162407e-001
13815500.000	-8.164612e-001	2.174077e-001
13915250.000	-8.159621e-001	2.196907e-001
14015000.000	-8.163698e-001	2.209001e-001
14114750.000	-8.158758e-001	2.223687e-001
14214500.000	-8.144931e-001	2.239151e-001
14314250.000	-8.146830e-001	2.252404e-001
14414000.000	-8.147339e-001	2.271789e-001
14513750.000	-8.133904e-001	2.282026e-001
14613500.000	-8.130262e-001	2.302263e-001
14713250.000	-8.124671e-001	2.310484e-001
14813000.000	-8.117630e-001	2.321499e-001
14912750.000	-8.118241e-001	2.340658e-001
15012500.000	-8.117143e-001	2.355706e-001
15112250.000	-8.115197e-001	2.363921e-001
15212000.000	-8.108999e-001	2.382013e-001
15311750.000	-8.097989e-001	2.392413e-001
15411500.000	-8.096223e-001	2.405669e-001
15511250.000	-8.083680e-001	2.430719e-001
15611000.000	-8.083597e-001	2.437857e-001
15710750.000	-8.079489e-001	2.453428e-001
15810500.000	-8.077387e-001	2.467507e-001
15910250.000	-8.072620e-001	2.483467e-001
16010000.000	-8.068157e-001	2.504609e-001
16109750.000	-8.063209e-001	2.515501e-001
16209500.000	-8.060776e-001	2.524389e-001
16309250.000	-8.056216e-001	2.542850e-001
16409000.000	-8.048789e-001	2.558446e-001
16508750.000	-8.044050e-001	2.575801e-001
16608500.000	-8.037670e-001	2.592175e-001
16708250.000	-8.034572e-001	2.602902e-001
16808000.000	-8.031060e-001	2.610448e-001
16907750.000	-8.024293e-001	2.631727e-001
17007500.000	-8.019897e-001	2.646988e-001
17107250.000	-8.019088e-001	2.658195e-001
17207000.000	-8.013423e-001	2.675350e-001
17306750.000	-8.001864e-001	2.690019e-001
17406500.000	-7.994145e-001	2.696524e-001
17506250.000	-8.003330e-001	2.716160e-001
17606000.000	-7.986026e-001	2.733729e-001
17705750.000	-7.994828e-001	2.743865e-001
17805500.000	-7.983519e-001	2.760852e-001
17905250.000	-7.973959e-001	2.774367e-001
18005000.000	-7.972229e-001	2.787268e-001
18104750.000	-7.961730e-001	2.795031e-001
18204500.000	-7.956194e-001	2.818609e-001
18304250.000	-7.955230e-001	2.832801e-001
18404000.000	-7.950682e-001	2.848315e-001
18503750.000	-7.941290e-001	2.857555e-001
18603500.000	-7.948749e-001	2.876243e-001
18703250.000	-7.932618e-001	2.888185e-001
18803000.000	-7.931871e-001	2.908002e-001
18902750.000	-7.928839e-001	2.914880e-001
19002500.000	-7.923149e-001	2.923720e-001
19102250.000	-7.914565e-001	2.943620e-001
19202000.000	-7.908013e-001	2.965366e-001
19301750.000	-7.900910e-001	2.978711e-001
19401500.000	-7.896949e-001	2.993143e-001
19501250.000	-7.892722e-001	3.004179e-001
19601000.000	-7.883702e-001	3.024548e-001
19700750.000	-7.883395e-001	3.042296e-001
19800500.000	-7.875955e-001	3.050464e-001
19900250.000	-7.867225e-001	3.067751e-001
20000000.000	-7.860600e-001	3.086250e-001
