!Keysight Technologies,E5063A,MY54100949,A.07.00
!Date: Tue Oct 17 15:46:43 2023
!Data & Calibration Information:
!Freq	S11:SOLT2(ON)
# Hz S RI R 50
50000.000	-2.361051e-002	3.757762e-003
149750.000	-1.543588e-002	2.690524e-004
249500.000	-1.411000e-002	-7.982564e-004
349250.000	-1.449399e-002	-7.858040e-004
449000.000	-1.484171e-002	-1.587216e-003
548750.000	-1.453458e-002	-1.478106e-003
648500.000	-1.463363e-002	-7.085037e-004
748250.000	-1.512051e-002	-5.182120e-004
848000.000	-1.457428e-002	-7.874568e-004
947750.000	-1.441679e-002	-9.882317e-004
1047500.000	-1.576755e-002	-7.604580e-004
1147250.000	-1.518430e-002	-1.068803e-003
1247000.000	-1.567791e-002	-3.466012e-004
1346750.000	-1.506172e-002	-7.420309e-004
1446500.000	-1.437292e-002	-1.246711e-004
1546250.000	-1.486218e-002	-6.389198e-004
1646000.000	-1.342896e-002	-7.245328e-004
1745750.000	-1.548966e-002	-1.192748e-003
1845500.000	-1.405003e-002	-1.300341e-003
1945250.000	-1.433813e-002	-1.040599e-003
2045000.000	-1.579954e-002	-8.641624e-004
2144750.000	-1.346565e-002	-7.407639e-004
2244500.000	-1.332928e-002	-1.064711e-003
2344250.000	-1.440011e-002	-1.179047e-003
2444000.000	-1.449074e-002	-9.069426e-004
2543750.000	-1.577385e-002	-1.154599e-003
2643500.000	-1.413545e-002	-5.609787e-004
2743250.000	-1.518928e-002	-4.907456e-004
2843000.000	-1.490264e-002	-7.203872e-004
2942750.000	-1.483156e-002	-8.583542e-004
3042500.000	-1.359055e-002	-8.063642e-004
3142250.000	-1.374554e-002	-1.525595e-004
3242000.000	-1.547243e-002	-2.357952e-004
3341750.000	-1.453088e-002	-1.057226e-003
3441500.000	-1.466353e-002	-4.523997e-004
3541250.000	-1.510484e-002	-1.339364e-003
3641000.000	-1.466094e-002	-1.778762e-003
3740750.000	-1.488864e-002	-1.114503e-003
3840500.000	-1.436183e-002	-4.697144e-004
3940250.000	-1.515025e-002	-1.408450e-003
4040000.000	-1.483227e-002	-1.111606e-003
4139750.000	-1.341853e-002	-4.779561e-004
4239500.000	-1.385731e-002	-2.125645e-004
4339250.000	-1.357243e-002	-1.391002e-003
4439000.000	-1.463330e-002	-1.018946e-003
4538750.000	-1.426435e-002	-3.146810e-004
4638500.000	-1.488823e-002	-8.461350e-004
4738250.000	-1.406763e-002	-1.293293e-003
4838000.000	-1.495588e-002	-1.966801e-003
4937750.000	-1.412538e-002	-6.976194e-004
5037500.000	-1.283160e-002	-4.989242e-004
5137250.000	-1.409278e-002	-6.116626e-004
5237000.000	-1.510019e-002	-1.563670e-003
5336750.000	-1.495956e-002	-6.703425e-004
5436500.000	-1.523922e-002	-2.595539e-004
5536250.000	-1.331327e-002	-1.309304e-003
5636000.000	-1.436635e-002	-1.919969e-003
5735750.000	-1.386642e-002	-2.017360e-004
5835500.000	-1.471939e-002	-9.675991e-004
5935250.000	-1.386269e-002	-1.141029e-003
6035000.000	-1.459016e-002	-9.561931e-004
6134750.000	-1.491036e-002	-1.341212e-003
6234500.000	-1.452925e-002	-4.411533e-004
6334250.000	-1.532433e-002	-1.368321e-003
6434000.000	-1.365467e-002	-3.601035e-004
6533750.000	-1.503509e-002	-7.437592e-004
6633500.000	-1.418975e-002	-8.346089e-004
6733250.000	-1.440724e-002	-5.793994e-004
6833000.000	-1.481857e-002	-1.323135e-003
6932750.000	-1.402475e-002	-5.017564e-004
7032500.000	-1.419124e-002	-1.371577e-003
7132250.000	-1.580986e-002	-9.812554e-004
7232000.000	-1.455864e-002	-1.445976e-003
7331750.000	-1.496289e-002	-1.944523e-003
7431500.000	-1.472837e-002	-6.126230e-004
7531250.000	-1.303764e-002	-4.798801e-004
7631000.000	-1.529808e-002	-6.811237e-004
7730750.000	-1.411371e-002	-1.239077e-003
7830500.000	-1.470444e-002	-9.075509e-004
7930250.000	-1.460397e-002	2.733451e-004
8030000.000	-1.476071e-002	-2.023247e-003
8129750.000	-1.493525e-002	-1.012249e-003
8229500.000	-1.529873e-002	-1.509669e-003
8329250.000	-1.485592e-002	-7.836602e-004
8429000.000	-1.438793e-002	-1.118989e-003
8528750.000	-1.432776e-002	-7.611528e-004
8628500.000	-1.467611e-002	-9.742970e-004
8728250.000	-1.437084e-002	-1.090278e-003
8828000.000	-1.466798e-002	-1.017283e-003
8927750.000	-1.479237e-002	-9.681932e-004
9027500.000	-1.449711e-002	-1.074625e-003
9127250.000	-1.512011e-002	-1.171642e-003
9227000.000	-1.444992e-002	-1.098394e-003
9326750.000	-1.469616e-002	-9.727332e-004
9426500.000	-1.453896e-002	-7.797754e-004
9526250.000	-1.413765e-002	-9.302991e-004
9626000.000	-1.471808e-002	-1.163830e-003
9725750.000	-1.440810e-002	-7.241971e-004
9825500.000	-1.439980e-002	-8.891362e-004
9925250.000	-1.470740e-002	-1.063865e-003
10025000.000	-1.466516e-002	-1.084022e-003
10124750.000	-1.501806e-002	-7.051477e-004
10224500.000	-1.479848e-002	-8.346251e-004
10324250.000	-1.464279e-002	-1.457082e-003
10424000.000	-1.456410e-002	-1.024818e-003
10523750.000	-1.450907e-002	-9.027820e-004
10623500.000	-1.455200e-002	-1.208750e-003
10723250.000	-1.457176e-002	-1.165133e-003
10823000.000	-1.444944e-002	-9.283859e-004
10922750.000	-1.464066e-002	-1.133546e-003
11022500.000	-1.441598e-002	-8.477654e-004
11122250.000	-1.460195e-002	-1.260013e-003
11222000.000	-1.464832e-002	-6.412693e-004
11321750.000	-1.440418e-002	-7.576709e-004
11421500.000	-1.467958e-002	-9.213171e-004
11521250.000	-1.435172e-002	-9.904710e-004
11621000.000	-1.491047e-002	-5.640132e-004
11720750.000	-1.476816e-002	-9.897863e-004
11820500.000	-1.439369e-002	-5.561035e-004
11920250.000	-1.462449e-002	-5.503823e-004
12020000.000	-1.456494e-002	-8.176722e-004
12119750.000	-1.447579e-002	-7.021599e-004
12219500.000	-1.462270e-002	-8.867441e-004
12319250.000	-1.447808e-002	-7.274636e-004
12419000.000	-1.448630e-002	-9.188881e-004
12518750.000	-1.494278e-002	-1.227412e-003
12618500.000	-1.458457e-002	-8.761133e-004
12718250.000	-1.452450e-002	-1.041731e-003
12818000.000	-1.440718e-002	-8.446324e-004
12917750.000	-1.489562e-002	-7.917178e-004
13017500.000	-1.443213e-002	-9.563122e-004
13117250.000	-1.453045e-002	-1.321336e-003
13217000.000	-1.465356e-002	-1.123469e-003
13316750.000	-1.466637e-002	-6.595155e-004
13416500.000	-1.464760e-002	-1.242081e-003
13516250.000	-1.450710e-002	-1.063900e-003
13616000.000	-1.460081e-002	-1.130419e-003
13715750.000	-1.442521e-002	-6.380516e-004
13815500.000	-1.446848e-002	-9.021515e-004
13915250.000	-1.464417e-002	-1.142323e-003
14015000.000	-1.460822e-002	-1.270341e-003
14114750.000	-1.474208e-002	-1.272808e-003
14214500.000	-1.462251e-002	-8.269576e-004
14314250.000	-1.444994e-002	-9.025155e-004
14414000.000	-1.460274e-002	-9.052179e-004
14513750.000	-1.441663e-002	-8.156415e-004
14613500.000	-1.421435e-002	-9.489351e-004
14713250.000	-1.426360e-002	-6.198355e-004
14813000.000	-1.426094e-002	-1.329183e-003
14912750.000	-1.478158e-002	-8.161279e-004
15012500.000	-1.446414e-002	-1.164905e-003
15112250.000	-1.442700e-002	-9.919772e-004
15212000.000	-1.489395e-002	-9.490894e-004
15311750.000	-1.458006e-002	-1.129254e-003
15411500.000	-1.478160e-002	-6.526929e-004
15511250.000	-1.474983e-002	-9.234767e-004
15611000.000	-1.474867e-002	-1.159674e-003
15710750.000	-1.465425e-002	-1.222877e-003
15810500.000	-1.432746e-002	-8.826966e-004
15910250.000	-1.468832e-002	-8.046806e-004
16010000.000	-1.441022e-002	-1.058227e-003
16109750.000	-1.489277e-002	-7.185017e-004
16209500.000	-1.471839e-002	-1.041419e-003
16309250.000	-1.436976e-002	-8.933150e-004
16409000.000	-1.442979e-002	-1.146689e-003
16508750.000	-1.439656e-002	-1.048440e-003
16608500.000	-1.461666e-002	-1.086152e-003
16708250.000	-1.459836e-002	-1.255239e-003
16808000.000	-1.453364e-002	-6.898135e-004
16907750.000	-1.478275e-002	-1.087177e-003
17007500.000	-1.418277e-002	-1.415253e-003
17107250.000	-1.430370e-002	-9.255646e-004
17207000.000	-1.415873e-002	-8.836736e-004
17306750.000	-1.473170e-002	-9.980596e-004
17406500.000	-1.472558e-002	-1.052573e-003
17506250.000	-1.396708e-002	-8.706069e-004
17606000.000	-1.413957e-002	-1.215925e-003
17705750.000	-1.451253e-002	-1.086513e-003
17805500.000	-1.440517e-002	-1.019954e-003
17905250.000	-1.455377e-002	-1.129563e-003
18005000.000	-1.480439e-002	-9.198001e-004
18104750.000	-1.457461e-002	-1.456275e-003
18204500.000	-1.463598e-002	-1.276301e-003
18304250.000	-1.435423e-002	-1.092957e-003
18404000.000	-1.437403e-002	-1.256444e-003
18503750.000	-1.447836e-002	-8.714018e-004
18603500.000	-1.431215e-002	-7.927040e-004
18703250.000	-1.448423e-002	-1.191776e-003
18803000.000	-1.426284e-002	-1.215438e-003
18902750.000	-1.470608e-002	-1.006840e-003
19002500.000	-1.434073e-002	-1.080503e-003
19102250.000	-1.456424e-002	-8.582241e-004
19202000.000	-1.425681e-002	-1.350397e-003
19301750.000	-1.462240e-002	-1.062880e-003
19401500.000	-1.426528e-002	-1.230479e-003
19501250.000	-1.476963e-002	-9.944971e-004
19601000.000	-1.435474e-002	-1.529797e-003
19700750.000	-1.436464e-002	-1.389930e-003
19800500.000	-1.429029e-002	-6.145460e-004
19900250.000	-1.438789e-002	-1.212012e-003
20000000.000	-1.422803e-002	-1.256522e-003
