!Keysight Technologies,E5063A,MY54100949,A.07.00
!Date: Tue Oct 17 15:39:24 2023
!Data & Calibration Information:
!Freq	S11:SOLT2(ON)
# Hz S RI R 50
500000.000	-8.116947e-002	9.802310e-001
597500.000	1.006219e-001	9.863347e-001
695000.000	2.526114e-001	9.633839e-001
792500.000	3.785350e-001	9.244127e-001
890000.000	4.838216e-001	8.797127e-001
987500.000	5.660808e-001	8.316928e-001
1085000.000	6.387265e-001	7.821469e-001
1182500.000	6.949627e-001	7.337656e-001
1280000.000	7.420868e-001	6.879372e-001
1377500.000	7.840434e-001	6.427814e-001
1475000.000	8.176422e-001	6.014140e-001
1572500.000	8.456128e-001	5.631176e-001
1670000.000	8.714078e-001	5.265535e-001
1767500.000	8.908159e-001	4.916776e-001
1865000.000	9.098957e-001	4.594424e-001
1962500.000	9.238240e-001	4.290224e-001
2060000.000	9.378624e-001	3.995744e-001
2157500.000	9.501317e-001	3.712373e-001
2255000.000	9.604064e-001	3.466957e-001
2352500.000	9.694925e-001	3.214099e-001
2450000.000	9.756133e-001	2.963913e-001
2547500.000	9.830474e-001	2.735324e-001
2645000.000	9.900410e-001	2.529560e-001
2742500.000	9.953754e-001	2.324751e-001
2840000.000	1.000206e+000	2.124145e-001
2937500.000	1.003502e+000	1.936633e-001
3035000.000	1.006109e+000	1.747439e-001
3132500.000	1.009877e+000	1.576788e-001
3230000.000	1.014554e+000	1.404373e-001
3327500.000	1.015449e+000	1.249017e-001
3425000.000	1.017015e+000	1.068779e-001
3522500.000	1.019532e+000	9.200545e-002
3620000.000	1.020468e+000	7.742159e-002
3717500.000	1.022425e+000	6.020061e-002
3815000.000	1.022693e+000	4.860365e-002
3912500.000	1.023699e+000	3.384980e-002
4010000.000	1.023663e+000	2.067092e-002
4107500.000	1.023586e+000	6.499550e-003
4205000.000	1.024447e+000	-7.412995e-003
4302500.000	1.024238e+000	-1.896955e-002
4400000.000	1.022148e+000	-3.170758e-002
4497500.000	1.023193e+000	-4.594136e-002
4595000.000	1.021684e+000	-5.671153e-002
4692500.000	1.023016e+000	-6.915445e-002
4790000.000	1.021172e+000	-7.943694e-002
4887500.000	1.019007e+000	-9.246780e-002
4985000.000	1.018023e+000	-1.040741e-001
5082500.000	1.017360e+000	-1.144145e-001
5180000.000	1.015377e+000	-1.256727e-001
5277500.000	1.014548e+000	-1.370261e-001
5375000.000	1.012138e+000	-1.466147e-001
5472500.000	1.010481e+000	-1.584379e-001
5570000.000	1.008775e+000	-1.689862e-001
5667500.000	1.007524e+000	-1.790437e-001
5765000.000	1.005436e+000	-1.885336e-001
5862500.000	1.002799e+000	-1.989972e-001
5960000.000	1.000539e+000	-2.087773e-001
6057500.000	9.988585e-001	-2.195614e-001
6155000.000	9.955182e-001	-2.292104e-001
6252500.000	9.935105e-001	-2.386090e-001
6350000.000	9.922664e-001	-2.485142e-001
6447500.000	9.883233e-001	-2.577175e-001
6545000.000	9.865261e-001	-2.678419e-001
6642500.000	9.825849e-001	-2.770880e-001
6740000.000	9.797269e-001	-2.865245e-001
6837500.000	9.773808e-001	-2.948735e-001
6935000.000	9.748243e-001	-3.046360e-001
7032500.000	9.716030e-001	-3.139343e-001
7130000.000	9.677038e-001	-3.228253e-001
7227500.000	9.634700e-001	-3.319660e-001
7325000.000	9.609148e-001	-3.394087e-001
7422500.000	9.573111e-001	-3.499844e-001
7520000.000	9.532346e-001	-3.586934e-001
7617500.000	9.514424e-001	-3.675278e-001
7715000.000	9.465869e-001	-3.755013e-001
7812500.000	9.414950e-001	-3.849692e-001
7910000.000	9.383330e-001	-3.923132e-001
8007500.000	9.340350e-001	-4.009694e-001
8105000.000	9.303889e-001	-4.103048e-001
8202500.000	9.262618e-001	-4.184314e-001
8300000.000	9.216985e-001	-4.261495e-001
8397500.000	9.169719e-001	-4.336267e-001
8495000.000	9.131377e-001	-4.435551e-001
8592500.000	9.086620e-001	-4.516900e-001
8690000.000	9.036780e-001	-4.595457e-001
8787500.000	8.986723e-001	-4.677825e-001
8885000.000	8.939427e-001	-4.756170e-001
8982500.000	8.889782e-001	-4.838235e-001
9080000.000	8.843615e-001	-4.917331e-001
9177500.000	8.783845e-001	-4.995915e-001
9275000.000	8.737650e-001	-5.070968e-001
9372500.000	8.677227e-001	-5.149961e-001
9470000.000	8.627152e-001	-5.230933e-001
9567500.000	8.570618e-001	-5.306891e-001
9665000.000	8.510726e-001	-5.377468e-001
9762500.000	8.453957e-001	-5.449845e-001
9860000.000	8.394627e-001	-5.531188e-001
9957500.000	8.329663e-001	-5.604112e-001
10055000.000	8.271915e-001	-5.677423e-001
10152500.000	8.207150e-001	-5.751574e-001
10250000.000	8.141103e-001	-5.824727e-001
10347500.000	8.078442e-001	-5.893070e-001
10445000.000	8.009529e-001	-5.960007e-001
10542500.000	7.938991e-001	-6.030831e-001
10640000.000	7.869998e-001	-6.099605e-001
10737500.000	7.801628e-001	-6.166659e-001
10835000.000	7.723017e-001	-6.235331e-001
10932500.000	7.653156e-001	-6.302639e-001
11030000.000	7.578660e-001	-6.371969e-001
11127500.000	7.501276e-001	-6.435665e-001
11225000.000	7.426904e-001	-6.508754e-001
11322500.000	7.343957e-001	-6.565348e-001
11420000.000	7.260516e-001	-6.633500e-001
11517500.000	7.177708e-001	-6.694999e-001
11615000.000	7.093086e-001	-6.753838e-001
11712500.000	7.004854e-001	-6.814420e-001
11810000.000	6.916726e-001	-6.871969e-001
11907500.000	6.829849e-001	-6.935944e-001
12005000.000	6.735318e-001	-6.989289e-001
12102500.000	6.643414e-001	-7.044469e-001
12200000.000	6.546589e-001	-7.100906e-001
12297500.000	6.443981e-001	-7.150991e-001
12395000.000	6.345080e-001	-7.203756e-001
12492500.000	6.247554e-001	-7.249207e-001
12590000.000	6.141112e-001	-7.293054e-001
12687500.000	6.032726e-001	-7.344979e-001
12785000.000	5.930433e-001	-7.387867e-001
12882500.000	5.812820e-001	-7.428387e-001
12980000.000	5.700948e-001	-7.469606e-001
13077500.000	5.587579e-001	-7.505857e-001
13175000.000	5.470285e-001	-7.540003e-001
13272500.000	5.349292e-001	-7.571186e-001
13370000.000	5.227299e-001	-7.595772e-001
13467500.000	5.096231e-001	-7.613781e-001
13565000.000	4.974021e-001	-7.637457e-001
13662500.000	4.841525e-001	-7.651185e-001
13760000.000	4.708148e-001	-7.669296e-001
13857500.000	4.575823e-001	-7.669402e-001
13955000.000	4.442086e-001	-7.674130e-001
14052500.000	4.303021e-001	-7.672427e-001
14150000.000	4.164923e-001	-7.665896e-001
14247500.000	4.020183e-001	-7.654456e-001
14345000.000	3.879685e-001	-7.632737e-001
14442500.000	3.734572e-001	-7.608972e-001
14540000.000	3.584987e-001	-7.574456e-001
14637500.000	3.443269e-001	-7.537360e-001
14735000.000	3.295772e-001	-7.491800e-001
14832500.000	3.144647e-001	-7.435147e-001
14930000.000	2.996008e-001	-7.371670e-001
15027500.000	2.853669e-001	-7.295900e-001
15125000.000	2.707820e-001	-7.213881e-001
15222500.000	2.569978e-001	-7.123882e-001
15320000.000	2.433882e-001	-7.022435e-001
15417500.000	2.300105e-001	-6.911366e-001
15515000.000	2.179000e-001	-6.787344e-001
15612500.000	2.057543e-001	-6.656062e-001
15710000.000	1.942892e-001	-6.516914e-001
15807500.000	1.841766e-001	-6.365300e-001
15905000.000	1.752095e-001	-6.204836e-001
16002500.000	1.666856e-001	-6.035174e-001
16100000.000	1.597604e-001	-5.857078e-001
16197500.000	1.545359e-001	-5.672611e-001
16295000.000	1.504610e-001	-5.488798e-001
16392500.000	1.482871e-001	-5.295118e-001
16490000.000	1.481674e-001	-5.099056e-001
16587500.000	1.492181e-001	-4.908249e-001
16685000.000	1.521068e-001	-4.714697e-001
16782500.000	1.570690e-001	-4.526485e-001
16880000.000	1.634323e-001	-4.340528e-001
16977500.000	1.722554e-001	-4.163547e-001
17075000.000	1.820994e-001	-3.997658e-001
17172500.000	1.935681e-001	-3.842786e-001
17270000.000	2.065411e-001	-3.706534e-001
17367500.000	2.209002e-001	-3.579182e-001
17465000.000	2.356926e-001	-3.468383e-001
17562500.000	2.516853e-001	-3.376158e-001
17660000.000	2.684667e-001	-3.301771e-001
17757500.000	2.851290e-001	-3.247400e-001
17855000.000	3.026157e-001	-3.206264e-001
17952500.000	3.192992e-001	-3.181158e-001
18050000.000	3.362772e-001	-3.180053e-001
18147500.000	3.529648e-001	-3.187456e-001
18245000.000	3.688150e-001	-3.214821e-001
18342500.000	3.843431e-001	-3.255225e-001
18440000.000	3.994202e-001	-3.312309e-001
18537500.000	4.129298e-001	-3.377565e-001
18635000.000	4.261838e-001	-3.454871e-001
18732500.000	4.379656e-001	-3.540005e-001
18830000.000	4.488264e-001	-3.632843e-001
18927500.000	4.588157e-001	-3.731972e-001
19025000.000	4.680555e-001	-3.834987e-001
19122500.000	4.763436e-001	-3.947675e-001
19220000.000	4.828595e-001	-4.059012e-001
19317500.000	4.893864e-001	-4.171735e-001
19415000.000	4.942587e-001	-4.290236e-001
19512500.000	4.984830e-001	-4.411571e-001
19610000.000	5.018491e-001	-4.529142e-001
19707500.000	5.048467e-001	-4.646016e-001
19805000.000	5.063851e-001	-4.768941e-001
19902500.000	5.077211e-001	-4.886122e-001
20000000.000	5.078226e-001	-5.000781e-001
