!Keysight Technologies,E5063A,MY54100949,A.07.30
!Date: Sun Dec 21 20:26:43 2025
!Data & Calibration Information:
!Freq	S11:SOLT1(ON)
# Hz S RI R 50
5000000.000	2.933319e-001	9.441262e-001
5001500.000	2.933900e-001	9.439953e-001
5003000.000	2.936519e-001	9.437034e-001
5004500.000	2.941357e-001	9.437203e-001
5006000.000	2.944944e-001	9.436311e-001
5007500.000	2.946794e-001	9.434204e-001
5009000.000	2.949598e-001	9.434347e-001
5010500.000	2.951931e-001	9.432894e-001
5012000.000	2.954642e-001	9.431576e-001
5013500.000	2.958233e-001	9.432741e-001
5015000.000	2.959926e-001	9.432105e-001
5016500.000	2.962748e-001	9.430936e-001
5018000.000	2.965963e-001	9.430207e-001
5019500.000	2.967281e-001	9.429543e-001
5021000.000	2.970893e-001	9.428999e-001
5022500.000	2.973341e-001	9.426214e-001
5024000.000	2.976237e-001	9.424852e-001
5025500.000	2.980097e-001	9.428206e-001
5027000.000	2.982987e-001	9.426134e-001
5028500.000	2.985235e-001	9.423914e-001
5030000.000	2.988343e-001	9.423236e-001
5031500.000	2.991383e-001	9.422210e-001
5033000.000	2.992139e-001	9.419432e-001
5034500.000	2.993049e-001	9.419835e-001
5036000.000	2.995172e-001	9.421410e-001
5037500.000	2.999075e-001	9.421531e-001
5039000.000	3.001614e-001	9.419238e-001
5040500.000	3.002926e-001	9.415994e-001
5042000.000	3.004924e-001	9.413286e-001
5043500.000	3.010290e-001	9.412859e-001
5045000.000	3.011602e-001	9.415518e-001
5046500.000	3.013959e-001	9.414895e-001
5048000.000	3.016116e-001	9.413247e-001
5049500.000	3.018687e-001	9.413127e-001
5051000.000	3.021619e-001	9.411153e-001
5052500.000	3.025172e-001	9.408597e-001
5054000.000	3.028393e-001	9.407886e-001
5055500.000	3.031045e-001	9.408845e-001
5057000.000	3.032839e-001	9.405382e-001
5058500.000	3.036605e-001	9.405966e-001
5060000.000	3.039680e-001	9.405714e-001
5061500.000	3.042406e-001	9.404657e-001
5063000.000	3.044289e-001	9.403165e-001
5064500.000	3.048213e-001	9.404103e-001
5066000.000	3.052576e-001	9.403894e-001
5067500.000	3.057114e-001	9.401368e-001
5069000.000	3.056250e-001	9.400272e-001
5070500.000	3.058858e-001	9.398493e-001
5072000.000	3.061708e-001	9.397274e-001
5073500.000	3.063095e-001	9.398028e-001
5075000.000	3.064476e-001	9.398561e-001
5076500.000	3.065876e-001	9.396852e-001
5078000.000	3.069309e-001	9.396710e-001
5079500.000	3.074483e-001	9.398777e-001
5081000.000	3.075813e-001	9.395298e-001
5082500.000	3.079930e-001	9.393067e-001
5084000.000	3.083333e-001	9.391077e-001
5085500.000	3.086042e-001	9.388957e-001
5087000.000	3.087846e-001	9.390297e-001
5088500.000	3.090330e-001	9.388134e-001
5090000.000	3.092426e-001	9.387140e-001
5091500.000	3.094394e-001	9.390133e-001
5093000.000	3.096262e-001	9.388795e-001
5094500.000	3.099858e-001	9.386945e-001
5096000.000	3.103209e-001	9.384867e-001
5097500.000	3.105892e-001	9.382625e-001
5099000.000	3.109529e-001	9.383024e-001
5100500.000	3.112787e-001	9.383118e-001
5102000.000	3.114759e-001	9.382101e-001
5103500.000	3.114944e-001	9.381064e-001
5105000.000	3.117189e-001	9.380302e-001
5106500.000	3.121917e-001	9.380547e-001
5108000.000	3.126522e-001	9.380021e-001
5109500.000	3.128654e-001	9.378066e-001
5111000.000	3.129403e-001	9.377298e-001
5112500.000	3.132719e-001	9.377446e-001
5114000.000	3.134429e-001	9.376511e-001
5115500.000	3.135082e-001	9.374275e-001
5117000.000	3.142359e-001	9.373123e-001
5118500.000	3.144773e-001	9.371637e-001
5120000.000	3.147159e-001	9.370508e-001
5121500.000	3.150865e-001	9.369211e-001
5123000.000	3.152199e-001	9.368960e-001
5124500.000	3.153242e-001	9.368947e-001
5126000.000	3.155884e-001	9.369024e-001
5127500.000	3.158603e-001	9.367608e-001
5129000.000	3.157731e-001	9.366693e-001
5130500.000	3.158912e-001	9.366878e-001
5132000.000	3.164106e-001	9.367161e-001
5133500.000	3.168742e-001	9.366193e-001
5135000.000	3.169498e-001	9.361037e-001
5136500.000	3.172169e-001	9.361801e-001
5138000.000	3.175787e-001	9.362063e-001
5139500.000	3.180309e-001	9.360468e-001
5141000.000	3.183233e-001	9.358814e-001
5142500.000	3.184639e-001	9.357876e-001
5144000.000	3.185788e-001	9.357856e-001
5145500.000	3.188082e-001	9.358282e-001
5147000.000	3.190208e-001	9.357947e-001
5148500.000	3.193034e-001	9.355949e-001
5150000.000	3.197932e-001	9.354701e-001
5151500.000	3.202864e-001	9.353956e-001
5153000.000	3.202315e-001	9.351738e-001
5154500.000	3.205300e-001	9.352275e-001
5156000.000	3.208990e-001	9.352482e-001
5157500.000	3.212097e-001	9.351408e-001
5159000.000	3.212065e-001	9.349067e-001
5160500.000	3.214497e-001	9.349261e-001
5162000.000	3.216681e-001	9.348834e-001
5163500.000	3.219906e-001	9.347426e-001
5165000.000	3.225034e-001	9.344272e-001
5166500.000	3.226272e-001	9.343105e-001
5168000.000	3.227152e-001	9.343648e-001
5169500.000	3.229952e-001	9.344094e-001
5171000.000	3.234402e-001	9.342170e-001
5172500.000	3.236162e-001	9.341131e-001
5174000.000	3.238778e-001	9.340488e-001
5175500.000	3.242106e-001	9.340207e-001
5177000.000	3.243337e-001	9.339321e-001
5178500.000	3.246334e-001	9.337203e-001
5180000.000	3.248912e-001	9.336341e-001
5181500.000	3.251608e-001	9.336260e-001
5183000.000	3.253496e-001	9.333421e-001
5184500.000	3.257393e-001	9.334117e-001
5186000.000	3.260148e-001	9.334859e-001
5187500.000	3.262506e-001	9.334422e-001
5189000.000	3.265919e-001	9.332590e-001
5190500.000	3.267905e-001	9.331879e-001
5192000.000	3.269557e-001	9.330449e-001
5193500.000	3.272224e-001	9.329273e-001
5195000.000	3.275366e-001	9.328828e-001
5196500.000	3.277422e-001	9.328301e-001
5198000.000	3.280843e-001	9.326507e-001
5199500.000	3.284399e-001	9.324001e-001
5201000.000	3.285020e-001	9.324434e-001
5202500.000	3.288503e-001	9.324348e-001
5204000.000	3.290943e-001	9.323737e-001
5205500.000	3.292328e-001	9.322668e-001
5207000.000	3.294047e-001	9.320321e-001
5208500.000	3.298249e-001	9.321420e-001
5210000.000	3.301463e-001	9.319388e-001
5211500.000	3.303933e-001	9.316849e-001
5213000.000	3.306437e-001	9.317417e-001
5214500.000	3.307308e-001	9.316873e-001
5216000.000	3.310614e-001	9.316149e-001
5217500.000	3.315104e-001	9.315573e-001
5219000.000	3.317135e-001	9.313319e-001
5220500.000	3.320084e-001	9.313099e-001
5222000.000	3.322074e-001	9.311888e-001
5223500.000	3.324714e-001	9.310271e-001
5225000.000	3.329226e-001	9.308840e-001
5226500.000	3.332284e-001	9.310032e-001
5228000.000	3.333617e-001	9.308863e-001
5229500.000	3.334901e-001	9.307820e-001
5231000.000	3.337893e-001	9.309113e-001
5232500.000	3.339124e-001	9.307659e-001
5234000.000	3.342773e-001	9.306915e-001
5235500.000	3.346221e-001	9.306375e-001
5237000.000	3.346937e-001	9.305248e-001
5238500.000	3.350412e-001	9.304054e-001
5240000.000	3.353622e-001	9.301813e-001
5241500.000	3.355990e-001	9.301120e-001
5243000.000	3.356073e-001	9.302632e-001
5244500.000	3.360010e-001	9.300031e-001
5246000.000	3.363236e-001	9.298647e-001
5247500.000	3.366242e-001	9.297710e-001
5249000.000	3.367860e-001	9.296676e-001
5250500.000	3.368660e-001	9.296090e-001
5252000.000	3.372317e-001	9.294993e-001
5253500.000	3.375226e-001	9.293540e-001
5255000.000	3.375264e-001	9.292110e-001
5256500.000	3.377525e-001	9.292434e-001
5258000.000	3.381160e-001	9.291260e-001
5259500.000	3.384849e-001	9.290375e-001
5261000.000	3.387115e-001	9.288624e-001
5262500.000	3.389555e-001	9.288446e-001
5264000.000	3.390345e-001	9.287596e-001
5265500.000	3.391963e-001	9.286914e-001
5267000.000	3.395499e-001	9.284808e-001
5268500.000	3.397265e-001	9.287270e-001
5270000.000	3.400720e-001	9.286365e-001
5271500.000	3.403871e-001	9.284636e-001
5273000.000	3.405986e-001	9.283563e-001
5274500.000	3.408472e-001	9.284347e-001
5276000.000	3.411593e-001	9.282315e-001
5277500.000	3.414427e-001	9.279913e-001
5279000.000	3.416124e-001	9.278807e-001
5280500.000	3.419118e-001	9.276328e-001
5282000.000	3.421292e-001	9.274394e-001
5283500.000	3.424081e-001	9.275078e-001
5285000.000	3.427051e-001	9.277728e-001
5286500.000	3.427628e-001	9.277837e-001
5288000.000	3.430360e-001	9.276119e-001
5289500.000	3.434348e-001	9.273733e-001
5291000.000	3.437950e-001	9.271140e-001
5292500.000	3.436836e-001	9.271101e-001
5294000.000	3.439540e-001	9.270670e-001
5295500.000	3.443736e-001	9.269807e-001
5297000.000	3.447647e-001	9.268494e-001
5298500.000	3.448065e-001	9.267286e-001
5300000.000	3.450538e-001	9.266603e-001
5301500.000	3.454572e-001	9.265179e-001
5303000.000	3.458417e-001	9.261802e-001
5304500.000	3.458399e-001	9.261047e-001
5306000.000	3.459719e-001	9.261793e-001
5307500.000	3.462702e-001	9.261428e-001
5309000.000	3.467214e-001	9.260656e-001
5310500.000	3.468741e-001	9.258813e-001
5312000.000	3.471327e-001	9.257867e-001
5313500.000	3.474175e-001	9.256510e-001
5315000.000	3.477236e-001	9.255886e-001
5316500.000	3.479907e-001	9.256917e-001
5318000.000	3.481533e-001	9.255835e-001
5319500.000	3.482526e-001	9.255069e-001
5321000.000	3.485319e-001	9.254457e-001
5322500.000	3.487339e-001	9.252463e-001
5324000.000	3.490716e-001	9.252073e-001
5325500.000	3.494126e-001	9.251933e-001
5327000.000	3.496508e-001	9.251325e-001
5328500.000	3.499975e-001	9.249886e-001
5330000.000	3.501646e-001	9.248214e-001
5331500.000	3.504391e-001	9.246926e-001
5333000.000	3.507973e-001	9.246543e-001
5334500.000	3.510809e-001	9.245066e-001
5336000.000	3.511980e-001	9.245478e-001
5337500.000	3.512761e-001	9.245033e-001
5339000.000	3.514472e-001	9.244091e-001
5340500.000	3.517777e-001	9.243601e-001
5342000.000	3.522459e-001	9.240079e-001
5343500.000	3.524359e-001	9.237993e-001
5345000.000	3.524605e-001	9.238609e-001
5346500.000	3.527124e-001	9.239555e-001
5348000.000	3.529765e-001	9.239191e-001
5349500.000	3.532528e-001	9.237255e-001
5351000.000	3.535283e-001	9.234486e-001
5352500.000	3.536051e-001	9.234401e-001
5354000.000	3.540908e-001	9.233216e-001
5355500.000	3.542207e-001	9.231961e-001
5357000.000	3.541982e-001	9.231100e-001
5358500.000	3.548617e-001	9.232286e-001
5360000.000	3.550811e-001	9.231084e-001
5361500.000	3.553043e-001	9.229994e-001
5363000.000	3.556311e-001	9.229157e-001
5364500.000	3.558211e-001	9.227142e-001
5366000.000	3.560856e-001	9.225774e-001
5367500.000	3.564075e-001	9.224859e-001
5369000.000	3.566633e-001	9.224583e-001
5370500.000	3.568452e-001	9.225380e-001
5372000.000	3.568356e-001	9.221674e-001
5373500.000	3.570245e-001	9.220656e-001
5375000.000	3.572613e-001	9.221385e-001
5376500.000	3.575191e-001	9.219497e-001
5378000.000	3.578789e-001	9.218797e-001
5379500.000	3.582388e-001	9.218228e-001
5381000.000	3.585802e-001	9.217857e-001
5382500.000	3.586832e-001	9.216930e-001
5384000.000	3.590936e-001	9.216623e-001
5385500.000	3.593144e-001	9.216257e-001
5387000.000	3.595087e-001	9.215061e-001
5388500.000	3.595629e-001	9.213149e-001
5390000.000	3.598316e-001	9.213440e-001
5391500.000	3.601845e-001	9.212505e-001
5393000.000	3.604879e-001	9.210777e-001
5394500.000	3.605820e-001	9.209649e-001
5396000.000	3.606156e-001	9.209964e-001
5397500.000	3.607803e-001	9.209090e-001
5399000.000	3.610456e-001	9.207599e-001
5400500.000	3.613798e-001	9.205514e-001
5402000.000	3.617386e-001	9.204963e-001
5403500.000	3.620830e-001	9.204641e-001
5405000.000	3.623553e-001	9.203453e-001
5406500.000	3.625422e-001	9.201532e-001
5408000.000	3.626310e-001	9.201196e-001
5409500.000	3.628055e-001	9.200725e-001
5411000.000	3.629984e-001	9.199867e-001
5412500.000	3.634991e-001	9.200416e-001
5414000.000	3.636927e-001	9.199765e-001
5415500.000	3.639821e-001	9.198380e-001
5417000.000	3.642167e-001	9.195917e-001
5418500.000	3.643397e-001	9.193473e-001
5420000.000	3.646900e-001	9.193549e-001
5421500.000	3.649162e-001	9.192904e-001
5423000.000	3.651293e-001	9.191320e-001
5424500.000	3.653458e-001	9.190690e-001
5426000.000	3.657657e-001	9.188232e-001
5427500.000	3.659678e-001	9.187751e-001
5429000.000	3.661131e-001	9.187586e-001
5430500.000	3.663598e-001	9.184909e-001
5432000.000	3.663917e-001	9.184810e-001
5433500.000	3.667965e-001	9.186095e-001
5435000.000	3.671777e-001	9.186056e-001
5436500.000	3.673483e-001	9.183346e-001
5438000.000	3.674921e-001	9.180919e-001
5439500.000	3.677268e-001	9.180858e-001
5441000.000	3.679072e-001	9.181906e-001
5442500.000	3.679283e-001	9.182871e-001
5444000.000	3.684144e-001	9.178509e-001
5445500.000	3.686799e-001	9.177445e-001
5447000.000	3.689179e-001	9.177363e-001
5448500.000	3.692546e-001	9.177366e-001
5450000.000	3.693445e-001	9.176987e-001
5451500.000	3.694026e-001	9.174424e-001
5453000.000	3.696874e-001	9.171701e-001
5454500.000	3.703310e-001	9.171354e-001
5456000.000	3.703823e-001	9.170793e-001
5457500.000	3.704529e-001	9.171904e-001
5459000.000	3.707022e-001	9.171660e-001
5460500.000	3.711505e-001	9.168151e-001
5462000.000	3.711905e-001	9.169293e-001
5463500.000	3.714319e-001	9.168554e-001
5465000.000	3.717832e-001	9.168109e-001
5466500.000	3.720549e-001	9.167700e-001
5468000.000	3.723136e-001	9.165184e-001
5469500.000	3.724834e-001	9.162501e-001
5471000.000	3.727417e-001	9.160791e-001
5472500.000	3.731517e-001	9.160880e-001
5474000.000	3.733558e-001	9.160003e-001
5475500.000	3.734499e-001	9.159705e-001
5477000.000	3.736326e-001	9.158603e-001
5478500.000	3.741102e-001	9.156805e-001
5480000.000	3.741448e-001	9.156315e-001
5481500.000	3.743925e-001	9.156339e-001
5483000.000	3.746707e-001	9.155272e-001
5484500.000	3.748469e-001	9.152395e-001
5486000.000	3.751354e-001	9.152352e-001
5487500.000	3.752518e-001	9.151201e-001
5489000.000	3.754239e-001	9.150647e-001
5490500.000	3.757754e-001	9.150685e-001
5492000.000	3.759359e-001	9.149310e-001
5493500.000	3.760967e-001	9.147973e-001
5495000.000	3.763840e-001	9.147655e-001
5496500.000	3.767097e-001	9.147786e-001
5498000.000	3.769515e-001	9.148159e-001
5499500.000	3.771402e-001	9.144345e-001
5501000.000	3.772797e-001	9.142123e-001
5502500.000	3.774255e-001	9.142681e-001
5504000.000	3.777324e-001	9.138774e-001
5505500.000	3.780893e-001	9.138846e-001
5507000.000	3.783330e-001	9.139353e-001
5508500.000	3.785136e-001	9.139316e-001
5510000.000	3.786262e-001	9.135847e-001
5511500.000	3.788637e-001	9.136113e-001
5513000.000	3.791846e-001	9.136578e-001
5514500.000	3.794292e-001	9.136659e-001
5516000.000	3.796827e-001	9.134640e-001
5517500.000	3.798471e-001	9.133611e-001
5519000.000	3.799993e-001	9.132873e-001
5520500.000	3.802653e-001	9.132799e-001
5522000.000	3.805579e-001	9.131634e-001
5523500.000	3.807281e-001	9.129919e-001
5525000.000	3.809628e-001	9.129496e-001
5526500.000	3.811737e-001	9.129683e-001
5528000.000	3.813641e-001	9.128237e-001
5529500.000	3.815408e-001	9.125227e-001
5531000.000	3.819267e-001	9.124364e-001
5532500.000	3.824150e-001	9.124582e-001
5534000.000	3.823850e-001	9.122593e-001
5535500.000	3.826153e-001	9.121607e-001
5537000.000	3.828928e-001	9.120165e-001
5538500.000	3.831323e-001	9.118466e-001
5540000.000	3.831060e-001	9.122140e-001
5541500.000	3.834339e-001	9.120652e-001
5543000.000	3.837565e-001	9.117737e-001
5544500.000	3.839609e-001	9.115021e-001
5546000.000	3.840768e-001	9.116297e-001
5547500.000	3.841542e-001	9.113248e-001
5549000.000	3.845796e-001	9.112057e-001
5550500.000	3.850901e-001	9.112848e-001
5552000.000	3.850540e-001	9.111974e-001
5553500.000	3.854111e-001	9.111393e-001
5555000.000	3.856080e-001	9.110282e-001
5556500.000	3.858070e-001	9.109228e-001
5558000.000	3.861418e-001	9.108483e-001
5559500.000	3.863769e-001	9.106024e-001
5561000.000	3.864887e-001	9.105009e-001
5562500.000	3.866352e-001	9.105356e-001
5564000.000	3.868750e-001	9.103116e-001
5565500.000	3.872643e-001	9.101947e-001
5567000.000	3.875281e-001	9.101552e-001
5568500.000	3.876158e-001	9.101286e-001
5570000.000	3.876445e-001	9.099715e-001
5571500.000	3.880440e-001	9.100946e-001
5573000.000	3.883770e-001	9.099558e-001
5574500.000	3.885990e-001	9.096749e-001
5576000.000	3.888240e-001	9.095344e-001
5577500.000	3.890890e-001	9.093443e-001
5579000.000	3.893094e-001	9.092922e-001
5580500.000	3.895681e-001	9.093243e-001
5582000.000	3.898107e-001	9.090747e-001
5583500.000	3.899883e-001	9.090942e-001
5585000.000	3.901879e-001	9.090321e-001
5586500.000	3.903948e-001	9.088907e-001
5588000.000	3.905494e-001	9.089307e-001
5589500.000	3.909387e-001	9.088600e-001
5591000.000	3.911640e-001	9.087246e-001
5592500.000	3.912335e-001	9.085718e-001
5594000.000	3.914074e-001	9.086122e-001
5595500.000	3.916864e-001	9.083577e-001
5597000.000	3.920863e-001	9.083411e-001
5598500.000	3.924079e-001	9.081920e-001
5600000.000	3.925599e-001	9.079535e-001
5601500.000	3.927209e-001	9.079868e-001
5603000.000	3.928968e-001	9.079269e-001
5604500.000	3.930986e-001	9.077965e-001
5606000.000	3.933750e-001	9.078556e-001
5607500.000	3.934465e-001	9.075863e-001
5609000.000	3.936710e-001	9.076544e-001
5610500.000	3.938991e-001	9.076993e-001
5612000.000	3.938898e-001	9.072051e-001
5613500.000	3.943691e-001	9.071948e-001
5615000.000	3.946190e-001	9.072184e-001
5616500.000	3.947933e-001	9.072213e-001
5618000.000	3.951721e-001	9.070148e-001
5619500.000	3.953453e-001	9.068756e-001
5621000.000	3.955609e-001	9.068104e-001
5622500.000	3.958035e-001	9.067157e-001
5624000.000	3.961533e-001	9.065386e-001
5625500.000	3.962735e-001	9.066513e-001
5627000.000	3.965032e-001	9.066292e-001
5628500.000	3.968065e-001	9.064862e-001
5630000.000	3.971322e-001	9.063122e-001
5631500.000	3.972418e-001	9.062033e-001
5633000.000	3.973855e-001	9.060738e-001
5634500.000	3.975198e-001	9.059802e-001
5636000.000	3.977936e-001	9.057043e-001
5637500.000	3.980861e-001	9.058221e-001
5639000.000	3.984154e-001	9.057802e-001
5640500.000	3.987026e-001	9.055821e-001
5642000.000	3.987914e-001	9.054124e-001
5643500.000	3.989320e-001	9.054754e-001
5645000.000	3.993331e-001	9.054346e-001
5646500.000	3.995898e-001	9.052900e-001
5648000.000	3.996223e-001	9.051041e-001
5649500.000	4.000172e-001	9.049851e-001
5651000.000	4.002466e-001	9.048145e-001
5652500.000	4.003524e-001	9.046378e-001
5654000.000	4.002105e-001	9.047513e-001
5655500.000	4.007455e-001	9.047027e-001
5657000.000	4.011157e-001	9.046360e-001
5658500.000	4.012879e-001	9.044285e-001
5660000.000	4.013457e-001	9.041709e-001
5661500.000	4.018669e-001	9.040438e-001
5663000.000	4.019903e-001	9.041646e-001
5664500.000	4.019741e-001	9.041729e-001
5666000.000	4.020402e-001	9.039928e-001
5667500.000	4.025739e-001	9.038571e-001
5669000.000	4.027291e-001	9.038928e-001
5670500.000	4.028855e-001	9.038582e-001
5672000.000	4.032405e-001	9.036443e-001
5673500.000	4.034472e-001	9.033782e-001
5675000.000	4.036071e-001	9.033815e-001
5676500.000	4.037471e-001	9.034964e-001
5678000.000	4.039459e-001	9.034837e-001
5679500.000	4.041878e-001	9.031893e-001
5681000.000	4.044419e-001	9.030956e-001
5682500.000	4.046548e-001	9.029883e-001
5684000.000	4.049204e-001	9.029020e-001
5685500.000	4.050933e-001	9.027928e-001
5687000.000	4.052093e-001	9.025985e-001
5688500.000	4.054203e-001	9.024452e-001
5690000.000	4.057290e-001	9.024068e-001
5691500.000	4.056118e-001	9.024841e-001
5693000.000	4.060804e-001	9.022670e-001
5694500.000	4.064939e-001	9.020300e-001
5696000.000	4.066493e-001	9.019219e-001
5697500.000	4.067429e-001	9.019582e-001
5699000.000	4.071720e-001	9.018842e-001
5700500.000	4.074804e-001	9.018263e-001
5702000.000	4.075646e-001	9.017464e-001
5703500.000	4.079620e-001	9.015461e-001
5705000.000	4.079703e-001	9.013989e-001
5706500.000	4.081402e-001	9.013093e-001
5708000.000	4.084556e-001	9.011328e-001
5709500.000	4.086429e-001	9.010203e-001
5711000.000	4.089362e-001	9.008996e-001
5712500.000	4.092367e-001	9.008054e-001
5714000.000	4.094640e-001	9.007692e-001
5715500.000	4.095547e-001	9.008594e-001
5717000.000	4.097952e-001	9.007805e-001
5718500.000	4.099914e-001	9.006034e-001
5720000.000	4.101032e-001	9.003409e-001
5721500.000	4.104322e-001	9.002916e-001
5723000.000	4.105015e-001	9.001461e-001
5724500.000	4.106560e-001	9.000967e-001
5726000.000	4.109885e-001	9.000999e-001
5727500.000	4.111584e-001	8.999471e-001
5729000.000	4.115767e-001	8.998625e-001
5730500.000	4.118571e-001	8.997354e-001
5732000.000	4.119334e-001	8.995690e-001
5733500.000	4.122879e-001	8.996019e-001
5735000.000	4.124018e-001	8.995233e-001
5736500.000	4.126041e-001	8.993552e-001
5738000.000	4.129172e-001	8.990582e-001
5739500.000	4.131442e-001	8.991230e-001
5741000.000	4.132871e-001	8.990629e-001
5742500.000	4.134724e-001	8.988690e-001
