Time (s),V_PRI,V_SEC,V_IN,V_OUT
0.0,-25.40005119999995,-206.19998207999998,22.262750048,-0.008924978239999992
5e-10,-25.40005119999995,-206.19998207999998,22.23775005056,-0.005799978560000002
1e-09,-19.150051839999946,-206.19998207999998,22.24400004992,-0.008924978239999992
1.5000000000000002e-09,-19.150051839999946,-206.19998207999998,22.25650004864,-0.008924978239999992
2e-09,-19.150051839999946,-218.6999808,22.25650004864,-0.005799978560000002
2.5e-09,-12.90005248,-206.19998207999998,22.25650004864,-0.008924978239999992
3.0000000000000004e-09,-6.650053119999939,-212.44998144,22.25650004864,-0.008924978239999992
3.5000000000000003e-09,-0.4000537599999916,-218.6999808,22.26900004736,-0.002674978880000012
4e-09,-6.650053119999939,-212.44998144,22.27525004672,-0.005799978560000002
4.500000000000001e-09,-0.4000537599999916,-218.6999808,22.26900004736,-0.008924978239999992
5e-09,5.849945600000069,-212.44998144,22.262750048,-0.005799978560000002
5.5000000000000004e-09,5.849945600000069,-218.6999808,22.25025004928,-0.002674978880000012
6.000000000000001e-09,-0.4000537599999916,-212.44998144,22.219000052480002,-0.002674978880000012
6.5e-09,12.099944960000016,-206.19998207999998,22.21275005312,-0.002674978880000012
7.000000000000001e-09,12.099944960000016,-218.6999808,22.219000052480002,-0.002674978880000012
7.500000000000001e-09,12.099944960000016,-212.44998144,22.21275005312,-0.008924978239999992
8e-09,24.599943680000024,-212.44998144,22.219000052480002,-0.005799978560000002
8.5e-09,30.849943040000085,-212.44998144,22.19400005504,-0.005799978560000002
9.000000000000001e-09,30.849943040000085,-212.44998144,22.2002500544,-0.01204997792000001
9.5e-09,37.09994240000003,-206.19998207999998,22.2002500544,-0.005799978560000002
1e-08,30.849943040000085,-212.44998144,22.2002500544,-0.005799978560000002
1.0500000000000001e-08,43.34994176000009,-199.94998272,22.2002500544,-0.005799978560000002
1.1000000000000001e-08,43.34994176000009,-212.44998144,22.18775005568,-0.008924978239999992
1.15e-08,49.59994112000004,-212.44998144,22.18775005568,-0.002674978880000012
1.2000000000000002e-08,43.34994176000009,-212.44998144,22.17525005696,-0.005799978560000002
1.2500000000000001e-08,49.59994112000004,-212.44998144,22.17525005696,-0.008924978239999992
1.3e-08,55.8499404800001,-199.94998272,22.17525005696,-0.005799978560000002
1.35e-08,49.59994112000004,-199.94998272,22.18150005632,-0.005799978560000002
1.4000000000000001e-08,55.8499404800001,-199.94998272,22.17525005696,-0.002674978880000012
1.45e-08,62.09993984000005,-199.94998272,22.18775005568,-0.002674978880000012
1.5000000000000002e-08,68.34993920000011,-199.94998272,22.2002500544,-0.005799978560000002
1.55e-08,62.09993984000005,-199.94998272,22.21275005312,-0.008924978239999992
1.6e-08,68.34993920000011,-199.94998272,22.23775005056,-0.005799978560000002
1.6500000000000002e-08,74.59993856000006,-199.94998272,22.2315000512,-0.002674978880000012
1.7e-08,80.84993792,-193.69998336,22.23775005056,-0.008924978239999992
1.75e-08,80.84993792,-181.19998464,22.25025004928,-0.008924978239999992
1.8000000000000002e-08,80.84993792,-187.449984,22.25025004928,-0.002674978880000012
1.85e-08,80.84993792,-181.19998464,22.25025004928,-0.008924978239999992
1.9e-08,87.09993728000006,-181.19998464,22.25025004928,-0.008924978239999992
1.9500000000000003e-08,99.59993600000007,-187.449984,22.25025004928,-0.002674978880000012
2e-08,87.09993728000006,-181.19998464,22.25025004928,-0.005799978560000002
2.05e-08,87.09993728000006,-174.94998528,22.24400004992,-0.008924978239999992
2.1000000000000003e-08,93.34993664000001,-168.69998592,22.25025004928,-0.005799978560000002
2.15e-08,93.34993664000001,-162.44998655999999,22.24400004992,-0.005799978560000002
2.2000000000000002e-08,93.34993664000001,-162.44998655999999,22.2315000512,-0.002674978880000012
2.2500000000000003e-08,99.59993600000007,-162.44998655999999,22.23775005056,-0.002674978880000012
2.3e-08,99.59993600000007,-162.44998655999999,22.2315000512,-0.002674978880000012
2.3500000000000002e-08,99.59993600000007,-162.44998655999999,22.23775005056,-0.008924978239999992
2.4000000000000003e-08,105.84993536000002,-162.44998655999999,22.23775005056,-0.005799978560000002
2.45e-08,112.09993472000008,-156.1999872,22.22525005184,-0.002674978880000012
2.5000000000000002e-08,112.09993472000008,-149.94998784,22.23775005056,-0.01204997792000001
2.55e-08,112.09993472000008,-149.94998784,22.25025004928,-0.008924978239999992
2.6e-08,118.34993408000003,-143.69998848,22.25025004928,-0.005799978560000002
2.6500000000000002e-08,112.09993472000008,-137.44998912,22.262750048,-0.005799978560000002
2.7e-08,118.34993408000003,-137.44998912,22.26900004736,-0.008924978239999992
2.75e-08,130.84993280000003,-143.69998848,22.28775004544,-0.005799978560000002
2.8000000000000003e-08,124.59993344000009,-137.44998912,22.28775004544,-0.005799978560000002
2.85e-08,124.59993344000009,-124.9499904,22.28150004608,-0.005799978560000002
2.9e-08,130.84993280000003,-124.9499904,22.28775004544,-0.005799978560000002
2.9500000000000003e-08,130.84993280000003,-124.9499904,22.28775004544,-0.005799978560000002
3.0000000000000004e-08,130.84993280000003,-112.44999168000001,22.27525004672,-0.002674978880000012
3.05e-08,137.0999321600001,-112.44999168000001,22.27525004672,-0.005799978560000002
3.1e-08,143.34993152000004,-112.44999168000001,22.26900004736,-0.002674978880000012
3.1500000000000004e-08,143.34993152000004,-112.44999168000001,22.25650004864,-0.005799978560000002
3.2e-08,149.5999308800001,-99.94999296,22.25025004928,-0.005799978560000002
3.25e-08,155.84993024000005,-99.94999296,22.219000052480002,-0.002674978880000012
3.3000000000000004e-08,155.84993024000005,-93.6999936,22.219000052480002,-0.008924978239999992
3.35e-08,155.84993024000005,-87.44999424000001,22.219000052480002,-0.005799978560000002
3.4e-08,155.84993024000005,-87.44999424000001,22.2002500544,-0.002674978880000012
3.4500000000000005e-08,162.0999296000001,-74.94999552,22.19400005504,-0.005799978560000002
3.5e-08,168.34992896000006,-81.19999488,22.18150005632,-0.005799978560000002
3.55e-08,174.59992832,-81.19999488,22.18150005632,-0.002674978880000012
3.6000000000000005e-08,168.34992896000006,-74.94999552,22.16275005824,-0.005799978560000002
3.65e-08,174.59992832,-68.69999616,22.16275005824,-0.005799978560000002
3.7e-08,174.59992832,-56.199997440000004,22.15025005952,-0.005799978560000002
3.7500000000000005e-08,174.59992832,-62.4499968,22.15025005952,-0.005799978560000002
3.8e-08,174.59992832,-56.199997440000004,22.137750060800002,-0.002674978880000012
3.85e-08,180.84992768000006,-49.94999808,22.15025005952,-0.005799978560000002
3.9000000000000005e-08,180.84992768000006,-56.199997440000004,22.15650005888,-0.002674978880000012
3.95e-08,180.84992768000006,-56.199997440000004,22.1690000576,-0.008924978239999992
4e-08,187.09992704,-43.699998719999996,22.18150005632,-0.005799978560000002
4.0500000000000005e-08,193.34992640000007,-37.44999936,22.1690000576,-0.005799978560000002
4.1e-08,193.34992640000007,-37.44999936,22.18150005632,-0.01204997792000001
4.15e-08,187.09992704,-24.95000064,22.19400005504,-0.005799978560000002
4.2000000000000006e-08,187.09992704,-37.44999936,22.19400005504,-0.005799978560000002
4.2500000000000003e-08,193.34992640000007,-12.450001919999998,22.18775005568,-0.008924978239999992
4.3e-08,193.34992640000007,-24.95000064,22.18150005632,-0.005799978560000002
4.3500000000000006e-08,199.59992576000002,-24.95000064,22.17525005696,-0.002674978880000012
4.4000000000000004e-08,193.34992640000007,-12.450001919999998,22.15025005952,-0.005799978560000002
4.45e-08,193.34992640000007,-6.200002559999998,22.14400006016,-0.008924978239999992
4.5000000000000006e-08,193.34992640000007,-6.200002559999998,22.137750060800002,-0.005799978560000002
4.5500000000000004e-08,193.34992640000007,-6.200002559999998,22.137750060800002,-0.005799978560000002
4.6e-08,187.09992704,6.299996160000003,22.11900006272,0.0004500208000000061
4.6500000000000006e-08,193.34992640000007,6.299996160000003,22.106500064000002,-0.002674978880000012
4.7000000000000004e-08,193.34992640000007,6.299996160000003,22.09400006528,0.0004500208000000061
4.75e-08,187.09992704,12.54999552,22.08150006656,-0.008924978239999992
4.8000000000000006e-08,187.09992704,25.049994240000007,22.08775006592,-0.005799978560000002
4.8500000000000004e-08,187.09992704,18.799994880000003,22.08150006656,-0.002674978880000012
4.9e-08,187.09992704,37.54999296,22.10025006464,-0.008924978239999992
4.95e-08,187.09992704,31.299993600000004,22.11900006272,-0.008924978239999992
5.0000000000000004e-08,180.84992768000006,31.299993600000004,22.11900006272,-0.005799978560000002
5.05e-08,180.84992768000006,43.79999232,22.11900006272,-0.005799978560000002
5.1e-08,180.84992768000006,43.79999232,22.12525006208,-0.008924978239999992
5.1500000000000005e-08,180.84992768000006,37.54999296,22.14400006016,-0.002674978880000012
5.2e-08,174.59992832,50.049991680000005,22.15025005952,-0.005799978560000002
5.25e-08,174.59992832,50.049991680000005,22.15650005888,-0.008924978239999992
5.3000000000000005e-08,168.34992896000006,62.5499904,22.14400006016,-0.005799978560000002
5.35e-08,168.34992896000006,56.299991039999995,22.137750060800002,-0.005799978560000002
5.4e-08,162.0999296000001,68.79998976,22.11275006336,-0.002674978880000012
5.4500000000000005e-08,162.0999296000001,68.79998976,22.106500064000002,-0.005799978560000002
5.5e-08,162.0999296000001,68.79998976,22.09400006528,-0.005799978560000002
5.55e-08,155.84993024000005,75.04998912,22.08150006656,-0.008924978239999992
5.6000000000000005e-08,162.0999296000001,81.29998848000001,22.0752500672,-0.005799978560000002
5.65e-08,162.0999296000001,81.29998848000001,22.05025006976,-0.005799978560000002
5.7e-08,149.5999308800001,93.7999872,22.06275006848,-0.008924978239999992
5.7500000000000005e-08,149.5999308800001,87.54998784,22.08150006656,-0.005799978560000002
5.8e-08,143.34993152000004,87.54998784,22.0752500672,-0.002674978880000012
5.85e-08,137.0999321600001,100.04998656,22.0752500672,-0.005799978560000002
5.9000000000000006e-08,137.0999321600001,93.7999872,22.0752500672,-0.005799978560000002
5.9500000000000003e-08,137.0999321600001,93.7999872,22.08150006656,-0.002674978880000012
6.000000000000001e-08,124.59993344000009,100.04998656,22.09400006528,-0.005799978560000002
6.05e-08,130.84993280000003,106.29998592,22.11275006336,-0.008924978239999992
6.1e-08,124.59993344000009,106.29998592,22.11900006272,-0.005799978560000002
6.15e-08,124.59993344000009,112.54998528,22.137750060800002,-0.005799978560000002
6.2e-08,112.09993472000008,112.54998528,22.137750060800002,-0.005799978560000002
6.250000000000001e-08,118.34993408000003,118.79998464,22.15025005952,-0.005799978560000002
6.300000000000001e-08,112.09993472000008,118.79998464,22.15650005888,-0.002674978880000012
6.35e-08,99.59993600000007,125.04998400000001,22.1690000576,-0.005799978560000002
6.4e-08,105.84993536000002,131.29998336000003,22.18150005632,-0.005799978560000002
6.45e-08,105.84993536000002,125.04998400000001,22.17525005696,-0.002674978880000012
6.5e-08,99.59993600000007,137.54998272000003,22.18775005568,-0.008924978239999992
6.55e-08,93.34993664000001,137.54998272000003,22.20650005376,-0.002674978880000012
6.600000000000001e-08,87.09993728000006,131.29998336000003,22.219000052480002,-0.002674978880000012
6.65e-08,93.34993664000001,143.79998208,22.219000052480002,-0.005799978560000002
6.7e-08,87.09993728000006,137.54998272000003,22.20650005376,-0.008924978239999992
6.75e-08,87.09993728000006,131.29998336000003,22.19400005504,-0.002674978880000012
6.8e-08,74.59993856000006,137.54998272000003,22.17525005696,-0.005799978560000002
6.85e-08,74.59993856000006,143.79998208,22.15650005888,-0.008924978239999992
6.900000000000001e-08,68.34993920000011,150.04998144,22.14400006016,-0.005799978560000002
6.950000000000001e-08,62.09993984000005,150.04998144,22.137750060800002,-0.005799978560000002
7e-08,49.59994112000004,150.04998144,22.11275006336,-0.002674978880000012
7.05e-08,62.09993984000005,156.29998080000001,22.10025006464,-0.005799978560000002
7.1e-08,49.59994112000004,150.04998144,22.106500064000002,-0.002674978880000012
7.15e-08,49.59994112000004,156.29998080000001,22.12525006208,-0.008924978239999992
7.200000000000001e-08,49.59994112000004,162.54998016000002,22.15650005888,-0.005799978560000002
7.250000000000001e-08,43.34994176000009,162.54998016000002,22.15650005888,-0.005799978560000002
7.3e-08,37.09994240000003,162.54998016000002,22.17525005696,-0.008924978239999992
7.35e-08,37.09994240000003,168.79997952000002,22.18775005568,-0.008924978239999992
7.4e-08,37.09994240000003,156.29998080000001,22.18150005632,-0.002674978880000012
7.45e-08,30.849943040000085,168.79997952000002,22.1690000576,-0.005799978560000002
7.500000000000001e-08,30.849943040000085,162.54998016000002,22.15650005888,-0.008924978239999992
7.550000000000001e-08,30.849943040000085,156.29998080000001,22.137750060800002,-0.002674978880000012
7.6e-08,18.349944320000077,156.29998080000001,22.11275006336,-0.005799978560000002
7.65e-08,18.349944320000077,162.54998016000002,22.10025006464,-0.008924978239999992
7.7e-08,12.099944960000016,162.54998016000002,22.10025006464,-0.005799978560000002
7.75e-08,12.099944960000016,162.54998016000002,22.11900006272,-0.005799978560000002
7.800000000000001e-08,-0.4000537599999916,168.79997952000002,22.11275006336,-0.002674978880000012
7.850000000000001e-08,5.849945600000069,162.54998016000002,22.12525006208,-0.002674978880000012
7.9e-08,5.849945600000069,162.54998016000002,22.13150006144,-0.002674978880000012
7.95e-08,-6.650053119999939,162.54998016000002,22.13150006144,-0.005799978560000002
8e-08,-0.4000537599999916,162.54998016000002,22.13150006144,-0.005799978560000002
8.05e-08,-0.4000537599999916,168.79997952000002,22.11275006336,-0.002674978880000012
8.100000000000001e-08,-12.90005248,162.54998016000002,22.10025006464,-0.01204997792000001
8.150000000000001e-08,-12.90005248,168.79997952000002,22.10025006464,-0.008924978239999992
8.2e-08,-19.150051839999946,162.54998016000002,22.08775006592,-0.005799978560000002
8.25e-08,-25.40005119999995,168.79997952000002,22.08150006656,-0.005799978560000002
8.3e-08,-19.150051839999946,162.54998016000002,22.0752500672,-0.005799978560000002
8.35e-08,-19.150051839999946,156.29998080000001,22.08150006656,-0.002674978880000012
8.400000000000001e-08,-37.90004991999996,150.04998144,22.08150006656,-0.002674978880000012
8.450000000000001e-08,-37.90004991999996,162.54998016000002,22.10025006464,-0.008924978239999992
8.500000000000001e-08,-37.90004991999996,162.54998016000002,22.106500064000002,-0.005799978560000002
8.55e-08,-44.15004927999996,156.29998080000001,22.11900006272,-0.002674978880000012
8.6e-08,-50.400048639999966,156.29998080000001,22.11900006272,-0.002674978880000012
8.65e-08,-44.15004927999996,156.29998080000001,22.12525006208,-0.005799978560000002
8.700000000000001e-08,-44.15004927999996,150.04998144,22.13150006144,-0.002674978880000012
8.750000000000001e-08,-56.65004799999997,156.29998080000001,22.11900006272,-0.008924978239999992
8.800000000000001e-08,-50.400048639999966,156.29998080000001,22.12525006208,-0.005799978560000002
8.85e-08,-56.65004799999997,150.04998144,22.106500064000002,-0.005799978560000002
8.9e-08,-62.900047359999974,150.04998144,22.11900006272,-0.01204997792000001
8.95e-08,-62.900047359999974,156.29998080000001,22.137750060800002,-0.008924978239999992
9.000000000000001e-08,-69.15004671999998,143.79998208,22.13150006144,-0.005799978560000002
9.050000000000001e-08,-75.40004607999992,150.04998144,22.14400006016,-0.002674978880000012
9.100000000000001e-08,-75.40004607999992,143.79998208,22.15025005952,-0.008924978239999992
9.15e-08,-69.15004671999998,131.29998336000003,22.15650005888,-0.002674978880000012
9.2e-08,-81.65004543999993,131.29998336000003,22.14400006016,-0.005799978560000002
9.25e-08,-81.65004543999993,137.54998272000003,22.137750060800002,-0.008924978239999992
9.300000000000001e-08,-81.65004543999993,131.29998336000003,22.13150006144,-0.005799978560000002
9.350000000000001e-08,-81.65004543999993,131.29998336000003,22.12525006208,-0.005799978560000002
9.400000000000001e-08,-94.15004415999994,131.29998336000003,22.11275006336,-0.002674978880000012
9.45e-08,-87.90004479999993,125.04998400000001,22.13150006144,-0.002674978880000012
9.5e-08,-94.15004415999994,125.04998400000001,22.137750060800002,-0.002674978880000012
9.55e-08,-100.40004351999994,112.54998528,22.15025005952,-0.005799978560000002
9.600000000000001e-08,-94.15004415999994,125.04998400000001,22.16275005824,-0.002674978880000012
9.650000000000001e-08,-94.15004415999994,112.54998528,22.15650005888,-0.005799978560000002
9.700000000000001e-08,-106.65004287999994,118.79998464,22.16275005824,-0.008924978239999992
9.75e-08,-100.40004351999994,112.54998528,22.18150005632,-0.005799978560000002
9.8e-08,-106.65004287999994,106.29998592,22.1690000576,-0.005799978560000002
9.85e-08,-112.90004223999995,112.54998528,22.17525005696,-0.002674978880000012
9.9e-08,-112.90004223999995,100.04998656,22.16275005824,-0.008924978239999992
9.950000000000001e-08,-112.90004223999995,93.7999872,22.17525005696,-0.005799978560000002
1.0000000000000001e-07,-119.15004159999995,87.54998784,22.17525005696,-0.005799978560000002
1.005e-07,-125.40004095999996,87.54998784,22.18775005568,-0.005799978560000002
1.01e-07,-119.15004159999995,93.7999872,22.21275005312,-0.005799978560000002
1.015e-07,-125.40004095999996,87.54998784,22.24400004992,-0.005799978560000002
1.02e-07,-131.65004031999996,87.54998784,22.25025004928,-0.002674978880000012
1.0250000000000001e-07,-131.65004031999996,81.29998848000001,22.27525004672,-0.005799978560000002
1.0300000000000001e-07,-137.90003967999996,75.04998912,22.28150004608,-0.005799978560000002
1.0350000000000001e-07,-137.90003967999996,68.79998976,22.26900004736,-0.008924978239999992
1.04e-07,-137.90003967999996,68.79998976,22.25025004928,-0.005799978560000002
1.045e-07,-137.90003967999996,62.5499904,22.21275005312,-0.002674978880000012
1.05e-07,-144.15003903999997,68.79998976,22.2002500544,-0.008924978239999992
1.0550000000000001e-07,-144.15003903999997,62.5499904,22.2002500544,-0.005799978560000002
1.0600000000000001e-07,-150.40003839999997,56.299991039999995,22.18150005632,-0.005799978560000002
1.0650000000000001e-07,-156.65003775999998,56.299991039999995,22.17525005696,-0.005799978560000002
1.07e-07,-156.65003775999998,50.049991680000005,22.17525005696,-0.008924978239999992
1.075e-07,-150.40003839999997,37.54999296,22.18775005568,0.0004500208000000061
1.08e-07,-169.15003647999998,31.299993600000004,22.18775005568,-0.002674978880000012
1.0850000000000001e-07,-162.90003711999998,37.54999296,22.19400005504,-0.005799978560000002
1.0900000000000001e-07,-162.90003711999998,37.54999296,22.2002500544,-0.005799978560000002
1.0950000000000001e-07,-169.15003647999998,18.799994880000003,22.20650005376,-0.005799978560000002
1.1e-07,-175.40003584,25.049994240000007,22.18150005632,-0.002674978880000012
1.105e-07,-175.40003584,18.799994880000003,22.17525005696,-0.005799978560000002
1.11e-07,-175.40003584,12.54999552,22.18775005568,-0.002674978880000012
1.1150000000000001e-07,-181.65003519999993,12.54999552,22.19400005504,-0.008924978239999992
1.1200000000000001e-07,-181.65003519999993,6.299996160000003,22.20650005376,-0.005799978560000002
1.1250000000000001e-07,-187.90003455999994,6.299996160000003,22.18775005568,-0.005799978560000002
1.13e-07,-181.65003519999993,6.299996160000003,22.2002500544,-0.008924978239999992
1.135e-07,-187.90003455999994,0.049996800000002395,22.21275005312,-0.008924978239999992
1.14e-07,-194.15003391999994,-12.450001919999998,22.22525005184,-0.002674978880000012
1.1450000000000001e-07,-187.90003455999994,-6.200002559999998,22.25025004928,-0.005799978560000002
1.1500000000000001e-07,-187.90003455999994,-12.450001919999998,22.262750048,-0.008924978239999992
1.1550000000000001e-07,-181.65003519999993,-24.95000064,22.26900004736,-0.005799978560000002
