Time (s),V_PRI,V_SEC,V_IN,V_OUT
0.0,-50.37492223999993,-243.69997824,26.27075004864,-0.002824978880000023
5e-10,-34.74992128000008,-243.69997824,26.277000048,-0.005949978560000013
1e-09,-19.12492032,-256.19997696,26.277000048,-0.002824978880000023
1.5000000000000002e-09,-34.74992128000008,-249.9499776,26.28950004672,-0.009074978240000003
2e-09,-19.12492032,-243.69997824,26.295750046080002,-0.002824978880000023
2.5e-09,-3.499919360000149,-249.9499776,26.30200004544,-0.005949978560000013
3.0000000000000004e-09,-3.499919360000149,-243.69997824,26.3082500448,-0.009074978240000003
3.5000000000000003e-09,-19.12492032,-243.69997824,26.32075004352,-0.005949978560000013
4e-09,-3.499919360000149,-249.9499776,26.3082500448,-0.002824978880000023
4.500000000000001e-09,-3.499919360000149,-237.44997888,26.295750046080002,-0.005949978560000013
5e-09,12.12508159999993,-249.9499776,26.277000048,-0.009074978240000003
5.5000000000000004e-09,12.12508159999993,-256.19997696,26.25200005056,-0.002824978880000023
6.000000000000001e-09,12.12508159999993,-256.19997696,26.22700005312,-0.002824978880000023
6.5e-09,12.12508159999993,-249.9499776,26.22075005376,-0.009074978240000003
7.000000000000001e-09,27.75008256000001,-243.69997824,26.22075005376,-0.005949978560000013
7.500000000000001e-09,12.12508159999993,-243.69997824,26.22075005376,-0.005949978560000013
8e-09,12.12508159999993,-243.69997824,26.202000055680003,-0.002824978880000023
8.5e-09,43.37508351999986,-249.9499776,26.202000055680003,-0.002824978880000023
9.000000000000001e-09,27.75008256000001,-249.9499776,26.20825005504,-0.002824978880000023
9.5e-09,27.75008256000001,-249.9499776,26.20825005504,-0.009074978240000003
1e-08,43.37508351999986,-243.69997824,26.20825005504,-0.005949978560000013
1.0500000000000001e-08,59.00008447999994,-243.69997824,26.19575005632,-0.005949978560000013
1.1000000000000001e-08,59.00008447999994,-243.69997824,26.18950005696,-0.009074978240000003
1.15e-08,59.00008447999994,-237.44997888,26.183250057600002,-0.005949978560000013
1.2000000000000002e-08,59.00008447999994,-243.69997824,26.183250057600002,-0.002824978880000023
1.2500000000000001e-08,59.00008447999994,-231.19997952,26.17700005824,-0.005949978560000013
1.3e-08,74.62508544000002,-243.69997824,26.183250057600002,-0.009074978240000003
1.35e-08,90.25008639999987,-243.69997824,26.18950005696,-0.002824978880000023
1.4000000000000001e-08,74.62508544000002,-237.44997888,26.19575005632,-0.005949978560000013
1.45e-08,90.25008639999987,-231.19997952,26.20825005504,-0.009074978240000003
1.5000000000000002e-08,90.25008639999987,-231.19997952,26.22700005312,-0.005949978560000013
1.55e-08,74.62508544000002,-231.19997952,26.2457500512,-0.005949978560000013
1.6e-08,74.62508544000002,-224.94998016,26.2457500512,-0.002824978880000023
1.6500000000000002e-08,90.25008639999987,-218.6999808,26.25825004992,-0.005949978560000013
1.7e-08,90.25008639999987,-224.94998016,26.25825004992,-0.005949978560000013
1.75e-08,90.25008639999987,-218.6999808,26.25825004992,-0.009074978240000003
1.8000000000000002e-08,90.25008639999987,-212.44998144,26.264500049280002,-0.005949978560000013
1.85e-08,105.87508735999995,-206.19998207999998,26.25825004992,-0.005949978560000013
1.9e-08,105.87508735999995,-206.19998207999998,26.264500049280002,-0.009074978240000003
1.9500000000000003e-08,105.87508735999995,-199.94998272,26.27075004864,-0.009074978240000003
2e-08,105.87508735999995,-206.19998207999998,26.27075004864,-0.002824978880000023
2.05e-08,105.87508735999995,-193.69998336,26.264500049280002,-0.005949978560000013
2.1000000000000003e-08,121.50008832000003,-199.94998272,26.264500049280002,-0.009074978240000003
2.15e-08,137.12508927999988,-199.94998272,26.27075004864,-0.005949978560000013
2.2000000000000002e-08,121.50008832000003,-199.94998272,26.25200005056,-0.005949978560000013
2.2500000000000003e-08,121.50008832000003,-187.449984,26.25200005056,-0.009074978240000003
2.3e-08,121.50008832000003,-187.449984,26.25825004992,-0.005949978560000013
2.3500000000000002e-08,121.50008832000003,-181.19998464,26.25825004992,-0.005949978560000013
2.4000000000000003e-08,105.87508735999995,-168.69998592,26.2457500512,-0.002824978880000023
2.45e-08,137.12508927999988,-168.69998592,26.25200005056,-0.005949978560000013
2.5000000000000002e-08,121.50008832000003,-168.69998592,26.264500049280002,-0.002824978880000023
2.55e-08,137.12508927999988,-168.69998592,26.277000048,-0.009074978240000003
2.6e-08,137.12508927999988,-162.44998655999999,26.30200004544,-0.005949978560000013
2.6500000000000002e-08,152.75009023999996,-156.1999872,26.30200004544,-0.002824978880000023
2.7e-08,152.75009023999996,-149.94998784,26.32075004352,-0.009074978240000003
2.75e-08,137.12508927999988,-149.94998784,26.33325004224,-0.005949978560000013
2.8000000000000003e-08,152.75009023999996,-149.94998784,26.32700004288,-0.002824978880000023
2.85e-08,152.75009023999996,-137.44998912,26.33325004224,-0.005949978560000013
2.9e-08,152.75009023999996,-143.69998848,26.32700004288,-0.005949978560000013
2.9500000000000003e-08,184.0000921599999,-143.69998848,26.32700004288,-0.002824978880000023
3.0000000000000004e-08,152.75009023999996,-137.44998912,26.314500044160003,-0.005949978560000013
3.05e-08,168.37509120000004,-124.9499904,26.3082500448,-0.009074978240000003
3.1e-08,184.0000921599999,-124.9499904,26.28950004672,-0.005949978560000013
3.1500000000000004e-08,168.37509120000004,-124.9499904,26.28325004736,-0.002824978880000023
3.2e-08,184.0000921599999,-118.69999104,26.25825004992,-0.002824978880000023
3.25e-08,184.0000921599999,-106.19999232,26.25200005056,-0.002824978880000023
3.3000000000000004e-08,184.0000921599999,-106.19999232,26.2457500512,-0.002824978880000023
3.35e-08,168.37509120000004,-106.19999232,26.23950005184,-0.009074978240000003
3.4e-08,199.62509311999997,-93.6999936,26.233250052480003,-0.002824978880000023
3.4500000000000005e-08,215.25009408000005,-87.44999424000001,26.202000055680003,-0.005949978560000013
3.5e-08,215.25009408000005,-87.44999424000001,26.18950005696,-0.012199977920000021
3.55e-08,199.62509311999997,-81.19999488,26.183250057600002,-0.005949978560000013
3.6000000000000005e-08,184.0000921599999,-81.19999488,26.17075005888,-0.002824978880000023
3.65e-08,215.25009408000005,-68.69999616,26.16450005952,-0.005949978560000013
3.7e-08,215.25009408000005,-68.69999616,26.16450005952,-0.005949978560000013
3.7500000000000005e-08,230.8750950399999,-68.69999616,26.16450005952,-0.002824978880000023
3.8e-08,215.25009408000005,-68.69999616,26.15825006016,-0.005949978560000013
3.85e-08,230.8750950399999,-56.199997440000004,26.16450005952,-0.009074978240000003
3.9000000000000005e-08,230.8750950399999,-56.199997440000004,26.17075005888,-0.009074978240000003
3.95e-08,215.25009408000005,-49.94999808,26.183250057600002,-0.005949978560000013
4e-08,215.25009408000005,-43.699998719999996,26.17700005824,-0.002824978880000023
4.0500000000000005e-08,230.8750950399999,-31.2,26.18950005696,-0.005949978560000013
4.1e-08,215.25009408000005,-37.44999936,26.202000055680003,-0.002824978880000023
4.15e-08,215.25009408000005,-37.44999936,26.20825005504,-0.009074978240000003
4.2000000000000006e-08,230.8750950399999,-24.95000064,26.214500054400002,-0.005949978560000013
4.2500000000000003e-08,230.8750950399999,-18.70000128,26.19575005632,-0.005949978560000013
4.3e-08,230.8750950399999,-6.200002559999998,26.183250057600002,-0.009074978240000003
4.3500000000000006e-08,230.8750950399999,-12.450001919999998,26.17075005888,-0.005949978560000013
4.4000000000000004e-08,230.8750950399999,-12.450001919999998,26.14575006144,-0.002824978880000023
4.45e-08,230.8750950399999,0.049996800000002395,26.14575006144,-0.005949978560000013
4.5000000000000006e-08,230.8750950399999,0.049996800000002395,26.13950006208,-0.009074978240000003
4.5500000000000004e-08,246.50009599999998,0.049996800000002395,26.13950006208,-0.002824978880000023
4.6e-08,215.25009408000005,6.299996160000003,26.11450006464,-0.002824978880000023
4.6500000000000006e-08,230.8750950399999,18.799994880000003,26.09575006656,-0.009074978240000003
4.7000000000000004e-08,230.8750950399999,25.049994240000007,26.07700006848,-0.005949978560000013
4.75e-08,230.8750950399999,25.049994240000007,26.08325006784,-0.005949978560000013
4.8000000000000006e-08,215.25009408000005,31.299993600000004,26.0895000672,-0.002824978880000023
4.8500000000000004e-08,230.8750950399999,37.54999296,26.10825006528,-0.005949978560000013
4.9e-08,215.25009408000005,37.54999296,26.12700006336,-0.002824978880000023
4.95e-08,199.62509311999997,43.79999232,26.13950006208,-0.009074978240000003
5.0000000000000004e-08,215.25009408000005,56.299991039999995,26.14575006144,-0.005949978560000013
5.05e-08,215.25009408000005,56.299991039999995,26.14575006144,-0.005949978560000013
5.1e-08,215.25009408000005,62.5499904,26.152000060800003,-0.012199977920000021
5.1500000000000005e-08,199.62509311999997,68.79998976,26.16450005952,-0.009074978240000003
5.2e-08,199.62509311999997,68.79998976,26.14575006144,-0.002824978880000023
5.25e-08,215.25009408000005,81.29998848000001,26.13950006208,-0.005949978560000013
5.3000000000000005e-08,199.62509311999997,75.04998912,26.120750064,-0.009074978240000003
5.35e-08,215.25009408000005,81.29998848000001,26.10825006528,-0.002824978880000023
5.4e-08,184.0000921599999,81.29998848000001,26.0895000672,-0.002824978880000023
5.4500000000000005e-08,184.0000921599999,87.54998784,26.06450006976,-0.009074978240000003
5.5e-08,184.0000921599999,93.7999872,26.04575007168,-0.005949978560000013
5.55e-08,184.0000921599999,100.04998656,26.052000071040002,-0.005949978560000013
5.6000000000000005e-08,152.75009023999996,100.04998656,26.039500072320003,-0.005949978560000013
5.65e-08,184.0000921599999,106.29998592,26.04575007168,-0.005949978560000013
5.7e-08,168.37509120000004,106.29998592,26.0582500704,-0.005949978560000013
5.7500000000000005e-08,168.37509120000004,112.54998528,26.06450006976,-0.009074978240000003
5.8e-08,168.37509120000004,118.79998464,26.06450006976,-0.009074978240000003
5.85e-08,152.75009023999996,118.79998464,26.052000071040002,-0.005949978560000013
5.9000000000000006e-08,152.75009023999996,125.04998400000001,26.06450006976,-0.009074978240000003
5.9500000000000003e-08,152.75009023999996,131.29998336000003,26.08325006784,-0.009074978240000003
6.000000000000001e-08,152.75009023999996,131.29998336000003,26.09575006656,-0.002824978880000023
6.05e-08,152.75009023999996,143.79998208,26.10825006528,-0.005949978560000013
6.1e-08,137.12508927999988,137.54998272000003,26.120750064,-0.005949978560000013
6.15e-08,152.75009023999996,143.79998208,26.13950006208,-0.002824978880000023
6.2e-08,137.12508927999988,137.54998272000003,26.13950006208,-0.002824978880000023
6.250000000000001e-08,137.12508927999988,143.79998208,26.14575006144,-0.009074978240000003
6.300000000000001e-08,137.12508927999988,150.04998144,26.15825006016,-0.005949978560000013
6.35e-08,121.50008832000003,156.29998080000001,26.17075005888,-0.005949978560000013
6.4e-08,105.87508735999995,156.29998080000001,26.17075005888,-0.002824978880000023
6.45e-08,121.50008832000003,156.29998080000001,26.18950005696,-0.005949978560000013
6.5e-08,105.87508735999995,162.54998016000002,26.20825005504,-0.002824978880000023
6.55e-08,105.87508735999995,162.54998016000002,26.22700005312,-0.009074978240000003
6.600000000000001e-08,105.87508735999995,168.79997952000002,26.233250052480003,-0.005949978560000013
6.65e-08,105.87508735999995,168.79997952000002,26.202000055680003,-0.005949978560000013
6.7e-08,90.25008639999987,175.04997888000003,26.19575005632,-0.009074978240000003
6.75e-08,90.25008639999987,181.29997824000003,26.183250057600002,-0.005949978560000013
6.8e-08,90.25008639999987,175.04997888000003,26.15825006016,-0.002824978880000023
6.85e-08,74.62508544000002,181.29997824000003,26.13950006208,-0.005949978560000013
6.900000000000001e-08,74.62508544000002,181.29997824000003,26.11450006464,-0.009074978240000003
6.950000000000001e-08,90.25008639999987,175.04997888000003,26.102000065920002,-0.002824978880000023
7e-08,59.00008447999994,175.04997888000003,26.08325006784,-0.002824978880000023
7.05e-08,74.62508544000002,187.54997760000003,26.0895000672,-0.009074978240000003
7.1e-08,74.62508544000002,187.54997760000003,26.10825006528,-0.002824978880000023
7.15e-08,43.37508351999986,187.54997760000003,26.13950006208,-0.005949978560000013
7.200000000000001e-08,43.37508351999986,193.79997696000004,26.152000060800003,-0.002824978880000023
7.250000000000001e-08,59.00008447999994,193.79997696000004,26.17075005888,-0.005949978560000013
7.3e-08,43.37508351999986,193.79997696000004,26.18950005696,-0.005949978560000013
7.35e-08,27.75008256000001,193.79997696000004,26.183250057600002,-0.009074978240000003
7.4e-08,27.75008256000001,193.79997696000004,26.17075005888,-0.005949978560000013
7.45e-08,27.75008256000001,200.04997632,26.133250062720002,-0.002824978880000023
7.500000000000001e-08,27.75008256000001,200.04997632,26.11450006464,-0.009074978240000003
7.550000000000001e-08,27.75008256000001,200.04997632,26.10825006528,-0.009074978240000003
7.6e-08,12.12508159999993,193.79997696000004,26.0895000672,-0.002824978880000023
7.65e-08,12.12508159999993,206.29997568000002,26.09575006656,-0.005949978560000013
7.7e-08,12.12508159999993,200.04997632,26.102000065920002,-0.009074978240000003
7.75e-08,12.12508159999993,200.04997632,26.11450006464,-0.002824978880000023
7.800000000000001e-08,-3.499919360000149,193.79997696000004,26.12700006336,-0.002824978880000023
7.850000000000001e-08,-3.499919360000149,200.04997632,26.133250062720002,-0.009074978240000003
7.9e-08,-3.499919360000149,200.04997632,26.133250062720002,-0.009074978240000003
7.95e-08,-19.12492032,200.04997632,26.133250062720002,-0.005949978560000013
8e-08,-34.74992128000008,200.04997632,26.11450006464,-0.002824978880000023
8.05e-08,-19.12492032,200.04997632,26.10825006528,-0.005949978560000013
8.100000000000001e-08,-19.12492032,193.79997696000004,26.09575006656,-0.005949978560000013
8.150000000000001e-08,-34.74992128000008,200.04997632,26.09575006656,-0.009074978240000003
8.2e-08,-34.74992128000008,200.04997632,26.08325006784,-0.002824978880000023
8.25e-08,-19.12492032,200.04997632,26.06450006976,-0.005949978560000013
8.3e-08,-34.74992128000008,206.29997568000002,26.07700006848,-0.012199977920000021
8.35e-08,-34.74992128000008,206.29997568000002,26.09575006656,-0.005949978560000013
8.400000000000001e-08,-50.37492223999993,193.79997696000004,26.10825006528,-0.005949978560000013
8.450000000000001e-08,-34.74992128000008,206.29997568000002,26.12700006336,-0.005949978560000013
8.500000000000001e-08,-50.37492223999993,193.79997696000004,26.13950006208,-0.009074978240000003
8.55e-08,-34.74992128000008,187.54997760000003,26.14575006144,-0.002824978880000023
8.6e-08,-50.37492223999993,187.54997760000003,26.133250062720002,-0.005949978560000013
8.65e-08,-50.37492223999993,187.54997760000003,26.13950006208,-0.009074978240000003
8.700000000000001e-08,-50.37492223999993,187.54997760000003,26.133250062720002,-0.005949978560000013
8.750000000000001e-08,-50.37492223999993,187.54997760000003,26.133250062720002,-0.005949978560000013
8.800000000000001e-08,-81.62492416000009,187.54997760000003,26.12700006336,-0.005949978560000013
8.85e-08,-65.99992320000001,181.29997824000003,26.12700006336,-0.005949978560000013
8.9e-08,-65.99992320000001,181.29997824000003,26.13950006208,-0.002824978880000023
8.95e-08,-97.24992511999994,181.29997824000003,26.14575006144,-0.009074978240000003
9.000000000000001e-08,-81.62492416000009,181.29997824000003,26.15825006016,-0.005949978560000013
9.050000000000001e-08,-81.62492416000009,175.04997888000003,26.152000060800003,-0.002824978880000023
9.100000000000001e-08,-81.62492416000009,175.04997888000003,26.152000060800003,-0.009074978240000003
9.15e-08,-97.24992511999994,175.04997888000003,26.16450005952,-0.009074978240000003
9.2e-08,-97.24992511999994,162.54998016000002,26.152000060800003,-0.002824978880000023
9.25e-08,-97.24992511999994,168.79997952000002,26.152000060800003,-0.005949978560000013
9.300000000000001e-08,-97.24992511999994,162.54998016000002,26.13950006208,-0.009074978240000003
9.350000000000001e-08,-97.24992511999994,150.04998144,26.13950006208,-0.002824978880000023
9.400000000000001e-08,-112.87492608000002,150.04998144,26.13950006208,-0.002824978880000023
9.45e-08,-112.87492608000002,150.04998144,26.14575006144,-0.009074978240000003
9.5e-08,-97.24992511999994,150.04998144,26.16450005952,-0.005949978560000013
9.55e-08,-112.87492608000002,143.79998208,26.183250057600002,-0.005949978560000013
9.600000000000001e-08,-128.4999270400001,143.79998208,26.183250057600002,-0.002824978880000023
9.650000000000001e-08,-112.87492608000002,137.54998272000003,26.19575005632,-0.005949978560000013
9.700000000000001e-08,-128.4999270400001,137.54998272000003,26.202000055680003,-0.002824978880000023
9.75e-08,-128.4999270400001,125.04998400000001,26.19575005632,-0.012199977920000021
9.8e-08,-128.4999270400001,131.29998336000003,26.202000055680003,-0.005949978560000013
9.85e-08,-128.4999270400001,131.29998336000003,26.183250057600002,-0.005949978560000013
9.9e-08,-128.4999270400001,125.04998400000001,26.17700005824,-0.009074978240000003
9.950000000000001e-08,-128.4999270400001,125.04998400000001,26.19575005632,-0.009074978240000003
1.0000000000000001e-07,-159.74992896000003,112.54998528,26.20825005504,-0.005949978560000013
1.005e-07,-144.12492799999995,125.04998400000001,26.22700005312,-0.005949978560000013
1.01e-07,-128.4999270400001,112.54998528,26.25200005056,-0.005949978560000013
1.015e-07,-144.12492799999995,100.04998656,26.277000048,-0.002824978880000023
1.02e-07,-159.74992896000003,87.54998784,26.295750046080002,-0.002824978880000023
1.0250000000000001e-07,-144.12492799999995,93.7999872,26.3082500448,-0.005949978560000013
1.0300000000000001e-07,-144.12492799999995,87.54998784,26.30200004544,-0.005949978560000013
1.0350000000000001e-07,-159.74992896000003,87.54998784,26.28325004736,-0.005949978560000013
1.04e-07,-175.3749299200001,81.29998848000001,26.23950005184,-0.002824978880000023
1.045e-07,-159.74992896000003,87.54998784,26.22700005312,-0.005949978560000013
1.05e-07,-175.3749299200001,75.04998912,26.20825005504,-0.002824978880000023
1.0550000000000001e-07,-175.3749299200001,68.79998976,26.202000055680003,-0.005949978560000013
1.0600000000000001e-07,-175.3749299200001,68.79998976,26.20825005504,-0.005949978560000013
1.0650000000000001e-07,-175.3749299200001,62.5499904,26.18950005696,-0.002824978880000023
1.07e-07,-190.99993087999997,56.299991039999995,26.19575005632,-0.005949978560000013
1.075e-07,-190.99993087999997,56.299991039999995,26.214500054400002,-0.005949978560000013
1.08e-07,-190.99993087999997,43.79999232,26.214500054400002,-0.002824978880000023
1.0850000000000001e-07,-206.62493184000004,56.299991039999995,26.22700005312,-0.009074978240000003
1.0900000000000001e-07,-206.62493184000004,37.54999296,26.22075005376,-0.009074978240000003
1.0950000000000001e-07,-190.99993087999997,31.299993600000004,26.20825005504,-0.002824978880000023
1.1e-07,-206.62493184000004,25.049994240000007,26.18950005696,-0.002824978880000023
1.105e-07,-206.62493184000004,25.049994240000007,26.18950005696,-0.005949978560000013
1.11e-07,-206.62493184000004,18.799994880000003,26.19575005632,-0.005949978560000013
1.1150000000000001e-07,-206.62493184000004,12.54999552,26.20825005504,-0.002824978880000023
1.1200000000000001e-07,-237.87493375999998,6.299996160000003,26.202000055680003,-0.005949978560000013
1.1250000000000001e-07,-222.24993280000012,12.54999552,26.20825005504,-0.002824978880000023
1.13e-07,-206.62493184000004,0.049996800000002395,26.22700005312,-0.002824978880000023
1.135e-07,-253.49993472000006,0.049996800000002395,26.2457500512,-0.009074978240000003
1.14e-07,-237.87493375999998,-6.200002559999998,26.277000048,-0.005949978560000013
1.1450000000000001e-07,-222.24993280000012,-6.200002559999998,26.28325004736,-0.002824978880000023
