Time (s),V_PRI,V_SEC,V_IN,V_OUT
0.0,-34.74992128000008,-243.69997824,26.783250048,-0.005824978559999999
5e-10,-34.74992128000008,-249.9499776,26.789500047359997,-0.005824978559999999
1e-09,-34.74992128000008,-256.19997696,26.789500047359997,-0.002699978880000009
1.5000000000000002e-09,-34.74992128000008,-256.19997696,26.79575004672,-0.00894997823999999
2e-09,-19.12492032,-256.19997696,26.808250045439998,-0.005824978559999999
2.5e-09,-3.499919360000149,-243.69997824,26.808250045439998,-0.002699978880000009
3.0000000000000004e-09,-3.499919360000149,-249.9499776,26.82075004416,-0.00894997823999999
3.5000000000000003e-09,-3.499919360000149,-249.9499776,26.83325004288,-0.005824978559999999
4e-09,-3.499919360000149,-256.19997696,26.82075004416,-0.002699978880000009
4.500000000000001e-09,12.12508159999993,-249.9499776,26.808250045439998,-0.005824978559999999
5e-09,-3.499919360000149,-256.19997696,26.783250048,-0.012074977920000007
5.5000000000000004e-09,12.12508159999993,-262.44997632,26.76450004992,-0.005824978559999999
6.000000000000001e-09,12.12508159999993,-262.44997632,26.73325005312,-0.005824978559999999
6.5e-09,12.12508159999993,-262.44997632,26.727000053759998,-0.00894997823999999
7.000000000000001e-09,27.75008256000001,-256.19997696,26.7207500544,-0.005824978559999999
7.500000000000001e-09,27.75008256000001,-249.9499776,26.727000053759998,-0.005824978559999999
8e-09,12.12508159999993,-256.19997696,26.708250055679997,-0.002699978880000009
8.5e-09,27.75008256000001,-249.9499776,26.708250055679997,-0.002699978880000009
9.000000000000001e-09,27.75008256000001,-256.19997696,26.71450005504,-0.002699978880000009
9.5e-09,27.75008256000001,-256.19997696,26.708250055679997,-0.00894997823999999
1e-08,43.37508351999986,-249.9499776,26.71450005504,-0.005824978559999999
1.0500000000000001e-08,43.37508351999986,-243.69997824,26.695750056959998,-0.002699978880000009
1.1000000000000001e-08,59.00008447999994,-243.69997824,26.6895000576,-0.00894997823999999
1.15e-08,59.00008447999994,-243.69997824,26.6895000576,-0.005824978559999999
1.2000000000000002e-08,59.00008447999994,-243.69997824,26.677000058879997,-0.002699978880000009
1.2500000000000001e-08,59.00008447999994,-237.44997888,26.677000058879997,-0.005824978559999999
1.3e-08,74.62508544000002,-243.69997824,26.677000058879997,-0.012074977920000007
1.35e-08,90.25008639999987,-243.69997824,26.68325005824,-0.002699978880000009
1.4000000000000001e-08,74.62508544000002,-243.69997824,26.68325005824,-0.005824978559999999
1.45e-08,74.62508544000002,-237.44997888,26.695750056959998,-0.00894997823999999
1.5000000000000002e-08,74.62508544000002,-237.44997888,26.70200005632,-0.005824978559999999
1.55e-08,74.62508544000002,-237.44997888,26.727000053759998,-0.002699978880000009
1.6e-08,74.62508544000002,-224.94998016,26.727000053759998,-0.002699978880000009
1.6500000000000002e-08,90.25008639999987,-224.94998016,26.73950005248,-0.005824978559999999
1.7e-08,90.25008639999987,-231.19997952,26.73950005248,-0.002699978880000009
1.75e-08,74.62508544000002,-224.94998016,26.73950005248,-0.00894997823999999
1.8000000000000002e-08,90.25008639999987,-218.6999808,26.745750051839998,-0.005824978559999999
1.85e-08,105.87508735999995,-212.44998144,26.73950005248,-0.005824978559999999
1.9e-08,105.87508735999995,-212.44998144,26.745750051839998,-0.00894997823999999
1.9500000000000003e-08,105.87508735999995,-199.94998272,26.7520000512,-0.00894997823999999
2e-08,105.87508735999995,-212.44998144,26.7520000512,-0.002699978880000009
2.05e-08,105.87508735999995,-199.94998272,26.7520000512,-0.00894997823999999
2.1000000000000003e-08,105.87508735999995,-199.94998272,26.73950005248,-0.00894997823999999
2.15e-08,137.12508927999988,-206.19998207999998,26.73950005248,-0.002699978880000009
2.2000000000000002e-08,121.50008832000003,-199.94998272,26.73950005248,-0.002699978880000009
2.2500000000000003e-08,121.50008832000003,-193.69998336,26.73325005312,-0.00894997823999999
2.3e-08,137.12508927999988,-187.449984,26.73325005312,-0.005824978559999999
2.3500000000000002e-08,121.50008832000003,-187.449984,26.73950005248,-0.002699978880000009
2.4000000000000003e-08,105.87508735999995,-181.19998464,26.727000053759998,-0.005824978559999999
2.45e-08,137.12508927999988,-174.94998528,26.745750051839998,-0.005824978559999999
2.5000000000000002e-08,137.12508927999988,-174.94998528,26.7520000512,-0.002699978880000009
2.55e-08,137.12508927999988,-174.94998528,26.76450004992,-0.00894997823999999
2.6e-08,137.12508927999988,-162.44998655999999,26.789500047359997,-0.005824978559999999
2.6500000000000002e-08,152.75009023999996,-156.1999872,26.79575004672,-0.005824978559999999
2.7e-08,152.75009023999996,-149.94998784,26.808250045439998,-0.00894997823999999
2.75e-08,152.75009023999996,-149.94998784,26.83325004288,-0.005824978559999999
2.8000000000000003e-08,152.75009023999996,-149.94998784,26.82075004416,-0.005824978559999999
2.85e-08,152.75009023999996,-137.44998912,26.82700004352,-0.005824978559999999
2.9e-08,152.75009023999996,-143.69998848,26.82700004352,-0.00894997823999999
2.9500000000000003e-08,184.0000921599999,-143.69998848,26.82700004352,-0.002699978880000009
3.0000000000000004e-08,168.37509120000004,-143.69998848,26.8145000448,-0.005824978559999999
3.05e-08,168.37509120000004,-131.19998976,26.808250045439998,-0.00894997823999999
3.1e-08,184.0000921599999,-131.19998976,26.79575004672,-0.005824978559999999
3.1500000000000004e-08,168.37509120000004,-124.9499904,26.789500047359997,-0.005824978559999999
3.2e-08,168.37509120000004,-112.44999168000001,26.76450004992,-0.002699978880000009
3.25e-08,199.62509311999997,-112.44999168000001,26.7520000512,-0.005824978559999999
3.3000000000000004e-08,184.0000921599999,-106.19999232,26.745750051839998,-0.002699978880000009
3.35e-08,184.0000921599999,-106.19999232,26.73950005248,-0.00894997823999999
3.4e-08,184.0000921599999,-99.94999296,26.73325005312,-0.005824978559999999
3.4500000000000005e-08,199.62509311999997,-93.6999936,26.70200005632,-0.005824978559999999
3.5e-08,215.25009408000005,-87.44999424000001,26.68325005824,-0.00894997823999999
3.55e-08,199.62509311999997,-81.19999488,26.677000058879997,-0.005824978559999999
3.6000000000000005e-08,199.62509311999997,-81.19999488,26.664500060159998,-0.005824978559999999
3.65e-08,215.25009408000005,-68.69999616,26.664500060159998,-0.005824978559999999
3.7e-08,230.8750950399999,-74.94999552,26.6582500608,-0.005824978559999999
3.7500000000000005e-08,230.8750950399999,-68.69999616,26.6582500608,-0.002699978880000009
3.8e-08,230.8750950399999,-74.94999552,26.65200006144,-0.002699978880000009
3.85e-08,230.8750950399999,-56.199997440000004,26.6582500608,-0.005824978559999999
3.9000000000000005e-08,230.8750950399999,-56.199997440000004,26.664500060159998,-0.005824978559999999
3.95e-08,230.8750950399999,-43.699998719999996,26.68325005824,-0.002699978880000009
4e-08,215.25009408000005,-43.699998719999996,26.68325005824,-0.005824978559999999
4.0500000000000005e-08,230.8750950399999,-31.2,26.6895000576,-0.005824978559999999
4.1e-08,230.8750950399999,-37.44999936,26.70200005632,-0.002699978880000009
4.15e-08,230.8750950399999,-31.2,26.71450005504,-0.00894997823999999
4.2000000000000006e-08,230.8750950399999,-24.95000064,26.727000053759998,-0.005824978559999999
4.2500000000000003e-08,246.50009599999998,-12.450001919999998,26.708250055679997,-0.005824978559999999
4.3e-08,246.50009599999998,-6.200002559999998,26.695750056959998,-0.00894997823999999
4.3500000000000006e-08,215.25009408000005,-12.450001919999998,26.677000058879997,-0.00894997823999999
4.4000000000000004e-08,230.8750950399999,-12.450001919999998,26.664500060159998,-0.002699978880000009
4.45e-08,230.8750950399999,6.299996160000003,26.65200006144,-0.00894997823999999
4.5000000000000006e-08,246.50009599999998,0.049996800000002395,26.65200006144,-0.00894997823999999
4.5500000000000004e-08,246.50009599999998,0.049996800000002395,26.645750062079998,-0.002699978880000009
4.6e-08,230.8750950399999,12.54999552,26.627000064,-0.002699978880000009
4.6500000000000006e-08,215.25009408000005,12.54999552,26.595750067199997,-0.00894997823999999
4.7000000000000004e-08,230.8750950399999,25.049994240000007,26.583250068479998,-0.005824978559999999
4.75e-08,215.25009408000005,18.799994880000003,26.583250068479998,-0.005824978559999999
4.8000000000000006e-08,215.25009408000005,37.54999296,26.58950006784,-0.002699978880000009
4.8500000000000004e-08,230.8750950399999,37.54999296,26.614500065279998,-0.005824978559999999
4.9e-08,215.25009408000005,43.79999232,26.63325006336,-0.005824978559999999
4.95e-08,199.62509311999997,50.049991680000005,26.63950006272,-0.00894997823999999
5.0000000000000004e-08,215.25009408000005,56.299991039999995,26.6582500608,-0.005824978559999999
5.05e-08,215.25009408000005,56.299991039999995,26.645750062079998,-0.005824978559999999
5.1e-08,215.25009408000005,68.79998976,26.6582500608,-0.00894997823999999
5.1500000000000005e-08,215.25009408000005,68.79998976,26.67075005952,-0.005824978559999999
5.2e-08,199.62509311999997,68.79998976,26.65200006144,-0.002699978880000009
5.25e-08,199.62509311999997,81.29998848000001,26.645750062079998,-0.005824978559999999
5.3000000000000005e-08,199.62509311999997,81.29998848000001,26.627000064,-0.00894997823999999
5.35e-08,215.25009408000005,75.04998912,26.614500065279998,-0.002699978880000009
5.4e-08,199.62509311999997,81.29998848000001,26.58950006784,-0.005824978559999999
5.4500000000000005e-08,199.62509311999997,81.29998848000001,26.57075006976,-0.00894997823999999
5.5e-08,184.0000921599999,93.7999872,26.55825007104,-0.005824978559999999
5.55e-08,184.0000921599999,93.7999872,26.55825007104,-0.005824978559999999
5.6000000000000005e-08,168.37509120000004,100.04998656,26.545750072319997,-0.002699978880000009
5.65e-08,184.0000921599999,106.29998592,26.55825007104,-0.005824978559999999
5.7e-08,168.37509120000004,112.54998528,26.57075006976,-0.002699978880000009
5.7500000000000005e-08,168.37509120000004,112.54998528,26.57075006976,-0.00894997823999999
5.8e-08,184.0000921599999,118.79998464,26.583250068479998,-0.005824978559999999
5.85e-08,168.37509120000004,118.79998464,26.564500070399998,-0.005824978559999999
5.9000000000000006e-08,152.75009023999996,131.29998336000003,26.57075006976,-0.00894997823999999
5.9500000000000003e-08,152.75009023999996,131.29998336000003,26.58950006784,-0.005824978559999999
6.000000000000001e-08,152.75009023999996,131.29998336000003,26.595750067199997,-0.002699978880000009
6.05e-08,137.12508927999988,137.54998272000003,26.614500065279998,-0.005824978559999999
6.1e-08,137.12508927999988,137.54998272000003,26.627000064,-0.00894997823999999
6.15e-08,168.37509120000004,137.54998272000003,26.63950006272,-0.002699978880000009
6.2e-08,121.50008832000003,143.79998208,26.645750062079998,-0.005824978559999999
6.250000000000001e-08,137.12508927999988,150.04998144,26.65200006144,-0.005824978559999999
6.300000000000001e-08,121.50008832000003,156.29998080000001,26.664500060159998,-0.005824978559999999
6.35e-08,121.50008832000003,162.54998016000002,26.67075005952,-0.002699978880000009
6.4e-08,105.87508735999995,156.29998080000001,26.677000058879997,-0.002699978880000009
6.45e-08,121.50008832000003,162.54998016000002,26.6895000576,-0.005824978559999999
6.5e-08,105.87508735999995,162.54998016000002,26.708250055679997,-0.002699978880000009
6.55e-08,105.87508735999995,168.79997952000002,26.7207500544,-0.00894997823999999
6.600000000000001e-08,90.25008639999987,168.79997952000002,26.73325005312,-0.005824978559999999
6.65e-08,105.87508735999995,175.04997888000003,26.708250055679997,-0.005824978559999999
6.7e-08,105.87508735999995,175.04997888000003,26.695750056959998,-0.005824978559999999
6.75e-08,90.25008639999987,187.54997760000003,26.68325005824,-0.005824978559999999
6.8e-08,74.62508544000002,181.29997824000003,26.664500060159998,-0.002699978880000009
6.85e-08,90.25008639999987,193.79997696000004,26.63950006272,-0.005824978559999999
6.900000000000001e-08,74.62508544000002,187.54997760000003,26.627000064,-0.00894997823999999
6.950000000000001e-08,90.25008639999987,181.29997824000003,26.60825006592,-0.002699978880000009
7e-08,59.00008447999994,181.29997824000003,26.60200006656,-0.002699978880000009
7.05e-08,59.00008447999994,187.54997760000003,26.60200006656,-0.00894997823999999
7.1e-08,74.62508544000002,193.79997696000004,26.614500065279998,-0.005824978559999999
7.15e-08,43.37508351999986,193.79997696000004,26.645750062079998,-0.005824978559999999
7.200000000000001e-08,43.37508351999986,193.79997696000004,26.664500060159998,-0.002699978880000009
7.250000000000001e-08,43.37508351999986,200.04997632,26.677000058879997,-0.005824978559999999
7.3e-08,43.37508351999986,193.79997696000004,26.6895000576,-0.002699978880000009
7.35e-08,27.75008256000001,193.79997696000004,26.68325005824,-0.00894997823999999
7.4e-08,43.37508351999986,200.04997632,26.67075005952,-0.005824978559999999
7.45e-08,43.37508351999986,200.04997632,26.63325006336,-0.005824978559999999
7.500000000000001e-08,27.75008256000001,206.29997568000002,26.62075006464,-0.00894997823999999
7.550000000000001e-08,12.12508159999993,206.29997568000002,26.60825006592,-0.00894997823999999
7.6e-08,12.12508159999993,200.04997632,26.58950006784,-0.005824978559999999
7.65e-08,12.12508159999993,212.54997504000002,26.58950006784,-0.005824978559999999
7.7e-08,-3.499919360000149,206.29997568000002,26.595750067199997,-0.00894997823999999
7.75e-08,12.12508159999993,200.04997632,26.614500065279998,-0.002699978880000009
7.800000000000001e-08,-3.499919360000149,200.04997632,26.62075006464,-0.005824978559999999
7.850000000000001e-08,-3.499919360000149,200.04997632,26.627000064,-0.005824978559999999
7.9e-08,-3.499919360000149,206.29997568000002,26.63325006336,-0.005824978559999999
7.95e-08,-19.12492032,200.04997632,26.63950006272,-0.002699978880000009
8e-08,-34.74992128000008,206.29997568000002,26.614500065279998,-0.002699978880000009
8.05e-08,-19.12492032,206.29997568000002,26.60825006592,-0.002699978880000009
8.100000000000001e-08,-19.12492032,206.29997568000002,26.60200006656,-0.005824978559999999
8.150000000000001e-08,-34.74992128000008,200.04997632,26.58950006784,-0.00894997823999999
8.2e-08,-19.12492032,200.04997632,26.583250068479998,-0.00894997823999999
8.25e-08,-19.12492032,206.29997568000002,26.564500070399998,-0.005824978559999999
8.3e-08,-34.74992128000008,200.04997632,26.57075006976,-0.012074977920000007
8.35e-08,-34.74992128000008,206.29997568000002,26.58950006784,-0.005824978559999999
8.400000000000001e-08,-50.37492223999993,193.79997696000004,26.60825006592,-0.005824978559999999
8.450000000000001e-08,-50.37492223999993,206.29997568000002,26.627000064,-0.005824978559999999
8.500000000000001e-08,-50.37492223999993,193.79997696000004,26.63325006336,-0.005824978559999999
8.55e-08,-34.74992128000008,187.54997760000003,26.63950006272,-0.002699978880000009
8.6e-08,-65.99992320000001,187.54997760000003,26.63325006336,-0.002699978880000009
8.65e-08,-50.37492223999993,187.54997760000003,26.627000064,-0.00894997823999999
8.700000000000001e-08,-50.37492223999993,193.79997696000004,26.627000064,-0.005824978559999999
8.750000000000001e-08,-65.99992320000001,187.54997760000003,26.62075006464,-0.005824978559999999
8.800000000000001e-08,-81.62492416000009,187.54997760000003,26.60825006592,-0.002699978880000009
8.85e-08,-65.99992320000001,181.29997824000003,26.614500065279998,-0.005824978559999999
8.9e-08,-65.99992320000001,181.29997824000003,26.62075006464,-0.002699978880000009
8.95e-08,-81.62492416000009,181.29997824000003,26.627000064,-0.00894997823999999
9.000000000000001e-08,-81.62492416000009,181.29997824000003,26.63950006272,-0.005824978559999999
9.050000000000001e-08,-81.62492416000009,181.29997824000003,26.627000064,-0.002699978880000009
9.100000000000001e-08,-81.62492416000009,175.04997888000003,26.63325006336,-0.00894997823999999
9.15e-08,-112.87492608000002,175.04997888000003,26.645750062079998,-0.00894997823999999
9.2e-08,-97.24992511999994,162.54998016000002,26.627000064,-0.002699978880000009
9.25e-08,-97.24992511999994,175.04997888000003,26.63325006336,-0.005824978559999999
9.300000000000001e-08,-112.87492608000002,168.79997952000002,26.62075006464,-0.00894997823999999
9.350000000000001e-08,-81.62492416000009,156.29998080000001,26.627000064,-0.002699978880000009
9.400000000000001e-08,-112.87492608000002,150.04998144,26.62075006464,-0.005824978559999999
9.45e-08,-112.87492608000002,156.29998080000001,26.63325006336,-0.00894997823999999
9.5e-08,-112.87492608000002,150.04998144,26.65200006144,-0.005824978559999999
9.55e-08,-112.87492608000002,150.04998144,26.67075005952,-0.005824978559999999
9.600000000000001e-08,-128.4999270400001,143.79998208,26.67075005952,-0.002699978880000009
9.650000000000001e-08,-112.87492608000002,143.79998208,26.68325005824,-0.002699978880000009
9.700000000000001e-08,-128.4999270400001,137.54998272000003,26.695750056959998,-0.002699978880000009
9.75e-08,-144.12492799999995,137.54998272000003,26.695750056959998,-0.012074977920000007
9.8e-08,-128.4999270400001,131.29998336000003,26.6895000576,-0.005824978559999999
9.85e-08,-144.12492799999995,131.29998336000003,26.664500060159998,-0.002699978880000009
9.9e-08,-144.12492799999995,125.04998400000001,26.67075005952,-0.012074977920000007
9.950000000000001e-08,-144.12492799999995,131.29998336000003,26.6895000576,-0.005824978559999999
1.0000000000000001e-07,-144.12492799999995,112.54998528,26.70200005632,-0.002699978880000009
1.005e-07,-144.12492799999995,118.79998464,26.7207500544,-0.00894997823999999
1.01e-07,-144.12492799999995,112.54998528,26.73950005248,-0.00894997823999999
1.015e-07,-128.4999270400001,100.04998656,26.77075004928,-0.005824978559999999
1.02e-07,-159.74992896000003,93.7999872,26.789500047359997,-0.005824978559999999
1.0250000000000001e-07,-144.12492799999995,93.7999872,26.80200004608,-0.00894997823999999
1.0300000000000001e-07,-144.12492799999995,93.7999872,26.808250045439998,-0.005824978559999999
1.0350000000000001e-07,-159.74992896000003,87.54998784,26.789500047359997,-0.005824978559999999
1.04e-07,-175.3749299200001,87.54998784,26.7520000512,-0.005824978559999999
1.045e-07,-175.3749299200001,81.29998848000001,26.727000053759998,-0.005824978559999999
1.05e-07,-175.3749299200001,81.29998848000001,26.71450005504,-0.005824978559999999
1.0550000000000001e-07,-206.62493184000004,75.04998912,26.708250055679997,-0.00894997823999999
1.0600000000000001e-07,-190.99993087999997,68.79998976,26.708250055679997,-0.005824978559999999
1.0650000000000001e-07,-190.99993087999997,62.5499904,26.6895000576,-0.005824978559999999
1.07e-07,-190.99993087999997,62.5499904,26.695750056959998,-0.012074977920000007
1.075e-07,-190.99993087999997,56.299991039999995,26.7207500544,-0.005824978559999999
1.08e-07,-206.62493184000004,43.79999232,26.7207500544,-0.005824978559999999
1.0850000000000001e-07,-206.62493184000004,56.299991039999995,26.73950005248,-0.005824978559999999
1.0900000000000001e-07,-190.99993087999997,43.79999232,26.727000053759998,-0.00894997823999999
1.0950000000000001e-07,-206.62493184000004,37.54999296,26.71450005504,-0.002699978880000009
1.1e-07,-222.24993280000012,25.049994240000007,26.695750056959998,-0.002699978880000009
1.105e-07,-222.24993280000012,25.049994240000007,26.6895000576,-0.00894997823999999
1.11e-07,-206.62493184000004,18.799994880000003,26.70200005632,-0.005824978559999999
1.1150000000000001e-07,-237.87493375999998,18.799994880000003,26.708250055679997,-0.005824978559999999
1.1200000000000001e-07,-237.87493375999998,12.54999552,26.70200005632,-0.002699978880000009
1.1250000000000001e-07,-222.24993280000012,18.799994880000003,26.708250055679997,-0.005824978559999999
1.13e-07,-237.87493375999998,0.049996800000002395,26.727000053759998,-0.005824978559999999
1.135e-07,-237.87493375999998,0.049996800000002395,26.745750051839998,-0.00894997823999999
1.14e-07,-237.87493375999998,-6.200002559999998,26.77075004928,-0.005824978559999999
1.1450000000000001e-07,-237.87493375999998,0.049996800000002395,26.777000048639998,-0.005824978559999999
