Time (s),V_PRI,V_SEC,V_IN,V_OUT
0.0,-25.40005119999995,-184.29998336000003,18.22200004992,-0.002824978880000023
5e-10,-25.40005119999995,-178.04998400000002,18.234500048639998,-0.009074978240000003
1e-09,-19.150051839999946,-171.79998464000002,18.234500048639998,-0.002824978880000023
1.5000000000000002e-09,-12.90005248,-171.79998464000002,18.234500048639998,-0.005949978560000013
2e-09,-12.90005248,-178.04998400000002,18.215750050559997,-0.009074978240000003
2.5e-09,-12.90005248,-171.79998464000002,18.215750050559997,-0.009074978240000003
3.0000000000000004e-09,-19.150051839999946,-178.04998400000002,18.22825004928,-0.002824978880000023
3.5000000000000003e-09,-6.650053119999939,-171.79998464000002,18.22825004928,-0.005949978560000013
4e-09,-0.4000537599999916,-178.04998400000002,18.234500048639998,-0.009074978240000003
4.500000000000001e-09,5.849945600000069,-184.29998336000003,18.22825004928,-0.002824978880000023
5e-09,5.849945600000069,-178.04998400000002,18.22825004928,-0.002824978880000023
5.5000000000000004e-09,5.849945600000069,-184.29998336000003,18.215750050559997,-0.009074978240000003
6.000000000000001e-09,5.849945600000069,-178.04998400000002,18.215750050559997,-0.009074978240000003
6.5e-09,12.099944960000016,-178.04998400000002,18.203250051839998,-0.002824978880000023
7.000000000000001e-09,5.849945600000069,-171.79998464000002,18.19700005248,-0.002824978880000023
7.500000000000001e-09,18.349944320000077,-171.79998464000002,18.1782500544,-0.002824978880000023
8e-09,12.099944960000016,-178.04998400000002,18.1782500544,-0.005949978560000013
8.5e-09,12.099944960000016,-178.04998400000002,18.1782500544,-0.009074978240000003
9.000000000000001e-09,24.599943680000024,-178.04998400000002,18.184500053759997,-0.005949978560000013
9.5e-09,30.849943040000085,-171.79998464000002,18.1782500544,-0.005949978560000013
1e-08,30.849943040000085,-178.04998400000002,18.15950005632,-0.009074978240000003
1.0500000000000001e-08,30.849943040000085,-171.79998464000002,18.15950005632,-0.005949978560000013
1.1000000000000001e-08,30.849943040000085,-178.04998400000002,18.15950005632,-0.005949978560000013
1.15e-08,37.09994240000003,-165.54998528000002,18.1470000576,-0.005949978560000013
1.2000000000000002e-08,37.09994240000003,-171.79998464000002,18.1470000576,-0.009074978240000003
1.2500000000000001e-08,49.59994112000004,-178.04998400000002,18.14075005824,0.00030002079999999487
1.3e-08,43.34994176000009,-171.79998464000002,18.153250056959997,-0.002824978880000023
1.35e-08,49.59994112000004,-171.79998464000002,18.1470000576,-0.009074978240000003
1.4000000000000001e-08,49.59994112000004,-165.54998528000002,18.153250056959997,-0.005949978560000013
1.45e-08,49.59994112000004,-165.54998528000002,18.15950005632,-0.002824978880000023
1.5000000000000002e-08,49.59994112000004,-159.29998592,18.16575005568,-0.002824978880000023
1.55e-08,55.8499404800001,-159.29998592,18.16575005568,-0.002824978880000023
1.6e-08,62.09993984000005,-165.54998528000002,18.1782500544,-0.002824978880000023
1.6500000000000002e-08,55.8499404800001,-165.54998528000002,18.19075005312,-0.009074978240000003
1.7e-08,62.09993984000005,-159.29998592,18.203250051839998,-0.002824978880000023
1.75e-08,68.34993920000011,-159.29998592,18.2095000512,-0.005949978560000013
1.8000000000000002e-08,68.34993920000011,-153.04998656,18.19700005248,-0.012199977920000021
1.85e-08,68.34993920000011,-153.04998656,18.203250051839998,-0.009074978240000003
1.9e-08,62.09993984000005,-153.04998656,18.215750050559997,-0.005949978560000013
1.9500000000000003e-08,74.59993856000006,-140.54998784,18.2095000512,-0.009074978240000003
2e-08,74.59993856000006,-153.04998656,18.2095000512,-0.009074978240000003
2.05e-08,80.84993792,-153.04998656,18.2095000512,-0.002824978880000023
2.1000000000000003e-08,74.59993856000006,-146.7999872,18.215750050559997,-0.002824978880000023
2.15e-08,80.84993792,-146.7999872,18.2095000512,-0.009074978240000003
2.2000000000000002e-08,87.09993728000006,-140.54998784,18.203250051839998,-0.005949978560000013
2.2500000000000003e-08,80.84993792,-134.29998848000002,18.19700005248,-0.005949978560000013
2.3e-08,74.59993856000006,-140.54998784,18.203250051839998,-0.002824978880000023
2.3500000000000002e-08,87.09993728000006,-134.29998848000002,18.19075005312,-0.002824978880000023
2.4000000000000003e-08,87.09993728000006,-134.29998848000002,18.19700005248,-0.002824978880000023
2.45e-08,87.09993728000006,-140.54998784,18.2095000512,-0.009074978240000003
2.5000000000000002e-08,93.34993664000001,-121.79998976,18.215750050559997,-0.005949978560000013
2.55e-08,93.34993664000001,-121.79998976,18.215750050559997,-0.005949978560000013
2.6e-08,93.34993664000001,-121.79998976,18.2095000512,-0.009074978240000003
2.6500000000000002e-08,93.34993664000001,-115.5499904,18.22825004928,-0.005949978560000013
2.7e-08,99.59993600000007,-115.5499904,18.240750048,-0.002824978880000023
2.75e-08,105.84993536000002,-103.04999168,18.247000047359997,-0.005949978560000013
2.8000000000000003e-08,105.84993536000002,-109.29999104,18.253250046719998,-0.009074978240000003
2.85e-08,112.09993472000008,-115.5499904,18.240750048,-0.002824978880000023
2.9e-08,105.84993536000002,-115.5499904,18.247000047359997,-0.005949978560000013
2.9500000000000003e-08,112.09993472000008,-109.29999104,18.253250046719998,-0.012199977920000021
3.0000000000000004e-08,118.34993408000003,-103.04999168,18.240750048,-0.009074978240000003
3.05e-08,118.34993408000003,-96.79999232,18.234500048639998,-0.002824978880000023
3.1e-08,112.09993472000008,-90.54999296,18.22825004928,-0.002824978880000023
3.1500000000000004e-08,118.34993408000003,-90.54999296,18.19700005248,-0.002824978880000023
3.2e-08,118.34993408000003,-90.54999296,18.203250051839998,-0.002824978880000023
3.25e-08,124.59993344000009,-90.54999296,18.19700005248,-0.009074978240000003
3.3000000000000004e-08,124.59993344000009,-78.04999424,18.19700005248,-0.005949978560000013
3.35e-08,130.84993280000003,-78.04999424,18.184500053759997,-0.005949978560000013
3.4e-08,137.0999321600001,-78.04999424,18.16575005568,-0.009074978240000003
3.4500000000000005e-08,130.84993280000003,-71.79999488,18.15950005632,-0.005949978560000013
3.5e-08,137.0999321600001,-78.04999424,18.153250056959997,-0.005949978560000013
3.55e-08,137.0999321600001,-65.54999552,18.134500058879997,-0.005949978560000013
3.6000000000000005e-08,137.0999321600001,-65.54999552,18.134500058879997,-0.009074978240000003
3.65e-08,149.5999308800001,-71.79999488,18.1157500608,-0.002824978880000023
3.7e-08,143.34993152000004,-71.79999488,18.1157500608,-0.002824978880000023
3.7500000000000005e-08,149.5999308800001,-59.299996160000006,18.1157500608,-0.005949978560000013
3.8e-08,149.5999308800001,-59.299996160000006,18.122000060159998,-0.005949978560000013
3.85e-08,149.5999308800001,-46.79999744,18.122000060159998,-0.005949978560000013
3.9000000000000005e-08,143.34993152000004,-46.79999744,18.12825005952,-0.002824978880000023
3.95e-08,155.84993024000005,-40.54999808,18.12825005952,-0.005949978560000013
4e-08,149.5999308800001,-53.0499968,18.134500058879997,-0.005949978560000013
4.0500000000000005e-08,149.5999308800001,-40.54999808,18.1470000576,-0.005949978560000013
4.1e-08,149.5999308800001,-28.04999936,18.153250056959997,-0.005949978560000013
4.15e-08,162.0999296000001,-28.04999936,18.15950005632,-0.005949978560000013
4.2000000000000006e-08,149.5999308800001,-21.8,18.1470000576,-0.009074978240000003
4.2500000000000003e-08,149.5999308800001,-15.55000064,18.1470000576,-0.005949978560000013
4.3e-08,149.5999308800001,-34.299998720000005,18.153250056959997,-0.002824978880000023
4.3500000000000006e-08,149.5999308800001,-9.30000128,18.134500058879997,-0.005949978560000013
4.4000000000000004e-08,155.84993024000005,-21.8,18.12825005952,-0.005949978560000013
4.45e-08,162.0999296000001,-21.8,18.10950006144,-0.002824978880000023
4.5000000000000006e-08,149.5999308800001,-15.55000064,18.103250062079997,-0.005949978560000013
4.5500000000000004e-08,155.84993024000005,-3.0500019199999997,18.103250062079997,-0.009074978240000003
4.6e-08,155.84993024000005,-3.0500019199999997,18.103250062079997,-0.005949978560000013
4.6500000000000006e-08,155.84993024000005,3.1999974400000006,18.09700006272,-0.002824978880000023
4.7000000000000004e-08,143.34993152000004,9.449996800000001,18.09700006272,-0.002824978880000023
4.75e-08,155.84993024000005,3.1999974400000006,18.07825006464,-0.005949978560000013
4.8000000000000006e-08,149.5999308800001,3.1999974400000006,18.072000065279997,-0.002824978880000023
4.8500000000000004e-08,143.34993152000004,9.449996800000001,18.072000065279997,-0.012199977920000021
4.9e-08,149.5999308800001,9.449996800000001,18.07825006464,-0.009074978240000003
4.95e-08,155.84993024000005,15.699996160000001,18.09700006272,-0.005949978560000013
5.0000000000000004e-08,149.5999308800001,21.949995519999998,18.090750063359998,-0.009074978240000003
5.05e-08,143.34993152000004,28.199994880000002,18.103250062079997,-0.009074978240000003
5.1e-08,143.34993152000004,28.199994880000002,18.1157500608,-0.005949978560000013
5.1500000000000005e-08,143.34993152000004,40.6999936,18.1157500608,-0.005949978560000013
5.2e-08,143.34993152000004,34.44999424000001,18.122000060159998,-0.009074978240000003
5.25e-08,149.5999308800001,34.44999424000001,18.12825005952,-0.002824978880000023
5.3000000000000005e-08,137.0999321600001,34.44999424000001,18.14075005824,-0.005949978560000013
5.35e-08,137.0999321600001,40.6999936,18.134500058879997,-0.009074978240000003
5.4e-08,137.0999321600001,46.94999296,18.134500058879997,-0.005949978560000013
5.4500000000000005e-08,130.84993280000003,46.94999296,18.122000060159998,-0.005949978560000013
5.5e-08,124.59993344000009,59.44999168000001,18.1157500608,-0.002824978880000023
5.55e-08,130.84993280000003,53.19999232000001,18.103250062079997,-0.005949978560000013
5.6000000000000005e-08,124.59993344000009,53.19999232000001,18.103250062079997,-0.002824978880000023
5.65e-08,118.34993408000003,59.44999168000001,18.09700006272,-0.009074978240000003
5.7e-08,118.34993408000003,65.69999104,18.090750063359998,-0.005949978560000013
5.7500000000000005e-08,124.59993344000009,65.69999104,18.090750063359998,-0.005949978560000013
5.8e-08,118.34993408000003,71.9499904,18.07825006464,-0.009074978240000003
5.85e-08,112.09993472000008,78.19998976000001,18.084500063999997,-0.005949978560000013
5.9000000000000006e-08,112.09993472000008,71.9499904,18.103250062079997,-0.005949978560000013
5.9500000000000003e-08,112.09993472000008,90.69998848000002,18.09700006272,-0.005949978560000013
6.000000000000001e-08,112.09993472000008,78.19998976000001,18.09700006272,-0.009074978240000003
6.05e-08,112.09993472000008,78.19998976000001,18.090750063359998,-0.002824978880000023
6.1e-08,99.59993600000007,78.19998976000001,18.103250062079997,-0.005949978560000013
6.15e-08,99.59993600000007,90.69998848000002,18.1157500608,-0.009074978240000003
6.2e-08,99.59993600000007,84.44998912000001,18.134500058879997,-0.005949978560000013
6.250000000000001e-08,93.34993664000001,90.69998848000002,18.1470000576,-0.002824978880000023
6.300000000000001e-08,87.09993728000006,96.94998784,18.153250056959997,-0.002824978880000023
6.35e-08,93.34993664000001,96.94998784,18.1470000576,-0.005949978560000013
6.4e-08,87.09993728000006,96.94998784,18.16575005568,-0.002824978880000023
6.45e-08,74.59993856000006,96.94998784,18.1782500544,-0.005949978560000013
6.5e-08,74.59993856000006,103.19998720000001,18.184500053759997,-0.005949978560000013
6.55e-08,80.84993792,109.44998656,18.19075005312,-0.005949978560000013
6.600000000000001e-08,74.59993856000006,109.44998656,18.172000055039998,-0.009074978240000003
6.65e-08,68.34993920000011,115.69998592,18.1782500544,-0.005949978560000013
6.7e-08,68.34993920000011,103.19998720000001,18.19075005312,-0.005949978560000013
6.75e-08,62.09993984000005,115.69998592,18.1782500544,-0.005949978560000013
6.8e-08,62.09993984000005,103.19998720000001,18.1782500544,-0.005949978560000013
6.85e-08,68.34993920000011,103.19998720000001,18.153250056959997,0.00030002079999999487
6.900000000000001e-08,49.59994112000004,103.19998720000001,18.14075005824,-0.002824978880000023
6.950000000000001e-08,49.59994112000004,109.44998656,18.12825005952,-0.005949978560000013
7e-08,55.8499404800001,115.69998592,18.122000060159998,-0.005949978560000013
7.05e-08,49.59994112000004,115.69998592,18.1157500608,-0.002824978880000023
7.1e-08,37.09994240000003,121.94998528,18.1157500608,-0.002824978880000023
7.15e-08,49.59994112000004,121.94998528,18.103250062079997,-0.005949978560000013
7.200000000000001e-08,37.09994240000003,115.69998592,18.10950006144,-0.002824978880000023
7.250000000000001e-08,37.09994240000003,115.69998592,18.12825005952,-0.005949978560000013
7.3e-08,37.09994240000003,128.19998464,18.134500058879997,-0.005949978560000013
7.35e-08,37.09994240000003,121.94998528,18.1470000576,-0.005949978560000013
7.4e-08,30.849943040000085,134.449984,18.134500058879997,-0.012199977920000021
7.45e-08,24.599943680000024,128.19998464,18.12825005952,-0.009074978240000003
7.500000000000001e-08,24.599943680000024,121.94998528,18.134500058879997,-0.005949978560000013
7.550000000000001e-08,18.349944320000077,134.449984,18.12825005952,-0.005949978560000013
7.6e-08,18.349944320000077,128.19998464,18.12825005952,-0.009074978240000003
7.65e-08,24.599943680000024,121.94998528,18.1157500608,0.00030002079999999487
7.7e-08,12.099944960000016,115.69998592,18.1157500608,-0.005949978560000013
7.75e-08,5.849945600000069,121.94998528,18.09700006272,-0.009074978240000003
7.800000000000001e-08,12.099944960000016,134.449984,18.090750063359998,-0.005949978560000013
7.850000000000001e-08,5.849945600000069,128.19998464,18.090750063359998,-0.002824978880000023
7.9e-08,-6.650053119999939,128.19998464,18.10950006144,-0.002824978880000023
7.95e-08,-6.650053119999939,128.19998464,18.103250062079997,-0.009074978240000003
8e-08,-6.650053119999939,128.19998464,18.103250062079997,-0.005949978560000013
8.05e-08,-12.90005248,121.94998528,18.09700006272,-0.009074978240000003
8.100000000000001e-08,-12.90005248,128.19998464,18.084500063999997,-0.005949978560000013
8.150000000000001e-08,-6.650053119999939,121.94998528,18.084500063999997,-0.005949978560000013
8.2e-08,-12.90005248,128.19998464,18.06575006592,-0.009074978240000003
8.25e-08,-19.150051839999946,134.449984,18.072000065279997,-0.005949978560000013
8.3e-08,-19.150051839999946,121.94998528,18.072000065279997,-0.002824978880000023
8.35e-08,-19.150051839999946,134.449984,18.06575006592,-0.005949978560000013
8.400000000000001e-08,-19.150051839999946,121.94998528,18.06575006592,-0.009074978240000003
8.450000000000001e-08,-19.150051839999946,115.69998592,18.06575006592,-0.002824978880000023
8.500000000000001e-08,-31.650050559999954,115.69998592,18.084500063999997,-0.005949978560000013
8.55e-08,-31.650050559999954,121.94998528,18.090750063359998,-0.005949978560000013
8.6e-08,-31.650050559999954,121.94998528,18.090750063359998,-0.009074978240000003
8.65e-08,-37.90004991999996,121.94998528,18.090750063359998,-0.002824978880000023
8.700000000000001e-08,-50.400048639999966,121.94998528,18.09700006272,-0.002824978880000023
8.750000000000001e-08,-37.90004991999996,121.94998528,18.090750063359998,-0.002824978880000023
8.800000000000001e-08,-50.400048639999966,121.94998528,18.103250062079997,-0.002824978880000023
8.85e-08,-50.400048639999966,115.69998592,18.10950006144,-0.005949978560000013
8.9e-08,-50.400048639999966,121.94998528,18.1157500608,-0.005949978560000013
8.95e-08,-50.400048639999966,115.69998592,18.12825005952,-0.005949978560000013
9.000000000000001e-08,-56.65004799999997,109.44998656,18.1157500608,-0.012199977920000021
9.050000000000001e-08,-56.65004799999997,115.69998592,18.122000060159998,-0.005949978560000013
9.100000000000001e-08,-62.900047359999974,109.44998656,18.1470000576,-0.002824978880000023
9.15e-08,-62.900047359999974,121.94998528,18.1470000576,-0.005949978560000013
9.2e-08,-62.900047359999974,103.19998720000001,18.1470000576,-0.005949978560000013
9.25e-08,-56.65004799999997,103.19998720000001,18.134500058879997,-0.002824978880000023
9.300000000000001e-08,-69.15004671999998,90.69998848000002,18.14075005824,-0.005949978560000013
9.350000000000001e-08,-69.15004671999998,96.94998784,18.12825005952,-0.009074978240000003
9.400000000000001e-08,-69.15004671999998,103.19998720000001,18.12825005952,-0.005949978560000013
9.45e-08,-75.40004607999992,96.94998784,18.12825005952,-0.005949978560000013
9.5e-08,-81.65004543999993,96.94998784,18.134500058879997,-0.005949978560000013
9.55e-08,-69.15004671999998,96.94998784,18.12825005952,-0.005949978560000013
9.600000000000001e-08,-75.40004607999992,90.69998848000002,18.1470000576,-0.002824978880000023
9.650000000000001e-08,-81.65004543999993,90.69998848000002,18.15950005632,-0.005949978560000013
9.700000000000001e-08,-81.65004543999993,90.69998848000002,18.16575005568,-0.005949978560000013
9.75e-08,-81.65004543999993,90.69998848000002,18.172000055039998,-0.005949978560000013
9.8e-08,-87.90004479999993,90.69998848000002,18.153250056959997,-0.012199977920000021
9.85e-08,-87.90004479999993,84.44998912000001,18.15950005632,-0.005949978560000013
9.9e-08,-94.15004415999994,78.19998976000001,18.172000055039998,-0.002824978880000023
9.950000000000001e-08,-100.40004351999994,84.44998912000001,18.172000055039998,-0.005949978560000013
1.0000000000000001e-07,-94.15004415999994,71.9499904,18.1782500544,-0.009074978240000003
1.005e-07,-94.15004415999994,65.69999104,18.172000055039998,-0.002824978880000023
1.01e-07,-100.40004351999994,65.69999104,18.184500053759997,-0.005949978560000013
1.015e-07,-106.65004287999994,59.44999168000001,18.19700005248,-0.009074978240000003
1.02e-07,-100.40004351999994,65.69999104,18.2095000512,-0.005949978560000013
1.0250000000000001e-07,-106.65004287999994,59.44999168000001,18.22200004992,-0.002824978880000023
1.0300000000000001e-07,-119.15004159999995,59.44999168000001,18.234500048639998,-0.002824978880000023
1.0350000000000001e-07,-106.65004287999994,53.19999232000001,18.22825004928,-0.005949978560000013
1.04e-07,-112.90004223999995,53.19999232000001,18.22200004992,-0.002824978880000023
1.045e-07,-119.15004159999995,46.94999296,18.215750050559997,-0.009074978240000003
1.05e-07,-119.15004159999995,46.94999296,18.2095000512,-0.005949978560000013
1.0550000000000001e-07,-112.90004223999995,46.94999296,18.19075005312,-0.002824978880000023
1.0600000000000001e-07,-125.40004095999996,46.94999296,18.172000055039998,-0.009074978240000003
1.0650000000000001e-07,-125.40004095999996,46.94999296,18.172000055039998,-0.005949978560000013
1.07e-07,-125.40004095999996,34.44999424000001,18.16575005568,-0.005949978560000013
1.075e-07,-131.65004031999996,46.94999296,18.15950005632,-0.005949978560000013
1.08e-07,-137.90003967999996,21.949995519999998,18.153250056959997,-0.005949978560000013
1.0850000000000001e-07,-125.40004095999996,21.949995519999998,18.1470000576,-0.005949978560000013
1.0900000000000001e-07,-137.90003967999996,15.699996160000001,18.153250056959997,-0.005949978560000013
1.0950000000000001e-07,-137.90003967999996,15.699996160000001,18.16575005568,-0.009074978240000003
1.1e-07,-137.90003967999996,15.699996160000001,18.15950005632,-0.005949978560000013
1.105e-07,-144.15003903999997,15.699996160000001,18.15950005632,-0.002824978880000023
1.11e-07,-150.40003839999997,9.449996800000001,18.16575005568,-0.002824978880000023
1.1150000000000001e-07,-144.15003903999997,9.449996800000001,18.16575005568,-0.005949978560000013
1.1200000000000001e-07,-150.40003839999997,-3.0500019199999997,18.1782500544,-0.002824978880000023
1.1250000000000001e-07,-150.40003839999997,-9.30000128,18.184500053759997,-0.009074978240000003
1.13e-07,-150.40003839999997,-3.0500019199999997,18.19075005312,-0.005949978560000013
1.135e-07,-150.40003839999997,-3.0500019199999997,18.19700005248,-0.005949978560000013
1.14e-07,-150.40003839999997,-3.0500019199999997,18.184500053759997,-0.009074978240000003
