Time (s),V_PRI,V_SEC,V_IN,V_OUT
0.0,-34.85005056,-221.74998016,23.769250048,-0.008924978239999992
5e-10,-28.600051199999996,-221.74998016,23.769250048,-0.005799978560000002
1e-09,-22.350051839999992,-221.74998016,23.75050004992,-0.005799978560000002
1.5000000000000002e-09,-22.350051839999992,-221.74998016,23.75675004928,-0.008924978239999992
2e-09,-22.350051839999992,-215.4999808,23.769250048,-0.005799978560000002
2.5e-09,-22.350051839999992,-221.74998016,23.775500047359998,-0.002674978880000012
3.0000000000000004e-09,-16.100052480000045,-215.4999808,23.78800004608,-0.005799978560000002
3.5000000000000003e-09,-9.850053119999984,-227.99997952,23.79425004544,-0.008924978239999992
4e-09,2.6499456000000237,-227.99997952,23.8005000448,-0.005799978560000002
4.500000000000001e-09,2.6499456000000237,-227.99997952,23.78800004608,-0.005799978560000002
5e-09,2.6499456000000237,-227.99997952,23.775500047359998,-0.005799978560000002
5.5000000000000004e-09,2.6499456000000237,-221.74998016,23.75675004928,-0.005799978560000002
6.000000000000001e-09,8.89994495999997,-227.99997952,23.744250050559998,-0.005799978560000002
6.5e-09,2.6499456000000237,-221.74998016,23.71925005312,-0.005799978560000002
7.000000000000001e-09,15.149944320000031,-221.74998016,23.71925005312,-0.002674978880000012
7.500000000000001e-09,15.149944320000031,-227.99997952,23.72550005248,-0.002674978880000012
8e-09,15.149944320000031,-227.99997952,23.71925005312,-0.005799978560000002
8.5e-09,21.39994367999998,-221.74998016,23.71300005376,-0.002674978880000012
9.000000000000001e-09,27.64994304000004,-221.74998016,23.69425005568,-0.002674978880000012
9.5e-09,33.899942399999986,-221.74998016,23.70050005504,-0.008924978239999992
1e-08,40.14994176000005,-215.4999808,23.7067500544,-0.008924978239999992
1.0500000000000001e-08,33.899942399999986,-227.99997952,23.70050005504,-0.005799978560000002
1.1000000000000001e-08,40.14994176000005,-215.4999808,23.69425005568,-0.005799978560000002
1.15e-08,46.399941119999994,-227.99997952,23.6755000576,-0.008924978239999992
1.2000000000000002e-08,52.649940480000055,-227.99997952,23.68175005696,-0.002674978880000012
1.2500000000000001e-08,52.649940480000055,-227.99997952,23.66925005824,-0.005799978560000002
1.3e-08,58.89993984,-221.74998016,23.66925005824,-0.005799978560000002
1.35e-08,65.14993920000006,-215.4999808,23.663000058879998,-0.005799978560000002
1.4000000000000001e-08,65.14993920000006,-215.4999808,23.66925005824,-0.005799978560000002
1.45e-08,58.89993984,-209.24998144,23.663000058879998,-0.005799978560000002
1.5000000000000002e-08,71.39993856000001,-209.24998144,23.68175005696,-0.005799978560000002
1.55e-08,71.39993856000001,-215.4999808,23.7067500544,-0.005799978560000002
1.6e-08,65.14993920000006,-209.24998144,23.71925005312,-0.008924978239999992
1.6500000000000002e-08,77.64993791999996,-202.99998208,23.72550005248,-0.005799978560000002
1.7e-08,90.14993663999996,-202.99998208,23.71925005312,-0.005799978560000002
1.75e-08,83.89993728000002,-196.74998272000002,23.72550005248,-0.008924978239999992
1.8000000000000002e-08,83.89993728000002,-196.74998272000002,23.73175005184,-0.008924978239999992
1.85e-08,83.89993728000002,-196.74998272000002,23.73175005184,-0.005799978560000002
1.9e-08,90.14993663999996,-184.249984,23.7380000512,-0.002674978880000012
1.9500000000000003e-08,90.14993663999996,-196.74998272000002,23.73175005184,-0.005799978560000002
2e-08,102.64993535999997,-190.49998336000002,23.7380000512,-0.002674978880000012
2.05e-08,90.14993663999996,-190.49998336000002,23.7380000512,-0.005799978560000002
2.1000000000000003e-08,102.64993535999997,-184.249984,23.7380000512,-0.008924978239999992
2.15e-08,102.64993535999997,-177.99998464,23.73175005184,-0.005799978560000002
2.2000000000000002e-08,102.64993535999997,-177.99998464,23.73175005184,-0.005799978560000002
2.2500000000000003e-08,102.64993535999997,-171.74998528,23.71925005312,-0.002674978880000012
2.3e-08,115.14993407999998,-171.74998528,23.72550005248,-0.005799978560000002
2.3500000000000002e-08,108.89993472000003,-171.74998528,23.73175005184,-0.002674978880000012
2.4000000000000003e-08,108.89993472000003,-171.74998528,23.73175005184,-0.008924978239999992
2.45e-08,115.14993407999998,-159.24998656,23.73175005184,-0.008924978239999992
2.5000000000000002e-08,121.39993344000004,-159.24998656,23.71925005312,-0.005799978560000002
2.55e-08,121.39993344000004,-152.99998720000002,23.72550005248,-0.008924978239999992
2.6e-08,121.39993344000004,-146.74998784000002,23.75050004992,-0.005799978560000002
2.6500000000000002e-08,121.39993344000004,-146.74998784000002,23.75675004928,-0.002674978880000012
2.7e-08,127.64993279999999,-140.49998848,23.775500047359998,-0.005799978560000002
2.75e-08,127.64993279999999,-140.49998848,23.78175004672,-0.008924978239999992
2.8000000000000003e-08,146.39993088000006,-140.49998848,23.78800004608,-0.002674978880000012
2.85e-08,127.64993279999999,-146.74998784000002,23.78800004608,-0.005799978560000002
2.9e-08,140.14993152,-134.24998912,23.78800004608,-0.008924978239999992
2.9500000000000003e-08,140.14993152,-127.99998976,23.78800004608,-0.005799978560000002
3.0000000000000004e-08,146.39993088000006,-121.7499904,23.79425004544,-0.002674978880000012
3.05e-08,146.39993088000006,-115.49999104,23.775500047359998,-0.002674978880000012
3.1e-08,152.64993024,-109.24999168000001,23.775500047359998,-0.002674978880000012
3.1500000000000004e-08,152.64993024,-115.49999104,23.76300004864,-0.002674978880000012
3.2e-08,152.64993024,-109.24999168000001,23.75050004992,-0.008924978239999992
3.25e-08,158.89992960000006,-102.99999232,23.744250050559998,-0.005799978560000002
3.3000000000000004e-08,165.14992896,-96.74999296,23.71925005312,-0.005799978560000002
3.35e-08,171.39992831999996,-90.49999360000001,23.71300005376,-0.008924978239999992
3.4e-08,171.39992831999996,-90.49999360000001,23.71300005376,-0.005799978560000002
3.4500000000000005e-08,165.14992896,-90.49999360000001,23.69425005568,-0.005799978560000002
3.5e-08,177.64992768000002,-77.99999488,23.69425005568,-0.008924978239999992
3.55e-08,177.64992768000002,-84.24999424,23.6755000576,-0.008924978239999992
3.6000000000000005e-08,190.14992640000003,-77.99999488,23.663000058879998,-0.002674978880000012
3.65e-08,183.89992703999997,-77.99999488,23.65050006016,-0.005799978560000002
3.7e-08,183.89992703999997,-77.99999488,23.65050006016,-0.008924978239999992
3.7500000000000005e-08,190.14992640000003,-65.49999616,23.65050006016,-0.005799978560000002
3.8e-08,190.14992640000003,-59.249996800000005,23.65050006016,-0.005799978560000002
3.85e-08,190.14992640000003,-52.99999744,23.6442500608,-0.002674978880000012
3.9000000000000005e-08,196.39992575999997,-46.74999808,23.65675005952,-0.005799978560000002
3.95e-08,196.39992575999997,-59.249996800000005,23.663000058879998,-0.005799978560000002
4e-08,196.39992575999997,-52.99999744,23.663000058879998,-0.005799978560000002
4.0500000000000005e-08,202.64992512000003,-40.49999872,23.66925005824,-0.005799978560000002
4.1e-08,208.89992447999998,-34.249999360000004,23.663000058879998,-0.005799978560000002
4.15e-08,202.64992512000003,-28.0,23.66925005824,-0.01204997792000001
4.2000000000000006e-08,202.64992512000003,-21.75000064,23.69425005568,-0.005799978560000002
4.2500000000000003e-08,196.39992575999997,-34.249999360000004,23.68800005632,-0.005799978560000002
4.3e-08,202.64992512000003,-9.250001919999999,23.69425005568,-0.008924978239999992
4.3500000000000006e-08,202.64992512000003,-21.75000064,23.6755000576,-0.005799978560000002
4.4000000000000004e-08,208.89992447999998,-15.50000128,23.65675005952,-0.002674978880000012
4.45e-08,208.89992447999998,-21.75000064,23.63175006208,-0.005799978560000002
4.5000000000000006e-08,202.64992512000003,-3.0000025599999987,23.62550006272,-0.008924978239999992
4.5500000000000004e-08,202.64992512000003,-3.0000025599999987,23.62550006272,-0.008924978239999992
4.6e-08,202.64992512000003,3.2499968000000017,23.62550006272,-0.005799978560000002
4.6500000000000006e-08,196.39992575999997,3.2499968000000017,23.60050006528,-0.005799978560000002
4.7000000000000004e-08,202.64992512000003,9.499996160000002,23.59425006592,-0.002674978880000012
4.75e-08,202.64992512000003,9.499996160000002,23.581750067199998,-0.002674978880000012
4.8000000000000006e-08,196.39992575999997,15.749995519999999,23.581750067199998,-0.005799978560000002
4.8500000000000004e-08,190.14992640000003,28.249994240000007,23.59425006592,-0.005799978560000002
4.9e-08,202.64992512000003,28.249994240000007,23.59425006592,-0.005799978560000002
4.95e-08,196.39992575999997,34.4999936,23.613000063999998,-0.008924978239999992
5.0000000000000004e-08,190.14992640000003,46.999992320000004,23.63175006208,-0.005799978560000002
5.05e-08,183.89992703999997,40.74999296,23.62550006272,-0.002674978880000012
5.1e-08,190.14992640000003,53.24999168000001,23.63800006144,-0.005799978560000002
5.1500000000000005e-08,183.89992703999997,53.24999168000001,23.6442500608,-0.008924978239999992
5.2e-08,190.14992640000003,53.24999168000001,23.65675005952,-0.002674978880000012
5.25e-08,177.64992768000002,53.24999168000001,23.65050006016,-0.002674978880000012
5.3000000000000005e-08,177.64992768000002,65.7499904,23.6442500608,-0.005799978560000002
5.35e-08,183.89992703999997,65.7499904,23.61925006336,-0.005799978560000002
5.4e-08,177.64992768000002,65.7499904,23.60675006464,-0.005799978560000002
5.4500000000000005e-08,171.39992831999996,71.99998976,23.581750067199998,-0.002674978880000012
5.5e-08,171.39992831999996,78.24998912000001,23.57550006784,-0.005799978560000002
5.55e-08,165.14992896,84.49998848000001,23.56925006848,-0.002674978880000012
5.6000000000000005e-08,165.14992896,90.74998784,23.5505000704,-0.008924978239999992
5.65e-08,158.89992960000006,90.74998784,23.5505000704,-0.005799978560000002
5.7e-08,165.14992896,96.9999872,23.53800007168,-0.005799978560000002
5.7500000000000005e-08,158.89992960000006,96.9999872,23.5505000704,-0.008924978239999992
5.8e-08,152.64993024,103.24998656,23.56300006912,-0.008924978239999992
5.85e-08,146.39993088000006,103.24998656,23.56925006848,-0.005799978560000002
5.9000000000000006e-08,146.39993088000006,115.74998528,23.56925006848,-0.005799978560000002
5.9500000000000003e-08,140.14993152,103.24998656,23.56925006848,-0.008924978239999992
6.000000000000001e-08,146.39993088000006,103.24998656,23.581750067199998,-0.002674978880000012
6.05e-08,133.89993216000005,109.49998592,23.58800006656,-0.005799978560000002
6.1e-08,133.89993216000005,115.74998528,23.60050006528,-0.008924978239999992
6.15e-08,127.64993279999999,121.99998464000001,23.613000063999998,-0.005799978560000002
6.2e-08,121.39993344000004,121.99998464000001,23.61925006336,-0.005799978560000002
6.250000000000001e-08,115.14993407999998,128.249984,23.61925006336,-0.002674978880000012
6.300000000000001e-08,121.39993344000004,128.249984,23.63175006208,-0.002674978880000012
6.35e-08,115.14993407999998,128.249984,23.6442500608,-0.002674978880000012
6.4e-08,108.89993472000003,140.74998272000002,23.6442500608,-0.008924978239999992
6.45e-08,108.89993472000003,140.74998272000002,23.65675005952,-0.005799978560000002
6.5e-08,102.64993535999997,146.99998208,23.65675005952,-0.005799978560000002
6.55e-08,96.39993600000003,146.99998208,23.6755000576,-0.005799978560000002
6.600000000000001e-08,96.39993600000003,146.99998208,23.70050005504,-0.005799978560000002
6.65e-08,90.14993663999996,146.99998208,23.70050005504,-0.005799978560000002
6.7e-08,90.14993663999996,159.4999808,23.69425005568,-0.008924978239999992
6.75e-08,83.89993728000002,153.24998144,23.66925005824,-0.008924978239999992
6.8e-08,90.14993663999996,146.99998208,23.65050006016,-0.005799978560000002
6.85e-08,83.89993728000002,146.99998208,23.62550006272,-0.005799978560000002
6.900000000000001e-08,77.64993791999996,153.24998144,23.613000063999998,-0.008924978239999992
6.950000000000001e-08,71.39993856000001,165.74998016,23.60050006528,-0.005799978560000002
7e-08,65.14993920000006,159.4999808,23.59425006592,-0.005799978560000002
7.05e-08,58.89993984,159.4999808,23.57550006784,-0.002674978880000012
7.1e-08,58.89993984,165.74998016,23.581750067199998,-0.005799978560000002
7.15e-08,52.649940480000055,165.74998016,23.60675006464,-0.002674978880000012
7.200000000000001e-08,46.399941119999994,171.99997952,23.63175006208,-0.008924978239999992
7.250000000000001e-08,46.399941119999994,171.99997952,23.65675005952,-0.005799978560000002
7.3e-08,46.399941119999994,178.24997888000001,23.65050006016,-0.005799978560000002
7.35e-08,40.14994176000005,171.99997952,23.65675005952,-0.008924978239999992
7.4e-08,33.899942399999986,178.24997888000001,23.65675005952,-0.005799978560000002
7.45e-08,33.899942399999986,171.99997952,23.63800006144,-0.005799978560000002
7.500000000000001e-08,27.64994304000004,184.49997824000002,23.63175006208,-0.005799978560000002
7.550000000000001e-08,27.64994304000004,171.99997952,23.60675006464,-0.005799978560000002
7.6e-08,33.899942399999986,171.99997952,23.58800006656,-0.002674978880000012
7.65e-08,21.39994367999998,171.99997952,23.57550006784,-0.005799978560000002
7.7e-08,8.89994495999997,171.99997952,23.581750067199998,-0.008924978239999992
7.75e-08,8.89994495999997,178.24997888000001,23.59425006592,-0.005799978560000002
7.800000000000001e-08,8.89994495999997,178.24997888000001,23.61925006336,-0.005799978560000002
7.850000000000001e-08,-3.600053760000037,178.24997888000001,23.613000063999998,-0.005799978560000002
7.9e-08,-3.600053760000037,178.24997888000001,23.63175006208,-0.008924978239999992
7.95e-08,-3.600053760000037,178.24997888000001,23.63175006208,-0.002674978880000012
8e-08,-9.850053119999984,171.99997952,23.62550006272,-0.008924978239999992
8.05e-08,-9.850053119999984,184.49997824000002,23.613000063999998,-0.005799978560000002
8.100000000000001e-08,-9.850053119999984,178.24997888000001,23.58800006656,-0.005799978560000002
8.150000000000001e-08,-16.100052480000045,178.24997888000001,23.581750067199998,-0.008924978239999992
8.2e-08,-16.100052480000045,184.49997824000002,23.57550006784,-0.008924978239999992
8.25e-08,-22.350051839999992,178.24997888000001,23.56925006848,-0.002674978880000012
8.3e-08,-28.600051199999996,184.49997824000002,23.56925006848,-0.005799978560000002
8.35e-08,-28.600051199999996,178.24997888000001,23.57550006784,-0.008924978239999992
8.400000000000001e-08,-28.600051199999996,171.99997952,23.58800006656,-0.002674978880000012
8.450000000000001e-08,-34.85005056,165.74998016,23.59425006592,-0.005799978560000002
8.500000000000001e-08,-41.100049920000004,171.99997952,23.613000063999998,-0.008924978239999992
8.55e-08,-41.100049920000004,171.99997952,23.62550006272,-0.008924978239999992
8.6e-08,-41.100049920000004,165.74998016,23.63175006208,-0.005799978560000002
8.65e-08,-53.60004864000001,165.74998016,23.61925006336,-0.002674978880000012
8.700000000000001e-08,-47.35004928000001,171.99997952,23.61925006336,-0.005799978560000002
8.750000000000001e-08,-59.850048000000015,165.74998016,23.61925006336,-0.002674978880000012
8.800000000000001e-08,-66.10004736000002,159.4999808,23.60675006464,-0.008924978239999992
8.85e-08,-59.850048000000015,165.74998016,23.613000063999998,-0.005799978560000002
8.9e-08,-59.850048000000015,165.74998016,23.60675006464,-0.005799978560000002
8.95e-08,-66.10004736000002,165.74998016,23.613000063999998,-0.008924978239999992
9.000000000000001e-08,-72.35004672000002,165.74998016,23.62550006272,-0.005799978560000002
9.050000000000001e-08,-78.60004607999997,153.24998144,23.63175006208,-0.002674978880000012
9.100000000000001e-08,-72.35004672000002,165.74998016,23.63800006144,-0.005799978560000002
9.15e-08,-78.60004607999997,153.24998144,23.63800006144,-0.005799978560000002
9.2e-08,-72.35004672000002,146.99998208,23.6442500608,-0.002674978880000012
9.25e-08,-84.85004543999997,140.74998272000002,23.63175006208,-0.002674978880000012
9.300000000000001e-08,-91.10004479999998,140.74998272000002,23.61925006336,-0.008924978239999992
9.350000000000001e-08,-84.85004543999997,146.99998208,23.613000063999998,-0.005799978560000002
9.400000000000001e-08,-91.10004479999998,134.49998336000002,23.613000063999998,-0.005799978560000002
9.45e-08,-97.35004415999998,140.74998272000002,23.613000063999998,-0.002674978880000012
9.5e-08,-97.35004415999998,134.49998336000002,23.63175006208,-0.002674978880000012
9.55e-08,-103.60004351999999,134.49998336000002,23.65050006016,-0.005799978560000002
9.600000000000001e-08,-109.85004287999999,128.249984,23.65675005952,-0.008924978239999992
9.650000000000001e-08,-103.60004351999999,128.249984,23.6755000576,-0.002674978880000012
9.700000000000001e-08,-109.85004287999999,128.249984,23.663000058879998,-0.005799978560000002
9.75e-08,-109.85004287999999,128.249984,23.66925005824,-0.008924978239999992
9.8e-08,-116.10004224,121.99998464000001,23.66925005824,-0.005799978560000002
9.85e-08,-116.10004224,115.74998528,23.66925005824,-0.005799978560000002
9.9e-08,-116.10004224,115.74998528,23.66925005824,-0.005799978560000002
9.950000000000001e-08,-122.3500416,103.24998656,23.66925005824,-0.01204997792000001
1.0000000000000001e-07,-116.10004224,103.24998656,23.68175005696,-0.005799978560000002
1.005e-07,-122.3500416,90.74998784,23.68800005632,-0.005799978560000002
1.01e-07,-134.85004032,96.9999872,23.71300005376,-0.008924978239999992
1.015e-07,-134.85004032,90.74998784,23.7380000512,-0.005799978560000002
1.02e-07,-134.85004032,90.74998784,23.76300004864,-0.005799978560000002
1.0250000000000001e-07,-147.35003904,90.74998784,23.769250048,-0.002674978880000012
1.0300000000000001e-07,-141.10003968,78.24998912000001,23.775500047359998,-0.002674978880000012
1.0350000000000001e-07,-147.35003904,78.24998912000001,23.769250048,-0.002674978880000012
1.04e-07,-153.60003840000002,78.24998912000001,23.744250050559998,-0.008924978239999992
1.045e-07,-153.60003840000002,65.7499904,23.71925005312,-0.005799978560000002
1.05e-07,-153.60003840000002,71.99998976,23.68175005696,-0.005799978560000002
1.0550000000000001e-07,-153.60003840000002,71.99998976,23.6755000576,-0.008924978239999992
1.0600000000000001e-07,-159.85003776000002,65.7499904,23.6755000576,-0.008924978239999992
1.0650000000000001e-07,-172.35003648000003,59.49999104,23.66925005824,-0.005799978560000002
1.07e-07,-166.10003712000002,59.49999104,23.6755000576,-0.008924978239999992
1.075e-07,-178.60003584000003,53.24999168000001,23.6755000576,-0.008924978239999992
1.08e-07,-172.35003648000003,46.999992320000004,23.68800005632,-0.002674978880000012
1.0850000000000001e-07,-178.60003584000003,34.4999936,23.68800005632,-0.005799978560000002
1.0900000000000001e-07,-178.60003584000003,40.74999296,23.69425005568,-0.008924978239999992
1.0950000000000001e-07,-178.60003584000003,28.249994240000007,23.69425005568,-0.005799978560000002
1.1e-07,-184.85003519999998,28.249994240000007,23.68175005696,-0.002674978880000012
1.105e-07,-191.10003455999998,21.999994880000003,23.663000058879998,-0.002674978880000012
1.11e-07,-184.85003519999998,15.749995519999999,23.663000058879998,-0.005799978560000002
1.1150000000000001e-07,-191.10003455999998,15.749995519999999,23.68175005696,-0.005799978560000002
1.1200000000000001e-07,-203.60003328,9.499996160000002,23.68175005696,-0.008924978239999992
1.1250000000000001e-07,-197.35003392,9.499996160000002,23.69425005568,-0.005799978560000002
1.13e-07,-197.35003392,3.2499968000000017,23.68175005696,-0.005799978560000002
1.135e-07,-203.60003328,9.499996160000002,23.70050005504,-0.008924978239999992
1.14e-07,-203.60003328,9.499996160000002,23.71925005312,-0.005799978560000002
1.1450000000000001e-07,-203.60003328,-9.250001919999999,23.7380000512,-0.002674978880000012
1.1500000000000001e-07,-203.60003328,-9.250001919999999,23.76300004864,-0.005799978560000002
1.1550000000000001e-07,-203.60003328,-21.75000064,23.75675004928,-0.008924978239999992
1.16e-07,-203.60003328,-28.0,23.75050004992,-0.002674978880000012
1.165e-07,-209.85003264,-34.249999360000004,23.72550005248,-0.005799978560000002
1.17e-07,-209.85003264,-21.75000064,23.71300005376,-0.008924978239999992
