!Keysight Technologies,E5063A,MY54100949,A.07.30
!Date: Wed Nov 26 00:28:14 2025
!Data & Calibration Information:
!Freq	S11:SOLT1(ON)
# Hz S RI R 50
50000.000	1.013284e+000	-3.524948e-004
51995.000	1.004518e+000	-6.619853e-004
53990.000	1.002995e+000	3.253371e-005
55985.000	1.002345e+000	-2.343138e-004
57980.000	1.001912e+000	-4.276615e-004
59975.000	1.001634e+000	-4.085977e-004
61970.000	1.001598e+000	-5.768520e-004
63965.000	1.001460e+000	-4.196996e-004
65960.000	1.001179e+000	-7.369643e-004
67955.000	1.002359e+000	-7.230463e-004
69950.000	1.002070e+000	-7.861653e-004
71945.000	1.001536e+000	-1.047055e-003
73940.000	1.001716e+000	-9.771124e-004
75935.000	1.001396e+000	-9.404124e-004
77930.000	1.001547e+000	-9.147702e-004
79925.000	1.001033e+000	-9.507224e-004
81920.000	1.000868e+000	-1.259300e-003
83915.000	1.001428e+000	-1.168607e-003
85910.000	1.001448e+000	-1.300866e-003
87905.000	1.001216e+000	-1.229724e-003
89900.000	1.001531e+000	-1.388944e-003
91895.000	1.001247e+000	-1.615173e-003
93890.000	1.001395e+000	-1.586965e-003
95885.000	1.001573e+000	-1.485390e-003
97880.000	1.001289e+000	-1.642948e-003
99875.000	1.001622e+000	-1.546907e-003
101870.000	1.001563e+000	-1.552350e-003
103865.000	1.001505e+000	-1.660814e-003
105860.000	1.001649e+000	-1.874904e-003
107855.000	1.001731e+000	-1.730141e-003
109850.000	1.001291e+000	-1.817420e-003
111845.000	1.001294e+000	-2.030721e-003
113840.000	1.001597e+000	-2.114361e-003
115835.000	1.001383e+000	-1.939678e-003
117830.000	1.001232e+000	-1.950376e-003
119825.000	1.001427e+000	-2.238583e-003
121820.000	1.001523e+000	-2.081188e-003
123815.000	1.001286e+000	-2.085949e-003
125810.000	1.001203e+000	-2.101845e-003
127805.000	1.001288e+000	-2.195512e-003
129800.000	1.001415e+000	-2.308583e-003
131795.000	1.001369e+000	-2.366441e-003
133790.000	1.001732e+000	-2.123662e-003
135785.000	1.001746e+000	-2.463843e-003
137780.000	1.001805e+000	-2.692295e-003
139775.000	1.001590e+000	-2.450543e-003
141770.000	1.001526e+000	-2.306200e-003
143765.000	1.001735e+000	-2.617345e-003
145760.000	1.001443e+000	-2.434099e-003
147755.000	1.001373e+000	-2.696440e-003
149750.000	1.001458e+000	-2.619096e-003
151745.000	1.001219e+000	-2.684437e-003
153740.000	1.001072e+000	-2.629575e-003
155735.000	1.001035e+000	-2.742713e-003
157730.000	1.001280e+000	-2.354709e-003
159725.000	1.001367e+000	-2.583316e-003
161720.000	1.001249e+000	-2.706553e-003
163715.000	1.001368e+000	-2.757790e-003
165710.000	1.001472e+000	-2.994414e-003
167705.000	1.001417e+000	-2.726418e-003
169700.000	1.001454e+000	-2.868544e-003
171695.000	1.001349e+000	-2.653478e-003
173690.000	1.001320e+000	-2.957773e-003
175685.000	1.001287e+000	-2.810019e-003
177680.000	1.001422e+000	-2.740602e-003
179675.000	1.001348e+000	-3.054341e-003
181670.000	1.001345e+000	-2.923533e-003
183665.000	1.001363e+000	-2.863084e-003
185660.000	1.001263e+000	-3.090913e-003
187655.000	1.001384e+000	-2.938829e-003
189650.000	1.001394e+000	-3.064018e-003
191645.000	1.001092e+000	-2.924731e-003
193640.000	1.001054e+000	-3.286423e-003
195635.000	1.001170e+000	-3.212967e-003
197630.000	1.001086e+000	-3.131540e-003
199625.000	1.001353e+000	-3.132516e-003
201620.000	1.001747e+000	-3.277509e-003
203615.000	1.001558e+000	-3.303002e-003
205610.000	1.001597e+000	-3.463962e-003
207605.000	1.001371e+000	-3.163873e-003
209600.000	1.001206e+000	-3.216957e-003
211595.000	1.001393e+000	-3.400599e-003
213590.000	1.001368e+000	-3.281747e-003
215585.000	1.001454e+000	-3.483582e-003
217580.000	1.001388e+000	-3.429098e-003
219575.000	1.001370e+000	-3.436430e-003
221570.000	1.001444e+000	-3.596966e-003
223565.000	1.001126e+000	-3.428304e-003
225560.000	1.001243e+000	-3.646055e-003
227555.000	1.001185e+000	-3.450597e-003
229550.000	1.001207e+000	-3.392696e-003
231545.000	1.001443e+000	-3.354766e-003
233540.000	1.001234e+000	-3.542715e-003
235535.000	1.001222e+000	-3.584787e-003
237530.000	1.001257e+000	-3.557486e-003
239525.000	1.001208e+000	-3.679813e-003
241520.000	1.001233e+000	-3.653814e-003
243515.000	1.001338e+000	-3.721371e-003
245510.000	1.001230e+000	-3.679495e-003
247505.000	1.001207e+000	-3.776895e-003
249500.000	1.001181e+000	-3.789965e-003
251495.000	1.001195e+000	-3.842954e-003
253490.000	1.001094e+000	-3.782906e-003
255485.000	1.001247e+000	-3.919403e-003
257480.000	1.001122e+000	-3.666994e-003
259475.000	1.001029e+000	-3.861884e-003
261470.000	1.001260e+000	-3.925716e-003
263465.000	1.001145e+000	-4.072173e-003
265460.000	1.001390e+000	-3.991909e-003
267455.000	1.001405e+000	-3.997480e-003
269450.000	1.001439e+000	-4.057407e-003
271445.000	1.001470e+000	-4.056658e-003
273440.000	1.001311e+000	-3.995641e-003
275435.000	1.001348e+000	-4.122489e-003
277430.000	1.001482e+000	-4.099598e-003
279425.000	1.001381e+000	-4.138741e-003
281420.000	1.001343e+000	-4.088987e-003
283415.000	1.001288e+000	-4.152272e-003
285410.000	1.001276e+000	-4.221972e-003
287405.000	1.001300e+000	-4.247402e-003
289400.000	1.001374e+000	-4.357149e-003
291395.000	1.001179e+000	-4.360099e-003
293390.000	1.001304e+000	-4.398111e-003
295385.000	1.001221e+000	-4.490427e-003
297380.000	1.001374e+000	-4.266989e-003
299375.000	1.000973e+000	-4.584283e-003
301370.000	1.001097e+000	-4.572628e-003
303365.000	1.001167e+000	-4.439865e-003
305360.000	1.001044e+000	-4.638760e-003
307355.000	1.001360e+000	-4.621243e-003
309350.000	1.001225e+000	-4.647546e-003
311345.000	1.001260e+000	-4.510826e-003
313340.000	1.001156e+000	-4.606052e-003
315335.000	1.001180e+000	-4.466458e-003
317330.000	1.001141e+000	-4.635052e-003
319325.000	1.001191e+000	-4.687109e-003
321320.000	1.001236e+000	-4.814328e-003
323315.000	1.001164e+000	-4.786575e-003
325310.000	1.000956e+000	-4.733147e-003
327305.000	1.001191e+000	-4.538098e-003
329300.000	1.001214e+000	-4.636920e-003
331295.000	1.001143e+000	-4.782309e-003
333290.000	1.001055e+000	-4.874984e-003
335285.000	1.001092e+000	-4.895560e-003
337280.000	1.001106e+000	-4.877916e-003
339275.000	1.001029e+000	-4.937260e-003
341270.000	1.001110e+000	-4.699116e-003
343265.000	1.000925e+000	-5.151166e-003
345260.000	1.000894e+000	-5.071802e-003
347255.000	1.001043e+000	-5.164141e-003
349250.000	1.001094e+000	-5.119759e-003
351245.000	1.001059e+000	-5.039531e-003
353240.000	1.001303e+000	-5.069345e-003
355235.000	1.001164e+000	-5.075569e-003
357230.000	1.000997e+000	-5.114654e-003
359225.000	1.001101e+000	-5.206700e-003
361220.000	1.001135e+000	-5.312993e-003
363215.000	1.001195e+000	-5.231988e-003
365210.000	1.000964e+000	-5.228895e-003
367205.000	1.001106e+000	-5.273676e-003
369200.000	1.001156e+000	-5.153485e-003
371195.000	1.001204e+000	-5.332428e-003
373190.000	1.001023e+000	-5.410432e-003
375185.000	1.001019e+000	-5.355666e-003
377180.000	1.001200e+000	-5.361367e-003
379175.000	1.001161e+000	-5.627353e-003
381170.000	1.000965e+000	-5.521914e-003
383165.000	1.000931e+000	-5.415639e-003
385160.000	1.001113e+000	-5.521044e-003
387155.000	1.001150e+000	-5.506783e-003
389150.000	1.001229e+000	-5.599881e-003
391145.000	1.001222e+000	-5.603788e-003
393140.000	1.001196e+000	-5.636840e-003
395135.000	1.000960e+000	-5.945304e-003
397130.000	1.001244e+000	-5.770241e-003
399125.000	1.001183e+000	-5.736237e-003
401120.000	1.001612e+000	-5.883500e-003
403115.000	1.001442e+000	-5.747074e-003
405110.000	1.001251e+000	-5.731153e-003
407105.000	1.001567e+000	-5.857722e-003
409100.000	1.001281e+000	-5.981342e-003
411095.000	1.001446e+000	-5.866504e-003
413090.000	1.001273e+000	-5.811698e-003
415085.000	1.001225e+000	-6.033936e-003
417080.000	1.001282e+000	-5.950490e-003
419075.000	1.001005e+000	-6.006880e-003
421070.000	1.001174e+000	-6.000604e-003
423065.000	1.001192e+000	-6.046799e-003
425060.000	1.001121e+000	-6.147184e-003
427055.000	1.001274e+000	-6.176979e-003
429050.000	1.001190e+000	-6.047925e-003
431045.000	1.001151e+000	-6.253402e-003
433040.000	1.001139e+000	-6.213418e-003
435035.000	1.001253e+000	-6.166279e-003
437030.000	1.001017e+000	-6.238373e-003
439025.000	1.001059e+000	-6.244867e-003
441020.000	1.001155e+000	-6.219183e-003
443015.000	1.001127e+000	-6.370799e-003
445010.000	1.001212e+000	-6.512035e-003
447005.000	1.001148e+000	-6.407272e-003
449000.000	1.001227e+000	-6.416098e-003
450995.000	1.001015e+000	-6.571765e-003
452990.000	1.000990e+000	-6.415284e-003
454985.000	1.001039e+000	-6.508299e-003
456980.000	1.001157e+000	-6.573817e-003
458975.000	1.001095e+000	-6.629687e-003
460970.000	1.001228e+000	-6.600165e-003
462965.000	1.001300e+000	-6.588619e-003
464960.000	1.001063e+000	-6.556810e-003
466955.000	1.001125e+000	-6.678268e-003
468950.000	1.001032e+000	-6.762466e-003
470945.000	1.001154e+000	-6.509158e-003
472940.000	1.001247e+000	-6.851498e-003
474935.000	1.001082e+000	-6.763424e-003
476930.000	1.001200e+000	-6.864004e-003
478925.000	1.001149e+000	-6.787322e-003
480920.000	1.001028e+000	-6.860259e-003
482915.000	1.001159e+000	-6.879444e-003
484910.000	1.001031e+000	-7.171938e-003
486905.000	1.000956e+000	-6.862655e-003
488900.000	1.000861e+000	-6.969610e-003
490895.000	1.001239e+000	-6.978952e-003
492890.000	1.001193e+000	-6.984697e-003
494885.000	1.000891e+000	-6.953163e-003
496880.000	1.001077e+000	-7.114006e-003
498875.000	1.001112e+000	-7.042177e-003
500870.000	1.001267e+000	-7.005843e-003
502865.000	1.001187e+000	-7.265804e-003
504860.000	1.001011e+000	-7.353429e-003
506855.000	1.001019e+000	-7.247060e-003
508850.000	1.001069e+000	-7.236103e-003
510845.000	1.001074e+000	-7.292942e-003
512840.000	1.001050e+000	-7.438986e-003
514835.000	1.001091e+000	-7.213284e-003
516830.000	1.000970e+000	-7.429204e-003
518825.000	1.001006e+000	-7.366206e-003
520820.000	1.001009e+000	-7.412320e-003
522815.000	1.001105e+000	-7.308415e-003
524810.000	1.001081e+000	-7.379078e-003
526805.000	1.001193e+000	-7.353489e-003
528800.000	1.000919e+000	-7.493023e-003
530795.000	1.001540e+000	-7.510057e-003
532790.000	1.001490e+000	-7.686904e-003
534785.000	1.001278e+000	-7.631878e-003
536780.000	1.001419e+000	-7.713842e-003
538775.000	1.001280e+000	-7.699782e-003
540770.000	1.001130e+000	-7.797101e-003
542765.000	1.001108e+000	-7.699044e-003
544760.000	1.001208e+000	-7.639708e-003
546755.000	1.001347e+000	-7.807045e-003
548750.000	1.001276e+000	-7.923484e-003
550745.000	1.001167e+000	-7.789571e-003
552740.000	1.001031e+000	-7.900656e-003
554735.000	1.001287e+000	-7.872693e-003
556730.000	1.001017e+000	-7.875052e-003
558725.000	1.001139e+000	-7.969614e-003
560720.000	1.001101e+000	-8.010063e-003
562715.000	1.001067e+000	-8.184668e-003
564710.000	1.001190e+000	-8.122370e-003
566705.000	1.001105e+000	-7.900919e-003
568700.000	1.001118e+000	-8.041127e-003
570695.000	1.001225e+000	-8.252112e-003
572690.000	1.001112e+000	-8.171997e-003
574685.000	1.001140e+000	-8.191810e-003
576680.000	1.000999e+000	-8.240150e-003
578675.000	1.000975e+000	-8.355385e-003
580670.000	1.001181e+000	-8.346990e-003
582665.000	1.001155e+000	-8.250143e-003
584660.000	1.001030e+000	-8.305421e-003
586655.000	1.001011e+000	-8.355646e-003
588650.000	1.001207e+000	-8.441269e-003
590645.000	1.001122e+000	-8.371018e-003
592640.000	1.001204e+000	-8.467717e-003
594635.000	1.001040e+000	-8.592163e-003
596630.000	1.000911e+000	-8.527569e-003
598625.000	1.001044e+000	-8.409336e-003
600620.000	1.001087e+000	-8.734484e-003
602615.000	1.001002e+000	-8.422884e-003
604610.000	1.001145e+000	-8.624987e-003
606605.000	1.001169e+000	-8.568762e-003
608600.000	1.001090e+000	-8.709572e-003
610595.000	1.000981e+000	-8.667600e-003
612590.000	1.001044e+000	-8.760610e-003
614585.000	1.001006e+000	-8.921893e-003
616580.000	1.001120e+000	-8.790605e-003
618575.000	1.001130e+000	-8.842827e-003
620570.000	1.001064e+000	-8.764017e-003
622565.000	1.001016e+000	-8.860856e-003
624560.000	1.001036e+000	-8.941635e-003
626555.000	1.001018e+000	-8.837132e-003
628550.000	1.001156e+000	-8.909671e-003
630545.000	1.001045e+000	-8.962385e-003
632540.000	1.000980e+000	-8.942764e-003
634535.000	1.001050e+000	-9.162998e-003
636530.000	1.001189e+000	-9.136050e-003
638525.000	1.000913e+000	-9.079222e-003
640520.000	1.001656e+000	-9.012763e-003
642515.000	1.001300e+000	-9.303290e-003
644510.000	1.001435e+000	-9.292760e-003
646505.000	1.001091e+000	-9.143437e-003
648500.000	1.001271e+000	-9.329631e-003
650495.000	1.001120e+000	-9.187082e-003
652490.000	1.001375e+000	-9.293477e-003
654485.000	1.001265e+000	-9.503488e-003
656480.000	1.001098e+000	-9.244652e-003
658475.000	1.001173e+000	-9.597992e-003
660470.000	1.001050e+000	-9.432100e-003
662465.000	1.001076e+000	-9.263705e-003
664460.000	1.001124e+000	-9.338159e-003
666455.000	1.001019e+000	-9.533463e-003
668450.000	1.001145e+000	-9.399555e-003
670445.000	1.001111e+000	-9.566422e-003
672440.000	1.001117e+000	-9.680840e-003
674435.000	1.001197e+000	-9.534662e-003
676430.000	1.001043e+000	-9.582409e-003
678425.000	1.001096e+000	-9.659813e-003
680420.000	1.001173e+000	-9.721825e-003
682415.000	1.000929e+000	-9.720911e-003
684410.000	1.000996e+000	-9.830771e-003
686405.000	1.001073e+000	-9.545205e-003
688400.000	1.001113e+000	-9.904616e-003
690395.000	1.001076e+000	-9.936695e-003
692390.000	1.001241e+000	-9.683724e-003
694385.000	1.001215e+000	-9.749742e-003
696380.000	1.001145e+000	-9.931704e-003
698375.000	1.001039e+000	-9.986325e-003
700370.000	1.001023e+000	-9.990992e-003
702365.000	1.001062e+000	-1.005439e-002
704360.000	1.001116e+000	-1.011238e-002
706355.000	1.001110e+000	-1.001520e-002
708350.000	1.001040e+000	-1.006997e-002
710345.000	1.000992e+000	-1.007952e-002
712340.000	1.001138e+000	-1.034853e-002
714335.000	1.001087e+000	-1.019761e-002
716330.000	1.001085e+000	-1.020813e-002
718325.000	1.000957e+000	-1.013659e-002
720320.000	1.000977e+000	-1.016351e-002
722315.000	1.000989e+000	-1.019170e-002
724310.000	1.001021e+000	-1.041548e-002
726305.000	1.000970e+000	-1.039097e-002
728300.000	1.000940e+000	-1.049676e-002
730295.000	1.001042e+000	-1.033774e-002
732290.000	1.000998e+000	-1.022735e-002
734285.000	1.001028e+000	-1.044163e-002
736280.000	1.001222e+000	-1.049968e-002
738275.000	1.001099e+000	-1.048225e-002
740270.000	1.000929e+000	-1.061298e-002
742265.000	1.000936e+000	-1.061106e-002
744260.000	1.000889e+000	-1.049769e-002
746255.000	1.001141e+000	-1.061851e-002
748250.000	1.000980e+000	-1.077886e-002
750245.000	1.001309e+000	-1.071432e-002
752240.000	1.001448e+000	-1.079916e-002
754235.000	1.001213e+000	-1.070972e-002
756230.000	1.001354e+000	-1.072249e-002
758225.000	1.001141e+000	-1.090924e-002
760220.000	1.001303e+000	-1.090104e-002
762215.000	1.001367e+000	-1.089704e-002
764210.000	1.001211e+000	-1.096087e-002
766205.000	1.001094e+000	-1.093686e-002
768200.000	1.001092e+000	-1.085482e-002
770195.000	1.001215e+000	-1.114823e-002
772190.000	1.001016e+000	-1.098798e-002
774185.000	1.001158e+000	-1.095698e-002
776180.000	1.001087e+000	-1.100570e-002
778175.000	1.001137e+000	-1.097906e-002
780170.000	1.001164e+000	-1.100227e-002
782165.000	1.001116e+000	-1.121432e-002
784160.000	1.001163e+000	-1.118532e-002
786155.000	1.001032e+000	-1.113367e-002
788150.000	1.001013e+000	-1.127682e-002
790145.000	1.001030e+000	-1.130408e-002
792140.000	1.000854e+000	-1.129424e-002
794135.000	1.000925e+000	-1.139995e-002
796130.000	1.000894e+000	-1.139851e-002
798125.000	1.001025e+000	-1.132571e-002
800120.000	1.000986e+000	-1.144073e-002
802115.000	1.001085e+000	-1.156365e-002
804110.000	1.001059e+000	-1.150880e-002
806105.000	1.000924e+000	-1.155808e-002
808100.000	1.001033e+000	-1.157735e-002
810095.000	1.001065e+000	-1.152258e-002
812090.000	1.001007e+000	-1.151917e-002
814085.000	1.000995e+000	-1.169037e-002
816080.000	1.001067e+000	-1.159971e-002
818075.000	1.001013e+000	-1.164218e-002
820070.000	1.000898e+000	-1.155532e-002
822065.000	1.001092e+000	-1.174798e-002
824060.000	1.000954e+000	-1.173899e-002
826055.000	1.001034e+000	-1.182601e-002
828050.000	1.000998e+000	-1.194241e-002
830045.000	1.001100e+000	-1.189608e-002
832040.000	1.000959e+000	-1.185137e-002
834035.000	1.000946e+000	-1.182231e-002
836030.000	1.001017e+000	-1.191513e-002
838025.000	1.000949e+000	-1.199027e-002
840020.000	1.001052e+000	-1.197614e-002
842015.000	1.000959e+000	-1.204341e-002
844010.000	1.001118e+000	-1.193452e-002
846005.000	1.000996e+000	-1.207424e-002
848000.000	1.000894e+000	-1.203799e-002
849995.000	1.001133e+000	-1.221167e-002
851990.000	1.001364e+000	-1.208580e-002
853985.000	1.001515e+000	-1.203486e-002
855980.000	1.001271e+000	-1.216863e-002
857975.000	1.001266e+000	-1.226999e-002
859970.000	1.001217e+000	-1.222494e-002
861965.000	1.001153e+000	-1.218237e-002
863960.000	1.001140e+000	-1.226066e-002
865955.000	1.001173e+000	-1.238072e-002
867950.000	1.001176e+000	-1.251041e-002
869945.000	1.001067e+000	-1.238424e-002
871940.000	1.000935e+000	-1.237019e-002
873935.000	1.001030e+000	-1.240817e-002
875930.000	1.001063e+000	-1.257678e-002
877925.000	1.000938e+000	-1.260234e-002
879920.000	1.000942e+000	-1.259709e-002
881915.000	1.001006e+000	-1.250825e-002
883910.000	1.000996e+000	-1.269917e-002
885905.000	1.001036e+000	-1.255566e-002
887900.000	1.000983e+000	-1.269465e-002
889895.000	1.000878e+000	-1.273236e-002
891890.000	1.000997e+000	-1.268221e-002
893885.000	1.001051e+000	-1.285118e-002
895880.000	1.000966e+000	-1.268067e-002
897875.000	1.001055e+000	-1.275498e-002
899870.000	1.000981e+000	-1.283327e-002
901865.000	1.001048e+000	-1.277863e-002
903860.000	1.001165e+000	-1.274365e-002
905855.000	1.001063e+000	-1.282204e-002
907850.000	1.001064e+000	-1.290661e-002
909845.000	1.000868e+000	-1.301848e-002
911840.000	1.001015e+000	-1.295782e-002
913835.000	1.000979e+000	-1.308447e-002
915830.000	1.000954e+000	-1.307263e-002
917825.000	1.000990e+000	-1.296905e-002
919820.000	1.000845e+000	-1.311116e-002
921815.000	1.001134e+000	-1.314032e-002
923810.000	1.001017e+000	-1.310623e-002
925805.000	1.000969e+000	-1.337215e-002
927800.000	1.001127e+000	-1.315226e-002
929795.000	1.000845e+000	-1.301428e-002
931790.000	1.001028e+000	-1.320088e-002
933785.000	1.001008e+000	-1.342308e-002
935780.000	1.001038e+000	-1.331749e-002
937775.000	1.000869e+000	-1.336023e-002
939770.000	1.000998e+000	-1.334215e-002
941765.000	1.001399e+000	-1.337728e-002
943760.000	1.001164e+000	-1.339989e-002
945755.000	1.001330e+000	-1.337608e-002
947750.000	1.001465e+000	-1.332473e-002
949745.000	1.001170e+000	-1.345741e-002
951740.000	1.001104e+000	-1.342781e-002
953735.000	1.001140e+000	-1.364873e-002
955730.000	1.001048e+000	-1.378014e-002
957725.000	1.001061e+000	-1.361599e-002
959720.000	1.001174e+000	-1.378663e-002
961715.000	1.001036e+000	-1.364340e-002
963710.000	1.001081e+000	-1.377037e-002
965705.000	1.001097e+000	-1.404849e-002
967700.000	1.000998e+000	-1.387336e-002
969695.000	1.001101e+000	-1.374731e-002
971690.000	1.001018e+000	-1.389116e-002
973685.000	1.000910e+000	-1.385235e-002
975680.000	1.000741e+000	-1.397642e-002
977675.000	1.000924e+000	-1.409549e-002
979670.000	1.000989e+000	-1.399569e-002
981665.000	1.000881e+000	-1.402254e-002
983660.000	1.001023e+000	-1.410104e-002
985655.000	1.000925e+000	-1.407695e-002
987650.000	1.000866e+000	-1.411925e-002
989645.000	1.000960e+000	-1.423107e-002
991640.000	1.000946e+000	-1.401860e-002
993635.000	1.001062e+000	-1.416330e-002
995630.000	1.001056e+000	-1.434385e-002
997625.000	1.001025e+000	-1.433825e-002
999620.000	1.000956e+000	-1.441014e-002
1001615.000	1.001041e+000	-1.439338e-002
1003610.000	1.000923e+000	-1.426388e-002
1005605.000	1.000975e+000	-1.433138e-002
1007600.000	1.000916e+000	-1.440079e-002
1009595.000	1.000954e+000	-1.453580e-002
1011590.000	1.000888e+000	-1.456605e-002
1013585.000	1.000888e+000	-1.451885e-002
1015580.000	1.000853e+000	-1.455728e-002
1017575.000	1.001060e+000	-1.454949e-002
1019570.000	1.001002e+000	-1.468598e-002
1021565.000	1.000923e+000	-1.467057e-002
1023560.000	1.000916e+000	-1.471848e-002
1025555.000	1.001021e+000	-1.469823e-002
1027550.000	1.000926e+000	-1.479587e-002
1029545.000	1.000930e+000	-1.488468e-002
1031540.000	1.001345e+000	-1.484470e-002
1033535.000	1.001201e+000	-1.489054e-002
1035530.000	1.001236e+000	-1.485182e-002
1037525.000	1.001032e+000	-1.469612e-002
