!Keysight Technologies,E5063A,MY54100949,A.07.30
!Date: Thu Dec 18 19:49:45 2025
!Data & Calibration Information:
!Freq	S11:SOLT2(ON)	S21:SOLT2(ON)	S12:SOLT2(ON)	S22:SOLT2(ON)
# Hz S RI R 50
50000.000	1.006712e+000	-9.470493e-003	-2.314254e-005	3.260810e-005	-4.715647e-005	-4.207176e-005	1.007263e+000	-5.545819e-003
54995.000	1.004507e+000	-1.056394e-002	-4.948243e-005	1.659663e-006	1.360586e-004	-1.638807e-005	1.003655e+000	-6.918943e-003
59990.000	1.004251e+000	-1.217596e-002	-6.333794e-005	-1.364565e-005	-6.034717e-006	1.691638e-004	1.003389e+000	-8.239868e-003
64985.000	1.004051e+000	-1.342741e-002	6.755116e-005	3.493243e-005	-1.608902e-005	-5.926260e-005	1.003674e+000	-9.213729e-003
69980.000	1.004671e+000	-1.482109e-002	7.953254e-005	3.800539e-005	6.431793e-005	-3.910615e-005	1.003471e+000	-9.322354e-003
74975.000	1.003468e+000	-1.550843e-002	9.107239e-005	-1.554849e-005	3.284947e-005	-3.160918e-005	1.002860e+000	-9.959164e-003
79970.000	1.003392e+000	-1.666572e-002	-3.563159e-005	2.568068e-005	-5.053641e-005	-6.559090e-005	1.002831e+000	-1.041660e-002
84965.000	1.002794e+000	-1.761308e-002	2.552552e-005	1.057910e-005	7.812952e-005	-6.720804e-006	1.002839e+000	-1.065317e-002
89960.000	1.002939e+000	-1.867324e-002	2.377952e-005	1.038692e-005	-2.567527e-005	4.270436e-005	1.002256e+000	-1.131177e-002
94955.000	1.002343e+000	-1.969091e-002	-8.857630e-005	9.814855e-005	-5.168059e-005	-3.586203e-005	1.002213e+000	-1.157426e-002
99950.000	1.002749e+000	-2.075506e-002	3.794245e-005	1.043443e-004	5.353626e-005	9.397292e-006	1.002161e+000	-1.153971e-002
104945.000	1.002500e+000	-2.125302e-002	4.974114e-005	-1.912972e-006	9.621832e-005	2.720999e-005	1.002447e+000	-1.237312e-002
109940.000	1.001977e+000	-2.259488e-002	-5.694755e-005	-7.514342e-006	-1.061933e-004	-6.267665e-005	1.001939e+000	-1.267230e-002
114935.000	1.001811e+000	-2.300326e-002	7.635386e-006	-7.656551e-005	-3.375532e-005	-2.619767e-006	1.002071e+000	-1.304251e-002
119930.000	1.001867e+000	-2.399389e-002	-2.231645e-005	4.144826e-006	-5.363772e-005	4.119302e-005	1.001736e+000	-1.342075e-002
124925.000	1.001583e+000	-2.494975e-002	5.154044e-005	4.635772e-005	-7.829845e-005	-7.259475e-005	1.001750e+000	-1.358299e-002
129920.000	1.001564e+000	-2.559891e-002	2.203059e-005	1.474978e-004	5.536712e-005	5.340772e-005	1.001668e+000	-1.417719e-002
134915.000	1.001603e+000	-2.624502e-002	-1.031886e-005	9.458934e-006	-7.372481e-005	3.614003e-005	1.001482e+000	-1.473586e-002
139910.000	1.001313e+000	-2.711957e-002	9.082880e-006	-2.152566e-005	3.424452e-005	-2.211878e-005	1.001666e+000	-1.505553e-002
144905.000	1.000704e+000	-2.829717e-002	9.674758e-005	-6.137295e-005	-8.939378e-005	9.903683e-005	1.001724e+000	-1.537728e-002
149900.000	1.000907e+000	-2.944327e-002	-5.960271e-005	-6.805161e-005	-3.855524e-005	-1.020846e-004	1.001511e+000	-1.558828e-002
154895.000	1.000755e+000	-2.982114e-002	3.065706e-005	-3.623233e-006	-1.076385e-004	8.462778e-005	1.001268e+000	-1.614528e-002
159890.000	1.000381e+000	-3.108307e-002	8.200877e-005	2.805484e-005	1.700311e-005	-4.981221e-006	1.001419e+000	-1.648840e-002
164885.000	1.000484e+000	-3.154735e-002	-5.550269e-005	-2.249902e-005	4.809204e-007	-1.127081e-004	1.001175e+000	-1.721469e-002
169880.000	1.000127e+000	-3.251760e-002	-7.052071e-005	9.994502e-005	-5.559368e-005	6.382492e-005	1.001110e+000	-1.741612e-002
174875.000	1.000134e+000	-3.319275e-002	6.336331e-005	-5.677892e-005	4.221814e-005	2.602560e-005	1.001161e+000	-1.773572e-002
179870.000	1.000075e+000	-3.420653e-002	1.893845e-005	-9.936236e-006	1.704037e-005	3.689025e-005	1.001272e+000	-1.795709e-002
184865.000	9.999641e-001	-3.486636e-002	-4.094479e-006	4.948586e-005	-6.594198e-005	-2.530251e-005	1.000816e+000	-1.845966e-002
189860.000	9.996337e-001	-3.610899e-002	-3.121589e-005	3.666495e-005	-1.306700e-005	-2.183121e-006	1.000944e+000	-1.897133e-002
194855.000	9.999065e-001	-3.680260e-002	9.006091e-006	4.438483e-005	2.200747e-005	-2.471410e-005	1.001174e+000	-1.952845e-002
199850.000	9.994047e-001	-3.744853e-002	-5.814310e-005	-6.296914e-006	2.721269e-005	1.212390e-005	1.001167e+000	-1.943153e-002
204845.000	9.996026e-001	-3.849135e-002	3.911360e-005	-2.217609e-005	1.572550e-005	4.883547e-006	1.001080e+000	-1.994738e-002
209840.000	9.992246e-001	-3.903188e-002	5.689317e-007	1.433883e-005	-4.332369e-005	6.736636e-005	1.001173e+000	-2.043489e-002
214835.000	9.993140e-001	-4.024642e-002	-8.812923e-005	2.873907e-005	2.462374e-006	4.432926e-005	1.000744e+000	-2.086172e-002
219830.000	9.989603e-001	-4.083133e-002	-5.953366e-005	6.994793e-005	-1.852874e-005	2.375512e-005	1.000860e+000	-2.117507e-002
224825.000	9.991595e-001	-4.144041e-002	4.309012e-005	8.922923e-005	-2.578384e-005	9.134129e-005	1.000874e+000	-2.148427e-002
229820.000	9.989797e-001	-4.239518e-002	-1.439672e-005	7.674311e-005	7.189729e-005	-9.881626e-006	1.000573e+000	-2.218868e-002
234815.000	9.984593e-001	-4.326441e-002	5.624994e-005	2.583945e-006	6.133073e-005	5.798915e-005	1.000677e+000	-2.236115e-002
239810.000	9.985378e-001	-4.423109e-002	-1.399138e-005	-3.160639e-005	-8.172752e-006	-9.299653e-005	1.000440e+000	-2.319754e-002
244805.000	9.984532e-001	-4.473579e-002	-7.538424e-005	5.824030e-005	1.029689e-005	-4.511657e-005	1.000717e+000	-2.316297e-002
249800.000	9.988680e-001	-4.606610e-002	-1.046835e-006	-1.972741e-006	2.668889e-005	8.944174e-005	1.000600e+000	-2.392194e-002
254795.000	9.980843e-001	-4.656724e-002	-1.171001e-006	8.655951e-005	7.121389e-005	1.028050e-004	1.000802e+000	-2.413824e-002
259790.000	9.983186e-001	-4.763805e-002	1.000975e-004	-4.164042e-005	-4.045584e-005	1.723103e-005	1.000215e+000	-2.420052e-002
264785.000	9.981331e-001	-4.858124e-002	4.420812e-005	-1.574088e-005	2.856415e-005	2.807535e-006	1.000522e+000	-2.496867e-002
269780.000	9.985167e-001	-4.918634e-002	5.785327e-006	-7.497767e-006	3.996190e-005	2.130913e-005	1.000918e+000	-2.531284e-002
274775.000	9.982781e-001	-5.026241e-002	-1.686679e-005	1.026223e-004	6.346755e-005	2.643526e-005	1.000495e+000	-2.569355e-002
279770.000	9.980261e-001	-5.084152e-002	-4.043579e-005	5.448561e-005	-8.247707e-006	2.044203e-005	1.000601e+000	-2.595830e-002
284765.000	9.979561e-001	-5.178745e-002	2.791519e-005	-2.848576e-005	-9.274279e-005	5.656867e-005	1.000457e+000	-2.608118e-002
289760.000	9.978745e-001	-5.291539e-002	1.181926e-005	1.517200e-005	-2.902673e-005	8.728201e-005	1.000234e+000	-2.693927e-002
294755.000	9.979888e-001	-5.362887e-002	3.243437e-005	2.492051e-006	-3.438304e-006	8.448326e-005	1.000310e+000	-2.726112e-002
299750.000	9.976731e-001	-5.411467e-002	2.807033e-005	6.327708e-005	2.247222e-005	-9.757938e-006	1.000422e+000	-2.792425e-002
304745.000	9.976654e-001	-5.538879e-002	-1.767440e-005	1.295925e-005	9.989805e-006	6.560612e-005	1.000553e+000	-2.818112e-002
309740.000	9.971715e-001	-5.590892e-002	-8.694892e-005	2.979217e-005	2.250470e-005	5.072979e-005	1.000173e+000	-2.823787e-002
314735.000	9.974851e-001	-5.700167e-002	7.457462e-005	1.104640e-004	-3.507017e-005	3.407923e-005	1.000311e+000	-2.894319e-002
319730.000	9.973226e-001	-5.764643e-002	5.035556e-005	2.633795e-006	-7.355637e-005	6.246140e-005	1.000311e+000	-2.963603e-002
324725.000	9.969380e-001	-5.867409e-002	5.220016e-005	1.294057e-004	5.317683e-005	2.462231e-005	1.000415e+000	-2.992747e-002
329720.000	9.973975e-001	-5.942749e-002	-4.045727e-005	5.109826e-005	-3.041539e-005	-1.698866e-005	1.000141e+000	-3.022868e-002
334715.000	9.970426e-001	-6.026940e-002	-5.383353e-005	7.121442e-005	5.406990e-005	9.428337e-005	1.000090e+000	-3.069423e-002
339710.000	9.966177e-001	-6.131249e-002	-4.952164e-005	4.758385e-005	-4.776909e-005	3.897829e-005	1.000364e+000	-3.113128e-002
344705.000	9.968087e-001	-6.198298e-002	4.564439e-005	1.021207e-004	2.539558e-005	3.561883e-005	1.000053e+000	-3.172835e-002
349700.000	9.967570e-001	-6.298799e-002	2.498676e-005	1.235397e-004	9.428805e-005	5.727252e-005	1.000490e+000	-3.202129e-002
354695.000	9.969255e-001	-6.388437e-002	-1.336857e-005	2.337285e-005	-5.162638e-005	2.974903e-005	1.000275e+000	-3.208608e-002
359690.000	9.964642e-001	-6.462300e-002	-1.165090e-005	-3.538020e-005	3.716648e-005	8.240622e-005	1.000327e+000	-3.263888e-002
364685.000	9.966532e-001	-6.556146e-002	6.375747e-005	5.718491e-005	-1.675389e-005	5.739169e-005	1.000075e+000	-3.324235e-002
369680.000	9.964358e-001	-6.649506e-002	-5.638972e-005	4.872416e-006	2.599194e-005	5.813258e-005	1.000173e+000	-3.368155e-002
374675.000	9.960856e-001	-6.724882e-002	1.171079e-005	6.420761e-005	-2.339320e-005	3.179271e-005	1.000158e+000	-3.423305e-002
379670.000	9.961475e-001	-6.819880e-002	5.398197e-005	1.146623e-004	-3.731079e-005	3.618032e-005	9.999532e-001	-3.454654e-002
384665.000	9.960972e-001	-6.899713e-002	-1.088318e-004	1.576679e-004	-7.375865e-007	1.328778e-004	1.000397e+000	-3.496200e-002
389660.000	9.959961e-001	-6.991849e-002	-3.410918e-006	-1.148272e-005	-1.917862e-005	8.677639e-005	9.998036e-001	-3.554891e-002
394655.000	9.959114e-001	-7.086902e-002	3.172274e-005	6.814868e-005	-1.130480e-005	8.145989e-005	1.000293e+000	-3.541279e-002
399650.000	9.955792e-001	-7.143931e-002	8.200423e-005	8.939456e-005	-4.835763e-006	9.250850e-005	1.000185e+000	-3.615422e-002
404645.000	9.960006e-001	-7.239690e-002	5.559112e-006	1.569872e-004	8.448695e-006	1.219268e-004	1.000476e+000	-3.658729e-002
409640.000	9.956439e-001	-7.348325e-002	8.124972e-005	1.208284e-004	-6.104384e-006	1.075280e-004	1.000524e+000	-3.721142e-002
414635.000	9.954345e-001	-7.441714e-002	-4.217922e-005	9.962180e-005	8.968777e-005	1.533657e-004	1.000295e+000	-3.709543e-002
419630.000	9.953824e-001	-7.513820e-002	1.247845e-005	5.643225e-005	-1.092064e-004	6.395602e-005	1.000226e+000	-3.782139e-002
424625.000	9.952034e-001	-7.595459e-002	-1.233215e-005	1.298591e-004	7.704851e-005	1.778130e-004	1.000100e+000	-3.833394e-002
429620.000	9.952457e-001	-7.679397e-002	3.091812e-005	1.191951e-004	-4.723238e-005	8.653160e-005	1.000405e+000	-3.868778e-002
434615.000	9.949285e-001	-7.769035e-002	4.727220e-005	1.177522e-004	-2.805175e-005	1.306607e-004	1.000264e+000	-3.886727e-002
439610.000	9.948490e-001	-7.860538e-002	3.591104e-005	1.530167e-004	9.887635e-005	7.326775e-005	1.000105e+000	-3.932086e-002
444605.000	9.948435e-001	-7.931591e-002	-6.630076e-006	9.271348e-005	4.579898e-005	5.944449e-005	1.000022e+000	-3.979379e-002
449600.000	9.945632e-001	-8.058683e-002	3.419552e-005	1.542243e-004	-3.369835e-005	9.240057e-005	1.000169e+000	-4.012049e-002
454595.000	9.946832e-001	-8.148307e-002	-5.350757e-005	1.403956e-004	7.733450e-005	1.003577e-004	9.998933e-001	-4.072856e-002
459590.000	9.943819e-001	-8.228710e-002	5.960411e-007	1.353884e-004	2.717385e-006	1.442396e-004	9.998175e-001	-4.117404e-002
464585.000	9.941430e-001	-8.298453e-002	3.968349e-005	6.363575e-005	1.803118e-005	1.648550e-004	9.999883e-001	-4.152390e-002
469580.000	9.941064e-001	-8.413746e-002	-6.323127e-007	1.138541e-004	1.070332e-005	1.587495e-004	9.995361e-001	-4.212466e-002
474575.000	9.940263e-001	-8.512986e-002	-8.749865e-006	1.339587e-004	-1.078337e-005	1.779010e-004	9.999496e-001	-4.254991e-002
479570.000	9.938478e-001	-8.573815e-002	1.953584e-005	1.591263e-004	-1.837784e-006	1.762251e-004	9.998451e-001	-4.302689e-002
484565.000	9.935704e-001	-8.652515e-002	2.684333e-005	1.364214e-004	4.737420e-005	1.915641e-004	9.998449e-001	-4.354666e-002
489560.000	9.936723e-001	-8.738577e-002	-2.487823e-005	1.802711e-004	5.006631e-005	1.669549e-004	9.997131e-001	-4.388308e-002
494555.000	9.934280e-001	-8.851142e-002	1.233201e-006	1.958306e-004	-1.547616e-005	1.824151e-004	9.997277e-001	-4.410361e-002
499550.000	9.931251e-001	-8.901823e-002	-8.072057e-006	1.662637e-004	1.870495e-005	1.414330e-004	1.000194e+000	-4.474694e-002
504545.000	9.931858e-001	-9.015814e-002	5.710166e-005	1.962782e-004	2.613175e-005	1.686364e-004	9.998406e-001	-4.504029e-002
509540.000	9.931411e-001	-9.108997e-002	-3.239196e-005	1.889884e-004	4.192320e-005	1.848960e-004	9.996252e-001	-4.564502e-002
514535.000	9.931327e-001	-9.191718e-002	-1.618015e-005	1.296570e-004	-4.490283e-005	1.150160e-004	9.995938e-001	-4.587672e-002
519530.000	9.928046e-001	-9.292485e-002	2.756072e-005	1.750455e-004	2.765215e-006	1.682130e-004	9.995632e-001	-4.634532e-002
524525.000	9.923662e-001	-9.368766e-002	3.801992e-007	2.120782e-004	1.605980e-005	1.463898e-004	9.998368e-001	-4.672748e-002
529520.000	9.924845e-001	-9.440421e-002	1.086369e-005	1.507453e-004	5.798219e-005	1.746047e-004	1.000051e+000	-4.712234e-002
534515.000	9.924260e-001	-9.560698e-002	-1.442103e-006	1.790984e-004	4.437811e-005	1.568297e-004	9.998070e-001	-4.765664e-002
539510.000	9.923071e-001	-9.634372e-002	5.063536e-005	2.080540e-004	2.796087e-006	1.519358e-004	9.995069e-001	-4.792003e-002
544505.000	9.918976e-001	-9.739109e-002	1.339388e-005	1.692239e-004	1.086966e-004	2.015300e-004	9.995198e-001	-4.850481e-002
549500.000	9.920347e-001	-9.811617e-002	2.950221e-005	2.015064e-004	1.384901e-005	2.167554e-004	9.995538e-001	-4.886897e-002
554495.000	9.917909e-001	-9.886250e-002	7.545038e-006	2.505941e-004	1.101889e-005	2.507366e-004	9.995850e-001	-4.934634e-002
559490.000	9.915665e-001	-9.996031e-002	3.609779e-006	1.701284e-004	-7.962862e-007	2.452823e-004	9.994437e-001	-4.979387e-002
564485.000	9.913014e-001	-1.008037e-001	1.172796e-005	2.364735e-004	5.722895e-005	2.548541e-004	9.995108e-001	-5.016245e-002
569480.000	9.912904e-001	-1.018013e-001	5.338985e-005	2.254371e-004	-1.760784e-005	2.655642e-004	9.993796e-001	-5.075167e-002
574475.000	9.913507e-001	-1.028095e-001	4.440558e-005	3.055752e-004	5.587665e-005	2.219924e-004	9.993892e-001	-5.097481e-002
579470.000	9.913836e-001	-1.035630e-001	6.646884e-006	2.018142e-004	-6.064946e-005	2.686956e-004	9.993315e-001	-5.157245e-002
584465.000	9.909441e-001	-1.045527e-001	1.313683e-005	2.404186e-004	-4.564655e-005	2.444564e-004	9.996499e-001	-5.189745e-002
589460.000	9.909525e-001	-1.050841e-001	2.720612e-005	3.757292e-004	6.988145e-005	2.391682e-004	9.992842e-001	-5.249989e-002
594455.000	9.902881e-001	-1.062325e-001	6.250102e-005	2.083033e-004	6.146513e-005	3.235689e-004	9.996072e-001	-5.305645e-002
599450.000	9.904447e-001	-1.069039e-001	-7.669808e-005	2.548793e-004	5.818113e-005	3.025324e-004	9.994620e-001	-5.348987e-002
604445.000	9.903307e-001	-1.079064e-001	1.140216e-004	2.069409e-004	-1.327358e-005	2.619807e-004	9.992304e-001	-5.369369e-002
609440.000	9.898872e-001	-1.087440e-001	8.821736e-005	2.162954e-004	6.281326e-005	2.650291e-004	9.992484e-001	-5.418620e-002
614435.000	9.900202e-001	-1.097622e-001	-4.080965e-005	3.398453e-004	-6.755631e-005	3.356214e-004	9.992526e-001	-5.469805e-002
619430.000	9.897219e-001	-1.106552e-001	3.036594e-005	3.091588e-004	2.912755e-005	2.643590e-004	9.993003e-001	-5.475414e-002
624425.000	9.896853e-001	-1.114386e-001	6.125167e-005	2.255117e-004	1.067338e-005	3.490467e-004	9.993040e-001	-5.539978e-002
629420.000	9.894592e-001	-1.125444e-001	7.266682e-006	3.168124e-004	6.010716e-005	3.191684e-004	9.989761e-001	-5.574857e-002
634415.000	9.890246e-001	-1.132073e-001	-4.213574e-006	3.039560e-004	-1.749637e-005	3.351127e-004	9.990191e-001	-5.636971e-002
639410.000	9.892364e-001	-1.140728e-001	6.083727e-005	2.551490e-004	-4.536591e-006	2.299859e-004	9.989196e-001	-5.671930e-002
644405.000	9.890775e-001	-1.151981e-001	4.862854e-005	3.289168e-004	5.459389e-005	3.330996e-004	9.990446e-001	-5.726241e-002
649400.000	9.885840e-001	-1.159870e-001	3.450352e-005	3.064082e-004	1.328582e-004	3.256535e-004	9.990723e-001	-5.762361e-002
654395.000	9.887357e-001	-1.171703e-001	3.978424e-005	2.639352e-004	-3.500039e-005	3.666692e-004	9.993216e-001	-5.810553e-002
659390.000	9.882557e-001	-1.179667e-001	6.046670e-005	3.515252e-004	6.227535e-005	3.233691e-004	9.990259e-001	-5.865066e-002
664385.000	9.879299e-001	-1.186881e-001	3.787792e-006	3.460629e-004	4.612474e-005	3.745460e-004	9.992849e-001	-5.900734e-002
669380.000	9.879549e-001	-1.196916e-001	4.586131e-005	3.374501e-004	3.453234e-005	4.199731e-004	9.989858e-001	-5.939178e-002
674375.000	9.878779e-001	-1.203604e-001	2.811600e-007	4.167438e-004	-3.765985e-006	3.728256e-004	9.991799e-001	-5.994452e-002
679370.000	9.875471e-001	-1.213443e-001	2.656471e-005	3.995376e-004	1.065454e-004	3.494831e-004	9.990371e-001	-6.040513e-002
684365.000	9.872852e-001	-1.220589e-001	8.409144e-005	3.649611e-004	-4.319208e-007	4.292450e-004	9.987328e-001	-6.058040e-002
689360.000	9.871982e-001	-1.233332e-001	6.643510e-005	3.450679e-004	3.278381e-005	4.147995e-004	9.990221e-001	-6.126986e-002
694355.000	9.871484e-001	-1.242057e-001	5.248442e-005	3.837847e-004	1.586377e-005	4.182364e-004	9.988365e-001	-6.130521e-002
699350.000	9.869167e-001	-1.251331e-001	-1.715517e-005	4.652678e-004	7.578224e-005	4.057988e-004	9.988735e-001	-6.204225e-002
704345.000	9.866889e-001	-1.260734e-001	7.940580e-005	3.828336e-004	6.653757e-005	4.562352e-004	9.989079e-001	-6.237765e-002
709340.000	9.864112e-001	-1.268302e-001	8.442018e-005	4.587673e-004	1.069063e-004	3.690450e-004	9.989425e-001	-6.250024e-002
714335.000	9.862871e-001	-1.277270e-001	1.082056e-004	4.296343e-004	2.985701e-005	4.331817e-004	9.987256e-001	-6.330302e-002
719330.000	9.861519e-001	-1.286045e-001	5.276863e-005	4.509032e-004	1.026618e-004	4.550101e-004	9.988180e-001	-6.373323e-002
724325.000	9.858253e-001	-1.295579e-001	1.071712e-004	4.261528e-004	5.802326e-005	4.338984e-004	9.988543e-001	-6.423498e-002
729320.000	9.858199e-001	-1.303708e-001	9.088502e-005	5.071003e-004	6.568370e-005	4.527749e-004	9.989241e-001	-6.449625e-002
734315.000	9.856798e-001	-1.312824e-001	9.732665e-005	4.364006e-004	7.646755e-005	4.965164e-004	9.988058e-001	-6.512580e-002
739310.000	9.854694e-001	-1.321332e-001	8.733621e-005	5.117912e-004	7.691357e-005	4.305877e-004	9.985637e-001	-6.566488e-002
744305.000	9.851003e-001	-1.332170e-001	-4.490049e-006	4.960588e-004	1.699343e-004	5.125150e-004	9.988494e-001	-6.582565e-002
749300.000	9.850087e-001	-1.339480e-001	5.099198e-005	5.339705e-004	7.739422e-005	4.555214e-004	9.986596e-001	-6.659796e-002
754295.000	9.850265e-001	-1.350226e-001	8.615076e-005	5.139780e-004	1.606900e-004	4.831087e-004	9.989309e-001	-6.675847e-002
759290.000	9.845184e-001	-1.357829e-001	4.063241e-005	5.754710e-004	8.069279e-005	5.354818e-004	9.986041e-001	-6.722024e-002
764285.000	9.843350e-001	-1.367943e-001	6.507449e-005	5.438793e-004	8.203866e-005	4.882251e-004	9.987029e-001	-6.765907e-002
769280.000	9.840842e-001	-1.375034e-001	3.360452e-005	5.694937e-004	1.025427e-004	5.686597e-004	9.984765e-001	-6.823964e-002
774275.000	9.838636e-001	-1.384688e-001	1.415260e-004	5.959985e-004	8.511990e-005	5.263826e-004	9.982997e-001	-6.871290e-002
779270.000	9.837428e-001	-1.394770e-001	3.908713e-005	5.615529e-004	1.676927e-005	5.112768e-004	9.983783e-001	-6.907822e-002
784265.000	9.833590e-001	-1.402748e-001	7.436895e-005	6.015371e-004	1.170269e-004	5.367726e-004	9.984082e-001	-6.945753e-002
789260.000	9.830326e-001	-1.413933e-001	-2.369546e-006	5.837711e-004	7.497524e-005	5.822953e-004	9.982179e-001	-6.994359e-002
794255.000	9.830737e-001	-1.421558e-001	8.883642e-005	6.264419e-004	7.946347e-005	6.038051e-004	9.985209e-001	-7.035149e-002
799250.000	9.826901e-001	-1.431871e-001	1.127113e-004	6.307325e-004	1.819017e-004	6.330435e-004	9.984938e-001	-7.064708e-002
804245.000	9.822274e-001	-1.440729e-001	1.803701e-004	6.593201e-004	1.461979e-004	6.181076e-004	9.983884e-001	-7.124504e-002
809240.000	9.823532e-001	-1.447782e-001	1.243165e-004	7.083485e-004	7.214111e-005	6.615804e-004	9.983370e-001	-7.182271e-002
814235.000	9.822108e-001	-1.458771e-001	1.035675e-004	6.842895e-004	1.387210e-004	6.528184e-004	9.981981e-001	-7.221411e-002
819230.000	9.815598e-001	-1.466580e-001	1.872447e-004	7.134977e-004	1.247858e-004	6.894154e-004	9.982688e-001	-7.264599e-002
824225.000	9.815884e-001	-1.473989e-001	1.730099e-004	7.314842e-004	7.837020e-005	6.849180e-004	9.981888e-001	-7.310145e-002
829220.000	9.813178e-001	-1.483537e-001	1.136634e-004	6.936696e-004	2.014093e-004	6.813062e-004	9.983322e-001	-7.343540e-002
