Time (s),VIN,IIN,VOUT
0.0,24.29999999232,1.477112507008,41.72725001344
5e-10,24.25312498944,1.478675007104,41.6647500096
1e-09,24.28437499136,1.4802375072,41.5866250048
1.5000000000000002e-09,24.33124999424,1.478675007104,41.55537500288
2e-09,24.2687499904,1.475550006912,41.60225000576
2.5e-09,24.20624998656,1.477112507008,41.64912500864
3.0000000000000004e-09,24.14374998272,1.4802375072,41.63350000768
3.5000000000000003e-09,24.20624998656,1.478675007104,41.5866250048
4e-09,24.31562499328,1.475550006912,41.57100000384
4.500000000000001e-09,24.36249999616,1.475550006912,41.60225000576
5e-09,24.33124999424,1.475550006912,41.6647500096
5.5000000000000004e-09,24.31562499328,1.478675007104,41.6647500096
6.000000000000001e-09,24.3468749952,1.4802375072,41.63350000768
6.5e-09,24.39374999808,1.483362507392,41.61787500672
7.000000000000001e-09,24.425,1.483362507392,41.61787500672
7.500000000000001e-09,24.36249999616,1.478675007104,41.64912500864
8e-09,24.29999999232,1.477112507008,41.6647500096
8.5e-09,24.22187498752,1.478675007104,41.6647500096
9.000000000000001e-09,24.22187498752,1.4802375072,41.63350000768
9.5e-09,24.22187498752,1.4802375072,41.55537500288
1e-08,24.17499998464,1.478675007104,41.55537500288
1.0500000000000001e-08,24.1124999808,1.478675007104,41.55537500288
1.1000000000000001e-08,24.1124999808,1.478675007104,41.5866250048
1.15e-08,24.20624998656,1.473987506816,41.57100000384
1.2000000000000002e-08,24.3468749952,1.470862506624,41.52412500096
1.2500000000000001e-08,24.47187500288,1.470862506624,41.49287499904
1.3e-08,24.5031250048,1.470862506624,41.55537500288
1.35e-08,24.48750000384,1.47242500672,41.60225000576
1.4000000000000001e-08,24.45625000192,1.470862506624,41.64912500864
1.45e-08,24.45625000192,1.473987506816,41.64912500864
1.5000000000000002e-08,24.425,1.473987506816,41.6647500096
1.55e-08,24.31562499328,1.475550006912,41.61787500672
1.6e-08,24.17499998464,1.473987506816,41.64912500864
1.6500000000000002e-08,24.14374998272,1.473987506816,41.64912500864
1.7e-08,24.15937498368,1.475550006912,41.6647500096
1.75e-08,24.1906249856,1.477112507008,41.55537500288
1.8000000000000002e-08,24.1906249856,1.473987506816,41.49287499904
1.85e-08,24.23749998848,1.470862506624,41.44599999616
1.9e-08,24.2687499904,1.470862506624,41.46162499712
1.9500000000000003e-08,24.3468749952,1.4693000065280002,41.49287499904
2e-08,24.425,1.470862506624,41.49287499904
2.05e-08,24.47187500288,1.47242500672,41.47724999808
2.1000000000000003e-08,24.45625000192,1.47242500672,41.52412500096
2.15e-08,24.47187500288,1.470862506624,41.55537500288
2.2000000000000002e-08,24.425,1.4693000065280002,41.61787500672
2.2500000000000003e-08,24.40937499904,1.470862506624,41.64912500864
2.3e-08,24.37812499712,1.4693000065280002,41.61787500672
2.3500000000000002e-08,24.28437499136,1.4693000065280002,41.53975000192
2.4000000000000003e-08,24.20624998656,1.47242500672,41.53975000192
2.45e-08,24.09687497984,1.475550006912,41.55537500288
2.5000000000000002e-08,24.12812498176,1.475550006912,41.5866250048
2.55e-08,24.22187498752,1.475550006912,41.53975000192
2.6e-08,24.29999999232,1.473987506816,41.5085
2.6500000000000002e-08,24.31562499328,1.470862506624,41.46162499712
2.7e-08,24.36249999616,1.470862506624,41.47724999808
2.75e-08,24.5031250048,1.4693000065280002,41.53975000192
2.8000000000000003e-08,24.61250001152,1.4646125062400002,41.55537500288
2.85e-08,24.61250001152,1.4677375064320002,41.5085
2.9e-08,24.45625000192,1.4677375064320002,41.55537500288
2.9500000000000003e-08,24.31562499328,1.470862506624,41.5866250048
3.0000000000000004e-08,24.1906249856,1.47242500672,41.61787500672
3.05e-08,24.1124999808,1.475550006912,41.64912500864
3.1e-08,24.12812498176,1.473987506816,41.61787500672
3.1500000000000004e-08,24.17499998464,1.47242500672,41.53975000192
3.2e-08,24.23749998848,1.47242500672,41.49287499904
3.25e-08,24.28437499136,1.473987506816,41.47724999808
3.3000000000000004e-08,24.33124999424,1.475550006912,41.5085
3.35e-08,24.39374999808,1.473987506816,41.5085
3.4e-08,24.425,1.4693000065280002,41.47724999808
3.4500000000000005e-08,24.425,1.4677375064320002,41.4303749952
3.5e-08,24.425,1.4693000065280002,41.4303749952
3.55e-08,24.44062500096,1.470862506624,41.5085
3.6000000000000005e-08,24.40937499904,1.470862506624,41.60225000576
3.65e-08,24.31562499328,1.4693000065280002,41.63350000768
3.7e-08,24.17499998464,1.4677375064320002,41.63350000768
3.7500000000000005e-08,24.12812498176,1.4677375064320002,41.5866250048
3.8e-08,24.15937498368,1.4693000065280002,41.57100000384
3.85e-08,24.2687499904,1.470862506624,41.55537500288
3.9000000000000005e-08,24.37812499712,1.473987506816,41.49287499904
3.95e-08,24.425,1.478675007104,41.41474999424
4e-08,24.37812499712,1.481800007296,41.39912499328
4.0500000000000005e-08,24.2687499904,1.481800007296,41.4303749952
4.1e-08,24.28437499136,1.475550006912,41.5085
4.15e-08,24.3468749952,1.47242500672,41.5085
4.2000000000000006e-08,24.40937499904,1.4677375064320002,41.5085
4.2500000000000003e-08,24.48750000384,1.4693000065280002,41.5085
4.3e-08,24.45625000192,1.473987506816,41.53975000192
4.3500000000000006e-08,24.36249999616,1.478675007104,41.5866250048
4.4000000000000004e-08,24.20624998656,1.4802375072,41.61787500672
4.45e-08,24.12812498176,1.481800007296,41.61787500672
4.5000000000000006e-08,24.14374998272,1.4802375072,41.61787500672
4.5500000000000004e-08,24.28437499136,1.4802375072,41.55537500288
4.6e-08,24.425,1.481800007296,41.5085
4.6500000000000006e-08,24.425,1.481800007296,41.46162499712
4.7000000000000004e-08,24.33124999424,1.478675007104,41.4303749952
4.75e-08,24.23749998848,1.478675007104,41.38349999232
4.8000000000000006e-08,24.23749998848,1.4802375072,41.38349999232
4.8500000000000004e-08,24.31562499328,1.478675007104,41.39912499328
4.9e-08,24.37812499712,1.478675007104,41.49287499904
4.95e-08,24.36249999616,1.477112507008,41.5085
5.0000000000000004e-08,24.25312498944,1.477112507008,41.52412500096
5.05e-08,24.1906249856,1.4802375072,41.52412500096
5.1e-08,24.17499998464,1.481800007296,41.5866250048
5.1500000000000005e-08,24.20624998656,1.478675007104,41.64912500864
5.2e-08,24.23749998848,1.475550006912,41.61787500672
5.25e-08,24.2687499904,1.4802375072,41.52412500096
5.3000000000000005e-08,24.31562499328,1.483362507392,41.5085
5.35e-08,24.40937499904,1.486487507584,41.47724999808
5.4e-08,24.44062500096,1.484925007488,41.47724999808
5.4500000000000005e-08,24.37812499712,1.481800007296,41.46162499712
5.5e-08,24.28437499136,1.4802375072,41.4303749952
5.55e-08,24.23749998848,1.4802375072,41.38349999232
5.6000000000000005e-08,24.25312498944,1.478675007104,41.39912499328
5.65e-08,24.2687499904,1.478675007104,41.46162499712
5.7e-08,24.28437499136,1.481800007296,41.55537500288
5.7500000000000005e-08,24.20624998656,1.484925007488,41.52412500096
5.8e-08,24.1124999808,1.483362507392,41.52412500096
5.85e-08,24.12812498176,1.48805000768,41.49287499904
5.9000000000000006e-08,24.15937498368,1.484925007488,41.52412500096
5.9500000000000003e-08,24.25312498944,1.481800007296,41.57100000384
6.000000000000001e-08,24.31562499328,1.481800007296,41.55537500288
6.05e-08,24.33124999424,1.484925007488,41.5085
6.1e-08,24.33124999424,1.484925007488,41.5085
6.15e-08,24.3468749952,1.48805000768,41.49287499904
6.2e-08,24.3468749952,1.484925007488,41.47724999808
6.250000000000001e-08,24.3468749952,1.4802375072,41.47724999808
6.300000000000001e-08,24.31562499328,1.481800007296,41.46162499712
6.35e-08,24.22187498752,1.483362507392,41.49287499904
6.4e-08,24.14374998272,1.486487507584,41.53975000192
6.45e-08,24.065624977920002,1.486487507584,41.57100000384
6.5e-08,24.065624977920002,1.48805000768,41.5866250048
6.55e-08,24.09687497984,1.48805000768,41.53975000192
6.600000000000001e-08,24.17499998464,1.486487507584,41.52412500096
6.65e-08,24.28437499136,1.48805000768,41.49287499904
6.7e-08,24.29999999232,1.48805000768,41.49287499904
6.75e-08,24.29999999232,1.486487507584,41.49287499904
6.8e-08,24.31562499328,1.486487507584,41.46162499712
6.85e-08,24.3468749952,1.48805000768,41.41474999424
6.900000000000001e-08,24.36249999616,1.48805000768,41.44599999616
6.950000000000001e-08,24.3468749952,1.48805000768,41.49287499904
7e-08,24.2687499904,1.483362507392,41.53975000192
7.05e-08,24.14374998272,1.483362507392,41.55537500288
7.1e-08,24.09687497984,1.484925007488,41.57100000384
7.15e-08,24.081249978880003,1.486487507584,41.57100000384
7.200000000000001e-08,24.14374998272,1.489612507776,41.5866250048
7.250000000000001e-08,24.14374998272,1.491175007872,41.60225000576
7.3e-08,24.17499998464,1.491175007872,41.57100000384
7.35e-08,24.23749998848,1.491175007872,41.46162499712
7.4e-08,24.29999999232,1.492737507968,41.41474999424
7.45e-08,24.33124999424,1.49586250816,41.4303749952
7.500000000000001e-08,24.28437499136,1.4974250082560001,41.4303749952
7.550000000000001e-08,24.25312498944,1.48805000768,41.46162499712
7.6e-08,24.25312498944,1.481800007296,41.44599999616
7.65e-08,24.29999999232,1.48805000768,41.4303749952
7.7e-08,24.29999999232,1.492737507968,41.46162499712
7.75e-08,24.2687499904,1.492737507968,41.5085
7.800000000000001e-08,24.17499998464,1.489612507776,41.53975000192
7.850000000000001e-08,24.081249978880003,1.491175007872,41.57100000384
7.9e-08,24.065624977920002,1.492737507968,41.55537500288
7.95e-08,24.12812498176,1.492737507968,41.55537500288
8e-08,24.23749998848,1.494300008064,41.57100000384
8.05e-08,24.25312498944,1.494300008064,41.55537500288
8.100000000000001e-08,24.20624998656,1.494300008064,41.5866250048
8.150000000000001e-08,24.20624998656,1.494300008064,41.5085
8.2e-08,24.25312498944,1.49586250816,41.47724999808
8.25e-08,24.33124999424,1.494300008064,41.47724999808
8.3e-08,24.31562499328,1.494300008064,41.5085
8.35e-08,24.2687499904,1.491175007872,41.57100000384
8.400000000000001e-08,24.20624998656,1.48805000768,41.5866250048
8.450000000000001e-08,24.20624998656,1.491175007872,41.5866250048
8.500000000000001e-08,24.22187498752,1.494300008064,41.57100000384
8.55e-08,24.20624998656,1.4989875083520001,41.55537500288
8.6e-08,24.1124999808,1.5005500084480001,41.57100000384
8.65e-08,24.09687497984,1.4989875083520001,41.60225000576
8.700000000000001e-08,24.15937498368,1.4974250082560001,41.61787500672
8.750000000000001e-08,24.23749998848,1.5005500084480001,41.61787500672
8.800000000000001e-08,24.31562499328,1.5005500084480001,41.57100000384
8.85e-08,24.29999999232,1.5005500084480001,41.57100000384
8.9e-08,24.25312498944,1.4974250082560001,41.5866250048
8.95e-08,24.20624998656,1.49586250816,41.57100000384
9.000000000000001e-08,24.25312498944,1.494300008064,41.57100000384
9.050000000000001e-08,24.2687499904,1.494300008064,41.55537500288
9.100000000000001e-08,24.1906249856,1.494300008064,41.53975000192
9.15e-08,24.065624977920002,1.494300008064,41.57100000384
9.2e-08,24.034374976000002,1.492737507968,41.60225000576
9.25e-08,24.1124999808,1.4989875083520001,41.63350000768
9.300000000000001e-08,24.1906249856,1.5036750086400001,41.6647500096
9.350000000000001e-08,24.22187498752,1.5036750086400001,41.63350000768
9.400000000000001e-08,24.20624998656,1.5021125085440001,41.61787500672
9.45e-08,24.1906249856,1.5005500084480001,41.64912500864
9.5e-08,24.23749998848,1.5005500084480001,41.64912500864
9.55e-08,24.29999999232,1.5021125085440001,41.61787500672
9.600000000000001e-08,24.29999999232,1.5036750086400001,41.5866250048
9.650000000000001e-08,24.23749998848,1.5005500084480001,41.55537500288
9.700000000000001e-08,24.20624998656,1.49586250816,41.61787500672
9.75e-08,24.1906249856,1.4974250082560001,41.63350000768
9.8e-08,24.17499998464,1.49586250816,41.63350000768
9.85e-08,24.20624998656,1.494300008064,41.63350000768
9.9e-08,24.22187498752,1.492737507968,41.63350000768
9.950000000000001e-08,24.23749998848,1.491175007872,41.6647500096
1.0000000000000001e-07,24.23749998848,1.491175007872,41.71162501248
1.005e-07,24.25312498944,1.49586250816,41.72725001344
1.01e-07,24.2687499904,1.4989875083520001,41.71162501248
1.015e-07,24.2687499904,1.4989875083520001,41.63350000768
1.02e-07,24.1906249856,1.4989875083520001,41.5866250048
1.0250000000000001e-07,24.14374998272,1.49586250816,41.60225000576
1.0300000000000001e-07,24.15937498368,1.49586250816,41.63350000768
1.0350000000000001e-07,24.14374998272,1.494300008064,41.60225000576
1.04e-07,24.15937498368,1.49586250816,41.57100000384
1.045e-07,24.12812498176,1.49586250816,41.53975000192
1.05e-07,24.12812498176,1.492737507968,41.60225000576
1.0550000000000001e-07,24.15937498368,1.494300008064,41.63350000768
1.0600000000000001e-07,24.23749998848,1.49586250816,41.64912500864
1.0650000000000001e-07,24.33124999424,1.49586250816,41.63350000768
1.07e-07,24.33124999424,1.4974250082560001,41.61787500672
1.075e-07,24.33124999424,1.49586250816,41.64912500864
1.08e-07,24.2687499904,1.494300008064,41.69600001152
1.0850000000000001e-07,24.1906249856,1.49586250816,41.68037501056
1.0900000000000001e-07,24.17499998464,1.4974250082560001,41.68037501056
1.0950000000000001e-07,24.22187498752,1.4974250082560001,41.61787500672
1.1e-07,24.2687499904,1.4989875083520001,41.5866250048
1.105e-07,24.25312498944,1.4974250082560001,41.60225000576
1.11e-07,24.17499998464,1.492737507968,41.60225000576
1.1150000000000001e-07,24.1124999808,1.489612507776,41.5866250048
1.1200000000000001e-07,24.15937498368,1.489612507776,41.5866250048
1.1250000000000001e-07,24.25312498944,1.489612507776,41.55537500288
1.13e-07,24.37812499712,1.491175007872,41.60225000576
1.135e-07,24.37812499712,1.494300008064,41.5866250048
1.14e-07,24.2687499904,1.494300008064,41.64912500864
1.1450000000000001e-07,24.20624998656,1.49586250816,41.64912500864
1.1500000000000001e-07,24.20624998656,1.4989875083520001,41.6647500096
1.1550000000000001e-07,24.2687499904,1.4974250082560001,41.68037501056
1.16e-07,24.31562499328,1.4974250082560001,41.69600001152
1.165e-07,24.25312498944,1.4974250082560001,41.69600001152
1.17e-07,24.12812498176,1.4974250082560001,41.72725001344
1.1750000000000001e-07,24.12812498176,1.49586250816,41.71162501248
1.1800000000000001e-07,24.20624998656,1.492737507968,41.61787500672
1.1850000000000001e-07,24.25312498944,1.49586250816,41.5866250048
1.1900000000000001e-07,24.28437499136,1.4974250082560001,41.57100000384
1.195e-07,24.1906249856,1.4974250082560001,41.55537500288
1.2000000000000002e-07,24.14374998272,1.494300008064,41.60225000576
1.205e-07,24.17499998464,1.494300008064,41.61787500672
1.21e-07,24.29999999232,1.492737507968,41.64912500864
1.215e-07,24.425,1.494300008064,41.60225000576
1.22e-07,24.40937499904,1.494300008064,41.63350000768
1.2250000000000002e-07,24.29999999232,1.491175007872,41.68037501056
1.23e-07,24.17499998464,1.489612507776,41.71162501248
1.2350000000000001e-07,24.1906249856,1.48805000768,41.7428750144
1.24e-07,24.2687499904,1.48805000768,41.72725001344
1.245e-07,24.29999999232,1.491175007872,41.69600001152
1.2500000000000002e-07,24.25312498944,1.491175007872,41.72725001344
1.255e-07,24.20624998656,1.491175007872,41.7428750144
1.2600000000000002e-07,24.1906249856,1.492737507968,41.69600001152
1.265e-07,24.20624998656,1.492737507968,41.6647500096
1.27e-07,24.2687499904,1.494300008064,41.63350000768
1.275e-07,24.25312498944,1.492737507968,41.63350000768
1.28e-07,24.23749998848,1.489612507776,41.68037501056
1.2850000000000002e-07,24.25312498944,1.491175007872,41.71162501248
1.29e-07,24.28437499136,1.492737507968,41.69600001152
1.2950000000000001e-07,24.31562499328,1.49586250816,41.61787500672
1.3e-07,24.2687499904,1.49586250816,41.60225000576
1.305e-07,24.1906249856,1.491175007872,41.64912500864
1.31e-07,24.09687497984,1.48805000768,41.72725001344
1.315e-07,24.09687497984,1.483362507392,41.75850001536
1.3200000000000002e-07,24.17499998464,1.486487507584,41.71162501248
1.325e-07,24.28437499136,1.48805000768,41.64912500864
1.33e-07,24.31562499328,1.489612507776,41.68037501056
1.335e-07,24.28437499136,1.486487507584,41.72725001344
1.34e-07,24.23749998848,1.484925007488,41.7428750144
1.3450000000000002e-07,24.23749998848,1.486487507584,41.71162501248
1.35e-07,24.29999999232,1.489612507776,41.6647500096
1.3550000000000002e-07,24.29999999232,1.48805000768,41.64912500864
1.36e-07,24.28437499136,1.484925007488,41.68037501056
1.365e-07,24.20624998656,1.483362507392,41.7428750144
1.37e-07,24.22187498752,1.483362507392,41.77412501632
1.375e-07,24.23749998848,1.484925007488,41.71162501248
1.3800000000000002e-07,24.23749998848,1.484925007488,41.68037501056
1.385e-07,24.23749998848,1.484925007488,41.68037501056
1.3900000000000001e-07,24.1906249856,1.4802375072,41.71162501248
1.395e-07,24.25312498944,1.478675007104,41.7428750144
1.4e-07,24.36249999616,1.4802375072,41.72725001344
1.4050000000000002e-07,24.44062500096,1.484925007488,41.64912500864
1.41e-07,24.37812499712,1.481800007296,41.64912500864
1.4150000000000002e-07,24.28437499136,1.481800007296,41.68037501056
1.42e-07,24.15937498368,1.481800007296,41.68037501056
1.425e-07,24.14374998272,1.481800007296,41.63350000768
1.43e-07,24.20624998656,1.4802375072,41.61787500672
1.435e-07,24.25312498944,1.477112507008,41.63350000768
1.4400000000000002e-07,24.20624998656,1.475550006912,41.68037501056
1.445e-07,24.1124999808,1.477112507008,41.7428750144
1.4500000000000001e-07,24.14374998272,1.478675007104,41.75850001536
1.455e-07,24.31562499328,1.484925007488,41.6647500096
1.46e-07,24.45625000192,1.483362507392,41.63350000768
1.4650000000000002e-07,24.45625000192,1.478675007104,41.64912500864
1.47e-07,24.36249999616,1.478675007104,41.69600001152
1.4750000000000002e-07,24.31562499328,1.478675007104,41.72725001344
1.48e-07,24.29999999232,1.481800007296,41.64912500864
1.485e-07,24.33124999424,1.483362507392,41.57100000384
1.49e-07,24.31562499328,1.481800007296,41.5866250048
1.495e-07,24.28437499136,1.478675007104,41.61787500672
1.5000000000000002e-07,24.1906249856,1.478675007104,41.64912500864
1.505e-07,24.14374998272,1.478675007104,41.63350000768
1.5100000000000002e-07,24.22187498752,1.478675007104,41.60225000576
1.515e-07,24.31562499328,1.477112507008,41.57100000384
1.52e-07,24.36249999616,1.473987506816,41.5866250048
1.5250000000000002e-07,24.33124999424,1.47242500672,41.61787500672
1.53e-07,24.31562499328,1.47242500672,41.68037501056
1.5350000000000002e-07,24.3468749952,1.475550006912,41.64912500864
1.54e-07,24.40937499904,1.475550006912,41.63350000768
1.5450000000000001e-07,24.44062500096,1.473987506816,41.61787500672
1.55e-07,24.37812499712,1.473987506816,41.63350000768
1.555e-07,24.29999999232,1.470862506624,41.6647500096
1.5600000000000002e-07,24.23749998848,1.470862506624,41.68037501056
1.565e-07,24.2687499904,1.470862506624,41.61787500672
1.5700000000000002e-07,24.22187498752,1.470862506624,41.60225000576
1.575e-07,24.1906249856,1.473987506816,41.55537500288
1.58e-07,24.1124999808,1.475550006912,41.55537500288
1.5850000000000002e-07,24.1124999808,1.473987506816,41.5866250048
1.59e-07,24.22187498752,1.4693000065280002,41.55537500288
1.5950000000000002e-07,24.36249999616,1.4677375064320002,41.52412500096
1.6e-07,24.47187500288,1.4693000065280002,41.5085
1.6050000000000001e-07,24.51875000576,1.470862506624,41.53975000192
1.61e-07,24.5031250048,1.470862506624,41.60225000576
1.615e-07,24.47187500288,1.47242500672,41.61787500672
1.6200000000000002e-07,24.48750000384,1.47242500672,41.64912500864
1.625e-07,24.45625000192,1.473987506816,41.60225000576
1.6300000000000002e-07,24.3468749952,1.477112507008,41.5866250048
1.635e-07,24.1906249856,1.473987506816,41.61787500672
1.64e-07,24.14374998272,1.47242500672,41.6647500096
1.645e-07,24.17499998464,1.473987506816,41.63350000768
1.65e-07,24.1906249856,1.47242500672,41.57100000384
1.6550000000000002e-07,24.22187498752,1.47242500672,41.49287499904
1.66e-07,24.23749998848,1.4693000065280002,41.44599999616
1.6650000000000002e-07,24.28437499136,1.4693000065280002,41.46162499712
1.67e-07,24.37812499712,1.47242500672,41.5085
1.675e-07,24.425,1.473987506816,41.5085
1.6800000000000002e-07,24.47187500288,1.47242500672,41.5085
1.685e-07,24.47187500288,1.470862506624,41.5085
1.6900000000000002e-07,24.47187500288,1.470862506624,41.5866250048
