!Keysight Technologies,E5063A,MY54100949,A.07.30
!Date: Wed Nov 26 00:36:48 2025
!Data & Calibration Information:
!Freq	S11:SOLT1(ON)
# Hz S RI R 50
50000.000	1.013425e+000	-9.383992e-003
51995.000	1.004985e+000	-1.026281e-002
53990.000	1.003539e+000	-9.703855e-003
55985.000	1.002657e+000	-1.037276e-002
57980.000	1.002424e+000	-1.056472e-002
59975.000	1.002025e+000	-1.119187e-002
61970.000	1.002107e+000	-1.162947e-002
63965.000	1.001947e+000	-1.195033e-002
65960.000	1.001789e+000	-1.245102e-002
67955.000	1.002795e+000	-1.317891e-002
69950.000	1.002362e+000	-1.341348e-002
71945.000	1.002322e+000	-1.400946e-002
73940.000	1.002252e+000	-1.444300e-002
75935.000	1.001836e+000	-1.506529e-002
77930.000	1.001944e+000	-1.535718e-002
79925.000	1.001583e+000	-1.573135e-002
81920.000	1.001620e+000	-1.635613e-002
83915.000	1.001933e+000	-1.654934e-002
85910.000	1.001844e+000	-1.692824e-002
87905.000	1.001715e+000	-1.727496e-002
89900.000	1.001888e+000	-1.795358e-002
91895.000	1.001853e+000	-1.853352e-002
93890.000	1.001719e+000	-1.870058e-002
95885.000	1.001900e+000	-1.920943e-002
97880.000	1.001736e+000	-1.971131e-002
99875.000	1.002103e+000	-1.983762e-002
101870.000	1.001773e+000	-2.054682e-002
103865.000	1.001852e+000	-2.085169e-002
105860.000	1.001950e+000	-2.136591e-002
107855.000	1.001751e+000	-2.160783e-002
109850.000	1.001401e+000	-2.213063e-002
111845.000	1.001433e+000	-2.273860e-002
113840.000	1.001974e+000	-2.297000e-002
115835.000	1.001604e+000	-2.348095e-002
117830.000	1.001470e+000	-2.371295e-002
119825.000	1.001620e+000	-2.425730e-002
121820.000	1.001701e+000	-2.444987e-002
123815.000	1.001573e+000	-2.486751e-002
125810.000	1.001562e+000	-2.524775e-002
127805.000	1.001485e+000	-2.579452e-002
129800.000	1.001493e+000	-2.609851e-002
131795.000	1.001424e+000	-2.658458e-002
133790.000	1.001977e+000	-2.701123e-002
135785.000	1.001760e+000	-2.741654e-002
137780.000	1.001795e+000	-2.801816e-002
139775.000	1.001657e+000	-2.813116e-002
141770.000	1.001652e+000	-2.842452e-002
143765.000	1.001738e+000	-2.875679e-002
145760.000	1.001392e+000	-2.939851e-002
147755.000	1.001437e+000	-2.975776e-002
149750.000	1.001336e+000	-3.014425e-002
151745.000	1.001144e+000	-3.040999e-002
153740.000	1.001182e+000	-3.080247e-002
155735.000	1.001081e+000	-3.118507e-002
157730.000	1.001330e+000	-3.146636e-002
159725.000	1.001359e+000	-3.195989e-002
161720.000	1.001171e+000	-3.231872e-002
163715.000	1.001066e+000	-3.271194e-002
165710.000	1.001172e+000	-3.325342e-002
167705.000	1.001303e+000	-3.338442e-002
169700.000	1.001341e+000	-3.392294e-002
171695.000	1.001055e+000	-3.412557e-002
173690.000	1.001155e+000	-3.458385e-002
175685.000	1.001303e+000	-3.489619e-002
177680.000	1.001305e+000	-3.519688e-002
179675.000	1.001228e+000	-3.565964e-002
181670.000	1.001102e+000	-3.613236e-002
183665.000	1.001133e+000	-3.648516e-002
185660.000	1.001116e+000	-3.711565e-002
187655.000	1.001119e+000	-3.726476e-002
189650.000	1.000899e+000	-3.752711e-002
191645.000	1.001068e+000	-3.808669e-002
193640.000	1.000813e+000	-3.859846e-002
195635.000	1.001131e+000	-3.893286e-002
197630.000	1.000871e+000	-3.908659e-002
199625.000	1.001168e+000	-3.955904e-002
201620.000	1.001357e+000	-4.001500e-002
203615.000	1.001154e+000	-4.041211e-002
205610.000	1.001186e+000	-4.103047e-002
207605.000	1.001014e+000	-4.111802e-002
209600.000	1.000944e+000	-4.147789e-002
211595.000	1.000966e+000	-4.200284e-002
213590.000	1.001092e+000	-4.230189e-002
215585.000	1.000770e+000	-4.267569e-002
217580.000	1.000965e+000	-4.309295e-002
219575.000	1.000969e+000	-4.347575e-002
221570.000	1.001011e+000	-4.398535e-002
223565.000	1.000806e+000	-4.410339e-002
225560.000	1.000775e+000	-4.494092e-002
227555.000	1.000684e+000	-4.505135e-002
229550.000	1.000701e+000	-4.531561e-002
231545.000	1.000898e+000	-4.551519e-002
233540.000	1.000677e+000	-4.605072e-002
235535.000	1.000566e+000	-4.653392e-002
237530.000	1.000660e+000	-4.706969e-002
239525.000	1.000434e+000	-4.753979e-002
241520.000	1.000656e+000	-4.778448e-002
243515.000	1.000547e+000	-4.807175e-002
245510.000	1.000521e+000	-4.831899e-002
247505.000	1.000557e+000	-4.885292e-002
249500.000	1.000509e+000	-4.929829e-002
251495.000	1.000498e+000	-4.955911e-002
253490.000	1.000319e+000	-5.006317e-002
255485.000	1.000311e+000	-5.044470e-002
257480.000	1.000263e+000	-5.066500e-002
259475.000	1.000291e+000	-5.109425e-002
261470.000	1.000433e+000	-5.160639e-002
263465.000	1.000448e+000	-5.200070e-002
265460.000	1.000587e+000	-5.238530e-002
267455.000	1.000529e+000	-5.280996e-002
269450.000	1.000553e+000	-5.316541e-002
271445.000	1.000458e+000	-5.355387e-002
273440.000	1.000431e+000	-5.368312e-002
275435.000	1.000383e+000	-5.433270e-002
277430.000	1.000360e+000	-5.474549e-002
279425.000	1.000318e+000	-5.502021e-002
281420.000	1.000274e+000	-5.536962e-002
283415.000	1.000243e+000	-5.588482e-002
285410.000	1.000153e+000	-5.631296e-002
287405.000	1.000212e+000	-5.653244e-002
289400.000	1.000078e+000	-5.707306e-002
291395.000	1.000012e+000	-5.736278e-002
293390.000	1.000077e+000	-5.773220e-002
295385.000	1.000104e+000	-5.806561e-002
297380.000	1.000194e+000	-5.850372e-002
299375.000	9.998841e-001	-5.910941e-002
301370.000	9.998609e-001	-5.954042e-002
303365.000	9.997261e-001	-5.959410e-002
305360.000	9.998719e-001	-6.010833e-002
307355.000	1.000052e+000	-6.051949e-002
309350.000	9.999098e-001	-6.093100e-002
311345.000	1.000001e+000	-6.120100e-002
313340.000	9.998104e-001	-6.160698e-002
315335.000	9.996401e-001	-6.197135e-002
317330.000	9.995987e-001	-6.241666e-002
319325.000	9.999061e-001	-6.280026e-002
321320.000	9.997467e-001	-6.330685e-002
323315.000	9.995350e-001	-6.357918e-002
325310.000	9.995030e-001	-6.393616e-002
327305.000	9.997847e-001	-6.422885e-002
329300.000	9.996822e-001	-6.459841e-002
331295.000	9.995930e-001	-6.499245e-002
333290.000	9.994616e-001	-6.559474e-002
335285.000	9.993844e-001	-6.598702e-002
337280.000	9.994258e-001	-6.626835e-002
339275.000	9.993260e-001	-6.667868e-002
341270.000	9.993604e-001	-6.673603e-002
343265.000	9.991086e-001	-6.763745e-002
345260.000	9.989691e-001	-6.790262e-002
347255.000	9.991990e-001	-6.837414e-002
349250.000	9.993381e-001	-6.859398e-002
351245.000	9.992208e-001	-6.905577e-002
353240.000	9.993449e-001	-6.943278e-002
355235.000	9.992810e-001	-6.976312e-002
357230.000	9.989906e-001	-7.006422e-002
359225.000	9.990967e-001	-7.067235e-002
361220.000	9.993490e-001	-7.105357e-002
363215.000	9.992820e-001	-7.137892e-002
365210.000	9.991276e-001	-7.171588e-002
367205.000	9.989107e-001	-7.202271e-002
369200.000	9.990481e-001	-7.247933e-002
371195.000	9.990833e-001	-7.292071e-002
373190.000	9.988669e-001	-7.326475e-002
375185.000	9.988621e-001	-7.349381e-002
377180.000	9.989176e-001	-7.398022e-002
379175.000	9.988757e-001	-7.452475e-002
381170.000	9.988087e-001	-7.479997e-002
383165.000	9.987795e-001	-7.523604e-002
385160.000	9.988133e-001	-7.562404e-002
387155.000	9.987236e-001	-7.591191e-002
389150.000	9.988865e-001	-7.646214e-002
391145.000	9.987908e-001	-7.676016e-002
393140.000	9.986899e-001	-7.726351e-002
395135.000	9.985037e-001	-7.770518e-002
397130.000	9.986629e-001	-7.802671e-002
399125.000	9.986443e-001	-7.842312e-002
401120.000	9.989145e-001	-7.886278e-002
403115.000	9.989072e-001	-7.916919e-002
405110.000	9.986767e-001	-7.952042e-002
407105.000	9.987815e-001	-8.000824e-002
409100.000	9.983811e-001	-8.043688e-002
411095.000	9.986253e-001	-8.071719e-002
413090.000	9.985112e-001	-8.099151e-002
415085.000	9.984873e-001	-8.169187e-002
417080.000	9.983603e-001	-8.194456e-002
419075.000	9.983662e-001	-8.221500e-002
421070.000	9.983857e-001	-8.269226e-002
423065.000	9.981891e-001	-8.303443e-002
425060.000	9.981749e-001	-8.350295e-002
427055.000	9.983413e-001	-8.377460e-002
429050.000	9.981261e-001	-8.427931e-002
431045.000	9.980924e-001	-8.473145e-002
433040.000	9.980459e-001	-8.511231e-002
435035.000	9.980284e-001	-8.538870e-002
437030.000	9.979316e-001	-8.569349e-002
439025.000	9.978924e-001	-8.631323e-002
441020.000	9.979333e-001	-8.661615e-002
443015.000	9.978004e-001	-8.702849e-002
445010.000	9.979080e-001	-8.735055e-002
447005.000	9.978844e-001	-8.759563e-002
449000.000	9.978264e-001	-8.800798e-002
450995.000	9.976759e-001	-8.860917e-002
452990.000	9.977957e-001	-8.891106e-002
454985.000	9.977414e-001	-8.923908e-002
456980.000	9.976501e-001	-8.955971e-002
458975.000	9.976514e-001	-9.021298e-002
460970.000	9.975473e-001	-9.043042e-002
462965.000	9.976542e-001	-9.083552e-002
464960.000	9.973710e-001	-9.117537e-002
466955.000	9.973921e-001	-9.149393e-002
468950.000	9.974654e-001	-9.199204e-002
470945.000	9.974094e-001	-9.216714e-002
472940.000	9.974970e-001	-9.287323e-002
474935.000	9.973785e-001	-9.319491e-002
476930.000	9.972645e-001	-9.339779e-002
478925.000	9.971824e-001	-9.398261e-002
480920.000	9.970945e-001	-9.426190e-002
482915.000	9.972450e-001	-9.477919e-002
484910.000	9.969553e-001	-9.516971e-002
486905.000	9.970869e-001	-9.538971e-002
488900.000	9.968686e-001	-9.590142e-002
490895.000	9.971576e-001	-9.637892e-002
492890.000	9.969612e-001	-9.660800e-002
494885.000	9.967812e-001	-9.700230e-002
496880.000	9.969220e-001	-9.746966e-002
498875.000	9.969248e-001	-9.782790e-002
500870.000	9.970042e-001	-9.821249e-002
502865.000	9.967376e-001	-9.869550e-002
504860.000	9.965234e-001	-9.915049e-002
506855.000	9.966434e-001	-9.928210e-002
508850.000	9.967016e-001	-9.981478e-002
510845.000	9.966401e-001	-1.001522e-001
512840.000	9.965615e-001	-1.005757e-001
514835.000	9.963349e-001	-1.007033e-001
516830.000	9.963867e-001	-1.013234e-001
518825.000	9.964892e-001	-1.016766e-001
520820.000	9.963835e-001	-1.020673e-001
522815.000	9.962531e-001	-1.023494e-001
524810.000	9.964548e-001	-1.028555e-001
526805.000	9.964526e-001	-1.031155e-001
528800.000	9.960846e-001	-1.035556e-001
530795.000	9.966785e-001	-1.039763e-001
532790.000	9.963430e-001	-1.044499e-001
534785.000	9.964256e-001	-1.048672e-001
536780.000	9.962885e-001	-1.053258e-001
538775.000	9.962053e-001	-1.056662e-001
540770.000	9.961042e-001	-1.060558e-001
542765.000	9.961087e-001	-1.064210e-001
544760.000	9.959918e-001	-1.066441e-001
546755.000	9.960907e-001	-1.070865e-001
548750.000	9.960344e-001	-1.076289e-001
550745.000	9.958891e-001	-1.079419e-001
552740.000	9.956349e-001	-1.082704e-001
554735.000	9.958054e-001	-1.086084e-001
556730.000	9.956152e-001	-1.089843e-001
558725.000	9.956888e-001	-1.095504e-001
560720.000	9.956078e-001	-1.099290e-001
562715.000	9.955596e-001	-1.103223e-001
564710.000	9.955569e-001	-1.106618e-001
566705.000	9.955132e-001	-1.110061e-001
568700.000	9.954312e-001	-1.113913e-001
570695.000	9.955237e-001	-1.118627e-001
572690.000	9.953316e-001	-1.121763e-001
574685.000	9.953110e-001	-1.125666e-001
576680.000	9.951084e-001	-1.129380e-001
578675.000	9.949715e-001	-1.133327e-001
580670.000	9.951572e-001	-1.138174e-001
582665.000	9.950313e-001	-1.141997e-001
584660.000	9.951558e-001	-1.145153e-001
586655.000	9.946988e-001	-1.147410e-001
588650.000	9.950217e-001	-1.151907e-001
590645.000	9.948803e-001	-1.155617e-001
592640.000	9.949723e-001	-1.159823e-001
594635.000	9.947521e-001	-1.164518e-001
596630.000	9.946212e-001	-1.167357e-001
598625.000	9.948227e-001	-1.171259e-001
600620.000	9.946455e-001	-1.178023e-001
602615.000	9.945409e-001	-1.179043e-001
604610.000	9.946920e-001	-1.182997e-001
606605.000	9.946275e-001	-1.187129e-001
608600.000	9.944604e-001	-1.192501e-001
610595.000	9.945393e-001	-1.195130e-001
612590.000	9.942702e-001	-1.201324e-001
614585.000	9.942722e-001	-1.205591e-001
616580.000	9.942732e-001	-1.208241e-001
618575.000	9.942577e-001	-1.210470e-001
620570.000	9.941556e-001	-1.215178e-001
622565.000	9.940986e-001	-1.218636e-001
624560.000	9.940433e-001	-1.223798e-001
626555.000	9.939510e-001	-1.226073e-001
628550.000	9.941486e-001	-1.229979e-001
630545.000	9.939338e-001	-1.234536e-001
632540.000	9.939360e-001	-1.237508e-001
634535.000	9.937921e-001	-1.243814e-001
636530.000	9.938377e-001	-1.245545e-001
638525.000	9.935993e-001	-1.249347e-001
640520.000	9.942466e-001	-1.254664e-001
642515.000	9.938402e-001	-1.258229e-001
644510.000	9.939935e-001	-1.262760e-001
646505.000	9.937428e-001	-1.263963e-001
648500.000	9.937961e-001	-1.269989e-001
650495.000	9.934733e-001	-1.271917e-001
652490.000	9.938734e-001	-1.277894e-001
654485.000	9.934791e-001	-1.282613e-001
656480.000	9.934445e-001	-1.284432e-001
658475.000	9.932692e-001	-1.290051e-001
660470.000	9.932681e-001	-1.291799e-001
662465.000	9.932533e-001	-1.293254e-001
664460.000	9.933286e-001	-1.299439e-001
666455.000	9.929778e-001	-1.303575e-001
668450.000	9.931423e-001	-1.307692e-001
670445.000	9.930815e-001	-1.310811e-001
672440.000	9.929877e-001	-1.315628e-001
674435.000	9.929175e-001	-1.319625e-001
676430.000	9.928626e-001	-1.322674e-001
678425.000	9.928981e-001	-1.326046e-001
680420.000	9.928029e-001	-1.330955e-001
682415.000	9.927102e-001	-1.333799e-001
684410.000	9.925518e-001	-1.337935e-001
686405.000	9.926193e-001	-1.340473e-001
688400.000	9.925104e-001	-1.346054e-001
690395.000	9.924905e-001	-1.350769e-001
692390.000	9.925811e-001	-1.352087e-001
694385.000	9.924916e-001	-1.356586e-001
696380.000	9.923956e-001	-1.360430e-001
698375.000	9.921788e-001	-1.365800e-001
700370.000	9.921882e-001	-1.369599e-001
702365.000	9.921074e-001	-1.373932e-001
704360.000	9.921675e-001	-1.377020e-001
706355.000	9.921314e-001	-1.381816e-001
708350.000	9.919579e-001	-1.384377e-001
710345.000	9.920678e-001	-1.387980e-001
712340.000	9.919962e-001	-1.394461e-001
714335.000	9.919188e-001	-1.394726e-001
716330.000	9.917874e-001	-1.400424e-001
718325.000	9.916859e-001	-1.404495e-001
720320.000	9.915638e-001	-1.407110e-001
722315.000	9.916162e-001	-1.410854e-001
724310.000	9.915065e-001	-1.415274e-001
726305.000	9.914454e-001	-1.421112e-001
728300.000	9.913193e-001	-1.424090e-001
730295.000	9.913086e-001	-1.426732e-001
732290.000	9.913854e-001	-1.430473e-001
734285.000	9.912765e-001	-1.436581e-001
736280.000	9.913861e-001	-1.438152e-001
738275.000	9.912408e-001	-1.441981e-001
740270.000	9.911791e-001	-1.446040e-001
742265.000	9.911122e-001	-1.450819e-001
744260.000	9.910206e-001	-1.454365e-001
746255.000	9.910109e-001	-1.457684e-001
748250.000	9.907783e-001	-1.462585e-001
750245.000	9.911410e-001	-1.466311e-001
752240.000	9.910640e-001	-1.470420e-001
754235.000	9.910045e-001	-1.472057e-001
756230.000	9.910155e-001	-1.478335e-001
758225.000	9.907244e-001	-1.483898e-001
760220.000	9.906989e-001	-1.486959e-001
762215.000	9.907142e-001	-1.489278e-001
764210.000	9.905508e-001	-1.493806e-001
766205.000	9.905046e-001	-1.496798e-001
768200.000	9.904524e-001	-1.500405e-001
770195.000	9.904279e-001	-1.504252e-001
772190.000	9.901134e-001	-1.507970e-001
774185.000	9.902175e-001	-1.510145e-001
776180.000	9.902205e-001	-1.516807e-001
778175.000	9.902134e-001	-1.520135e-001
780170.000	9.901424e-001	-1.522608e-001
782165.000	9.899559e-001	-1.527272e-001
784160.000	9.898211e-001	-1.530530e-001
786155.000	9.898400e-001	-1.534486e-001
788150.000	9.896931e-001	-1.537853e-001
790145.000	9.895790e-001	-1.543298e-001
792140.000	9.895441e-001	-1.545853e-001
794135.000	9.895087e-001	-1.550889e-001
796130.000	9.894464e-001	-1.554144e-001
798125.000	9.894233e-001	-1.557731e-001
800120.000	9.892925e-001	-1.561720e-001
802115.000	9.893093e-001	-1.568137e-001
804110.000	9.891490e-001	-1.570020e-001
806105.000	9.890771e-001	-1.574109e-001
808100.000	9.890786e-001	-1.577372e-001
810095.000	9.890365e-001	-1.581413e-001
812090.000	9.891321e-001	-1.583913e-001
814085.000	9.887779e-001	-1.589525e-001
816080.000	9.887280e-001	-1.593908e-001
818075.000	9.888068e-001	-1.597014e-001
820070.000	9.887473e-001	-1.598770e-001
822065.000	9.886292e-001	-1.603854e-001
824060.000	9.885813e-001	-1.608630e-001
826055.000	9.886127e-001	-1.612752e-001
828050.000	9.884872e-001	-1.615952e-001
830045.000	9.884670e-001	-1.620400e-001
832040.000	9.884537e-001	-1.622620e-001
834035.000	9.882897e-001	-1.625695e-001
836030.000	9.882871e-001	-1.631289e-001
838025.000	9.881778e-001	-1.634508e-001
840020.000	9.881190e-001	-1.638343e-001
842015.000	9.880514e-001	-1.642258e-001
844010.000	9.881236e-001	-1.646347e-001
846005.000	9.879156e-001	-1.651675e-001
848000.000	9.878300e-001	-1.652916e-001
849995.000	9.879165e-001	-1.659003e-001
851990.000	9.881513e-001	-1.662985e-001
853985.000	9.882454e-001	-1.665259e-001
855980.000	9.879345e-001	-1.669700e-001
857975.000	9.877746e-001	-1.673677e-001
859970.000	9.877106e-001	-1.677484e-001
861965.000	9.875248e-001	-1.679254e-001
863960.000	9.874200e-001	-1.685844e-001
865955.000	9.874545e-001	-1.689068e-001
867950.000	9.875069e-001	-1.693571e-001
869945.000	9.873337e-001	-1.696075e-001
871940.000	9.871379e-001	-1.699951e-001
873935.000	9.870654e-001	-1.704319e-001
875930.000	9.869704e-001	-1.709086e-001
877925.000	9.868182e-001	-1.711396e-001
879920.000	9.867455e-001	-1.715792e-001
881915.000	9.868097e-001	-1.718386e-001
883910.000	9.866572e-001	-1.723991e-001
885905.000	9.866852e-001	-1.727231e-001
887900.000	9.865772e-001	-1.729989e-001
889895.000	9.865297e-001	-1.734344e-001
891890.000	9.865699e-001	-1.737979e-001
893885.000	9.864688e-001	-1.744230e-001
895880.000	9.862651e-001	-1.744919e-001
897875.000	9.863529e-001	-1.749345e-001
899870.000	9.861074e-001	-1.752296e-001
901865.000	9.860487e-001	-1.755974e-001
903860.000	9.862198e-001	-1.760852e-001
905855.000	9.858817e-001	-1.765259e-001
907850.000	9.858813e-001	-1.768613e-001
909845.000	9.857177e-001	-1.772012e-001
911840.000	9.857882e-001	-1.776082e-001
913835.000	9.857065e-001	-1.781523e-001
915830.000	9.856550e-001	-1.784909e-001
917825.000	9.855082e-001	-1.787896e-001
919820.000	9.854361e-001	-1.791783e-001
921815.000	9.854513e-001	-1.795706e-001
923810.000	9.853192e-001	-1.800432e-001
925805.000	9.850806e-001	-1.805821e-001
927800.000	9.853307e-001	-1.806863e-001
929795.000	9.852709e-001	-1.809436e-001
931790.000	9.852263e-001	-1.814364e-001
933785.000	9.849507e-001	-1.819682e-001
935780.000	9.849369e-001	-1.822623e-001
937775.000	9.848341e-001	-1.825297e-001
939770.000	9.848367e-001	-1.829528e-001
941765.000	9.852570e-001	-1.835389e-001
943760.000	9.849952e-001	-1.838959e-001
945755.000	9.849189e-001	-1.841435e-001
947750.000	9.849264e-001	-1.844773e-001
949745.000	9.845442e-001	-1.847314e-001
951740.000	9.845148e-001	-1.853686e-001
953735.000	9.844588e-001	-1.858803e-001
955730.000	9.843469e-001	-1.861510e-001
957725.000	9.843231e-001	-1.864013e-001
959720.000	9.842602e-001	-1.869583e-001
961715.000	9.840173e-001	-1.872252e-001
963710.000	9.840091e-001	-1.875758e-001
965705.000	9.839471e-001	-1.881429e-001
967700.000	9.838203e-001	-1.883649e-001
969695.000	9.838353e-001	-1.886134e-001
971690.000	9.837625e-001	-1.891026e-001
973685.000	9.835904e-001	-1.893580e-001
975680.000	9.833171e-001	-1.900008e-001
977675.000	9.834087e-001	-1.903090e-001
979670.000	9.834044e-001	-1.907440e-001
981665.000	9.832107e-001	-1.910869e-001
983660.000	9.832403e-001	-1.915447e-001
985655.000	9.830809e-001	-1.916986e-001
987650.000	9.830167e-001	-1.922318e-001
989645.000	9.829342e-001	-1.926891e-001
991640.000	9.828837e-001	-1.927018e-001
993635.000	9.829203e-001	-1.932865e-001
995630.000	9.828400e-001	-1.938594e-001
997625.000	9.826712e-001	-1.941228e-001
999620.000	9.825114e-001	-1.945028e-001
1001615.000	9.825327e-001	-1.949953e-001
1003610.000	9.823916e-001	-1.951904e-001
1005605.000	9.824800e-001	-1.956333e-001
1007600.000	9.822705e-001	-1.960127e-001
1009595.000	9.821602e-001	-1.964944e-001
1011590.000	9.820576e-001	-1.968123e-001
1013585.000	9.819964e-001	-1.971299e-001
1015580.000	9.819994e-001	-1.974435e-001
1017575.000	9.818936e-001	-1.978267e-001
1019570.000	9.818440e-001	-1.982847e-001
1021565.000	9.816762e-001	-1.986762e-001
1023560.000	9.815740e-001	-1.989528e-001
1025555.000	9.816918e-001	-1.993769e-001
1027550.000	9.814538e-001	-1.998240e-001
1029545.000	9.813515e-001	-2.001730e-001
1031540.000	9.817771e-001	-2.007651e-001
1033535.000	9.816136e-001	-2.010637e-001
1035530.000	9.815151e-001	-2.015225e-001
1037525.000	9.812359e-001	-2.015926e-001
