Time (s),VIN,IIN,VOUT
0.0,24.9298750336,1.337124996736,39.193375006720004
5e-10,24.867375029759998,1.333999996544,39.14337501184
1e-09,24.789250024959998,1.330874996352,39.15275001088
1.5000000000000002e-09,24.867375029759998,1.330874996352,39.19962500608
2e-09,24.9298750336,1.332437496448,39.23400000256
2.5e-09,24.94550003456,1.333999996544,39.23400000256
3.0000000000000004e-09,24.851750028799998,1.332437496448,39.24025000192
3.5000000000000003e-09,24.789250024959998,1.332437496448,39.26837499904
4e-09,24.789250024959998,1.332437496448,39.31837499392
4.500000000000001e-09,24.851750028799998,1.329312496256,39.36524998912
5e-09,24.9298750336,1.330874996352,39.3683749888
5.5000000000000004e-09,24.883000030719998,1.332437496448,39.34024999168
6.000000000000001e-09,24.836125027839998,1.33556249664,39.32774999296
6.5e-09,24.804875025919998,1.338687496832,39.34024999168
7.000000000000001e-09,24.851750028799998,1.337124996736,39.355874990080004
7.500000000000001e-09,24.94550003456,1.340249996928,39.29962499584
8e-09,24.97675003648,1.340249996928,39.209000005120004
8.5e-09,24.9298750336,1.33556249664,39.1340000128
9.000000000000001e-09,24.820500026879998,1.33556249664,39.13087501312
9.5e-09,24.804875025919998,1.340249996928,39.177750008320004
1e-08,24.867375029759998,1.338687496832,39.19962500608
1.0500000000000001e-08,24.94550003456,1.33556249664,39.17462500864
1.1000000000000001e-08,24.91425003264,1.340249996928,39.13087501312
1.15e-08,24.867375029759998,1.338687496832,39.13087501312
1.2000000000000002e-08,24.789250024959998,1.333999996544,39.1965000064
1.2500000000000001e-08,24.789250024959998,1.332437496448,39.27149999872
1.3e-08,24.867375029759998,1.333999996544,39.3058749952
1.35e-08,24.9298750336,1.333999996544,39.2746249984
1.4000000000000001e-08,24.91425003264,1.333999996544,39.24962500096
1.45e-08,24.867375029759998,1.338687496832,39.26524999936
1.5000000000000002e-08,24.836125027839998,1.34337499712,39.32462499328
1.55e-08,24.851750028799998,1.344937497216,39.3683749888
1.6e-08,24.898625031679998,1.34337499712,39.3527499904
1.6500000000000002e-08,24.91425003264,1.341812497024,39.27149999872
1.7e-08,24.867375029759998,1.340249996928,39.193375006720004
1.75e-08,24.867375029759998,1.338687496832,39.16212500992
1.8000000000000002e-08,24.851750028799998,1.337124996736,39.18400000768
1.85e-08,24.883000030719998,1.337124996736,39.20275000576
1.9e-08,24.883000030719998,1.338687496832,39.1965000064
1.9500000000000003e-08,24.883000030719998,1.338687496832,39.16212500992
2e-08,24.851750028799998,1.338687496832,39.15275001088
2.05e-08,24.836125027839998,1.338687496832,39.18400000768
2.1000000000000003e-08,24.867375029759998,1.34337499712,39.24025000192
2.15e-08,24.867375029759998,1.346499997312,39.2746249984
2.2000000000000002e-08,24.867375029759998,1.34337499712,39.26524999936
2.2500000000000003e-08,24.867375029759998,1.340249996928,39.2277500032
2.3e-08,24.851750028799998,1.337124996736,39.22150000384
2.3500000000000002e-08,24.867375029759998,1.33556249664,39.259
2.4000000000000003e-08,24.883000030719998,1.33556249664,39.31837499392
2.45e-08,24.883000030719998,1.33556249664,39.32462499328
2.5000000000000002e-08,24.851750028799998,1.337124996736,39.28399999744
2.55e-08,24.867375029759998,1.337124996736,39.25275000064
2.6e-08,24.867375029759998,1.338687496832,39.259
2.6500000000000002e-08,24.867375029759998,1.338687496832,39.28399999744
2.7e-08,24.851750028799998,1.34337499712,39.29337499648
2.75e-08,24.851750028799998,1.34337499712,39.24025000192
2.8000000000000003e-08,24.867375029759998,1.340249996928,39.1496250112
2.85e-08,24.883000030719998,1.340249996928,39.08400001792
2.9e-08,24.883000030719998,1.338687496832,39.0871250176
2.9500000000000003e-08,24.851750028799998,1.340249996928,39.12775001344
3.0000000000000004e-08,24.804875025919998,1.340249996928,39.17462500864
3.05e-08,24.789250024959998,1.34337499712,39.19962500608
3.1e-08,24.851750028799998,1.344937497216,39.22150000384
3.1500000000000004e-08,24.91425003264,1.34337499712,39.25587500032
3.2e-08,24.91425003264,1.340249996928,39.31212499456
3.25e-08,24.820500026879998,1.337124996736,39.355874990080004
3.3000000000000004e-08,24.758000023039997,1.337124996736,39.36524998912
3.35e-08,24.820500026879998,1.340249996928,39.34649999104
3.4e-08,24.883000030719998,1.34337499712,39.3214999936
3.4500000000000005e-08,24.9298750336,1.34337499712,39.28399999744
3.5e-08,24.883000030719998,1.344937497216,39.25275000064
3.55e-08,24.804875025919998,1.346499997312,39.193375006720004
3.6000000000000005e-08,24.773625023999998,1.344937497216,39.13087501312
3.65e-08,24.789250024959998,1.341812497024,39.09337501696
3.7e-08,24.867375029759998,1.341812497024,39.09025001728
3.7500000000000005e-08,24.898625031679998,1.341812497024,39.12150001408
3.8e-08,24.883000030719998,1.338687496832,39.1652500096
3.85e-08,24.804875025919998,1.340249996928,39.19962500608
3.9000000000000005e-08,24.758000023039997,1.341812497024,39.21525000448
3.95e-08,24.758000023039997,1.344937497216,39.23400000256
4e-08,24.836125027839998,1.34337499712,39.27774999808
4.0500000000000005e-08,24.898625031679998,1.344937497216,39.32462499328
4.1e-08,24.883000030719998,1.346499997312,39.337124992
4.15e-08,24.820500026879998,1.348062497408,39.3058749952
4.2000000000000006e-08,24.773625023999998,1.344937497216,39.26212499968
4.2500000000000003e-08,24.804875025919998,1.341812497024,39.25587500032
4.3e-08,24.836125027839998,1.344937497216,39.28712499712
4.3500000000000006e-08,24.867375029759998,1.34337499712,39.29337499648
4.4000000000000004e-08,24.836125027839998,1.341812497024,39.23087500288
4.45e-08,24.758000023039997,1.340249996928,39.14650001152
4.5000000000000006e-08,24.758000023039997,1.341812497024,39.10900001536
4.5500000000000004e-08,24.836125027839998,1.340249996928,39.1340000128
4.6e-08,24.898625031679998,1.338687496832,39.18400000768
4.6500000000000006e-08,24.867375029759998,1.33556249664,39.1965000064
4.7000000000000004e-08,24.758000023039997,1.33556249664,39.16837500928
4.75e-08,24.6955000192,1.337124996736,39.14650001152
4.8000000000000006e-08,24.773625023999998,1.338687496832,39.18712500736
4.8500000000000004e-08,24.898625031679998,1.341812497024,39.25587500032
4.9e-08,24.91425003264,1.34337499712,39.31212499456
4.95e-08,24.867375029759998,1.346499997312,39.31524999424
5.0000000000000004e-08,24.758000023039997,1.344937497216,39.28399999744
5.05e-08,24.758000023039997,1.34337499712,39.26837499904
5.1e-08,24.836125027839998,1.34337499712,39.28399999744
5.1500000000000005e-08,24.898625031679998,1.34337499712,39.28712499712
5.2e-08,24.883000030719998,1.340249996928,39.24650000128
5.25e-08,24.789250024959998,1.338687496832,39.180875008
5.3000000000000005e-08,24.758000023039997,1.340249996928,39.1496250112
5.35e-08,24.758000023039997,1.340249996928,39.1652500096
5.4e-08,24.836125027839998,1.34337499712,39.193375006720004
5.4500000000000005e-08,24.851750028799998,1.34337499712,39.180875008
5.5e-08,24.820500026879998,1.34337499712,39.14337501184
5.55e-08,24.758000023039997,1.344937497216,39.1183750144
5.6000000000000005e-08,24.758000023039997,1.346499997312,39.17462500864
5.65e-08,24.820500026879998,1.34337499712,39.259
5.7e-08,24.867375029759998,1.34337499712,39.29649999616
5.7500000000000005e-08,24.883000030719998,1.346499997312,39.25275000064
5.8e-08,24.820500026879998,1.344937497216,39.1965000064
5.85e-08,24.804875025919998,1.344937497216,39.20275000576
5.9000000000000006e-08,24.789250024959998,1.348062497408,39.27149999872
5.9500000000000003e-08,24.820500026879998,1.348062497408,39.31837499392
6.000000000000001e-08,24.836125027839998,1.346499997312,39.29337499648
6.05e-08,24.820500026879998,1.34337499712,39.23400000256
6.1e-08,24.804875025919998,1.340249996928,39.209000005120004
6.15e-08,24.804875025919998,1.341812497024,39.23400000256
6.2e-08,24.836125027839998,1.346499997312,39.24962500096
6.250000000000001e-08,24.851750028799998,1.344937497216,39.19962500608
6.300000000000001e-08,24.836125027839998,1.34337499712,39.13712501248
6.35e-08,24.836125027839998,1.341812497024,39.09962501632
6.4e-08,24.836125027839998,1.341812497024,39.13087501312
6.45e-08,24.851750028799998,1.340249996928,39.180875008
6.5e-08,24.820500026879998,1.341812497024,39.20275000576
6.55e-08,24.820500026879998,1.344937497216,39.1965000064
6.600000000000001e-08,24.789250024959998,1.341812497024,39.19025000704
6.65e-08,24.804875025919998,1.338687496832,39.22150000384
6.7e-08,24.804875025919998,1.340249996928,39.28399999744
6.75e-08,24.820500026879998,1.341812497024,39.34024999168
6.8e-08,24.820500026879998,1.344937497216,39.34962499072
6.85e-08,24.820500026879998,1.34337499712,39.32462499328
6.900000000000001e-08,24.820500026879998,1.341812497024,39.26524999936
6.950000000000001e-08,24.820500026879998,1.341812497024,39.2121250048
7e-08,24.836125027839998,1.34337499712,39.18712500736
7.05e-08,24.836125027839998,1.34337499712,39.18712500736
7.1e-08,24.820500026879998,1.344937497216,39.19025000704
7.15e-08,24.789250024959998,1.34337499712,39.17150000896
7.200000000000001e-08,24.773625023999998,1.341812497024,39.15275001088
7.250000000000001e-08,24.820500026879998,1.341812497024,39.1652500096
7.3e-08,24.820500026879998,1.341812497024,39.2277500032
7.35e-08,24.836125027839998,1.34337499712,39.29649999616
7.4e-08,24.804875025919998,1.341812497024,39.34024999168
7.45e-08,24.804875025919998,1.340249996928,39.33087499264
7.500000000000001e-08,24.773625023999998,1.341812497024,39.31524999424
7.550000000000001e-08,24.836125027839998,1.341812497024,39.31524999424
7.6e-08,24.851750028799998,1.341812497024,39.31212499456
7.65e-08,24.836125027839998,1.341812497024,39.28399999744
7.7e-08,24.820500026879998,1.341812497024,39.22150000384
7.75e-08,24.804875025919998,1.34337499712,39.1496250112
7.800000000000001e-08,24.836125027839998,1.34337499712,39.12775001344
7.850000000000001e-08,24.836125027839998,1.341812497024,39.177750008320004
7.9e-08,24.851750028799998,1.340249996928,39.26837499904
7.95e-08,24.851750028799998,1.341812497024,39.33399999232
8e-08,24.804875025919998,1.340249996928,39.355874990080004
8.05e-08,24.804875025919998,1.341812497024,39.355874990080004
8.100000000000001e-08,24.820500026879998,1.341812497024,39.355874990080004
8.150000000000001e-08,24.898625031679998,1.341812497024,39.34962499072
8.2e-08,24.898625031679998,1.340249996928,39.31837499392
8.25e-08,24.836125027839998,1.338687496832,39.26212499968
8.3e-08,24.742375022079997,1.34337499712,39.22462500352
8.35e-08,24.758000023039997,1.344937497216,39.1965000064
8.400000000000001e-08,24.836125027839998,1.341812497024,39.177750008320004
8.450000000000001e-08,24.883000030719998,1.341812497024,39.15275001088
8.500000000000001e-08,24.851750028799998,1.340249996928,39.14025001216
8.55e-08,24.789250024959998,1.340249996928,39.15275001088
8.6e-08,24.773625023999998,1.340249996928,39.193375006720004
8.65e-08,24.820500026879998,1.340249996928,39.23087500288
8.700000000000001e-08,24.867375029759998,1.340249996928,39.23712500224
8.750000000000001e-08,24.867375029759998,1.340249996928,39.21525000448
8.800000000000001e-08,24.836125027839998,1.338687496832,39.23400000256
8.85e-08,24.820500026879998,1.337124996736,39.28712499712
8.9e-08,24.804875025919998,1.337124996736,39.33399999232
8.95e-08,24.820500026879998,1.340249996928,39.31212499456
9.000000000000001e-08,24.804875025919998,1.340249996928,39.24650000128
9.050000000000001e-08,24.804875025919998,1.338687496832,39.19962500608
9.100000000000001e-08,24.804875025919998,1.34337499712,39.22462500352
9.15e-08,24.820500026879998,1.346499997312,39.28712499712
9.2e-08,24.804875025919998,1.346499997312,39.3214999936
9.25e-08,24.836125027839998,1.341812497024,39.2902499968
9.300000000000001e-08,24.851750028799998,1.341812497024,39.23087500288
9.350000000000001e-08,24.836125027839998,1.340249996928,39.209000005120004
9.400000000000001e-08,24.836125027839998,1.338687496832,39.23712500224
9.45e-08,24.820500026879998,1.337124996736,39.24650000128
9.5e-08,24.820500026879998,1.337124996736,39.21525000448
9.55e-08,24.820500026879998,1.337124996736,39.14025001216
9.600000000000001e-08,24.836125027839998,1.337124996736,39.09962501632
9.650000000000001e-08,24.851750028799998,1.332437496448,39.12775001344
9.700000000000001e-08,24.836125027839998,1.333999996544,39.2121250048
9.75e-08,24.820500026879998,1.340249996928,39.28399999744
9.8e-08,24.820500026879998,1.341812497024,39.29962499584
9.85e-08,24.836125027839998,1.337124996736,39.25275000064
9.9e-08,24.851750028799998,1.338687496832,39.23087500288
9.950000000000001e-08,24.836125027839998,1.340249996928,39.25587500032
1.0000000000000001e-07,24.836125027839998,1.340249996928,39.30899999488
1.005e-07,24.820500026879998,1.340249996928,39.34337499136
1.01e-07,24.836125027839998,1.337124996736,39.31837499392
1.015e-07,24.836125027839998,1.337124996736,39.24962500096
1.02e-07,24.867375029759998,1.338687496832,39.209000005120004
1.0250000000000001e-07,24.883000030719998,1.338687496832,39.21525000448
1.0300000000000001e-07,24.898625031679998,1.337124996736,39.24962500096
1.0350000000000001e-07,24.867375029759998,1.337124996736,39.23087500288
1.04e-07,24.804875025919998,1.337124996736,39.180875008
1.045e-07,24.789250024959998,1.340249996928,39.12775001344
1.05e-07,24.773625023999998,1.340249996928,39.1183750144
1.0550000000000001e-07,24.758000023039997,1.337124996736,39.15587501056
1.0600000000000001e-07,24.804875025919998,1.337124996736,39.19962500608
1.0650000000000001e-07,24.898625031679998,1.337124996736,39.21837500416
1.07e-07,24.97675003648,1.338687496832,39.21525000448
1.075e-07,24.96112503552,1.337124996736,39.21525000448
1.08e-07,24.867375029759998,1.337124996736,39.24025000192
1.0850000000000001e-07,24.742375022079997,1.338687496832,39.2902499968
1.0900000000000001e-07,24.6955000192,1.33556249664,39.33087499264
1.0950000000000001e-07,24.758000023039997,1.33556249664,39.32774999296
1.1e-07,24.94550003456,1.333999996544,39.30899999488
1.105e-07,25.0861250432,1.332437496448,39.28712499712
1.11e-07,25.02362503936,1.330874996352,39.27774999808
1.1150000000000001e-07,24.820500026879998,1.332437496448,39.2433750016
1.1200000000000001e-07,24.64862501632,1.337124996736,39.19962500608
1.1250000000000001e-07,24.67987501824,1.337124996736,39.15900001024
1.13e-07,24.898625031679998,1.338687496832,39.13712501248
1.135e-07,25.0861250432,1.338687496832,39.12150001408
1.14e-07,25.0861250432,1.337124996736,39.1183750144
1.1450000000000001e-07,24.851750028799998,1.337124996736,39.14650001152
1.1500000000000001e-07,24.63300001536,1.338687496832,39.209000005120004
1.1550000000000001e-07,24.67987501824,1.337124996736,39.25587500032
1.16e-07,24.898625031679998,1.337124996736,39.2746249984
1.165e-07,25.10175004416,1.33556249664,39.259
1.17e-07,25.10175004416,1.333999996544,39.23087500288
1.1750000000000001e-07,24.851750028799998,1.332437496448,39.22150000384
1.1800000000000001e-07,24.64862501632,1.32774999616,39.25275000064
1.1850000000000001e-07,24.6955000192,1.330874996352,39.29962499584
1.1900000000000001e-07,24.91425003264,1.332437496448,39.32462499328
1.195e-07,25.07050004224,1.33556249664,39.26837499904
1.2000000000000002e-07,25.0080000384,1.337124996736,39.19025000704
1.205e-07,24.820500026879998,1.332437496448,39.15900001024
1.21e-07,24.6955000192,1.329312496256,39.21525000448
1.215e-07,24.804875025919998,1.332437496448,39.28399999744
1.22e-07,24.97675003648,1.333999996544,39.2746249984
1.2250000000000002e-07,25.02362503936,1.330874996352,39.19025000704
1.23e-07,24.91425003264,1.330874996352,39.11212501504
1.2350000000000001e-07,24.820500026879998,1.329312496256,39.09650001664
1.24e-07,24.820500026879998,1.329312496256,39.15275001088
1.245e-07,24.898625031679998,1.329312496256,39.2121250048
1.2500000000000002e-07,24.96112503552,1.333999996544,39.21525000448
1.255e-07,24.898625031679998,1.338687496832,39.16837500928
1.2600000000000002e-07,24.804875025919998,1.33556249664,39.14025001216
1.265e-07,24.789250024959998,1.333999996544,39.18712500736
1.27e-07,24.898625031679998,1.333999996544,39.27774999808
1.275e-07,24.96112503552,1.338687496832,39.32462499328
1.28e-07,24.91425003264,1.338687496832,39.30274999552
1.2850000000000002e-07,24.820500026879998,1.33556249664,39.24962500096
1.29e-07,24.773625023999998,1.33556249664,39.23400000256
1.2950000000000001e-07,24.851750028799998,1.333999996544,39.26837499904
1.3e-07,24.96112503552,1.33556249664,39.28712499712
1.305e-07,24.97675003648,1.33556249664,39.2433750016
1.31e-07,24.898625031679998,1.33556249664,39.1652500096
1.315e-07,24.820500026879998,1.333999996544,39.102750016
1.3200000000000002e-07,24.820500026879998,1.332437496448,39.12462501376
1.325e-07,24.883000030719998,1.333999996544,39.19962500608
1.33e-07,24.94550003456,1.333999996544,39.26212499968
1.335e-07,24.91425003264,1.333999996544,39.23712500224
1.34e-07,24.851750028799998,1.333999996544,39.16837500928
1.3450000000000002e-07,24.804875025919998,1.333999996544,39.11525001472
1.35e-07,24.851750028799998,1.333999996544,39.14337501184
1.3550000000000002e-07,24.91425003264,1.333999996544,39.209000005120004
1.36e-07,24.9298750336,1.33556249664,39.26837499904
1.365e-07,24.883000030719998,1.332437496448,39.27149999872
1.37e-07,24.804875025919998,1.332437496448,39.23712500224
1.375e-07,24.820500026879998,1.332437496448,39.22150000384
1.3800000000000002e-07,24.91425003264,1.330874996352,39.25275000064
1.385e-07,24.96112503552,1.330874996352,39.28087499776
1.3900000000000001e-07,24.91425003264,1.333999996544,39.28087499776
1.395e-07,24.836125027839998,1.333999996544,39.24650000128
1.4e-07,24.789250024959998,1.332437496448,39.2121250048
1.4050000000000002e-07,24.867375029759998,1.332437496448,39.19962500608
1.41e-07,24.94550003456,1.330874996352,39.18400000768
1.4150000000000002e-07,24.94550003456,1.332437496448,39.15900001024
1.42e-07,24.883000030719998,1.33556249664,39.1340000128
1.425e-07,24.804875025919998,1.333999996544,39.14025001216
1.43e-07,24.789250024959998,1.330874996352,39.177750008320004
1.435e-07,24.851750028799998,1.332437496448,39.2121250048
1.4400000000000002e-07,24.91425003264,1.337124996736,39.25275000064
1.445e-07,24.9298750336,1.337124996736,39.27774999808
1.4500000000000001e-07,24.820500026879998,1.33556249664,39.3058749952
1.455e-07,24.789250024959998,1.333999996544,39.33399999232
1.46e-07,24.804875025919998,1.332437496448,39.34962499072
1.4650000000000002e-07,24.898625031679998,1.330874996352,39.32774999296
1.47e-07,24.9298750336,1.33556249664,39.2746249984
1.4750000000000002e-07,24.91425003264,1.338687496832,39.193375006720004
1.48e-07,24.851750028799998,1.337124996736,39.14337501184
1.485e-07,24.804875025919998,1.333999996544,39.15275001088
1.49e-07,24.883000030719998,1.330874996352,39.20587500544
1.495e-07,24.94550003456,1.330874996352,39.23712500224
1.5000000000000002e-07,24.94550003456,1.333999996544,39.24025000192
1.505e-07,24.883000030719998,1.33556249664,39.23400000256
1.5100000000000002e-07,24.804875025919998,1.330874996352,39.26524999936
1.515e-07,24.789250024959998,1.32774999616,39.31524999424
1.52e-07,24.867375029759998,1.324624995968,39.36212498944
1.5250000000000002e-07,24.9298750336,1.326187496064,39.36212498944
1.53e-07,24.91425003264,1.329312496256,39.337124992
1.5350000000000002e-07,24.836125027839998,1.330874996352,39.32462499328
1.54e-07,24.804875025919998,1.332437496448,39.34337499136
1.5450000000000001e-07,24.867375029759998,1.330874996352,39.34337499136
1.55e-07,24.94550003456,1.33556249664,39.30274999552
1.555e-07,24.97675003648,1.337124996736,39.209000005120004
1.5600000000000002e-07,24.9298750336,1.332437496448,39.1340000128
1.565e-07,24.836125027839998,1.329312496256,39.12775001344
1.5700000000000002e-07,24.836125027839998,1.329312496256,39.177750008320004
1.575e-07,24.867375029759998,1.332437496448,39.20275000576
1.58e-07,24.9298750336,1.333999996544,39.17150000896
1.5850000000000002e-07,24.91425003264,1.333999996544,39.12462501376
1.59e-07,24.883000030719998,1.333999996544,39.12775001344
1.5950000000000002e-07,24.820500026879998,1.332437496448,39.19025000704
