Time (s),VIN,IIN,VOUT
0.0,24.902250032639998,1.357437494144,41.26500001216
5e-10,24.808500026879997,1.35899999424,41.2587500128
1e-09,24.792875025919997,1.357437494144,41.29625000896
1.5000000000000002e-09,24.871000030719998,1.357437494144,41.34625000384
2e-09,24.949125035519998,1.355874994048,41.37750000064
2.5e-09,24.949125035519998,1.354312493952,41.386874999679996
3.0000000000000004e-09,24.855375029759998,1.355874994048,41.4149999968
3.5000000000000003e-09,24.792875025919997,1.357437494144,41.47124999104
4e-09,24.808500026879997,1.357437494144,41.5243749856
4.500000000000001e-09,24.902250032639998,1.35899999424,41.5243749856
5e-09,24.933500034559998,1.360562494336,41.4774999904
5.5000000000000004e-09,24.902250032639998,1.360562494336,41.418124996479996
6.000000000000001e-09,24.824125027839997,1.360562494336,41.402499998079996
6.5e-09,24.777250024959997,1.35899999424,41.433749994879996
7.000000000000001e-09,24.886625031679998,1.360562494336,41.43687499456
7.500000000000001e-09,24.964750036479998,1.360562494336,41.3681250016
8e-09,24.980375037439998,1.357437494144,41.271250011519996
8.5e-09,24.902250032639998,1.357437494144,41.224375016319996
9.000000000000001e-09,24.808500026879997,1.357437494144,41.26187501248
9.5e-09,24.808500026879997,1.35899999424,41.32437500608
1e-08,24.902250032639998,1.362124994432,41.35562500288
1.0500000000000001e-08,24.933500034559998,1.362124994432,41.33062500544
1.1000000000000001e-08,24.902250032639998,1.360562494336,41.29625000896
1.15e-08,24.855375029759998,1.35899999424,41.305625008
1.2000000000000002e-08,24.792875025919997,1.357437494144,41.35562500288
1.2500000000000001e-08,24.824125027839997,1.355874994048,41.4149999968
1.3e-08,24.886625031679998,1.357437494144,41.4306249952
1.35e-08,24.917875033599998,1.360562494336,41.402499998079996
1.4000000000000001e-08,24.917875033599998,1.362124994432,41.37437500096
1.45e-08,24.855375029759998,1.362124994432,41.386874999679996
1.5000000000000002e-08,24.839750028799997,1.363687494528,41.42124999616
1.55e-08,24.871000030719998,1.362124994432,41.44312499392
1.6e-08,24.886625031679998,1.362124994432,41.41187499712
1.6500000000000002e-08,24.902250032639998,1.362124994432,41.3368750048
1.7e-08,24.855375029759998,1.360562494336,41.286875009919996
1.75e-08,24.855375029759998,1.35899999424,41.29312500928
1.8000000000000002e-08,24.855375029759998,1.35899999424,41.34000000448
1.85e-08,24.886625031679998,1.360562494336,41.3681250016
1.9e-08,24.886625031679998,1.360562494336,41.35562500288
1.9500000000000003e-08,24.871000030719998,1.362124994432,41.31812500672
2e-08,24.839750028799997,1.363687494528,41.29937500864
2.05e-08,24.855375029759998,1.362124994432,41.33062500544
2.1000000000000003e-08,24.855375029759998,1.363687494528,41.38375
2.15e-08,24.871000030719998,1.362124994432,41.3993749984
2.2000000000000002e-08,24.871000030719998,1.35899999424,41.36187500224
2.2500000000000003e-08,24.855375029759998,1.357437494144,41.3212500064
2.3e-08,24.855375029759998,1.357437494144,41.32437500608
2.3500000000000002e-08,24.871000030719998,1.357437494144,41.38375
2.4000000000000003e-08,24.871000030719998,1.35899999424,41.4462499936
2.45e-08,24.855375029759998,1.362124994432,41.449374993279996
2.5000000000000002e-08,24.855375029759998,1.362124994432,41.41187499712
2.55e-08,24.871000030719998,1.360562494336,41.38062500032
2.6e-08,24.886625031679998,1.362124994432,41.386874999679996
2.6500000000000002e-08,24.871000030719998,1.362124994432,41.402499998079996
2.7e-08,24.839750028799997,1.362124994432,41.38062500032
2.75e-08,24.824125027839997,1.362124994432,41.30875000768
2.8000000000000003e-08,24.839750028799997,1.362124994432,41.23062501568
2.85e-08,24.871000030719998,1.360562494336,41.20250001856
2.9e-08,24.839750028799997,1.362124994432,41.23687501504
2.9500000000000003e-08,24.839750028799997,1.363687494528,41.29937500864
3.0000000000000004e-08,24.777250024959997,1.363687494528,41.34000000448
3.05e-08,24.777250024959997,1.363687494528,41.35875000256
3.1e-08,24.855375029759998,1.363687494528,41.37750000064
3.1500000000000004e-08,24.917875033599998,1.362124994432,41.4149999968
3.2e-08,24.886625031679998,1.360562494336,41.464999991679996
3.25e-08,24.808500026879997,1.360562494336,41.4931249888
3.3000000000000004e-08,24.777250024959997,1.35899999424,41.48687498944
3.35e-08,24.808500026879997,1.362124994432,41.43687499456
3.4e-08,24.886625031679998,1.365249994624,41.386874999679996
3.4500000000000005e-08,24.917875033599998,1.36681249472,41.34312500416
3.5e-08,24.855375029759998,1.368374994816,41.305625008
3.55e-08,24.792875025919997,1.368374994816,41.2587500128
3.6000000000000005e-08,24.746000023039997,1.365249994624,41.227500016
3.65e-08,24.792875025919997,1.360562494336,41.22125001664
3.7e-08,24.871000030719998,1.362124994432,41.255625013119996
3.7500000000000005e-08,24.902250032639998,1.360562494336,41.30875000768
3.8e-08,24.871000030719998,1.360562494336,41.34625000384
3.85e-08,24.792875025919997,1.363687494528,41.3681250016
3.9000000000000005e-08,24.746000023039997,1.36681249472,41.38062500032
3.95e-08,24.777250024959997,1.36681249472,41.39624999872
4e-08,24.839750028799997,1.365249994624,41.43999999424
4.0500000000000005e-08,24.886625031679998,1.36681249472,41.45874999232
4.1e-08,24.871000030719998,1.369937494912,41.44312499392
4.15e-08,24.792875025919997,1.369937494912,41.386874999679996
4.2000000000000006e-08,24.761625023999997,1.36681249472,41.3525000032
4.2500000000000003e-08,24.808500026879997,1.365249994624,41.36187500224
4.3e-08,24.855375029759998,1.365249994624,41.39312499904
4.3500000000000006e-08,24.855375029759998,1.363687494528,41.38375
4.4000000000000004e-08,24.824125027839997,1.363687494528,41.3212500064
4.45e-08,24.761625023999997,1.360562494336,41.24625001408
4.5000000000000006e-08,24.761625023999997,1.360562494336,41.240000014719996
4.5500000000000004e-08,24.839750028799997,1.35899999424,41.29312500928
4.6e-08,24.886625031679998,1.35899999424,41.34937500352
4.6500000000000006e-08,24.855375029759998,1.35899999424,41.35875000256
4.7000000000000004e-08,24.746000023039997,1.35899999424,41.3212500064
4.75e-08,24.714750021119997,1.360562494336,41.29937500864
4.8000000000000006e-08,24.792875025919997,1.365249994624,41.34312500416
4.8500000000000004e-08,24.886625031679998,1.36681249472,41.40874999744
4.9e-08,24.933500034559998,1.36681249472,41.449374993279996
4.95e-08,24.839750028799997,1.36681249472,41.4306249952
5.0000000000000004e-08,24.746000023039997,1.363687494528,41.39312499904
5.05e-08,24.761625023999997,1.362124994432,41.37437500096
5.1e-08,24.824125027839997,1.360562494336,41.386874999679996
5.1500000000000005e-08,24.902250032639998,1.362124994432,41.386874999679996
5.2e-08,24.871000030719998,1.362124994432,41.3368750048
5.25e-08,24.792875025919997,1.363687494528,41.26812501184
5.3000000000000005e-08,24.730375022079997,1.365249994624,41.255625013119996
5.35e-08,24.761625023999997,1.365249994624,41.29312500928
5.4e-08,24.839750028799997,1.36681249472,41.33062500544
5.4500000000000005e-08,24.855375029759998,1.365249994624,41.3212500064
5.5e-08,24.824125027839997,1.365249994624,41.28062501056
5.55e-08,24.746000023039997,1.365249994624,41.255625013119996
5.6000000000000005e-08,24.761625023999997,1.365249994624,41.31500000704
5.65e-08,24.824125027839997,1.369937494912,41.402499998079996
5.7e-08,24.871000030719998,1.36681249472,41.43999999424
5.7500000000000005e-08,24.855375029759998,1.36681249472,41.38375
5.8e-08,24.824125027839997,1.36681249472,41.33375000512
5.85e-08,24.792875025919997,1.365249994624,41.3525000032
5.9000000000000006e-08,24.761625023999997,1.365249994624,41.418124996479996
5.9500000000000003e-08,24.792875025919997,1.365249994624,41.449374993279996
6.000000000000001e-08,24.792875025919997,1.368374994816,41.40874999744
6.05e-08,24.792875025919997,1.365249994624,41.32750000576
6.1e-08,24.777250024959997,1.368374994816,41.30250000832
6.15e-08,24.808500026879997,1.36681249472,41.31812500672
6.2e-08,24.808500026879997,1.368374994816,41.33062500544
6.250000000000001e-08,24.824125027839997,1.369937494912,41.286875009919996
6.300000000000001e-08,24.839750028799997,1.371499995008,41.227500016
6.35e-08,24.824125027839997,1.371499995008,41.208750017919996
6.4e-08,24.824125027839997,1.365249994624,41.26187501248
6.45e-08,24.824125027839997,1.362124994432,41.34000000448
6.5e-08,24.808500026879997,1.362124994432,41.386874999679996
6.55e-08,24.808500026879997,1.363687494528,41.38375
6.600000000000001e-08,24.792875025919997,1.363687494528,41.38062500032
6.65e-08,24.808500026879997,1.363687494528,41.402499998079996
6.7e-08,24.808500026879997,1.363687494528,41.4462499936
6.75e-08,24.824125027839997,1.365249994624,41.47437499072
6.8e-08,24.808500026879997,1.36681249472,41.45562499264
6.85e-08,24.808500026879997,1.36681249472,41.38375
6.900000000000001e-08,24.808500026879997,1.368374994816,41.31187500736
6.950000000000001e-08,24.839750028799997,1.36681249472,41.2587500128
7e-08,24.839750028799997,1.36681249472,41.255625013119996
7.05e-08,24.824125027839997,1.368374994816,41.2900000096
7.1e-08,24.824125027839997,1.36681249472,41.3212500064
7.15e-08,24.792875025919997,1.365249994624,41.31812500672
7.200000000000001e-08,24.792875025919997,1.363687494528,41.3212500064
7.250000000000001e-08,24.792875025919997,1.36681249472,41.35562500288
7.3e-08,24.824125027839997,1.365249994624,41.4306249952
7.35e-08,24.839750028799997,1.363687494528,41.48999998912
7.4e-08,24.808500026879997,1.363687494528,41.50562498752
7.45e-08,24.792875025919997,1.363687494528,41.45874999232
7.500000000000001e-08,24.777250024959997,1.363687494528,41.402499998079996
7.550000000000001e-08,24.824125027839997,1.362124994432,41.3681250016
7.6e-08,24.839750028799997,1.365249994624,41.34625000384
7.65e-08,24.824125027839997,1.363687494528,41.31500000704
7.7e-08,24.792875025919997,1.363687494528,41.27750001088
7.75e-08,24.792875025919997,1.363687494528,41.26187501248
7.800000000000001e-08,24.824125027839997,1.363687494528,41.30875000768
7.850000000000001e-08,24.839750028799997,1.362124994432,41.3993749984
7.9e-08,24.839750028799997,1.360562494336,41.48374998976
7.95e-08,24.808500026879997,1.360562494336,41.51187498688
8e-08,24.777250024959997,1.362124994432,41.49937498816
8.05e-08,24.761625023999997,1.363687494528,41.48062499008
8.100000000000001e-08,24.808500026879997,1.363687494528,41.48062499008
8.150000000000001e-08,24.855375029759998,1.363687494528,41.46812499136
8.2e-08,24.839750028799997,1.363687494528,41.42437499584
8.25e-08,24.792875025919997,1.363687494528,41.3525000032
8.3e-08,24.730375022079997,1.36681249472,41.2900000096
8.35e-08,24.777250024959997,1.368374994816,41.2743750112
8.400000000000001e-08,24.855375029759998,1.368374994816,41.28062501056
8.450000000000001e-08,24.886625031679998,1.365249994624,41.28375001024
8.500000000000001e-08,24.839750028799997,1.363687494528,41.286875009919996
8.55e-08,24.777250024959997,1.362124994432,41.29937500864
8.6e-08,24.777250024959997,1.363687494528,41.32437500608
8.65e-08,24.824125027839997,1.363687494528,41.34312500416
8.700000000000001e-08,24.871000030719998,1.362124994432,41.34312500416
8.750000000000001e-08,24.839750028799997,1.362124994432,41.34312500416
8.800000000000001e-08,24.808500026879997,1.362124994432,41.3681250016
8.85e-08,24.777250024959997,1.365249994624,41.42124999616
8.9e-08,24.761625023999997,1.365249994624,41.461874992
8.95e-08,24.792875025919997,1.363687494528,41.4306249952
9.000000000000001e-08,24.824125027839997,1.362124994432,41.37750000064
9.050000000000001e-08,24.808500026879997,1.362124994432,41.3525000032
9.100000000000001e-08,24.792875025919997,1.363687494528,41.39624999872
9.15e-08,24.792875025919997,1.363687494528,41.464999991679996
9.2e-08,24.808500026879997,1.362124994432,41.47437499072
9.25e-08,24.824125027839997,1.35899999424,41.402499998079996
9.300000000000001e-08,24.839750028799997,1.35899999424,41.31812500672
9.350000000000001e-08,24.839750028799997,1.362124994432,41.27750001088
9.400000000000001e-08,24.808500026879997,1.362124994432,41.2900000096
9.45e-08,24.824125027839997,1.362124994432,41.31812500672
9.5e-08,24.808500026879997,1.35899999424,41.29937500864
9.55e-08,24.808500026879997,1.35899999424,41.240000014719996
9.600000000000001e-08,24.855375029759998,1.360562494336,41.2118750176
9.650000000000001e-08,24.824125027839997,1.362124994432,41.255625013119996
9.700000000000001e-08,24.808500026879997,1.360562494336,41.371250001279996
9.75e-08,24.808500026879997,1.360562494336,41.45874999232
9.8e-08,24.808500026879997,1.362124994432,41.47124999104
9.85e-08,24.824125027839997,1.362124994432,41.42124999616
9.9e-08,24.824125027839997,1.360562494336,41.386874999679996
9.950000000000001e-08,24.839750028799997,1.35899999424,41.40562499776
1.0000000000000001e-07,24.839750028799997,1.357437494144,41.464999991679996
1.005e-07,24.824125027839997,1.357437494144,41.48374998976
1.01e-07,24.808500026879997,1.35899999424,41.43687499456
1.015e-07,24.824125027839997,1.35899999424,41.3525000032
1.02e-07,24.871000030719998,1.35899999424,41.29312500928
1.0250000000000001e-07,24.886625031679998,1.357437494144,41.29312500928
1.0300000000000001e-07,24.886625031679998,1.35899999424,41.31187500736
1.0350000000000001e-07,24.855375029759998,1.357437494144,41.29937500864
1.04e-07,24.792875025919997,1.357437494144,41.2587500128
1.045e-07,24.777250024959997,1.362124994432,41.224375016319996
1.05e-07,24.761625023999997,1.362124994432,41.24625001408
1.0550000000000001e-07,24.746000023039997,1.360562494336,41.29625000896
1.0600000000000001e-07,24.824125027839997,1.35899999424,41.35875000256
1.0650000000000001e-07,24.933500034559998,1.35899999424,41.37750000064
1.07e-07,24.980375037439998,1.35899999424,41.37750000064
1.075e-07,24.933500034559998,1.357437494144,41.38999999936
1.08e-07,24.792875025919997,1.354312493952,41.42437499584
1.0850000000000001e-07,24.6835000192,1.354312493952,41.464999991679996
1.0900000000000001e-07,24.6835000192,1.357437494144,41.48374998976
1.0950000000000001e-07,24.824125027839997,1.357437494144,41.45562499264
1.1e-07,25.01162503936,1.357437494144,41.40562499776
1.105e-07,25.08975004416,1.357437494144,41.371250001279996
1.11e-07,24.964750036479998,1.355874994048,41.34625000384
1.1150000000000001e-07,24.69912502016,1.362124994432,41.31187500736
1.1200000000000001e-07,24.58975001344,1.360562494336,41.26812501184
1.1250000000000001e-07,24.714750021119997,1.35899999424,41.240000014719996
1.13e-07,24.980375037439998,1.357437494144,41.2431250144
1.135e-07,25.12100004608,1.35899999424,41.24625001408
1.14e-07,25.01162503936,1.35899999424,41.26500001216
1.1450000000000001e-07,24.730375022079997,1.357437494144,41.31187500736
1.1500000000000001e-07,24.57412501248,1.357437494144,41.3681250016
1.1550000000000001e-07,24.714750021119997,1.357437494144,41.40562499776
1.16e-07,24.980375037439998,1.355874994048,41.40562499776
1.165e-07,25.13662504704,1.355874994048,41.38062500032
1.17e-07,25.01162503936,1.357437494144,41.3681250016
1.1750000000000001e-07,24.730375022079997,1.352749993856,41.38062500032
1.1800000000000001e-07,24.6053750144,1.35118749376,41.42437499584
1.1850000000000001e-07,24.761625023999997,1.354312493952,41.461874992
1.1900000000000001e-07,25.01162503936,1.35899999424,41.449374993279996
1.195e-07,25.08975004416,1.35899999424,41.371250001279996
1.2000000000000002e-07,24.933500034559998,1.357437494144,41.286875009919996
1.205e-07,24.714750021119997,1.355874994048,41.26812501184
1.21e-07,24.69912502016,1.355874994048,41.34000000448
1.215e-07,24.839750028799997,1.355874994048,41.38999999936
1.22e-07,24.9960000384,1.355874994048,41.35875000256
1.2250000000000002e-07,24.9960000384,1.355874994048,41.26187501248
1.23e-07,24.855375029759998,1.354312493952,41.1962500192
1.2350000000000001e-07,24.808500026879997,1.35118749376,41.2118750176
1.24e-07,24.839750028799997,1.349624993664,41.29312500928
1.245e-07,24.949125035519998,1.352749993856,41.35875000256
1.2500000000000002e-07,24.933500034559998,1.357437494144,41.36187500224
1.255e-07,24.839750028799997,1.354312493952,41.32437500608
1.2600000000000002e-07,24.777250024959997,1.352749993856,41.3212500064
1.265e-07,24.839750028799997,1.354312493952,41.386874999679996
1.27e-07,24.949125035519998,1.355874994048,41.461874992
1.275e-07,24.964750036479998,1.357437494144,41.48062499008
1.28e-07,24.871000030719998,1.354312493952,41.42437499584
1.2850000000000002e-07,24.761625023999997,1.352749993856,41.34312500416
1.29e-07,24.761625023999997,1.348062493568,41.31812500672
1.2950000000000001e-07,24.886625031679998,1.348062493568,41.34000000448
1.3e-07,24.980375037439998,1.349624993664,41.35875000256
1.305e-07,24.949125035519998,1.354312493952,41.31812500672
1.31e-07,24.824125027839997,1.354312493952,41.255625013119996
1.315e-07,24.808500026879997,1.352749993856,41.21500001728
1.3200000000000002e-07,24.839750028799997,1.352749993856,41.24937501376
1.325e-07,24.933500034559998,1.352749993856,41.32437500608
1.33e-07,24.933500034559998,1.355874994048,41.371250001279996
1.335e-07,24.886625031679998,1.357437494144,41.34937500352
1.34e-07,24.808500026879997,1.355874994048,41.2900000096
1.3450000000000002e-07,24.808500026879997,1.354312493952,41.26812501184
1.35e-07,24.871000030719998,1.35118749376,41.31812500672
1.3550000000000002e-07,24.933500034559998,1.35118749376,41.38999999936
1.36e-07,24.917875033599998,1.352749993856,41.4306249952
1.365e-07,24.839750028799997,1.352749993856,41.4149999968
1.37e-07,24.792875025919997,1.348062493568,41.38062500032
1.375e-07,24.839750028799997,1.346499993472,41.35562500288
1.3800000000000002e-07,24.949125035519998,1.349624993664,41.36500000192
1.385e-07,24.964750036479998,1.352749993856,41.3681250016
1.3900000000000001e-07,24.871000030719998,1.35118749376,41.3525000032
1.395e-07,24.777250024959997,1.35118749376,41.32437500608
1.4e-07,24.792875025919997,1.352749993856,41.30250000832
1.4050000000000002e-07,24.886625031679998,1.354312493952,41.28375001024
1.41e-07,24.949125035519998,1.354312493952,41.271250011519996
1.4150000000000002e-07,24.917875033599998,1.354312493952,41.255625013119996
1.42e-07,24.839750028799997,1.354312493952,41.26500001216
1.425e-07,24.777250024959997,1.352749993856,41.30875000768
1.43e-07,24.808500026879997,1.354312493952,41.37750000064
1.435e-07,24.886625031679998,1.354312493952,41.42749999552
1.4400000000000002e-07,24.933500034559998,1.355874994048,41.45874999232
1.445e-07,24.886625031679998,1.355874994048,41.461874992
1.4500000000000001e-07,24.808500026879997,1.352749993856,41.45874999232
1.455e-07,24.792875025919997,1.354312493952,41.43687499456
1.46e-07,24.839750028799997,1.355874994048,41.40562499776
1.4650000000000002e-07,24.933500034559998,1.355874994048,41.35875000256
1.47e-07,24.949125035519998,1.355874994048,41.305625008
1.4750000000000002e-07,24.886625031679998,1.357437494144,41.26187501248
1.48e-07,24.808500026879997,1.357437494144,41.2587500128
1.485e-07,24.792875025919997,1.354312493952,41.29625000896
1.49e-07,24.855375029759998,1.354312493952,41.3525000032
1.495e-07,24.949125035519998,1.352749993856,41.38062500032
1.5000000000000002e-07,24.933500034559998,1.354312493952,41.38999999936
1.505e-07,24.839750028799997,1.352749993856,41.418124996479996
1.5100000000000002e-07,24.792875025919997,1.35118749376,41.47437499072
1.515e-07,24.808500026879997,1.352749993856,41.5243749856
1.52e-07,24.902250032639998,1.354312493952,41.5243749856
1.5250000000000002e-07,24.933500034559998,1.35899999424,41.47437499072
1.53e-07,24.886625031679998,1.35899999424,41.418124996479996
1.5350000000000002e-07,24.808500026879997,1.357437494144,41.402499998079996
1.54e-07,24.792875025919997,1.35899999424,41.43687499456
1.5450000000000001e-07,24.871000030719998,1.357437494144,41.433749994879996
1.55e-07,24.933500034559998,1.355874994048,41.3681250016
1.555e-07,24.964750036479998,1.355874994048,41.271250011519996
1.5600000000000002e-07,24.886625031679998,1.357437494144,41.224375016319996
1.565e-07,24.824125027839997,1.355874994048,41.255625013119996
1.5700000000000002e-07,24.824125027839997,1.357437494144,41.33062500544
