!Keysight Technologies,E5063A,MY54100949,A.07.30
!Date: Wed Nov 26 01:39:18 2025
!Data & Calibration Information:
!Freq	S11:SOLT1(ON)
# Hz S RI R 50
50000.000	1.013546e+000	-3.197294e-002
51995.000	1.005065e+000	-3.309563e-002
53990.000	1.003382e+000	-3.373480e-002
55985.000	1.002836e+000	-3.527696e-002
57980.000	1.002202e+000	-3.654272e-002
59975.000	1.002321e+000	-3.804644e-002
61970.000	1.001985e+000	-3.931595e-002
63965.000	1.001701e+000	-4.077955e-002
65960.000	1.001300e+000	-4.211277e-002
67955.000	1.002696e+000	-4.347960e-002
69950.000	1.002203e+000	-4.484609e-002
71945.000	1.001865e+000	-4.653110e-002
73940.000	1.001781e+000	-4.755773e-002
75935.000	1.001290e+000	-4.902758e-002
77930.000	1.001361e+000	-5.034851e-002
79925.000	1.000783e+000	-5.157111e-002
81920.000	1.000749e+000	-5.304219e-002
83915.000	1.000975e+000	-5.438981e-002
85910.000	1.000864e+000	-5.576161e-002
87905.000	1.000943e+000	-5.700458e-002
89900.000	1.000975e+000	-5.832579e-002
91895.000	1.000729e+000	-5.975209e-002
93890.000	1.000400e+000	-6.107922e-002
95885.000	1.000433e+000	-6.238429e-002
97880.000	1.000353e+000	-6.385688e-002
99875.000	1.000641e+000	-6.509454e-002
101870.000	1.000469e+000	-6.631339e-002
103865.000	1.000278e+000	-6.779760e-002
105860.000	1.000286e+000	-6.921834e-002
107855.000	9.999418e-001	-7.040271e-002
109850.000	9.997589e-001	-7.164091e-002
111845.000	9.997257e-001	-7.304921e-002
113840.000	9.999347e-001	-7.451425e-002
115835.000	9.994066e-001	-7.555054e-002
117830.000	9.992610e-001	-7.695437e-002
119825.000	9.993739e-001	-7.862718e-002
121820.000	9.992484e-001	-7.960654e-002
123815.000	9.990283e-001	-8.070484e-002
125810.000	9.989616e-001	-8.215384e-002
127805.000	9.988112e-001	-8.348133e-002
129800.000	9.986713e-001	-8.484809e-002
131795.000	9.984408e-001	-8.638198e-002
133790.000	9.989873e-001	-8.747851e-002
135785.000	9.986868e-001	-8.876370e-002
137780.000	9.984676e-001	-9.032626e-002
139775.000	9.982212e-001	-9.145392e-002
141770.000	9.982353e-001	-9.256409e-002
143765.000	9.980100e-001	-9.389916e-002
145760.000	9.976450e-001	-9.509121e-002
147755.000	9.976123e-001	-9.657061e-002
149750.000	9.975208e-001	-9.789292e-002
151745.000	9.972462e-001	-9.920937e-002
153740.000	9.970665e-001	-1.003441e-001
155735.000	9.967759e-001	-1.016216e-001
157730.000	9.969873e-001	-1.028382e-001
159725.000	9.966321e-001	-1.039627e-001
161720.000	9.965860e-001	-1.053107e-001
163715.000	9.964383e-001	-1.067533e-001
165710.000	9.962019e-001	-1.080867e-001
167705.000	9.961373e-001	-1.093537e-001
169700.000	9.962185e-001	-1.105141e-001
171695.000	9.959706e-001	-1.116058e-001
173690.000	9.956917e-001	-1.129900e-001
175685.000	9.956568e-001	-1.143163e-001
177680.000	9.956041e-001	-1.153394e-001
179675.000	9.955045e-001	-1.169307e-001
181670.000	9.950748e-001	-1.182622e-001
183665.000	9.949118e-001	-1.194667e-001
185660.000	9.946327e-001	-1.208717e-001
187655.000	9.947850e-001	-1.219577e-001
189650.000	9.945564e-001	-1.232458e-001
191645.000	9.943398e-001	-1.244511e-001
193640.000	9.939589e-001	-1.259005e-001
195635.000	9.940645e-001	-1.271011e-001
197630.000	9.937098e-001	-1.282773e-001
199625.000	9.937413e-001	-1.295255e-001
201620.000	9.938625e-001	-1.311849e-001
203615.000	9.935915e-001	-1.321854e-001
205610.000	9.933578e-001	-1.336209e-001
207605.000	9.931972e-001	-1.347491e-001
209600.000	9.929118e-001	-1.358583e-001
211595.000	9.928476e-001	-1.373683e-001
213590.000	9.926475e-001	-1.385296e-001
215585.000	9.924809e-001	-1.398832e-001
217580.000	9.922244e-001	-1.412450e-001
219575.000	9.919837e-001	-1.424311e-001
221570.000	9.917076e-001	-1.437721e-001
223565.000	9.914978e-001	-1.448084e-001
225560.000	9.913100e-001	-1.464663e-001
227555.000	9.911827e-001	-1.475279e-001
229550.000	9.909870e-001	-1.485245e-001
231545.000	9.909636e-001	-1.498963e-001
233540.000	9.907122e-001	-1.512699e-001
235535.000	9.902056e-001	-1.525033e-001
237530.000	9.901255e-001	-1.539898e-001
239525.000	9.899226e-001	-1.550542e-001
241520.000	9.897699e-001	-1.562225e-001
243515.000	9.895268e-001	-1.576376e-001
245510.000	9.894641e-001	-1.586974e-001
247505.000	9.891671e-001	-1.602183e-001
249500.000	9.887648e-001	-1.613991e-001
251495.000	9.886376e-001	-1.627413e-001
253490.000	9.884155e-001	-1.638940e-001
255485.000	9.883151e-001	-1.652658e-001
257480.000	9.880516e-001	-1.663492e-001
259475.000	9.877158e-001	-1.676591e-001
261470.000	9.876509e-001	-1.690316e-001
263465.000	9.874164e-001	-1.702713e-001
265460.000	9.875544e-001	-1.717789e-001
267455.000	9.871518e-001	-1.729093e-001
269450.000	9.870096e-001	-1.741713e-001
271445.000	9.868442e-001	-1.754504e-001
273440.000	9.865358e-001	-1.765480e-001
275435.000	9.863014e-001	-1.779268e-001
277430.000	9.862089e-001	-1.792501e-001
279425.000	9.859261e-001	-1.804636e-001
281420.000	9.857308e-001	-1.815880e-001
283415.000	9.853069e-001	-1.829638e-001
285410.000	9.850024e-001	-1.842298e-001
287405.000	9.848455e-001	-1.853155e-001
289400.000	9.845106e-001	-1.868134e-001
291395.000	9.842791e-001	-1.879329e-001
293390.000	9.841261e-001	-1.892033e-001
295385.000	9.838203e-001	-1.904877e-001
297380.000	9.836335e-001	-1.916927e-001
299375.000	9.832160e-001	-1.931760e-001
301370.000	9.830420e-001	-1.943805e-001
303365.000	9.827326e-001	-1.954107e-001
305360.000	9.823968e-001	-1.968910e-001
307355.000	9.824503e-001	-1.980203e-001
309350.000	9.820999e-001	-1.992081e-001
311345.000	9.818792e-001	-2.005929e-001
313340.000	9.815039e-001	-2.018098e-001
315335.000	9.812646e-001	-2.029426e-001
317330.000	9.809235e-001	-2.041432e-001
319325.000	9.809059e-001	-2.055448e-001
321320.000	9.805712e-001	-2.069486e-001
323315.000	9.802628e-001	-2.080624e-001
325310.000	9.798783e-001	-2.091435e-001
327305.000	9.798821e-001	-2.103427e-001
329300.000	9.795936e-001	-2.116882e-001
331295.000	9.791834e-001	-2.129177e-001
333290.000	9.787121e-001	-2.143834e-001
335285.000	9.783989e-001	-2.155248e-001
337280.000	9.783882e-001	-2.167361e-001
339275.000	9.780771e-001	-2.180621e-001
341270.000	9.778116e-001	-2.190065e-001
343265.000	9.772295e-001	-2.204535e-001
345260.000	9.769219e-001	-2.217543e-001
347255.000	9.768232e-001	-2.229933e-001
349250.000	9.766544e-001	-2.242633e-001
351245.000	9.762926e-001	-2.253903e-001
353240.000	9.761778e-001	-2.268741e-001
355235.000	9.758762e-001	-2.278676e-001
357230.000	9.754630e-001	-2.291321e-001
359225.000	9.751377e-001	-2.304337e-001
361220.000	9.749768e-001	-2.317174e-001
363215.000	9.747084e-001	-2.329414e-001
365210.000	9.743135e-001	-2.341756e-001
367205.000	9.740760e-001	-2.352684e-001
369200.000	9.737353e-001	-2.366608e-001
371195.000	9.735012e-001	-2.380931e-001
373190.000	9.730631e-001	-2.393188e-001
375185.000	9.728540e-001	-2.403340e-001
377180.000	9.726325e-001	-2.415433e-001
379175.000	9.722569e-001	-2.429328e-001
381170.000	9.716405e-001	-2.440830e-001
383165.000	9.714547e-001	-2.451385e-001
385160.000	9.712169e-001	-2.466116e-001
387155.000	9.709623e-001	-2.477149e-001
389150.000	9.707735e-001	-2.491341e-001
391145.000	9.702559e-001	-2.503146e-001
393140.000	9.700476e-001	-2.515484e-001
395135.000	9.694364e-001	-2.528968e-001
397130.000	9.693615e-001	-2.539718e-001
399125.000	9.691135e-001	-2.552629e-001
401120.000	9.690179e-001	-2.568011e-001
403115.000	9.685691e-001	-2.578949e-001
405110.000	9.681880e-001	-2.590950e-001
407105.000	9.680163e-001	-2.603604e-001
409100.000	9.675391e-001	-2.614083e-001
411095.000	9.673001e-001	-2.627990e-001
413090.000	9.670177e-001	-2.638784e-001
415085.000	9.663634e-001	-2.652680e-001
417080.000	9.660192e-001	-2.665253e-001
419075.000	9.657904e-001	-2.676813e-001
421070.000	9.654998e-001	-2.688858e-001
423065.000	9.651171e-001	-2.701187e-001
425060.000	9.646309e-001	-2.712429e-001
427055.000	9.644221e-001	-2.725703e-001
429050.000	9.639456e-001	-2.737422e-001
431045.000	9.637518e-001	-2.749063e-001
433040.000	9.632079e-001	-2.762743e-001
435035.000	9.629558e-001	-2.774392e-001
437030.000	9.624780e-001	-2.785575e-001
439025.000	9.622994e-001	-2.797228e-001
441020.000	9.619997e-001	-2.810111e-001
443015.000	9.614406e-001	-2.822399e-001
445010.000	9.612825e-001	-2.835361e-001
447005.000	9.607349e-001	-2.846322e-001
449000.000	9.605386e-001	-2.859703e-001
450995.000	9.598822e-001	-2.871953e-001
452990.000	9.597979e-001	-2.883851e-001
454985.000	9.593126e-001	-2.894437e-001
456980.000	9.588603e-001	-2.907456e-001
458975.000	9.587171e-001	-2.920886e-001
460970.000	9.583439e-001	-2.932004e-001
462965.000	9.581527e-001	-2.944735e-001
464960.000	9.574555e-001	-2.955032e-001
466955.000	9.571396e-001	-2.965965e-001
468950.000	9.567561e-001	-2.980402e-001
470945.000	9.565443e-001	-2.990503e-001
472940.000	9.560719e-001	-3.006258e-001
474935.000	9.555696e-001	-3.016862e-001
476930.000	9.552837e-001	-3.028111e-001
478925.000	9.547918e-001	-3.040422e-001
480920.000	9.544001e-001	-3.052644e-001
482915.000	9.540515e-001	-3.065282e-001
484910.000	9.535748e-001	-3.079018e-001
486905.000	9.532617e-001	-3.087267e-001
488900.000	9.527883e-001	-3.098968e-001
490895.000	9.527410e-001	-3.114201e-001
492890.000	9.521841e-001	-3.124062e-001
494885.000	9.517121e-001	-3.136311e-001
496880.000	9.513264e-001	-3.150210e-001
498875.000	9.509438e-001	-3.160936e-001
500870.000	9.508575e-001	-3.174971e-001
502865.000	9.501535e-001	-3.186360e-001
504860.000	9.496158e-001	-3.198743e-001
506855.000	9.493972e-001	-3.207540e-001
508850.000	9.488960e-001	-3.220319e-001
510845.000	9.484876e-001	-3.234309e-001
512840.000	9.481242e-001	-3.245129e-001
514835.000	9.477929e-001	-3.255638e-001
516830.000	9.472134e-001	-3.269938e-001
518825.000	9.468648e-001	-3.281704e-001
520820.000	9.463557e-001	-3.292228e-001
522815.000	9.460444e-001	-3.302773e-001
524810.000	9.457123e-001	-3.316049e-001
526805.000	9.452595e-001	-3.327692e-001
528800.000	9.448844e-001	-3.338434e-001
530795.000	9.448022e-001	-3.354135e-001
532790.000	9.441779e-001	-3.366079e-001
534785.000	9.438699e-001	-3.376590e-001
536780.000	9.432171e-001	-3.388932e-001
538775.000	9.429849e-001	-3.399685e-001
540770.000	9.423564e-001	-3.411688e-001
542765.000	9.418038e-001	-3.425165e-001
544760.000	9.415262e-001	-3.436288e-001
546755.000	9.411979e-001	-3.447721e-001
548750.000	9.407051e-001	-3.460208e-001
550745.000	9.400829e-001	-3.470733e-001
552740.000	9.397455e-001	-3.481160e-001
554735.000	9.395318e-001	-3.493054e-001
556730.000	9.387546e-001	-3.504469e-001
558725.000	9.383176e-001	-3.518454e-001
560720.000	9.379569e-001	-3.528846e-001
562715.000	9.374489e-001	-3.540474e-001
564710.000	9.370286e-001	-3.552849e-001
566705.000	9.366768e-001	-3.563609e-001
568700.000	9.361047e-001	-3.576542e-001
570695.000	9.357986e-001	-3.588577e-001
572690.000	9.351852e-001	-3.598835e-001
574685.000	9.349127e-001	-3.612099e-001
576680.000	9.342576e-001	-3.622693e-001
578675.000	9.335800e-001	-3.634338e-001
580670.000	9.334405e-001	-3.646764e-001
582665.000	9.329839e-001	-3.657013e-001
584660.000	9.325498e-001	-3.669427e-001
586655.000	9.318978e-001	-3.678594e-001
588650.000	9.315392e-001	-3.693150e-001
590645.000	9.312261e-001	-3.702778e-001
592640.000	9.307345e-001	-3.715313e-001
594635.000	9.301244e-001	-3.727228e-001
596630.000	9.297005e-001	-3.738593e-001
598625.000	9.293831e-001	-3.750037e-001
600620.000	9.286236e-001	-3.762825e-001
602615.000	9.284006e-001	-3.773423e-001
604610.000	9.279793e-001	-3.785522e-001
606605.000	9.275011e-001	-3.797400e-001
608600.000	9.268942e-001	-3.810624e-001
610595.000	9.265266e-001	-3.818963e-001
612590.000	9.258812e-001	-3.833607e-001
614585.000	9.253360e-001	-3.843360e-001
616580.000	9.249788e-001	-3.855071e-001
618575.000	9.246446e-001	-3.867291e-001
620570.000	9.241917e-001	-3.877775e-001
622565.000	9.235698e-001	-3.889658e-001
624560.000	9.229788e-001	-3.901154e-001
626555.000	9.226935e-001	-3.912411e-001
628550.000	9.222288e-001	-3.923385e-001
630545.000	9.215632e-001	-3.935982e-001
632540.000	9.211829e-001	-3.945562e-001
634535.000	9.206336e-001	-3.960236e-001
636530.000	9.201076e-001	-3.969000e-001
638525.000	9.195409e-001	-3.980563e-001
640520.000	9.195015e-001	-3.994935e-001
642515.000	9.187626e-001	-4.003827e-001
644510.000	9.183797e-001	-4.016688e-001
646505.000	9.177569e-001	-4.026550e-001
648500.000	9.172687e-001	-4.041051e-001
650495.000	9.168184e-001	-4.047431e-001
652490.000	9.165070e-001	-4.064200e-001
654485.000	9.155604e-001	-4.074818e-001
656480.000	9.152639e-001	-4.083715e-001
658475.000	9.146637e-001	-4.094652e-001
660470.000	9.141553e-001	-4.106024e-001
662465.000	9.138513e-001	-4.116408e-001
664460.000	9.133785e-001	-4.130027e-001
666455.000	9.125175e-001	-4.138304e-001
668450.000	9.122749e-001	-4.151326e-001
670445.000	9.116960e-001	-4.162617e-001
672440.000	9.112156e-001	-4.172639e-001
674435.000	9.107464e-001	-4.184579e-001
676430.000	9.101870e-001	-4.197410e-001
678425.000	9.096763e-001	-4.206747e-001
680420.000	9.090575e-001	-4.217657e-001
682415.000	9.085203e-001	-4.228605e-001
684410.000	9.080016e-001	-4.240378e-001
686405.000	9.075977e-001	-4.251060e-001
688400.000	9.070842e-001	-4.263497e-001
690395.000	9.064604e-001	-4.275162e-001
692390.000	9.061079e-001	-4.284442e-001
694385.000	9.054747e-001	-4.296879e-001
696380.000	9.050708e-001	-4.308072e-001
698375.000	9.042732e-001	-4.318043e-001
700370.000	9.037944e-001	-4.330589e-001
702365.000	9.032164e-001	-4.342327e-001
704360.000	9.026405e-001	-4.351967e-001
706355.000	9.022248e-001	-4.363920e-001
708350.000	9.015695e-001	-4.374293e-001
710345.000	9.011454e-001	-4.384879e-001
712340.000	9.005140e-001	-4.398633e-001
714335.000	9.000293e-001	-4.407824e-001
716330.000	8.995030e-001	-4.420470e-001
718325.000	8.989882e-001	-4.430781e-001
720320.000	8.984647e-001	-4.440596e-001
722315.000	8.977905e-001	-4.451727e-001
724310.000	8.973385e-001	-4.463316e-001
726305.000	8.967102e-001	-4.473930e-001
728300.000	8.960780e-001	-4.485210e-001
730295.000	8.955581e-001	-4.494419e-001
732290.000	8.951274e-001	-4.506433e-001
734285.000	8.944654e-001	-4.517893e-001
736280.000	8.941203e-001	-4.530548e-001
738275.000	8.935991e-001	-4.540990e-001
740270.000	8.929119e-001	-4.550061e-001
742265.000	8.922010e-001	-4.560711e-001
744260.000	8.918010e-001	-4.572019e-001
746255.000	8.912857e-001	-4.583418e-001
748250.000	8.906008e-001	-4.594608e-001
750245.000	8.902666e-001	-4.605893e-001
752240.000	8.896789e-001	-4.618597e-001
754235.000	8.891804e-001	-4.625711e-001
756230.000	8.886494e-001	-4.639550e-001
758225.000	8.877764e-001	-4.649197e-001
760220.000	8.873120e-001	-4.660867e-001
762215.000	8.867751e-001	-4.672575e-001
764210.000	8.861010e-001	-4.682566e-001
766205.000	8.857134e-001	-4.693038e-001
768200.000	8.850167e-001	-4.702576e-001
770195.000	8.844427e-001	-4.713096e-001
772190.000	8.839865e-001	-4.724297e-001
774185.000	8.834724e-001	-4.734181e-001
776180.000	8.828761e-001	-4.746012e-001
778175.000	8.821646e-001	-4.756392e-001
780170.000	8.816328e-001	-4.767866e-001
782165.000	8.811066e-001	-4.777789e-001
784160.000	8.805295e-001	-4.787867e-001
786155.000	8.798135e-001	-4.797767e-001
788150.000	8.793153e-001	-4.809324e-001
790145.000	8.785646e-001	-4.820367e-001
792140.000	8.780047e-001	-4.828956e-001
794135.000	8.773073e-001	-4.841384e-001
796130.000	8.768181e-001	-4.852680e-001
798125.000	8.762902e-001	-4.863786e-001
800120.000	8.757495e-001	-4.874709e-001
802115.000	8.749280e-001	-4.885391e-001
804110.000	8.743865e-001	-4.894825e-001
806105.000	8.738954e-001	-4.904508e-001
808100.000	8.733285e-001	-4.915940e-001
810095.000	8.727372e-001	-4.926637e-001
812090.000	8.721810e-001	-4.938283e-001
814085.000	8.714031e-001	-4.947679e-001
816080.000	8.709278e-001	-4.959517e-001
818075.000	8.703517e-001	-4.970038e-001
820070.000	8.698328e-001	-4.977707e-001
822065.000	8.690248e-001	-4.989484e-001
824060.000	8.683706e-001	-5.001373e-001
826055.000	8.679497e-001	-5.011423e-001
828050.000	8.671411e-001	-5.021662e-001
830045.000	8.666308e-001	-5.033090e-001
832040.000	8.662103e-001	-5.042455e-001
834035.000	8.655468e-001	-5.050619e-001
836030.000	8.649582e-001	-5.063065e-001
838025.000	8.643099e-001	-5.071933e-001
840020.000	8.636587e-001	-5.083782e-001
842015.000	8.631293e-001	-5.093223e-001
844010.000	8.625797e-001	-5.104860e-001
846005.000	8.617789e-001	-5.115449e-001
848000.000	8.612242e-001	-5.123212e-001
849995.000	8.605937e-001	-5.137512e-001
851990.000	8.602706e-001	-5.149923e-001
853985.000	8.597640e-001	-5.157963e-001
855980.000	8.589944e-001	-5.167941e-001
857975.000	8.583019e-001	-5.178529e-001
859970.000	8.576748e-001	-5.188795e-001
861965.000	8.570487e-001	-5.198641e-001
863960.000	8.562202e-001	-5.208634e-001
865955.000	8.556908e-001	-5.220256e-001
867950.000	8.550629e-001	-5.229612e-001
869945.000	8.543269e-001	-5.238805e-001
871940.000	8.538733e-001	-5.248072e-001
873935.000	8.530744e-001	-5.258840e-001
875930.000	8.523699e-001	-5.271021e-001
877925.000	8.518141e-001	-5.279128e-001
879920.000	8.511685e-001	-5.291331e-001
881915.000	8.507364e-001	-5.299198e-001
883910.000	8.499388e-001	-5.308252e-001
885905.000	8.493181e-001	-5.320567e-001
887900.000	8.485990e-001	-5.330060e-001
889895.000	8.479703e-001	-5.340882e-001
891890.000	8.475719e-001	-5.351185e-001
893885.000	8.467994e-001	-5.361303e-001
895880.000	8.462698e-001	-5.372827e-001
897875.000	8.456156e-001	-5.381047e-001
899870.000	8.447906e-001	-5.390863e-001
901865.000	8.442319e-001	-5.400799e-001
903860.000	8.437566e-001	-5.411167e-001
905855.000	8.429432e-001	-5.421276e-001
907850.000	8.422829e-001	-5.429775e-001
909845.000	8.415563e-001	-5.440056e-001
911840.000	8.409753e-001	-5.451780e-001
913835.000	8.402425e-001	-5.461388e-001
915830.000	8.396244e-001	-5.470755e-001
917825.000	8.390881e-001	-5.481453e-001
919820.000	8.382843e-001	-5.490043e-001
921815.000	8.377911e-001	-5.501678e-001
923810.000	8.370197e-001	-5.510388e-001
925805.000	8.360771e-001	-5.521780e-001
927800.000	8.357139e-001	-5.532834e-001
929795.000	8.353279e-001	-5.539601e-001
931790.000	8.344952e-001	-5.552888e-001
933785.000	8.336085e-001	-5.561688e-001
935780.000	8.331891e-001	-5.568608e-001
937775.000	8.324638e-001	-5.578456e-001
939770.000	8.320286e-001	-5.589099e-001
941765.000	8.314614e-001	-5.603987e-001
943760.000	8.307005e-001	-5.612411e-001
945755.000	8.299940e-001	-5.620972e-001
947750.000	8.295002e-001	-5.631577e-001
949745.000	8.285970e-001	-5.639034e-001
951740.000	8.279699e-001	-5.649279e-001
953735.000	8.271174e-001	-5.660056e-001
955730.000	8.264070e-001	-5.670230e-001
957725.000	8.258716e-001	-5.678655e-001
959720.000	8.252531e-001	-5.689553e-001
961715.000	8.245120e-001	-5.699128e-001
963710.000	8.238054e-001	-5.706987e-001
965705.000	8.231453e-001	-5.717472e-001
967700.000	8.224623e-001	-5.725968e-001
969695.000	8.219337e-001	-5.735873e-001
971690.000	8.210941e-001	-5.748118e-001
973685.000	8.204896e-001	-5.754484e-001
975680.000	8.195704e-001	-5.762764e-001
977675.000	8.191133e-001	-5.776180e-001
979670.000	8.183574e-001	-5.784858e-001
981665.000	8.176170e-001	-5.793716e-001
983660.000	8.171234e-001	-5.804071e-001
985655.000	8.162616e-001	-5.813276e-001
987650.000	8.157091e-001	-5.823647e-001
989645.000	8.148693e-001	-5.832405e-001
991640.000	8.145394e-001	-5.839696e-001
993635.000	8.137843e-001	-5.853034e-001
995630.000	8.129937e-001	-5.862129e-001
997625.000	8.120863e-001	-5.871719e-001
999620.000	8.115213e-001	-5.879759e-001
1001615.000	8.108409e-001	-5.891155e-001
1003610.000	8.101944e-001	-5.899345e-001
1005605.000	8.096522e-001	-5.909176e-001
1007600.000	8.089516e-001	-5.919115e-001
1009595.000	8.080530e-001	-5.928019e-001
1011590.000	8.072964e-001	-5.936465e-001
1013585.000	8.066934e-001	-5.945741e-001
1015580.000	8.060573e-001	-5.955217e-001
1017575.000	8.052055e-001	-5.964981e-001
1019570.000	8.047212e-001	-5.973753e-001
1021565.000	8.038452e-001	-5.984269e-001
1023560.000	8.030767e-001	-5.992066e-001
1025555.000	8.027541e-001	-6.001947e-001
1027550.000	8.015808e-001	-6.012432e-001
1029545.000	8.010229e-001	-6.022273e-001
1031540.000	8.006836e-001	-6.033975e-001
1033535.000	7.997724e-001	-6.042986e-001
1035530.000	7.991062e-001	-6.052563e-001
1037525.000	7.984810e-001	-6.056660e-001
