"# Channel 1"
"# Trace 1"
Frequency, Formatted Data, Formatted Data
+5.00000000000E+004, -1.17341041883E+003, -2.65170577473E+003
+5.19950000000E+004, -5.01871405896E+002, -2.95238638242E+003
+5.39900000000E+004, -3.44203099915E+002, -2.93480491913E+003
+5.59850000000E+004, -2.76427578053E+002, -2.81650795994E+003
+5.79800000000E+004, -2.14305420558E+002, -2.72662236603E+003
+5.99750000000E+004, -2.09759651435E+002, -2.61862022159E+003
+6.19700000000E+004, -1.78096048410E+002, -2.53702937467E+003
+6.39650000000E+004, -1.52137519528E+002, -2.44794781236E+003
+6.59600000000E+004, -1.23229956076E+002, -2.37231636780E+003
+6.79550000000E+004, -1.92073519566E+002, -2.29111934223E+003
+6.99500000000E+004, -1.59269298941E+002, -2.22448115494E+003
+7.19450000000E+004, -1.36020766577E+002, -2.14565169516E+003
+7.39400000000E+004, -1.28614250660E+002, -2.09976442976E+003
+7.59350000000E+004, -1.03649984091E+002, -2.03825603893E+003
+7.79300000000E+004, -1.03660516738E+002, -1.98470531815E+003
+7.99250000000E+004, -7.94391234283E+001, -1.93862291793E+003
+8.19200000000E+004, -7.66211954291E+001, -1.88491580320E+003
+8.39150000000E+004, -8.29488618802E+001, -1.83798891730E+003
+8.59100000000E+004, -7.77765034173E+001, -1.79291831134E+003
+8.79050000000E+004, -7.90000585529E+001, -1.75376547430E+003
+8.99000000000E+004, -7.86598935367E+001, -1.71402809262E+003
+9.18950000000E+004, -7.04045442743E+001, -1.67333277593E+003
+9.38900000000E+004, -6.07182850487E+001, -1.63714778213E+003
+9.58850000000E+004, -6.11142652581E+001, -1.60289054641E+003
+9.78800000000E+004, -5.86543765231E+001, -1.56595426371E+003
+9.98750000000E+004, -6.51296100003E+001, -1.53607814093E+003
+1.01870000000E+005, -6.06562728575E+001, -1.50791576358E+003
+1.03865000000E+005, -5.60467194559E+001, -1.47495374867E+003
+1.05860000000E+005, -5.59629451606E+001, -1.44467919606E+003
+1.07855000000E+005, -4.88251655973E+001, -1.42039893573E+003
+1.09850000000E+005, -4.53023911137E+001, -1.39583475336E+003
+1.11845000000E+005, -4.48600150194E+001, -1.36892088298E+003
+1.13840000000E+005, -4.88246583462E+001, -1.34202412091E+003
+1.15835000000E+005, -3.96040711281E+001, -1.32353563432E+003
+1.17830000000E+005, -3.75219187401E+001, -1.29935159092E+003
+1.19825000000E+005, -3.98732946311E+001, -1.27174421150E+003
+1.21820000000E+005, -3.81405522715E+001, -1.25606614698E+003
+1.23815000000E+005, -3.50832413766E+001, -1.23890348093E+003
+1.25810000000E+005, -3.46176659517E+001, -1.21703416380E+003
+1.27805000000E+005, -3.29458113681E+001, -1.19762977120E+003
+1.29800000000E+005, -3.15483602415E+001, -1.17828800285E+003
+1.31795000000E+005, -2.91114272945E+001, -1.15727184934E+003
+1.33790000000E+005, -3.67677993349E+001, -1.14298476317E+003
+1.35785000000E+005, -3.33360306876E+001, -1.12634017876E+003
+1.37780000000E+005, -3.12231259404E+001, -1.10677917121E+003
+1.39775000000E+005, -2.87401381219E+001, -1.09303336609E+003
+1.41770000000E+005, -2.94110304679E+001, -1.07994006691E+003
+1.43765000000E+005, -2.74398095082E+001, -1.06449407447E+003
+1.45760000000E+005, -2.39713983286E+001, -1.05097727334E+003
+1.47755000000E+005, -2.44128838514E+001, -1.03487906680E+003
+1.49750000000E+005, -2.41457215072E+001, -1.02086951775E+003
+1.51745000000E+005, -2.20425626017E+001, -1.00719331999E+003
+1.53740000000E+005, -2.08909769701E+001, -9.95719902357E+002
+1.55735000000E+005, -1.88112624261E+001, -9.83053434739E+002
+1.57730000000E+005, -2.15370344146E+001, -9.71567682511E+002
+1.59725000000E+005, -1.88722099963E+001, -9.60875217388E+002
+1.61720000000E+005, -1.92487964360E+001, -9.48574574086E+002
+1.63715000000E+005, -1.87819245381E+001, -9.35697566217E+002
+1.65710000000E+005, -1.75294057928E+001, -9.24042341926E+002
+1.67705000000E+005, -1.77383563278E+001, -9.13323837375E+002
+1.69700000000E+005, -1.90740137448E+001, -9.03803922041E+002
+1.71695000000E+005, -1.76924670164E+001, -8.94843978075E+002
+1.73690000000E+005, -1.63023166204E+001, -8.83749438261E+002
+1.75685000000E+005, -1.68131923504E+001, -8.73505362646E+002
+1.77680000000E+005, -1.70042045091E+001, -8.65749226199E+002
+1.79675000000E+005, -1.71692448629E+001, -8.53945355178E+002
+1.81670000000E+005, -1.48454156212E+001, -8.44114801980E+002
+1.83665000000E+005, -1.44134278388E+001, -8.35537673924E+002
+1.85660000000E+005, -1.33352092448E+001, -8.25695491635E+002
+1.87655000000E+005, -1.50020076700E+001, -8.18459737492E+002
+1.89650000000E+005, -1.42319147180E+001, -8.09807055590E+002
+1.91645000000E+005, -1.35296780258E+001, -8.01870011811E+002
+1.93640000000E+005, -1.19757517980E+001, -7.92453783615E+002
+1.95635000000E+005, -1.33384383614E+001, -7.85063163466E+002
+1.97630000000E+005, -1.18651625177E+001, -7.77691216441E+002
+1.99625000000E+005, -1.27814081064E+001, -7.70250056630E+002
+2.01620000000E+005, -1.44141257778E+001, -7.60618169729E+002
+2.03615000000E+005, -1.34094491596E+001, -7.54739504881E+002
+2.05610000000E+005, -1.28899502680E+001, -7.46541143154E+002
+2.07605000000E+005, -1.26291057405E+001, -7.40233370587E+002
+2.09600000000E+005, -1.17014787824E+001, -7.34063067431E+002
+2.11595000000E+005, -1.21989742167E+001, -7.26001567434E+002
+2.13590000000E+005, -1.17942205252E+001, -7.19839427523E+002
+2.15585000000E+005, -1.16839330502E+001, -7.12822658381E+002
+2.17580000000E+005, -1.11427999024E+001, -7.05850409114E+002
+2.19575000000E+005, -1.06093256828E+001, -6.99876869003E+002
+2.21570000000E+005, -1.00157405515E+001, -6.93239123966E+002
+2.23565000000E+005, -9.59376633527E+000, -6.88195079837E+002
+2.25560000000E+005, -9.63385818002E+000, -6.80356169444E+002
+2.27555000000E+005, -9.63181673277E+000, -6.75425044225E+002
+2.29550000000E+005, -9.29244452490E+000, -6.70819421644E+002
+2.31545000000E+005, -9.92816234832E+000, -6.64712167857E+002
+2.33540000000E+005, -9.56354525312E+000, -6.58587337006E+002
+2.35535000000E+005, -8.05971181307E+000, -6.53029728628E+002
+2.37530000000E+005, -8.52859970437E+000, -6.46734378938E+002
+2.39525000000E+005, -8.26019144417E+000, -6.42223110230E+002
+2.41520000000E+005, -8.26168705455E+000, -6.37379554659E+002
+2.43515000000E+005, -8.03872302644E+000, -6.31578408713E+002
+2.45510000000E+005, -8.34948919864E+000, -6.27364895807E+002
+2.47505000000E+005, -7.99135514688E+000, -6.21307916169E+002
+2.49500000000E+005, -7.07792424036E+000, -6.16594444774E+002
+2.51495000000E+005, -7.30623123352E+000, -6.11491338396E+002
+2.53490000000E+005, -7.08731354584E+000, -6.07117254180E+002
+2.55485000000E+005, -7.43097211460E+000, -6.02076001947E+002
+2.57480000000E+005, -7.04289249011E+000, -5.98059392012E+002
+2.59475000000E+005, -6.53231754136E+000, -5.93263527199E+002
+2.61470000000E+005, -7.00806914592E+000, -5.88464430643E+002
+2.63465000000E+005, -6.83242165804E+000, -5.84107846392E+002
+2.65460000000E+005, -8.04328073330E+000, -5.79103898626E+002
+2.67455000000E+005, -7.26217126953E+000, -5.75162080221E+002
+2.69450000000E+005, -7.41452955600E+000, -5.70971271909E+002
+2.71445000000E+005, -7.50164385981E+000, -5.66774869717E+002
+2.73440000000E+005, -7.05252257966E+000, -5.63142985270E+002
+2.75435000000E+005, -6.98418695759E+000, -5.58717048218E+002
+2.77430000000E+005, -7.33062106884E+000, -5.54596990045E+002
+2.79425000000E+005, -7.04626205883E+000, -5.50778639449E+002
+2.81420000000E+005, -6.99173219944E+000, -5.47317709424E+002
+2.83415000000E+005, -6.38941390479E+000, -5.43054113621E+002
+2.85410000000E+005, -6.10330166120E+000, -5.39226766749E+002
+2.87405000000E+005, -6.16475665138E+000, -5.36035467214E+002
+2.89400000000E+005, -5.91979608071E+000, -5.31638643565E+002
+2.91395000000E+005, -5.79784055488E+000, -5.28407147451E+002
+2.93390000000E+005, -5.96693990723E+000, -5.24837646004E+002
+2.95385000000E+005, -5.72934503585E+000, -5.21208061652E+002
+2.97380000000E+005, -5.78301362282E+000, -5.17892965780E+002
+2.99375000000E+005, -5.36012983150E+000, -5.13784095289E+002
+3.01370000000E+005, -5.45720393802E+000, -5.10568929425E+002
+3.03365000000E+005, -5.13034382657E+000, -5.07777756772E+002
+3.05360000000E+005, -4.95136467555E+000, -5.03867701865E+002
+3.07355000000E+005, -5.59282912522E+000, -5.01063044648E+002
+3.09350000000E+005, -5.25452496360E+000, -4.97967052074E+002
+3.11345000000E+005, -5.32984888004E+000, -4.94486677502E+002
+3.13340000000E+005, -4.96381546523E+000, -4.91388374103E+002
+3.15335000000E+005, -4.89441802132E+000, -4.88586070527E+002
+3.17330000000E+005, -4.62125246578E+000, -4.85611640104E+002
+3.19325000000E+005, -5.19212879794E+000, -4.82349530216E+002
+3.21320000000E+005, -5.03125665040E+000, -4.78990065670E+002
+3.23315000000E+005, -4.81365185314E+000, -4.76338491834E+002
+3.25310000000E+005, -4.42003999162E+000, -4.73755396866E+002
+3.27305000000E+005, -4.94181585813E+000, -4.71105008792E+002
+3.29300000000E+005, -4.88135747170E+000, -4.68043479734E+002
+3.31295000000E+005, -4.51648363461E+000, -4.65218253365E+002
+3.33290000000E+005, -4.13416466498E+000, -4.61899523988E+002
+3.35285000000E+005, -3.95950855156E+000, -4.59369396175E+002
+3.37280000000E+005, -4.44547864448E+000, -4.56848178766E+002
+3.39275000000E+005, -4.35739921430E+000, -4.53996209163E+002
+3.41270000000E+005, -4.20925785361E+000, -4.51968278356E+002
+3.43265000000E+005, -3.64150952403E+000, -4.48822058366E+002
+3.45260000000E+005, -3.57230714335E+000, -4.46117781135E+002
+3.47255000000E+005, -3.88905530082E+000, -4.43651498668E+002
+3.49250000000E+005, -4.07934707501E+000, -4.41124210998E+002
+3.51245000000E+005, -3.84324922156E+000, -4.38819861292E+002
+3.53240000000E+005, -4.22278674314E+000, -4.35966486250E+002
+3.55235000000E+005, -4.05482646829E+000, -4.33987311065E+002
+3.57230000000E+005, -3.79400785543E+000, -4.31481317762E+002
+3.59225000000E+005, -3.71684260561E+000, -4.28970686204E+002
+3.61220000000E+005, -3.93288657792E+000, -4.26585416215E+002
+3.63215000000E+005, -3.93269710635E+000, -4.24290846778E+002
+3.65210000000E+005, -3.71641848893E+000, -4.21953259141E+002
+3.67205000000E+005, -3.72642636468E+000, -4.19947625076E+002
+3.69200000000E+005, -3.67634439536E+000, -4.17404709711E+002
+3.71195000000E+005, -3.82727711240E+000, -4.14864921673E+002
+3.73190000000E+005, -3.55638492493E+000, -4.12625145336E+002
+3.75185000000E+005, -3.59454212144E+000, -4.10846055419E+002
+3.77180000000E+005, -3.68681862088E+000, -4.08756979867E+002
+3.79175000000E+005, -3.59599725982E+000, -4.06337031883E+002
+3.81170000000E+005, -3.03226552830E+000, -4.04239634466E+002
+3.83165000000E+005, -3.13351707565E+000, -4.02475308203E+002
+3.85160000000E+005, -3.30885817640E+000, -4.00046356639E+002
+3.87155000000E+005, -3.32003157432E+000, -3.98217878025E+002
+3.89150000000E+005, -3.55117690987E+000, -3.95941216077E+002
+3.91145000000E+005, -3.19001242327E+000, -3.93934982958E+002
+3.93140000000E+005, -3.32614711713E+000, -3.91980201681E+002
+3.95135000000E+005, -2.89997325689E+000, -3.89726034321E+002
+3.97130000000E+005, -3.18103245056E+000, -3.88096328537E+002
+3.99125000000E+005, -3.28226896006E+000, -3.86100217089E+002
+4.01120000000E+005, -3.69360152243E+000, -3.83819814840E+002
+4.03115000000E+005, -3.43408250278E+000, -3.82079573475E+002
+4.05110000000E+005, -3.31526675310E+000, -3.80226877794E+002
+4.07105000000E+005, -3.51919702763E+000, -3.78373085570E+002
+4.09100000000E+005, -3.21823946712E+000, -3.76734059703E+002
+4.11095000000E+005, -3.37417532782E+000, -3.74717376577E+002
+4.13090000000E+005, -3.36188698068E+000, -3.73133104163E+002
+4.15085000000E+005, -2.95477792855E+000, -3.71011790037E+002
+4.17080000000E+005, -2.92891774035E+000, -3.69197591370E+002
+4.19075000000E+005, -3.02404536711E+000, -3.67575001447E+002
+4.21070000000E+005, -3.05442817899E+000, -3.65881561838E+002
+4.23065000000E+005, -2.97595205511E+000, -3.64135030680E+002
+4.25060000000E+005, -2.73006548473E+000, -3.62509449163E+002
+4.27055000000E+005, -2.91457928936E+000, -3.60731876196E+002
+4.29050000000E+005, -2.70604939582E+000, -3.59078123806E+002
+4.31045000000E+005, -2.85546589407E+000, -3.57543951803E+002
+4.33040000000E+005, -2.63696264254E+000, -3.55651668695E+002
+4.35035000000E+005, -2.71647088727E+000, -3.54125969518E+002
+4.37030000000E+005, -2.50510350037E+000, -3.52594749614E+002
+4.39025000000E+005, -2.67676821337E+000, -3.51118642660E+002
+4.41020000000E+005, -2.74254172937E+000, -3.49467312411E+002
+4.43015000000E+005, -2.48152487121E+000, -3.47816597966E+002
+4.45010000000E+005, -2.72116224176E+000, -3.46232764176E+002
+4.47005000000E+005, -2.43889528484E+000, -3.44769500844E+002
+4.49000000000E+005, -2.64791680678E+000, -3.43152502718E+002
+4.50995000000E+005, -2.29219835213E+000, -3.41530897054E+002
+4.52990000000E+005, -2.58191953905E+000, -3.40148333919E+002
+4.54985000000E+005, -2.37513806658E+000, -3.38795679370E+002
+4.56980000000E+005, -2.28829582697E+000, -3.37192174283E+002
+4.58975000000E+005, -2.55936224283E+000, -3.35656733839E+002
+4.60970000000E+005, -2.50258118436E+000, -3.34315494757E+002
+4.62965000000E+005, -2.69662140630E+000, -3.32866888996E+002
+4.64960000000E+005, -2.26810304003E+000, -3.31533694062E+002
+4.66955000000E+005, -2.27473274462E+000, -3.30261711005E+002
+4.68950000000E+005, -2.32102859411E+000, -3.28607257580E+002
+4.70945000000E+005, -2.41354835263E+000, -3.27477030760E+002
+4.72940000000E+005, -2.41007867020E+000, -3.25685473230E+002
+4.74935000000E+005, -2.21956608215E+000, -3.24433473366E+002
+4.76930000000E+005, -2.27418847035E+000, -3.23191215089E+002
+4.78925000000E+005, -2.15321884591E+000, -3.21787331981E+002
+4.80920000000E+005, -2.13397845775E+000, -3.20434709376E+002
+4.82915000000E+005, -2.17220715525E+000, -3.19064892050E+002
+4.84910000000E+005, -2.11862026834E+000, -3.17559381975E+002
+4.86905000000E+005, -2.06162804954E+000, -3.16653674156E+002
+4.88900000000E+005, -1.95469170037E+000, -3.15368504617E+002
+4.90895000000E+005, -2.36748760447E+000, -3.13881286894E+002
+4.92890000000E+005, -2.12852841851E+000, -3.12769023124E+002
+4.94885000000E+005, -2.04595984619E+000, -3.11462705087E+002
+4.96880000000E+005, -2.09641591532E+000, -3.10037626231E+002
+4.98875000000E+005, -2.05691587977E+000, -3.08921502845E+002
+5.00870000000E+005, -2.39027311254E+000, -3.07594409380E+002
+5.02865000000E+005, -2.07694584224E+000, -3.06340771769E+002
+5.04860000000E+005, -1.95007516683E+000, -3.05054369870E+002
+5.06855000000E+005, -2.00972774065E+000, -3.04194354552E+002
+5.08850000000E+005, -1.93201386319E+000, -3.02900226832E+002
+5.10845000000E+005, -1.97475539629E+000, -3.01536176465E+002
+5.12840000000E+005, -1.96676488264E+000, -3.00475668411E+002
+5.14835000000E+005, -1.97904291552E+000, -2.99458867411E+002
+5.16830000000E+005, -1.88590177181E+000, -2.98049155009E+002
+5.18825000000E+005, -1.92222915034E+000, -2.96935280775E+002
+5.20820000000E+005, -1.78708461424E+000, -2.95889774996E+002
+5.22815000000E+005, -1.82285393146E+000, -2.94905468120E+002
+5.24810000000E+005, -1.91910265720E+000, -2.93692257489E+002
+5.26805000000E+005, -1.86880506383E+000, -2.92591040176E+002
+5.28800000000E+005, -1.85956260244E+000, -2.91593897123E+002
+5.30795000000E+005, -2.22995964931E+000, -2.90278088651E+002
+5.32790000000E+005, -2.05154678999E+000, -2.89129941626E+002
+5.34785000000E+005, -2.09281191929E+000, -2.88192981961E+002
+5.36780000000E+005, -1.90858965567E+000, -2.87020269471E+002
+5.38775000000E+005, -2.01929638343E+000, -2.86098173758E+002
+5.40770000000E+005, -1.85087821752E+000, -2.84974837892E+002
+5.42765000000E+005, -1.78618100089E+000, -2.83764808520E+002
+5.44760000000E+005, -1.87340839758E+000, -2.82822241401E+002
+5.46755000000E+005, -1.92977372469E+000, -2.81848106587E+002
+5.48750000000E+005, -1.88909275657E+000, -2.80755609622E+002
+5.50745000000E+005, -1.69922823817E+000, -2.79785157968E+002
+5.52740000000E+005, -1.72505497387E+000, -2.78904770900E+002
+5.54735000000E+005, -1.88363481212E+000, -2.77953003963E+002
+5.56730000000E+005, -1.60918141365E+000, -2.76892981201E+002
+5.58725000000E+005, -1.65953279201E+000, -2.75741113124E+002
+5.60720000000E+005, -1.67114215700E+000, -2.74881704585E+002
+5.62715000000E+005, -1.60914295038E+000, -2.73898639735E+002
+5.64710000000E+005, -1.63218148564E+000, -2.72891458002E+002
+5.66705000000E+005, -1.66271683992E+000, -2.72025185104E+002
+5.68700000000E+005, -1.59418824919E+000, -2.70951925900E+002
+5.70695000000E+005, -1.69217627354E+000, -2.70019466575E+002
+5.72690000000E+005, -1.52840784372E+000, -2.69138033661E+002
+5.74685000000E+005, -1.68299163757E+000, -2.68140974268E+002
+5.76680000000E+005, -1.50351173630E+000, -2.67236890094E+002
+5.78675000000E+005, -1.33912330583E+000, -2.66260199469E+002
+5.80670000000E+005, -1.56460086798E+000, -2.65375433013E+002
+5.82665000000E+005, -1.51792616136E+000, -2.64562727088E+002
+5.84660000000E+005, -1.54317112273E+000, -2.63614967661E+002
+5.86655000000E+005, -1.34111452356E+000, -2.62834706084E+002
+5.88650000000E+005, -1.47390007668E+000, -2.61776187787E+002
+5.90645000000E+005, -1.51153809633E+000, -2.61061442915E+002
+5.92640000000E+005, -1.50600038020E+000, -2.60115498951E+002
+5.94635000000E+005, -1.40942460579E+000, -2.59186496232E+002
+5.96630000000E+005, -1.42136844946E+000, -2.58345747868E+002
+5.98625000000E+005, -1.50424461666E+000, -2.57531780824E+002
+6.00620000000E+005, -1.33975739964E+000, -2.56527478055E+002
+6.02615000000E+005, -1.46252393754E+000, -2.55801583593E+002
+6.04610000000E+005, -1.49752882442E+000, -2.54936653234E+002
+6.06605000000E+005, -1.49227926309E+000, -2.54077127663E+002
+6.08600000000E+005, -1.44183172912E+000, -2.53108444883E+002
+6.10595000000E+005, -1.42035127152E+000, -2.52504922515E+002
+6.12590000000E+005, -1.38443558275E+000, -2.51451613958E+002
+6.14585000000E+005, -1.29197547833E+000, -2.50726595259E+002
+6.16580000000E+005, -1.36196259708E+000, -2.49933405408E+002
+6.18575000000E+005, -1.45810535346E+000, -2.49120419744E+002
+6.20570000000E+005, -1.44178849660E+000, -2.48386969911E+002
+6.22565000000E+005, -1.36044733584E+000, -2.47534512284E+002
+6.24560000000E+005, -1.29008867352E+000, -2.46717543940E+002
+6.26555000000E+005, -1.39360540440E+000, -2.45992611313E+002
+6.28550000000E+005, -1.38628990070E+000, -2.45245504083E+002
+6.30545000000E+005, -1.30322649139E+000, -2.44361825101E+002
+6.32540000000E+005, -1.31341170422E+000, -2.43723589138E+002
+6.34535000000E+005, -1.34884771744E+000, -2.42760137623E+002
+6.36530000000E+005, -1.25910204224E+000, -2.42141558148E+002
+6.38525000000E+005, -1.21401552225E+000, -2.41359625692E+002
+6.40520000000E+005, -1.52883437869E+000, -2.40549956360E+002
+6.42515000000E+005, -1.32742715961E+000, -2.39885396149E+002
+6.44510000000E+005, -1.41639760417E+000, -2.39089028775E+002
+6.46505000000E+005, -1.30516236819E+000, -2.38405555318E+002
+6.48500000000E+005, -1.37612826743E+000, -2.37505723276E+002
+6.50495000000E+005, -1.28062835304E+000, -2.37057653938E+002
+6.52490000000E+005, -1.49939593629E+000, -2.36087142011E+002
+6.54485000000E+005, -1.23930025836E+000, -2.35305404536E+002
+6.56480000000E+005, -1.28639923798E+000, -2.34767142811E+002
+6.58475000000E+005, -1.22079870268E+000, -2.34054968809E+002
+6.60470000000E+005, -1.21449829839E+000, -2.33345032005E+002
+6.62465000000E+005, -1.29255796974E+000, -2.32736663097E+002
+6.64460000000E+005, -1.35657439396E+000, -2.31926907719E+002
+6.66455000000E+005, -1.10216256987E+000, -2.31308040660E+002
+6.68450000000E+005, -1.27217136503E+000, -2.30589829551E+002
+6.70445000000E+005, -1.23251159206E+000, -2.29888171631E+002
+6.72440000000E+005, -1.21516358091E+000, -2.29276178943E+002
+6.74435000000E+005, -1.24707087463E+000, -2.28574062190E+002
+6.76430000000E+005, -1.25451105214E+000, -2.27811947712E+002
+6.78425000000E+005, -1.20951000722E+000, -2.27237518643E+002
+6.80420000000E+005, -1.14735821880E+000, -2.26564695021E+002
+6.82415000000E+005, -1.12730016087E+000, -2.25911724944E+002
+6.84410000000E+005, -1.13533664933E+000, -2.25226430377E+002
+6.86405000000E+005, -1.17532193285E+000, -2.24622740595E+002
+6.88400000000E+005, -1.20159265654E+000, -2.23914422418E+002
