!Keysight Technologies,E5063A,MY54100949,A.07.00
!Date: Tue Oct 17 15:48:09 2023
!Data & Calibration Information:
!Freq	S11:SOLT2(ON)
# Hz S RI R 50
50000.000	-8.162946e-001	-1.263206e-002
149750.000	-8.097005e-001	2.954823e-003
249500.000	-8.134356e-001	6.421325e-003
349250.000	-8.132739e-001	4.890748e-003
449000.000	-8.121080e-001	9.550447e-003
548750.000	-8.116712e-001	9.878042e-003
648500.000	-8.126000e-001	1.041663e-002
748250.000	-8.137560e-001	1.417372e-002
848000.000	-8.107451e-001	1.715156e-002
947750.000	-8.115484e-001	1.777088e-002
1047500.000	-8.112845e-001	1.771870e-002
1147250.000	-8.118110e-001	2.122017e-002
1247000.000	-8.125980e-001	2.317646e-002
1346750.000	-8.131822e-001	2.514494e-002
1446500.000	-8.132499e-001	2.483138e-002
1546250.000	-8.127587e-001	2.654071e-002
1646000.000	-8.121489e-001	2.983369e-002
1745750.000	-8.122142e-001	2.933501e-002
1845500.000	-8.135256e-001	3.191708e-002
1945250.000	-8.130126e-001	3.378537e-002
2045000.000	-8.120105e-001	3.442984e-002
2144750.000	-8.123159e-001	3.497129e-002
2244500.000	-8.134731e-001	3.877868e-002
2344250.000	-8.117153e-001	4.110831e-002
2444000.000	-8.136687e-001	4.097336e-002
2543750.000	-8.113651e-001	4.325795e-002
2643500.000	-8.149508e-001	4.339806e-002
2743250.000	-8.106148e-001	4.462777e-002
2843000.000	-8.112277e-001	4.580690e-002
2942750.000	-8.113645e-001	4.833906e-002
3042500.000	-8.126484e-001	5.029104e-002
3142250.000	-8.109001e-001	5.104771e-002
3242000.000	-8.103441e-001	5.405929e-002
3341750.000	-8.107811e-001	5.576435e-002
3441500.000	-8.095552e-001	5.740182e-002
3541250.000	-8.103955e-001	5.724203e-002
3641000.000	-8.102070e-001	6.117623e-002
3740750.000	-8.100581e-001	6.179748e-002
3840500.000	-8.095418e-001	6.289127e-002
3940250.000	-8.104661e-001	6.482718e-002
4040000.000	-8.098604e-001	6.689360e-002
4139750.000	-8.095879e-001	6.685120e-002
4239500.000	-8.105814e-001	6.819391e-002
4339250.000	-8.088125e-001	7.070992e-002
4439000.000	-8.088689e-001	7.204454e-002
4538750.000	-8.090276e-001	7.222470e-002
4638500.000	-8.086068e-001	7.412583e-002
4738250.000	-8.107556e-001	7.644648e-002
4838000.000	-8.094826e-001	7.962885e-002
4937750.000	-8.085857e-001	7.973912e-002
5037500.000	-8.095511e-001	8.147870e-002
5137250.000	-8.075515e-001	8.311862e-002
5237000.000	-8.074450e-001	8.486624e-002
5336750.000	-8.072625e-001	8.646369e-002
5436500.000	-8.069806e-001	8.843760e-002
5536250.000	-8.078755e-001	9.043290e-002
5636000.000	-8.080049e-001	9.122062e-002
5735750.000	-8.060017e-001	9.061085e-002
5835500.000	-8.081237e-001	9.450995e-002
5935250.000	-8.069233e-001	9.532582e-002
6035000.000	-8.075863e-001	9.647183e-002
6134750.000	-8.054511e-001	9.812001e-002
6234500.000	-8.060951e-001	1.003202e-001
6334250.000	-8.063608e-001	1.007442e-001
6434000.000	-8.062425e-001	1.028195e-001
6533750.000	-8.064287e-001	1.036655e-001
6633500.000	-8.066229e-001	1.061599e-001
6733250.000	-8.066335e-001	1.063007e-001
6833000.000	-8.057393e-001	1.105787e-001
6932750.000	-8.050045e-001	1.110668e-001
7032500.000	-8.051217e-001	1.120078e-001
7132250.000	-8.046854e-001	1.139617e-001
7232000.000	-8.038215e-001	1.165093e-001
7331750.000	-8.027076e-001	1.175938e-001
7431500.000	-8.030862e-001	1.184647e-001
7531250.000	-8.041574e-001	1.193614e-001
7631000.000	-8.018648e-001	1.196520e-001
7730750.000	-8.039242e-001	1.228068e-001
7830500.000	-8.026153e-001	1.235952e-001
7930250.000	-8.029863e-001	1.245396e-001
8030000.000	-8.022089e-001	1.281092e-001
8129750.000	-8.016590e-001	1.309732e-001
8229500.000	-8.012961e-001	1.300752e-001
8329250.000	-8.013730e-001	1.310768e-001
8429000.000	-8.009078e-001	1.332995e-001
8528750.000	-8.016173e-001	1.344831e-001
8628500.000	-8.010286e-001	1.365230e-001
8728250.000	-8.010335e-001	1.378590e-001
8828000.000	-8.003918e-001	1.384390e-001
8927750.000	-7.996496e-001	1.407689e-001
9027500.000	-7.996491e-001	1.421458e-001
9127250.000	-7.999306e-001	1.433626e-001
9227000.000	-7.991505e-001	1.455191e-001
9326750.000	-7.996619e-001	1.470976e-001
9426500.000	-7.984400e-001	1.482238e-001
9526250.000	-7.989217e-001	1.500364e-001
9626000.000	-7.984901e-001	1.512902e-001
9725750.000	-7.982905e-001	1.531233e-001
9825500.000	-7.973094e-001	1.538958e-001
9925250.000	-7.968375e-001	1.555877e-001
10025000.000	-7.969238e-001	1.570178e-001
10124750.000	-7.964986e-001	1.583447e-001
10224500.000	-7.961161e-001	1.599848e-001
10324250.000	-7.961392e-001	1.610993e-001
10424000.000	-7.958764e-001	1.636459e-001
10523750.000	-7.953785e-001	1.647537e-001
10623500.000	-7.950382e-001	1.665199e-001
10723250.000	-7.946841e-001	1.679004e-001
10823000.000	-7.951100e-001	1.697316e-001
10922750.000	-7.940515e-001	1.711720e-001
11022500.000	-7.945449e-001	1.723515e-001
11122250.000	-7.928417e-001	1.734789e-001
11222000.000	-7.932102e-001	1.751871e-001
11321750.000	-7.935739e-001	1.767223e-001
11421500.000	-7.929047e-001	1.782701e-001
11521250.000	-7.921757e-001	1.799469e-001
11621000.000	-7.921255e-001	1.807323e-001
11720750.000	-7.916189e-001	1.824222e-001
11820500.000	-7.918745e-001	1.839366e-001
11920250.000	-7.913840e-001	1.853668e-001
12020000.000	-7.906153e-001	1.878597e-001
12119750.000	-7.906468e-001	1.884289e-001
12219500.000	-7.905462e-001	1.896572e-001
12319250.000	-7.908686e-001	1.918332e-001
12419000.000	-7.900132e-001	1.927861e-001
12518750.000	-7.887772e-001	1.940757e-001
12618500.000	-7.888047e-001	1.962819e-001
12718250.000	-7.888545e-001	1.974294e-001
12818000.000	-7.871026e-001	1.989513e-001
12917750.000	-7.872400e-001	2.006625e-001
13017500.000	-7.872654e-001	2.020610e-001
13117250.000	-7.868115e-001	2.030811e-001
13217000.000	-7.861533e-001	2.047938e-001
13316750.000	-7.858135e-001	2.069087e-001
13416500.000	-7.853700e-001	2.079703e-001
13516250.000	-7.845809e-001	2.093242e-001
13616000.000	-7.846454e-001	2.104748e-001
13715750.000	-7.843849e-001	2.120958e-001
13815500.000	-7.838057e-001	2.135243e-001
13915250.000	-7.829511e-001	2.155652e-001
14015000.000	-7.837027e-001	2.160994e-001
14114750.000	-7.834407e-001	2.182148e-001
14214500.000	-7.821331e-001	2.194772e-001
14314250.000	-7.825573e-001	2.208835e-001
14414000.000	-7.821332e-001	2.227686e-001
14513750.000	-7.807202e-001	2.241057e-001
14613500.000	-7.806222e-001	2.255611e-001
14713250.000	-7.802263e-001	2.269506e-001
14813000.000	-7.789210e-001	2.274955e-001
14912750.000	-7.794701e-001	2.298646e-001
15012500.000	-7.794583e-001	2.312557e-001
15112250.000	-7.791973e-001	2.322156e-001
15212000.000	-7.783732e-001	2.335601e-001
15311750.000	-7.777854e-001	2.348961e-001
15411500.000	-7.771437e-001	2.362357e-001
15511250.000	-7.763661e-001	2.383940e-001
15611000.000	-7.764429e-001	2.391060e-001
15710750.000	-7.761444e-001	2.413085e-001
15810500.000	-7.760860e-001	2.420900e-001
15910250.000	-7.754794e-001	2.438956e-001
16010000.000	-7.744331e-001	2.455060e-001
16109750.000	-7.745969e-001	2.469229e-001
16209500.000	-7.736148e-001	2.475858e-001
16309250.000	-7.737959e-001	2.494184e-001
16409000.000	-7.728305e-001	2.516142e-001
16508750.000	-7.723700e-001	2.529944e-001
16608500.000	-7.715680e-001	2.542949e-001
16708250.000	-7.711319e-001	2.557441e-001
16808000.000	-7.710088e-001	2.567128e-001
16907750.000	-7.702424e-001	2.583635e-001
17007500.000	-7.698491e-001	2.595457e-001
17107250.000	-7.695044e-001	2.609290e-001
17207000.000	-7.693784e-001	2.630774e-001
17306750.000	-7.681204e-001	2.643079e-001
17406500.000	-7.675194e-001	2.652002e-001
17506250.000	-7.685214e-001	2.670994e-001
17606000.000	-7.664779e-001	2.688879e-001
17705750.000	-7.671682e-001	2.697503e-001
17805500.000	-7.660089e-001	2.711546e-001
17905250.000	-7.651872e-001	2.725709e-001
18005000.000	-7.651522e-001	2.737345e-001
18104750.000	-7.642388e-001	2.746301e-001
18204500.000	-7.637353e-001	2.769496e-001
18304250.000	-7.634785e-001	2.783421e-001
18404000.000	-7.634053e-001	2.797668e-001
18503750.000	-7.624155e-001	2.808489e-001
18603500.000	-7.624161e-001	2.822743e-001
18703250.000	-7.609636e-001	2.838528e-001
18803000.000	-7.606358e-001	2.858921e-001
18902750.000	-7.603882e-001	2.862873e-001
19002500.000	-7.603740e-001	2.875035e-001
19102250.000	-7.591165e-001	2.892822e-001
19202000.000	-7.589340e-001	2.912013e-001
19301750.000	-7.582920e-001	2.924346e-001
19401500.000	-7.577412e-001	2.935280e-001
19501250.000	-7.573984e-001	2.947312e-001
19601000.000	-7.563206e-001	2.966832e-001
19700750.000	-7.561862e-001	2.986067e-001
19800500.000	-7.562415e-001	2.993570e-001
19900250.000	-7.546671e-001	3.009547e-001
20000000.000	-7.549102e-001	3.025445e-001
