!Keysight Technologies,E5063A,MY54100949,A.07.30
!Date: Mon Dec 22 22:01:05 2025
!Data & Calibration Information:
!Freq	S11:SOLT2(ON)	S21:SOLT2(ON)	S12:SOLT2(ON)	S22:SOLT2(ON)
# Hz S dB R 50
50000.000	-3.562910e+001	-1.289988e+001	-2.546171e+001	7.228886e+001	-3.247891e+001	-5.900960e+001	-4.098407e+001	-9.693096e+001
349995.000	-3.583494e+001	-5.096361e+000	-4.000811e+001	-6.144167e-001	-3.999507e+001	-2.871819e-001	-5.344153e+001	-1.229915e+001
649990.000	-3.593803e+001	-3.450454e+000	-3.990566e+001	-7.555440e-001	-3.982114e+001	-5.664253e-001	-5.053227e+001	-1.137485e+001
949985.000	-3.515554e+001	-8.763035e-001	-3.995751e+001	-3.544781e-001	-3.987706e+001	-9.391222e-001	-5.004608e+001	-5.045112e+000
1249980.000	-3.572621e+001	-7.665965e-001	-3.997948e+001	-5.902840e-001	-3.992795e+001	-1.820493e-001	-4.942009e+001	-1.656392e+001
1549975.000	-3.566933e+001	-3.436425e+000	-3.996539e+001	-1.060343e+000	-3.991094e+001	-6.473933e-001	-4.937321e+001	-7.160321e+000
1849970.000	-3.577422e+001	-2.345015e+000	-3.992581e+001	-6.382049e-001	-3.988024e+001	-8.393128e-001	-4.842418e+001	-4.149637e+000
2149965.000	-3.584352e+001	-1.727015e+000	-3.993751e+001	-7.244200e-001	-3.989552e+001	-1.102687e+000	-4.908886e+001	-7.327181e+000
2449960.000	-3.547679e+001	-3.723916e+000	-3.999172e+001	-1.237786e+000	-3.994021e+001	-9.509738e-001	-5.062109e+001	-6.851238e+000
2749955.000	-3.600344e+001	-1.558566e+000	-3.990887e+001	-9.432054e-001	-3.980708e+001	-1.006058e+000	-4.834976e+001	-3.142691e+000
3049950.000	-3.592799e+001	-2.740801e+000	-3.988146e+001	-1.352181e+000	-3.988667e+001	-1.190308e+000	-5.148056e+001	-2.529759e+000
3349945.000	-3.556472e+001	8.026723e-001	-3.990712e+001	-1.342524e+000	-3.991493e+001	-1.836346e+000	-4.870070e+001	2.766508e+000
3649940.000	-3.564385e+001	-1.731196e+000	-3.991055e+001	-1.169083e+000	-3.995841e+001	-8.330744e-001	-4.926824e+001	2.096777e+000
3949935.000	-3.535093e+001	-1.045597e+000	-3.991427e+001	-1.767048e+000	-3.983634e+001	-1.854496e+000	-4.866097e+001	-2.058072e+000
4249930.000	-3.549206e+001	-1.024924e+000	-3.992897e+001	-1.528563e+000	-3.991042e+001	-2.198290e+000	-4.923517e+001	-2.812383e+000
4549925.000	-3.573150e+001	-2.703433e+000	-3.997423e+001	-1.390752e+000	-3.990143e+001	-1.187743e+000	-4.902336e+001	3.584899e-001
4849920.000	-3.549994e+001	-1.987068e+000	-3.987177e+001	-2.419786e+000	-3.994493e+001	-1.324670e+000	-4.918723e+001	3.440580e+000
5149915.000	-3.571992e+001	-2.305179e+000	-3.984470e+001	-1.967597e+000	-3.984210e+001	-2.149103e+000	-4.978731e+001	1.416877e+000
5449910.000	-3.542450e+001	-6.324336e-001	-3.995752e+001	-2.254352e+000	-3.996807e+001	-2.175241e+000	-4.845855e+001	5.692638e+000
5749905.000	-3.559099e+001	-2.170345e+000	-3.991513e+001	-1.923810e+000	-3.981685e+001	-2.112648e+000	-5.118953e+001	-5.070568e-001
6049900.000	-3.510744e+001	-7.868398e-001	-3.985730e+001	-2.261975e+000	-3.984826e+001	-2.323068e+000	-4.736122e+001	-4.922774e+000
6349895.000	-3.557326e+001	-1.308738e+000	-3.993791e+001	-2.251691e+000	-3.990308e+001	-1.710064e+000	-4.770673e+001	5.780727e+000
6649890.000	-3.568608e+001	-3.982638e+000	-3.991822e+001	-2.594372e+000	-3.989195e+001	-2.761524e+000	-4.829468e+001	3.748216e+000
6949885.000	-3.574104e+001	-1.308642e+000	-3.994824e+001	-2.715915e+000	-3.988383e+001	-2.739837e+000	-4.922961e+001	-3.466233e+000
7249880.000	-3.552828e+001	-2.113268e+000	-3.992186e+001	-2.663652e+000	-3.989737e+001	-2.921166e+000	-4.901695e+001	6.375269e+000
7549875.000	-3.555616e+001	-1.734037e+000	-3.991024e+001	-2.168497e+000	-3.992450e+001	-2.919227e+000	-4.700502e+001	6.260381e+000
7849870.000	-3.521495e+001	-1.289653e+000	-3.986115e+001	-2.925618e+000	-3.997863e+001	-2.746053e+000	-4.974060e+001	6.053767e+000
8149865.000	-3.559306e+001	-1.584635e+000	-4.000390e+001	-2.882415e+000	-3.987972e+001	-2.709942e+000	-4.914684e+001	8.354884e+000
8449860.000	-3.571595e+001	-6.523539e-001	-3.988244e+001	-3.039524e+000	-3.988345e+001	-3.068267e+000	-4.764937e+001	1.180511e+001
8749855.000	-3.540862e+001	-1.548386e+000	-3.987308e+001	-3.196495e+000	-3.989702e+001	-3.218703e+000	-4.883790e+001	6.480143e+000
9049850.000	-3.543365e+001	-1.435197e-001	-3.989889e+001	-3.282647e+000	-3.987470e+001	-3.323444e+000	-4.864628e+001	1.041261e+001
9349845.000	-3.542640e+001	-7.725878e-001	-3.988423e+001	-3.434334e+000	-3.986893e+001	-3.404864e+000	-4.851088e+001	8.696205e+000
9649840.000	-3.552238e+001	-3.590635e-001	-3.990080e+001	-3.576657e+000	-3.988013e+001	-3.425408e+000	-4.840976e+001	9.580941e+000
9949835.000	-3.541038e+001	-6.388559e-001	-3.988018e+001	-3.556228e+000	-3.988673e+001	-3.630033e+000	-4.900591e+001	9.698617e+000
10249830.000	-3.554961e+001	-8.463281e-001	-3.988979e+001	-3.725374e+000	-3.991051e+001	-3.652353e+000	-4.873826e+001	8.293242e+000
10549825.000	-3.556242e+001	-1.417445e+000	-3.987733e+001	-3.871490e+000	-3.990360e+001	-3.854335e+000	-4.914789e+001	1.022245e+001
10849820.000	-3.553466e+001	-1.172637e+000	-3.988364e+001	-4.031666e+000	-3.990304e+001	-3.980509e+000	-4.956788e+001	8.366037e+000
11149815.000	-3.551656e+001	-1.589841e-001	-3.991242e+001	-4.027734e+000	-3.988219e+001	-4.071083e+000	-4.871485e+001	1.172310e+001
11449810.000	-3.550331e+001	-5.289416e-001	-3.988993e+001	-4.201307e+000	-3.988665e+001	-4.173085e+000	-4.822105e+001	1.101595e+001
11749805.000	-3.547354e+001	-7.423260e-001	-3.988576e+001	-4.286998e+000	-3.987093e+001	-4.212023e+000	-4.925161e+001	1.282639e+001
12049800.000	-3.548982e+001	-1.368157e+000	-3.988796e+001	-4.360533e+000	-3.990195e+001	-4.382545e+000	-4.792782e+001	1.179227e+001
12349795.000	-3.539454e+001	-3.683932e-001	-3.989712e+001	-4.348463e+000	-3.989692e+001	-4.455819e+000	-4.810788e+001	1.005946e+001
12649790.000	-3.534344e+001	-1.759413e-001	-3.990583e+001	-4.673825e+000	-3.987386e+001	-4.537092e+000	-4.827407e+001	1.252412e+001
12949785.000	-3.536143e+001	-1.088433e+000	-3.990732e+001	-4.727970e+000	-3.988409e+001	-4.701858e+000	-4.782409e+001	1.128640e+001
13249780.000	-3.554230e+001	-1.275424e+000	-3.989756e+001	-4.864541e+000	-3.988220e+001	-4.710437e+000	-4.861328e+001	1.312763e+001
13549775.000	-3.548395e+001	-1.107316e-001	-3.990607e+001	-4.962690e+000	-3.989168e+001	-4.841213e+000	-4.764488e+001	1.284751e+001
13849770.000	-3.544962e+001	-1.279695e+000	-3.990542e+001	-5.087422e+000	-3.988444e+001	-4.985947e+000	-4.795187e+001	1.145357e+001
14149765.000	-3.548877e+001	-8.018364e-001	-3.989876e+001	-5.128397e+000	-3.989399e+001	-5.033604e+000	-4.825681e+001	1.564383e+001
14449760.000	-3.544176e+001	-1.098510e+000	-3.988914e+001	-5.256463e+000	-3.988645e+001	-5.227892e+000	-4.770605e+001	1.634458e+001
14749755.000	-3.538902e+001	-7.956192e-001	-3.990395e+001	-5.372260e+000	-3.988212e+001	-5.339631e+000	-4.833167e+001	1.073061e+001
15049750.000	-3.540795e+001	-5.501571e-001	-3.989060e+001	-5.401316e+000	-3.988407e+001	-5.381022e+000	-4.792655e+001	1.498413e+001
15349745.000	-3.563333e+001	-6.598038e-001	-3.990607e+001	-5.562463e+000	-3.988854e+001	-5.526594e+000	-4.798794e+001	1.582178e+001
15649740.000	-3.560840e+001	3.306979e-001	-3.988415e+001	-5.707674e+000	-3.990472e+001	-5.653677e+000	-4.798891e+001	1.384729e+001
15949735.000	-3.554969e+001	-6.610964e-001	-3.991509e+001	-5.688511e+000	-3.988587e+001	-5.745164e+000	-4.825637e+001	1.744313e+001
16249730.000	-3.538960e+001	1.706461e-001	-3.989311e+001	-5.898096e+000	-3.988977e+001	-5.923129e+000	-4.854871e+001	1.469341e+001
16549725.000	-3.544862e+001	7.988491e-001	-3.989432e+001	-5.914972e+000	-3.989243e+001	-5.909787e+000	-4.756936e+001	1.637633e+001
16849720.000	-3.545556e+001	-7.230515e-002	-3.990091e+001	-6.090635e+000	-3.990130e+001	-5.991516e+000	-4.812427e+001	1.806753e+001
17149715.000	-3.535587e+001	-3.171689e-001	-3.989077e+001	-6.262905e+000	-3.988458e+001	-6.156647e+000	-4.747927e+001	1.793299e+001
17449710.000	-3.532010e+001	-7.845262e-001	-3.989431e+001	-6.293419e+000	-3.988458e+001	-6.335850e+000	-4.795371e+001	1.982344e+001
17749705.000	-3.535856e+001	-7.753770e-002	-3.990223e+001	-6.457333e+000	-3.989542e+001	-6.348840e+000	-4.786456e+001	1.789913e+001
18049700.000	-3.538401e+001	-5.245424e-002	-3.987681e+001	-6.584245e+000	-3.989900e+001	-6.483531e+000	-4.725105e+001	1.763093e+001
18349695.000	-3.533373e+001	-4.941545e-001	-3.988521e+001	-6.620770e+000	-3.988402e+001	-6.535101e+000	-4.765598e+001	1.865842e+001
18649690.000	-3.550730e+001	-4.818755e-001	-3.990729e+001	-6.819770e+000	-3.989875e+001	-6.713215e+000	-4.740263e+001	1.544520e+001
18949685.000	-3.531599e+001	1.812522e-001	-3.989671e+001	-6.858513e+000	-3.989299e+001	-6.858638e+000	-4.762257e+001	1.863452e+001
19249680.000	-3.539980e+001	1.210277e-001	-3.989927e+001	-6.989658e+000	-3.989585e+001	-6.920632e+000	-4.772825e+001	1.767239e+001
19549675.000	-3.540635e+001	1.007076e-001	-3.988963e+001	-6.995868e+000	-3.989382e+001	-7.075232e+000	-4.764936e+001	2.015146e+001
19849670.000	-3.538133e+001	-2.954250e-001	-3.989899e+001	-7.086197e+000	-3.988941e+001	-7.145579e+000	-4.744357e+001	1.905929e+001
20149665.000	-3.535471e+001	-2.601837e-001	-3.989489e+001	-7.296052e+000	-3.990491e+001	-7.210998e+000	-4.732588e+001	1.847638e+001
20449660.000	-3.530184e+001	-5.515742e-001	-3.989420e+001	-7.374245e+000	-3.987317e+001	-7.381197e+000	-4.746961e+001	1.881235e+001
20749655.000	-3.529312e+001	-6.793407e-001	-3.989466e+001	-7.510086e+000	-3.990902e+001	-7.468311e+000	-4.727032e+001	1.761738e+001
21049650.000	-3.532170e+001	-5.161678e-001	-3.990017e+001	-7.640078e+000	-3.989732e+001	-7.440119e+000	-4.715403e+001	2.122749e+001
21349645.000	-3.524391e+001	3.280757e-001	-3.988164e+001	-7.666644e+000	-3.989936e+001	-7.633156e+000	-4.695324e+001	1.775788e+001
21649640.000	-3.555216e+001	-1.218049e-001	-3.990003e+001	-7.826675e+000	-3.989098e+001	-7.739181e+000	-4.733856e+001	2.132209e+001
21949635.000	-3.538276e+001	-1.840583e-001	-3.989865e+001	-7.960378e+000	-3.988008e+001	-7.817311e+000	-4.754340e+001	1.875232e+001
22249630.000	-3.529431e+001	-1.285737e-001	-3.988771e+001	-7.969940e+000	-3.989196e+001	-7.961001e+000	-4.753688e+001	1.823732e+001
22549625.000	-3.529801e+001	-7.674388e-002	-3.988368e+001	-8.241220e+000	-3.988342e+001	-8.074520e+000	-4.709316e+001	1.913839e+001
22849620.000	-3.530731e+001	8.845690e-001	-3.989822e+001	-8.235617e+000	-3.989764e+001	-8.095392e+000	-4.763447e+001	1.793092e+001
23149615.000	-3.543039e+001	-1.258478e+000	-3.991133e+001	-8.390068e+000	-3.989369e+001	-8.229081e+000	-4.706632e+001	1.989485e+001
23449610.000	-3.522550e+001	-7.427662e-002	-3.990456e+001	-8.418886e+000	-3.989230e+001	-8.470813e+000	-4.721358e+001	2.174624e+001
23749605.000	-3.536743e+001	1.160499e-002	-3.989012e+001	-8.524284e+000	-3.989343e+001	-8.448246e+000	-4.705379e+001	1.885002e+001
24049600.000	-3.530414e+001	-7.056041e-001	-3.989017e+001	-8.648160e+000	-3.987661e+001	-8.505018e+000	-4.677139e+001	2.225295e+001
24349595.000	-3.537746e+001	-5.759036e-001	-3.988616e+001	-8.823035e+000	-3.987609e+001	-8.763275e+000	-4.743677e+001	2.272225e+001
24649590.000	-3.530881e+001	-1.244552e-001	-3.989512e+001	-8.877906e+000	-3.990957e+001	-8.743996e+000	-4.721157e+001	2.517614e+001
24949585.000	-3.530229e+001	4.409076e-001	-3.990469e+001	-8.983524e+000	-3.989367e+001	-8.870842e+000	-4.696494e+001	2.410493e+001
25249580.000	-3.524146e+001	-6.170384e-001	-3.988856e+001	-9.107061e+000	-3.990040e+001	-9.110903e+000	-4.735897e+001	1.860438e+001
25549575.000	-3.533291e+001	1.629102e-001	-3.988485e+001	-9.192944e+000	-3.988081e+001	-9.134365e+000	-4.714929e+001	2.023603e+001
25849570.000	-3.546467e+001	-4.844077e-001	-3.989847e+001	-9.356053e+000	-3.989459e+001	-9.241300e+000	-4.715378e+001	2.220018e+001
26149565.000	-3.531156e+001	-1.319023e-001	-3.989145e+001	-9.440325e+000	-3.989762e+001	-9.416822e+000	-4.682687e+001	2.141600e+001
26449560.000	-3.537257e+001	3.012870e-001	-3.989341e+001	-9.503609e+000	-3.989349e+001	-9.484253e+000	-4.681913e+001	2.156433e+001
26749555.000	-3.525682e+001	-3.653660e-001	-3.989283e+001	-9.659382e+000	-3.988750e+001	-9.629320e+000	-4.689411e+001	2.340528e+001
27049550.000	-3.525983e+001	2.964571e-001	-3.990245e+001	-9.778115e+000	-3.988657e+001	-9.658668e+000	-4.668986e+001	2.351966e+001
27349545.000	-3.533062e+001	-7.165485e-003	-3.987711e+001	-9.836099e+000	-3.989440e+001	-9.779376e+000	-4.727618e+001	2.559181e+001
27649540.000	-3.518607e+001	5.253182e-001	-3.990084e+001	-9.993845e+000	-3.989264e+001	-9.906541e+000	-4.659238e+001	2.347286e+001
27949535.000	-3.536317e+001	-5.987028e-001	-3.990058e+001	-1.012256e+001	-3.987316e+001	-1.003702e+001	-4.694222e+001	2.100822e+001
28249530.000	-3.537637e+001	-1.731273e-001	-3.989255e+001	-1.017867e+001	-3.989084e+001	-1.008918e+001	-4.668376e+001	2.543277e+001
28549525.000	-3.538031e+001	-2.980116e-001	-3.989148e+001	-1.029355e+001	-3.988726e+001	-1.022413e+001	-4.664128e+001	2.223786e+001
28849520.000	-3.538268e+001	-7.748907e-001	-3.989875e+001	-1.038069e+001	-3.988767e+001	-1.034605e+001	-4.666462e+001	2.225154e+001
29149515.000	-3.543489e+001	3.643108e-001	-3.989576e+001	-1.046205e+001	-3.989376e+001	-1.051320e+001	-4.682928e+001	2.472427e+001
29449510.000	-3.536158e+001	-1.061878e+000	-3.989901e+001	-1.061172e+001	-3.989659e+001	-1.054797e+001	-4.674960e+001	2.518985e+001
29749505.000	-3.531789e+001	-4.692377e-001	-3.988764e+001	-1.062079e+001	-3.989463e+001	-1.074337e+001	-4.677947e+001	2.195939e+001
30049500.000	-3.533783e+001	5.530489e-002	-3.986890e+001	-1.088162e+001	-3.988283e+001	-1.077946e+001	-4.647628e+001	2.389765e+001
30349495.000	-3.531859e+001	2.442443e-001	-3.989329e+001	-1.093584e+001	-3.988764e+001	-1.086736e+001	-4.671972e+001	2.470914e+001
30649490.000	-3.539387e+001	-1.005684e+000	-3.988970e+001	-1.109785e+001	-3.987841e+001	-1.109089e+001	-4.715138e+001	2.604461e+001
30949485.000	-3.529419e+001	-8.687585e-001	-3.988037e+001	-1.119503e+001	-3.990706e+001	-1.102070e+001	-4.651305e+001	2.493782e+001
31249480.000	-3.529976e+001	-6.059271e-001	-3.990730e+001	-1.130323e+001	-3.991242e+001	-1.122851e+001	-4.677141e+001	2.425397e+001
31549475.000	-3.538957e+001	-4.927379e-001	-3.990211e+001	-1.129545e+001	-3.987209e+001	-1.130257e+001	-4.646645e+001	2.623840e+001
31849470.000	-3.537208e+001	-1.494662e-001	-3.990295e+001	-1.136339e+001	-3.989890e+001	-1.151183e+001	-4.638640e+001	2.500412e+001
32149465.000	-3.536702e+001	-1.157828e+000	-3.987750e+001	-1.164682e+001	-3.988807e+001	-1.152503e+001	-4.626105e+001	2.510425e+001
32449460.000	-3.529268e+001	5.170574e-001	-3.987265e+001	-1.165939e+001	-3.988374e+001	-1.159827e+001	-4.627294e+001	2.760853e+001
32749455.000	-3.530650e+001	8.999443e-001	-3.990721e+001	-1.168736e+001	-3.989301e+001	-1.174614e+001	-4.653979e+001	2.389966e+001
33049450.000	-3.537285e+001	-2.380513e-001	-3.989278e+001	-1.183775e+001	-3.989049e+001	-1.187681e+001	-4.683160e+001	2.493309e+001
33349445.000	-3.532620e+001	-9.106102e-001	-3.989809e+001	-1.196614e+001	-3.989590e+001	-1.197751e+001	-4.644589e+001	2.511576e+001
33649440.000	-3.525957e+001	-5.688277e-001	-3.989260e+001	-1.210388e+001	-3.987348e+001	-1.205153e+001	-4.616325e+001	2.559660e+001
33949435.000	-3.539468e+001	8.502007e-001	-3.989144e+001	-1.221165e+001	-3.988534e+001	-1.213270e+001	-4.627941e+001	2.446904e+001
34249430.000	-3.532580e+001	-1.029426e+000	-3.988028e+001	-1.234806e+001	-3.989402e+001	-1.236560e+001	-4.610244e+001	2.555052e+001
34549425.000	-3.546404e+001	1.127710e-001	-3.990783e+001	-1.246652e+001	-3.988539e+001	-1.244708e+001	-4.621805e+001	2.529643e+001
34849420.000	-3.532664e+001	-1.548233e-001	-3.987268e+001	-1.253199e+001	-3.988218e+001	-1.247388e+001	-4.626851e+001	2.507008e+001
35149415.000	-3.533448e+001	-2.241351e-001	-3.990323e+001	-1.263039e+001	-3.989416e+001	-1.263247e+001	-4.645097e+001	2.939347e+001
35449410.000	-3.533672e+001	-5.807457e-001	-3.988911e+001	-1.275359e+001	-3.988375e+001	-1.271907e+001	-4.568570e+001	2.600201e+001
35749405.000	-3.533732e+001	-2.052245e-001	-3.990510e+001	-1.284415e+001	-3.989814e+001	-1.287581e+001	-4.617044e+001	2.887364e+001
36049400.000	-3.530657e+001	-6.298541e-001	-3.988320e+001	-1.297285e+001	-3.988683e+001	-1.283299e+001	-4.623264e+001	2.831026e+001
36349395.000	-3.522743e+001	5.809687e-002	-3.986882e+001	-1.304460e+001	-3.988243e+001	-1.292361e+001	-4.618081e+001	2.860990e+001
36649390.000	-3.531349e+001	-4.652597e-001	-3.988364e+001	-1.314503e+001	-3.989413e+001	-1.317616e+001	-4.668973e+001	3.012888e+001
36949385.000	-3.530320e+001	-3.971694e-001	-3.988406e+001	-1.320376e+001	-3.988759e+001	-1.321415e+001	-4.604451e+001	2.861193e+001
37249380.000	-3.531518e+001	4.929935e-002	-3.989337e+001	-1.332352e+001	-3.987900e+001	-1.338087e+001	-4.619471e+001	2.704819e+001
37549375.000	-3.528139e+001	2.249872e-001	-3.989123e+001	-1.343161e+001	-3.989624e+001	-1.349203e+001	-4.577540e+001	2.777310e+001
37849370.000	-3.528184e+001	-3.504002e-001	-3.987774e+001	-1.368658e+001	-3.989523e+001	-1.354709e+001	-4.604043e+001	2.679506e+001
38149365.000	-3.547924e+001	-8.876417e-001	-3.991470e+001	-1.368461e+001	-3.989579e+001	-1.361481e+001	-4.594148e+001	3.007401e+001
38449360.000	-3.536834e+001	-9.236480e-001	-3.989598e+001	-1.384188e+001	-3.989609e+001	-1.380118e+001	-4.614952e+001	3.161262e+001
38749355.000	-3.533555e+001	-1.604097e-001	-3.988104e+001	-1.384314e+001	-3.989370e+001	-1.393056e+001	-4.612427e+001	2.563879e+001
39049350.000	-3.535979e+001	-1.680896e+000	-3.988319e+001	-1.404373e+001	-3.988786e+001	-1.406007e+001	-4.607792e+001	3.049406e+001
39349345.000	-3.541702e+001	-8.166591e-001	-3.989042e+001	-1.411644e+001	-3.988735e+001	-1.405748e+001	-4.591477e+001	2.940575e+001
39649340.000	-3.525014e+001	3.479931e-001	-3.989861e+001	-1.425932e+001	-3.988259e+001	-1.419575e+001	-4.590305e+001	2.973360e+001
39949335.000	-3.526386e+001	-5.095782e-002	-3.988705e+001	-1.436542e+001	-3.988410e+001	-1.430143e+001	-4.572345e+001	2.789822e+001
40249330.000	-3.541682e+001	-7.029947e-001	-3.989313e+001	-1.443215e+001	-3.988832e+001	-1.433784e+001	-4.615313e+001	2.790242e+001
40549325.000	-3.538151e+001	-1.409942e+000	-3.988418e+001	-1.461301e+001	-3.989968e+001	-1.464702e+001	-4.595104e+001	2.859371e+001
40849320.000	-3.536015e+001	-8.611354e-001	-3.988429e+001	-1.471491e+001	-3.988951e+001	-1.469213e+001	-4.579199e+001	2.819828e+001
41149315.000	-3.539245e+001	-2.044584e-001	-3.990304e+001	-1.473901e+001	-3.989626e+001	-1.472942e+001	-4.573992e+001	3.062516e+001
41449310.000	-3.536137e+001	-7.804971e-001	-3.987610e+001	-1.495179e+001	-3.988400e+001	-1.479609e+001	-4.541431e+001	2.854745e+001
41749305.000	-3.534069e+001	-1.395424e+000	-3.988987e+001	-1.497244e+001	-3.988586e+001	-1.491297e+001	-4.555814e+001	2.770466e+001
42049300.000	-3.537723e+001	1.451440e-001	-3.988834e+001	-1.511429e+001	-3.987745e+001	-1.498391e+001	-4.577698e+001	3.152708e+001
42349295.000	-3.539370e+001	-1.075909e+000	-3.988711e+001	-1.521642e+001	-3.990087e+001	-1.515411e+001	-4.591981e+001	2.863248e+001
42649290.000	-3.536875e+001	-1.406119e+000	-3.988464e+001	-1.532163e+001	-3.989272e+001	-1.530726e+001	-4.584160e+001	2.984529e+001
42949285.000	-3.536146e+001	-1.065739e+000	-3.989686e+001	-1.538948e+001	-3.987818e+001	-1.536858e+001	-4.545899e+001	2.954488e+001
43249280.000	-3.541566e+001	-1.303714e-001	-3.987656e+001	-1.546575e+001	-3.989378e+001	-1.548005e+001	-4.547724e+001	2.941798e+001
43549275.000	-3.536414e+001	2.948452e-001	-3.987819e+001	-1.561072e+001	-3.987945e+001	-1.563437e+001	-4.562707e+001	3.081919e+001
43849270.000	-3.536630e+001	-1.294653e+000	-3.987092e+001	-1.572723e+001	-3.989066e+001	-1.565036e+001	-4.534702e+001	2.928960e+001
44149265.000	-3.541074e+001	-9.270429e-001	-3.988846e+001	-1.578822e+001	-3.986159e+001	-1.575612e+001	-4.576779e+001	3.054970e+001
44449260.000	-3.537790e+001	-4.851336e-001	-3.989512e+001	-1.585751e+001	-3.988849e+001	-1.580206e+001	-4.557776e+001	3.231117e+001
44749255.000	-3.539404e+001	-6.395197e-001	-3.989227e+001	-1.605745e+001	-3.987623e+001	-1.602543e+001	-4.558278e+001	2.890892e+001
