Time (s),VIN,IIN,VOUT
0.0,25.060000032639998,1.215075006336,37.719250011519996
5e-10,25.1537500384,1.218200006528,37.77862500544
1e-09,25.26312504512,1.216637506432,37.81300000192
1.5000000000000002e-09,25.26312504512,1.215075006336,37.79112500416
2e-09,25.24750004416,1.21351250624,37.74737500864
2.5e-09,25.24750004416,1.21351250624,37.753625008
3.0000000000000004e-09,25.34125004992,1.215075006336,37.83487499968
3.5000000000000003e-09,25.40375005376,1.216637506432,37.90049999296
4e-09,25.35687505088,1.211950006144,37.8942499936
4.500000000000001e-09,25.26312504512,1.210387506048,37.85049999808
5e-09,25.1537500384,1.208825005952,37.82237500096
5.5000000000000004e-09,25.122500036479998,1.20570000576,37.84424999872
6.000000000000001e-09,25.122500036479998,1.207262505856,37.86924999616
6.5e-09,25.106875035519998,1.207262505856,37.866124996479996
7.000000000000001e-09,25.091250034559998,1.20570000576,37.80987500224
7.500000000000001e-09,25.028750030719998,1.207262505856,37.753625008
8e-09,25.122500036479998,1.208825005952,37.75675000768
8.5e-09,25.2318750432,1.21351250624,37.81925000128
9.000000000000001e-09,25.32562504896,1.216637506432,37.87549999552
9.5e-09,25.27875004608,1.216637506432,37.8629999968
1e-08,25.20062504128,1.216637506432,37.80987500224
1.0500000000000001e-08,25.16937503936,1.216637506432,37.78800000448
1.1000000000000001e-08,25.2318750432,1.2197625066239999,37.82550000064
1.15e-08,25.2318750432,1.2197625066239999,37.85987499712
1.2000000000000002e-08,25.1537500384,1.21351250624,37.8473749984
1.2500000000000001e-08,25.044375031679998,1.208825005952,37.80987500224
1.3e-08,24.997500028799998,1.207262505856,37.7848750048
1.35e-08,25.060000032639998,1.207262505856,37.82550000064
1.4000000000000001e-08,25.18500004032,1.210387506048,37.88487499456
1.45e-08,25.24750004416,1.210387506048,37.912999991679996
1.5000000000000002e-08,25.2318750432,1.211950006144,37.86924999616
1.55e-08,25.20062504128,1.215075006336,37.8005000032
1.6e-08,25.27875004608,1.215075006336,37.75050000832
1.6500000000000002e-08,25.34125004992,1.21351250624,37.74737500864
1.7e-08,25.29437504704,1.218200006528,37.753625008
1.75e-08,25.18500004032,1.215075006336,37.73175001024
1.8000000000000002e-08,25.106875035519998,1.211950006144,37.67862501568
1.85e-08,25.091250034559998,1.208825005952,37.64112501952
1.9e-08,25.106875035519998,1.208825005952,37.65362501824
1.9500000000000003e-08,25.122500036479998,1.208825005952,37.70987501248
2e-08,25.075625033599998,1.208825005952,37.75987500736
2.05e-08,25.028750030719998,1.207262505856,37.77550000576
2.1000000000000003e-08,25.028750030719998,1.208825005952,37.76612500672
2.15e-08,25.075625033599998,1.211950006144,37.78175000512
2.2000000000000002e-08,25.16937503936,1.215075006336,37.80675000256
2.2500000000000003e-08,25.21625004224,1.216637506432,37.82862500032
2.3e-08,25.21625004224,1.2197625066239999,37.8005000032
2.3500000000000002e-08,25.18500004032,1.2213250067199999,37.7380000096
2.4000000000000003e-08,25.20062504128,1.2197625066239999,37.67237501632
2.45e-08,25.2318750432,1.215075006336,37.6442500192
2.5000000000000002e-08,25.2318750432,1.210387506048,37.65362501824
2.55e-08,25.16937503936,1.211950006144,37.68175001536
2.6e-08,25.106875035519998,1.211950006144,37.68800001472
2.6500000000000002e-08,25.060000032639998,1.210387506048,37.6911250144
2.7e-08,25.060000032639998,1.211950006144,37.72550001088
2.75e-08,25.106875035519998,1.21351250624,37.79112500416
2.8000000000000003e-08,25.13812503744,1.210387506048,37.83799999936
2.85e-08,25.1537500384,1.208825005952,37.82862500032
2.9e-08,25.1537500384,1.211950006144,37.753625008
2.9500000000000003e-08,25.21625004224,1.211950006144,37.68175001536
3.0000000000000004e-08,25.27875004608,1.211950006144,37.6442500192
3.05e-08,25.24750004416,1.211950006144,37.64737501888
3.1e-08,25.1537500384,1.210387506048,37.64737501888
3.1500000000000004e-08,25.091250034559998,1.210387506048,37.63175002048
3.2e-08,25.13812503744,1.210387506048,37.61612502208
3.25e-08,25.1537500384,1.21351250624,37.6442500192
3.3000000000000004e-08,25.13812503744,1.215075006336,37.71612501184
3.35e-08,25.075625033599998,1.21351250624,37.79112500416
3.4e-08,25.060000032639998,1.216637506432,37.81300000192
3.4500000000000005e-08,25.106875035519998,1.218200006528,37.77550000576
3.5e-08,25.21625004224,1.2213250067199999,37.72550001088
3.55e-08,25.26312504512,1.2197625066239999,37.7067500128
3.6000000000000005e-08,25.20062504128,1.215075006336,37.7223750112
3.65e-08,25.1537500384,1.211950006144,37.7223750112
3.7e-08,25.106875035519998,1.210387506048,37.67862501568
3.7500000000000005e-08,25.13812503744,1.210387506048,37.62237502144
3.8e-08,25.18500004032,1.210387506048,37.5817500256
3.85e-08,25.20062504128,1.208825005952,37.60362502336
3.9000000000000005e-08,25.1537500384,1.207262505856,37.64112501952
3.95e-08,25.075625033599998,1.207262505856,37.6598750176
4e-08,25.122500036479998,1.208825005952,37.65050001856
4.0500000000000005e-08,25.16937503936,1.21351250624,37.65050001856
4.1e-08,25.20062504128,1.215075006336,37.67237501632
4.15e-08,25.16937503936,1.216637506432,37.7067500128
4.2000000000000006e-08,25.106875035519998,1.216637506432,37.72862501056
4.2500000000000003e-08,25.106875035519998,1.218200006528,37.734875009919996
4.3e-08,25.18500004032,1.2197625066239999,37.72550001088
4.3500000000000006e-08,25.2318750432,1.222887506816,37.71612501184
4.4000000000000004e-08,25.20062504128,1.2213250067199999,37.703625013119996
4.45e-08,25.122500036479998,1.215075006336,37.69425001408
4.5000000000000006e-08,25.091250034559998,1.211950006144,37.675500016
4.5500000000000004e-08,25.13812503744,1.211950006144,37.65675001792
4.6e-08,25.18500004032,1.21351250624,37.63800001984
4.6500000000000006e-08,25.16937503936,1.21351250624,37.65050001856
4.7000000000000004e-08,25.091250034559998,1.215075006336,37.66925001664
4.75e-08,25.028750030719998,1.211950006144,37.67862501568
4.8000000000000006e-08,25.122500036479998,1.208825005952,37.66300001728
4.8500000000000004e-08,25.2318750432,1.210387506048,37.64737501888
4.9e-08,25.27875004608,1.215075006336,37.6286250208
4.95e-08,25.21625004224,1.21351250624,37.62550002112
5.0000000000000004e-08,25.1537500384,1.210387506048,37.62550002112
5.05e-08,25.122500036479998,1.210387506048,37.62237502144
5.1e-08,25.18500004032,1.211950006144,37.62237502144
5.1500000000000005e-08,25.2318750432,1.21351250624,37.60987502272
5.2e-08,25.20062504128,1.218200006528,37.60362502336
5.25e-08,25.106875035519998,1.218200006528,37.60362502336
5.3000000000000005e-08,24.981875027839997,1.216637506432,37.60050002368
5.35e-08,24.981875027839997,1.216637506432,37.60362502336
5.4e-08,25.106875035519998,1.218200006528,37.60987502272
5.4500000000000005e-08,25.20062504128,1.218200006528,37.62550002112
5.5e-08,25.18500004032,1.218200006528,37.63487502016
5.55e-08,25.106875035519998,1.218200006528,37.6442500192
5.6000000000000005e-08,25.106875035519998,1.215075006336,37.66925001664
5.65e-08,25.1537500384,1.215075006336,37.703625013119996
5.7e-08,25.21625004224,1.215075006336,37.719250011519996
5.7500000000000005e-08,25.26312504512,1.21351250624,37.69425001408
5.8e-08,25.24750004416,1.210387506048,37.64112501952
5.85e-08,25.13812503744,1.208825005952,37.59112502464
5.9000000000000006e-08,25.091250034559998,1.208825005952,37.56300002752
5.9500000000000003e-08,25.13812503744,1.210387506048,37.54425002944
6.000000000000001e-08,25.16937503936,1.210387506048,37.51612503232
6.05e-08,25.1537500384,1.210387506048,37.49425003456
6.1e-08,25.075625033599998,1.211950006144,37.5036250336
6.15e-08,25.044375031679998,1.210387506048,37.56300002752
6.2e-08,25.075625033599998,1.21351250624,37.62550002112
6.250000000000001e-08,25.16937503936,1.21351250624,37.6598750176
6.300000000000001e-08,25.2318750432,1.215075006336,37.6442500192
6.35e-08,25.20062504128,1.218200006528,37.60987502272
6.4e-08,25.1537500384,1.2197625066239999,37.597375024
6.45e-08,25.122500036479998,1.2213250067199999,37.61612502208
6.5e-08,25.16937503936,1.2213250067199999,37.6442500192
6.55e-08,25.21625004224,1.2213250067199999,37.65675001792
6.600000000000001e-08,25.20062504128,1.218200006528,37.63800001984
6.65e-08,25.091250034559998,1.215075006336,37.62237502144
6.7e-08,25.044375031679998,1.216637506432,37.65362501824
6.75e-08,25.106875035519998,1.218200006528,37.70050001344
6.8e-08,25.16937503936,1.216637506432,37.70987501248
6.85e-08,25.20062504128,1.215075006336,37.6598750176
6.900000000000001e-08,25.2318750432,1.21351250624,37.59112502464
6.950000000000001e-08,25.21625004224,1.215075006336,37.5817500256
7e-08,25.18500004032,1.211950006144,37.62550002112
7.05e-08,25.18500004032,1.21351250624,37.68487501504
7.1e-08,25.20062504128,1.2197625066239999,37.69737501376
7.15e-08,25.18500004032,1.222887506816,37.66925001664
7.200000000000001e-08,25.18500004032,1.218200006528,37.6442500192
7.250000000000001e-08,25.16937503936,1.218200006528,37.6598750176
7.3e-08,25.1537500384,1.215075006336,37.69425001408
7.35e-08,25.122500036479998,1.215075006336,37.71612501184
7.4e-08,25.122500036479998,1.21351250624,37.68487501504
7.45e-08,25.122500036479998,1.215075006336,37.6442500192
7.500000000000001e-08,25.122500036479998,1.218200006528,37.6286250208
7.550000000000001e-08,25.16937503936,1.222887506816,37.66300001728
7.6e-08,25.1537500384,1.2213250067199999,37.69737501376
7.65e-08,25.18500004032,1.2197625066239999,37.69737501376
7.7e-08,25.18500004032,1.222887506816,37.65050001856
7.75e-08,25.24750004416,1.2213250067199999,37.6130000224
7.800000000000001e-08,25.29437504704,1.2197625066239999,37.60675002304
7.850000000000001e-08,25.27875004608,1.216637506432,37.6598750176
7.9e-08,25.27875004608,1.215075006336,37.703625013119996
7.95e-08,25.21625004224,1.216637506432,37.71612501184
8e-08,25.20062504128,1.215075006336,37.719250011519996
8.05e-08,25.21625004224,1.215075006336,37.74425000896
8.100000000000001e-08,25.20062504128,1.21351250624,37.77550000576
8.150000000000001e-08,25.13812503744,1.21351250624,37.79737500352
8.2e-08,25.091250034559998,1.216637506432,37.76612500672
8.25e-08,25.091250034559998,1.2197625066239999,37.68487501504
8.3e-08,25.1537500384,1.222887506816,37.60675002304
8.35e-08,25.20062504128,1.222887506816,37.57550002624
8.400000000000001e-08,25.16937503936,1.222887506816,37.59112502464
8.450000000000001e-08,25.091250034559998,1.222887506816,37.63487502016
8.500000000000001e-08,25.075625033599998,1.226012507008,37.66925001664
8.55e-08,25.122500036479998,1.224450006912,37.7067500128
8.6e-08,25.16937503936,1.224450006912,37.74737500864
8.65e-08,25.18500004032,1.224450006912,37.80362500288
8.700000000000001e-08,25.18500004032,1.2197625066239999,37.84424999872
8.750000000000001e-08,25.1537500384,1.2197625066239999,37.85362499776
8.800000000000001e-08,25.18500004032,1.2197625066239999,37.82237500096
8.85e-08,25.2318750432,1.2213250067199999,37.76300000704
8.9e-08,25.2318750432,1.224450006912,37.70987501248
8.95e-08,25.18500004032,1.222887506816,37.67862501568
9.000000000000001e-08,25.1537500384,1.2197625066239999,37.65050001856
9.050000000000001e-08,25.13812503744,1.216637506432,37.60675002304
9.100000000000001e-08,25.13812503744,1.216637506432,37.56300002752
9.15e-08,25.16937503936,1.216637506432,37.541125029759996
9.2e-08,25.1537500384,1.218200006528,37.5661250272
9.25e-08,25.13812503744,1.2197625066239999,37.63175002048
9.300000000000001e-08,25.106875035519998,1.2213250067199999,37.68800001472
9.350000000000001e-08,25.13812503744,1.2213250067199999,37.73175001024
9.400000000000001e-08,25.16937503936,1.2213250067199999,37.75675000768
9.45e-08,25.18500004032,1.222887506816,37.78800000448
9.5e-08,25.16937503936,1.222887506816,37.80987500224
9.55e-08,25.106875035519998,1.226012507008,37.80675000256
9.600000000000001e-08,25.091250034559998,1.226012507008,37.75675000768
9.650000000000001e-08,25.091250034559998,1.226012507008,37.675500016
9.700000000000001e-08,25.106875035519998,1.224450006912,37.60675002304
9.75e-08,25.075625033599998,1.224450006912,37.60050002368
9.8e-08,25.060000032639998,1.2213250067199999,37.63800001984
9.85e-08,25.075625033599998,1.2197625066239999,37.68487501504
9.9e-08,25.13812503744,1.2213250067199999,37.71612501184
9.950000000000001e-08,25.21625004224,1.222887506816,37.74112500928
1.0000000000000001e-07,25.2318750432,1.2213250067199999,37.7692500064
1.005e-07,25.2318750432,1.2213250067199999,37.81300000192
1.01e-07,25.26312504512,1.2197625066239999,37.83799999936
1.015e-07,25.24750004416,1.222887506816,37.83487499968
1.02e-07,25.18500004032,1.222887506816,37.7692500064
1.0250000000000001e-07,25.122500036479998,1.2197625066239999,37.68487501504
1.0300000000000001e-07,25.13812503744,1.216637506432,37.63487502016
1.0350000000000001e-07,25.075625033599998,1.218200006528,37.63800001984
1.04e-07,25.028750030719998,1.216637506432,37.66925001664
1.045e-07,24.950625025919997,1.2197625066239999,37.69425001408
1.05e-07,24.997500028799998,1.224450006912,37.719250011519996
1.0550000000000001e-07,25.075625033599998,1.227575007104,37.75050000832
1.0600000000000001e-07,25.18500004032,1.224450006912,37.77550000576
1.0650000000000001e-07,25.2318750432,1.224450006912,37.79737500352
1.07e-07,25.26312504512,1.226012507008,37.80675000256
1.075e-07,25.310000048,1.227575007104,37.82550000064
1.08e-07,25.34125004992,1.226012507008,37.84424999872
1.0850000000000001e-07,25.29437504704,1.222887506816,37.85049999808
1.0900000000000001e-07,25.18500004032,1.222887506816,37.8161250016
1.0950000000000001e-07,25.122500036479998,1.222887506816,37.78175000512
1.1e-07,25.13812503744,1.2213250067199999,37.75050000832
1.105e-07,25.091250034559998,1.2197625066239999,37.74425000896
1.11e-07,25.044375031679998,1.2197625066239999,37.74737500864
1.1150000000000001e-07,24.950625025919997,1.2197625066239999,37.74112500928
1.1200000000000001e-07,24.981875027839997,1.218200006528,37.71612501184
1.1250000000000001e-07,25.106875035519998,1.216637506432,37.7067500128
1.13e-07,25.24750004416,1.222887506816,37.71300001216
1.135e-07,25.24750004416,1.226012507008,37.7380000096
1.14e-07,25.20062504128,1.222887506816,37.76300000704
1.1450000000000001e-07,25.2318750432,1.2213250067199999,37.77237500608
1.1500000000000001e-07,25.34125004992,1.2213250067199999,37.76612500672
1.1550000000000001e-07,25.3881250528,1.226012507008,37.75675000768
1.16e-07,25.310000048,1.227575007104,37.75675000768
1.165e-07,25.1537500384,1.224450006912,37.77862500544
1.17e-07,25.013125029759998,1.2213250067199999,37.79737500352
1.1750000000000001e-07,25.044375031679998,1.2197625066239999,37.8005000032
1.1800000000000001e-07,25.106875035519998,1.218200006528,37.79112500416
1.1850000000000001e-07,25.091250034559998,1.2197625066239999,37.8005000032
1.1900000000000001e-07,25.044375031679998,1.2213250067199999,37.8161250016
1.195e-07,24.981875027839997,1.222887506816,37.81300000192
1.2000000000000002e-07,25.075625033599998,1.2197625066239999,37.77550000576
1.205e-07,25.26312504512,1.222887506816,37.74425000896
1.21e-07,25.41937505472,1.226012507008,37.72862501056
1.215e-07,25.41937505472,1.224450006912,37.72862501056
1.22e-07,25.310000048,1.222887506816,37.7223750112
1.2250000000000002e-07,25.2318750432,1.2197625066239999,37.7223750112
1.23e-07,25.26312504512,1.218200006528,37.753625008
1.2350000000000001e-07,25.34125004992,1.218200006528,37.79737500352
1.24e-07,25.27875004608,1.218200006528,37.82237500096
1.245e-07,25.106875035519998,1.215075006336,37.80362500288
1.2500000000000002e-07,24.919375023999997,1.211950006144,37.753625008
1.255e-07,24.872500021119997,1.215075006336,37.7223750112
1.2600000000000002e-07,24.997500028799998,1.2197625066239999,37.72550001088
1.265e-07,25.13812503744,1.222887506816,37.74737500864
1.27e-07,25.20062504128,1.224450006912,37.74737500864
1.275e-07,25.18500004032,1.227575007104,37.72862501056
1.28e-07,25.20062504128,1.226012507008,37.71612501184
1.2850000000000002e-07,25.26312504512,1.224450006912,37.73175001024
1.29e-07,25.29437504704,1.226012507008,37.77550000576
1.2950000000000001e-07,25.310000048,1.2213250067199999,37.8161250016
1.3e-07,25.27875004608,1.2197625066239999,37.81300000192
1.305e-07,25.18500004032,1.216637506432,37.79112500416
1.31e-07,25.091250034559998,1.21351250624,37.78175000512
1.315e-07,25.060000032639998,1.21351250624,37.79112500416
1.3200000000000002e-07,25.044375031679998,1.216637506432,37.80987500224
1.325e-07,25.075625033599998,1.216637506432,37.79112500416
1.33e-07,25.075625033599998,1.215075006336,37.734875009919996
1.335e-07,25.075625033599998,1.216637506432,37.70050001344
1.34e-07,25.13812503744,1.218200006528,37.71300001216
1.3450000000000002e-07,25.24750004416,1.218200006528,37.76300000704
1.35e-07,25.35687505088,1.2197625066239999,37.77237500608
1.3550000000000002e-07,25.37250005184,1.2213250067199999,37.72550001088
1.36e-07,25.32562504896,1.2197625066239999,37.675500016
1.365e-07,25.2318750432,1.2213250067199999,37.69737501376
1.37e-07,25.16937503936,1.2213250067199999,37.79112500416
1.375e-07,25.16937503936,1.2213250067199999,37.87549999552
1.3800000000000002e-07,25.13812503744,1.2197625066239999,37.87237499584
1.385e-07,25.075625033599998,1.218200006528,37.81925000128
1.3900000000000001e-07,24.997500028799998,1.215075006336,37.78800000448
1.395e-07,24.981875027839997,1.216637506432,37.80987500224
1.4e-07,25.028750030719998,1.2197625066239999,37.8473749984
1.4050000000000002e-07,25.13812503744,1.218200006528,37.84424999872
1.41e-07,25.21625004224,1.216637506432,37.77862500544
1.4150000000000002e-07,25.2318750432,1.218200006528,37.72550001088
1.42e-07,25.24750004416,1.218200006528,37.734875009919996
1.425e-07,25.310000048,1.216637506432,37.80362500288
1.43e-07,25.3881250528,1.216637506432,37.8629999968
1.435e-07,25.32562504896,1.218200006528,37.86924999616
1.4400000000000002e-07,25.2318750432,1.215075006336,37.84112499904
1.445e-07,25.13812503744,1.21351250624,37.83487499968
1.4500000000000001e-07,25.13812503744,1.216637506432,37.86924999616
1.455e-07,25.18500004032,1.215075006336,37.91612499136
1.46e-07,25.16937503936,1.21351250624,37.8942499936
1.4650000000000002e-07,25.091250034559998,1.215075006336,37.80675000256
1.47e-07,24.997500028799998,1.215075006336,37.73175001024
1.4750000000000002e-07,25.028750030719998,1.215075006336,37.734875009919996
1.48e-07,25.1537500384,1.216637506432,37.79112500416
1.485e-07,25.24750004416,1.216637506432,37.82237500096
1.49e-07,25.24750004416,1.215075006336,37.79112500416
1.495e-07,25.24750004416,1.211950006144,37.75050000832
1.5000000000000002e-07,25.24750004416,1.21351250624,37.76300000704
1.505e-07,25.32562504896,1.21351250624,37.83799999936
1.5100000000000002e-07,25.40375005376,1.21351250624,37.90049999296
1.515e-07,25.35687505088,1.216637506432,37.897374993279996
1.52e-07,25.24750004416,1.21351250624,37.85049999808
1.5250000000000002e-07,25.1537500384,1.210387506048,37.8161250016
1.53e-07,25.13812503744,1.208825005952,37.82550000064
1.5350000000000002e-07,25.122500036479998,1.207262505856,37.8629999968
1.54e-07,25.122500036479998,1.207262505856,37.85362499776
1.5450000000000001e-07,25.106875035519998,1.204137505664,37.79425000384
1.55e-07,25.060000032639998,1.20570000576,37.74112500928
1.555e-07,25.122500036479998,1.210387506048,37.74737500864
1.5600000000000002e-07,25.24750004416,1.211950006144,37.81300000192
1.565e-07,25.32562504896,1.21351250624,37.866124996479996
1.5700000000000002e-07,25.29437504704,1.215075006336,37.84424999872
1.575e-07,25.20062504128,1.21351250624,37.79737500352
1.58e-07,25.18500004032,1.215075006336,37.77550000576
1.5850000000000002e-07,25.24750004416,1.216637506432,37.80362500288
1.59e-07,25.26312504512,1.215075006336,37.83487499968
1.5950000000000002e-07,25.1537500384,1.211950006144,37.83175
1.6e-07,25.044375031679998,1.208825005952,37.79425000384
1.6050000000000001e-07,25.013125029759998,1.20570000576,37.77550000576
1.61e-07,25.091250034559998,1.210387506048,37.80987500224
1.615e-07,25.18500004032,1.210387506048,37.86924999616
1.6200000000000002e-07,25.26312504512,1.211950006144,37.897374993279996
1.625e-07,25.24750004416,1.211950006144,37.85674999744
