Time (s),VIN,IIN,VOUT
0.0,25.02525003072,1.2475875064320001,38.77425000896
5e-10,25.19712504128,1.2491500065280001,38.83362500288
1e-09,25.35337505088,1.2491500065280001,38.87424999872
1.5000000000000002e-09,25.36900005184,1.2491500065280001,38.85550000064
2e-09,25.29087504704,1.2507125066240001,38.81800000448
2.5e-09,25.2283750432,1.2475875064320001,38.83362500288
3.0000000000000004e-09,25.29087504704,1.24446250624,38.9086249952
3.5000000000000003e-09,25.3846250528,1.242900006144,38.96174998976
4e-09,25.35337505088,1.241337506048,38.95237499072
4.500000000000001e-09,25.21275004224,1.241337506048,38.89924999616
5e-09,25.0721250336,1.242900006144,38.86175
5.5000000000000004e-09,25.04087503168,1.24446250624,38.8773749984
6.000000000000001e-09,25.10337503552,1.24446250624,38.91174999488
6.5e-09,25.19712504128,1.242900006144,38.91799999424
7.000000000000001e-09,25.19712504128,1.242900006144,38.86799999936
7.500000000000001e-09,25.08775003456,1.24446250624,38.827375003520004
8e-09,25.0721250336,1.242900006144,38.83362500288
8.5e-09,25.21275004224,1.242900006144,38.8929999968
9.000000000000001e-09,25.35337505088,1.246025006336,38.93049999296
9.5e-09,25.32212504896,1.2507125066240001,38.89612499648
1e-08,25.16587503936,1.2507125066240001,38.83362500288
1.0500000000000001e-08,25.08775003456,1.2475875064320001,38.82425000384
1.1000000000000001e-08,25.13462503744,1.246025006336,38.86487499968
1.15e-08,25.21275004224,1.246025006336,38.91174999488
1.2000000000000002e-08,25.21275004224,1.24446250624,38.9242499936
1.2500000000000001e-08,25.10337503552,1.242900006144,38.89924999616
1.3e-08,25.00962502976,1.241337506048,38.8773749984
1.35e-08,25.04087503168,1.241337506048,38.89612499648
1.4000000000000001e-08,25.18150004032,1.24446250624,38.92737499328
1.45e-08,25.29087504704,1.2475875064320001,38.92737499328
1.5000000000000002e-08,25.29087504704,1.2475875064320001,38.86487499968
1.55e-08,25.24400004416,1.2475875064320001,38.796125006720004
1.6e-08,25.25962504512,1.2475875064320001,38.77737500864
1.6500000000000002e-08,25.24400004416,1.2491500065280001,38.796125006720004
1.7e-08,25.25962504512,1.2507125066240001,38.80237500608
1.75e-08,25.18150004032,1.2507125066240001,38.76487500992
1.8000000000000002e-08,25.11900003648,1.246025006336,38.705500016
1.85e-08,25.04087503168,1.24446250624,38.67737501888
1.9e-08,25.05650003264,1.242900006144,38.69925001664
1.9500000000000003e-08,25.11900003648,1.241337506048,38.75550001088
2e-08,25.11900003648,1.241337506048,38.811750005120004
2.05e-08,25.0721250336,1.241337506048,38.8461250016
2.1000000000000003e-08,25.02525003072,1.242900006144,38.85237500096
2.15e-08,25.05650003264,1.242900006144,38.87112499904
2.2000000000000002e-08,25.16587503936,1.246025006336,38.88049999808
2.2500000000000003e-08,25.24400004416,1.2491500065280001,38.86799999936
2.3e-08,25.25962504512,1.253837506816,38.80550000576
2.3500000000000002e-08,25.19712504128,1.253837506816,38.73050001344
2.4000000000000003e-08,25.18150004032,1.253837506816,38.6742500192
2.45e-08,25.1502500384,1.253837506816,38.66800001984
2.5000000000000002e-08,25.18150004032,1.2522750067200001,38.70237501632
2.55e-08,25.16587503936,1.24446250624,38.74300001216
2.6e-08,25.1502500384,1.238212505856,38.780500008320004
2.6500000000000002e-08,25.08775003456,1.239775005952,38.8148750048
2.7e-08,25.05650003264,1.241337506048,38.84925000128
2.75e-08,25.10337503552,1.24446250624,38.88049999808
2.8000000000000003e-08,25.18150004032,1.2491500065280001,38.88987499712
2.85e-08,25.21275004224,1.2475875064320001,38.8461250016
2.9e-08,25.18150004032,1.246025006336,38.76487500992
2.9500000000000003e-08,25.18150004032,1.246025006336,38.69925001664
3.0000000000000004e-08,25.2283750432,1.2475875064320001,38.67112501952
3.05e-08,25.2283750432,1.2491500065280001,38.68362501824
3.1e-08,25.16587503936,1.2475875064320001,38.70237501632
3.1500000000000004e-08,25.10337503552,1.246025006336,38.71487501504
3.2e-08,25.1502500384,1.24446250624,38.72425001408
3.25e-08,25.13462503744,1.242900006144,38.7523750112
3.3000000000000004e-08,25.13462503744,1.24446250624,38.7992500064
3.35e-08,25.11900003648,1.246025006336,38.8461250016
3.4e-08,25.10337503552,1.2475875064320001,38.85862500032
3.4500000000000005e-08,25.13462503744,1.2522750067200001,38.83362500288
3.5e-08,25.19712504128,1.2507125066240001,38.783625008
3.55e-08,25.2283750432,1.2507125066240001,38.74300001216
3.6000000000000005e-08,25.18150004032,1.2522750067200001,38.7367500128
3.65e-08,25.1502500384,1.2475875064320001,38.73987501248
3.7e-08,25.13462503744,1.24446250624,38.705500016
3.7500000000000005e-08,25.1502500384,1.242900006144,38.65237502144
3.8e-08,25.18150004032,1.242900006144,38.62112502464
3.85e-08,25.18150004032,1.24446250624,38.65237502144
3.9000000000000005e-08,25.13462503744,1.242900006144,38.69612501696
3.95e-08,25.10337503552,1.242900006144,38.73362501312
4e-08,25.13462503744,1.239775005952,38.74925001152
4.0500000000000005e-08,25.1502500384,1.239775005952,38.74925001152
4.1e-08,25.19712504128,1.2475875064320001,38.75550001088
4.15e-08,25.1502500384,1.2507125066240001,38.7680000096
4.2000000000000006e-08,25.11900003648,1.2507125066240001,38.77112500928
4.2500000000000003e-08,25.13462503744,1.2491500065280001,38.7680000096
4.3e-08,25.21275004224,1.2475875064320001,38.74300001216
4.3500000000000006e-08,25.2283750432,1.2491500065280001,38.71487501504
4.4000000000000004e-08,25.1502500384,1.2491500065280001,38.705500016
4.45e-08,25.05650003264,1.2491500065280001,38.71487501504
4.5000000000000006e-08,25.05650003264,1.246025006336,38.71487501504
4.5500000000000004e-08,25.13462503744,1.242900006144,38.70237501632
4.6e-08,25.16587503936,1.24446250624,38.6898750176
4.6500000000000006e-08,25.16587503936,1.246025006336,38.69925001664
4.7000000000000004e-08,25.0721250336,1.2475875064320001,38.705500016
4.75e-08,25.05650003264,1.2475875064320001,38.705500016
4.8000000000000006e-08,25.18150004032,1.24446250624,38.67737501888
4.8500000000000004e-08,25.29087504704,1.242900006144,38.6430000224
4.9e-08,25.306500048,1.24446250624,38.60862502592
4.95e-08,25.19712504128,1.246025006336,38.60862502592
5.0000000000000004e-08,25.10337503552,1.2475875064320001,38.63675002304
5.05e-08,25.0721250336,1.2475875064320001,38.67112501952
5.1e-08,25.1502500384,1.24446250624,38.68362501824
5.1500000000000005e-08,25.21275004224,1.24446250624,38.67737501888
5.2e-08,25.13462503744,1.2491500065280001,38.67112501952
5.25e-08,25.04087503168,1.2522750067200001,38.66800001984
5.3000000000000005e-08,24.96275002688,1.2507125066240001,38.64612502208
5.35e-08,25.00962502976,1.2491500065280001,38.62112502464
5.4e-08,25.1502500384,1.2475875064320001,38.6117500256
5.4500000000000005e-08,25.21275004224,1.2475875064320001,38.627375024
5.5e-08,25.18150004032,1.2491500065280001,38.65237502144
5.55e-08,25.10337503552,1.2522750067200001,38.69612501696
5.6000000000000005e-08,25.11900003648,1.2475875064320001,38.73050001344
5.65e-08,25.16587503936,1.246025006336,38.75550001088
5.7e-08,25.21275004224,1.2491500065280001,38.74925001152
5.7500000000000005e-08,25.19712504128,1.2475875064320001,38.71487501504
5.8e-08,25.1502500384,1.2475875064320001,38.664875020160004
5.85e-08,25.0721250336,1.2491500065280001,38.62112502464
5.9000000000000006e-08,25.05650003264,1.246025006336,38.58987502784
5.9500000000000003e-08,25.13462503744,1.242900006144,38.5648750304
6.000000000000001e-08,25.1502500384,1.241337506048,38.55550003136
6.05e-08,25.11900003648,1.241337506048,38.55237503168
6.1e-08,25.05650003264,1.24446250624,38.56800003008
6.15e-08,25.05650003264,1.24446250624,38.60237502656
6.2e-08,25.08775003456,1.2475875064320001,38.63675002304
6.250000000000001e-08,25.18150004032,1.2522750067200001,38.66175002048
6.300000000000001e-08,25.21275004224,1.253837506816,38.6586250208
6.35e-08,25.1502500384,1.253837506816,38.6586250208
6.4e-08,25.13462503744,1.2507125066240001,38.66175002048
6.45e-08,25.10337503552,1.2522750067200001,38.680500018560004
6.5e-08,25.1502500384,1.2522750067200001,38.70862501568
6.55e-08,25.18150004032,1.2507125066240001,38.7211250144
6.600000000000001e-08,25.16587503936,1.2475875064320001,38.705500016
6.65e-08,25.0721250336,1.2491500065280001,38.68362501824
6.7e-08,25.0721250336,1.2491500065280001,38.68362501824
6.75e-08,25.13462503744,1.2491500065280001,38.70237501632
6.8e-08,25.19712504128,1.246025006336,38.70862501568
6.85e-08,25.21275004224,1.242900006144,38.66800001984
6.900000000000001e-08,25.21275004224,1.239775005952,38.62112502464
6.950000000000001e-08,25.21275004224,1.242900006144,38.627375024
7e-08,25.2283750432,1.246025006336,38.68362501824
7.05e-08,25.24400004416,1.246025006336,38.74925001152
7.1e-08,25.19712504128,1.24446250624,38.75862501056
7.15e-08,25.16587503936,1.24446250624,38.73362501312
7.200000000000001e-08,25.16587503936,1.2475875064320001,38.69925001664
7.250000000000001e-08,25.1502500384,1.2507125066240001,38.69925001664
7.3e-08,25.13462503744,1.2522750067200001,38.72425001408
7.35e-08,25.08775003456,1.2475875064320001,38.7367500128
7.4e-08,25.08775003456,1.24446250624,38.71800001472
7.45e-08,25.0721250336,1.24446250624,38.69925001664
7.500000000000001e-08,25.10337503552,1.2475875064320001,38.69300001728
7.550000000000001e-08,25.16587503936,1.2507125066240001,38.71800001472
7.6e-08,25.2283750432,1.2522750067200001,38.7367500128
7.65e-08,25.24400004416,1.253837506816,38.7211250144
7.7e-08,25.24400004416,1.2507125066240001,38.6742500192
7.75e-08,25.25962504512,1.253837506816,38.63987502272
7.800000000000001e-08,25.25962504512,1.256962507008,38.6586250208
7.850000000000001e-08,25.25962504512,1.253837506816,38.72737501376
7.9e-08,25.24400004416,1.2475875064320001,38.79300000704
7.95e-08,25.18150004032,1.2475875064320001,38.8148750048
8e-08,25.18150004032,1.2475875064320001,38.811750005120004
8.05e-08,25.16587503936,1.2475875064320001,38.811750005120004
8.100000000000001e-08,25.18150004032,1.2491500065280001,38.82112500416
8.150000000000001e-08,25.13462503744,1.2507125066240001,38.80862500544
8.2e-08,25.10337503552,1.2507125066240001,38.75550001088
8.25e-08,25.10337503552,1.2507125066240001,38.680500018560004
8.3e-08,25.13462503744,1.2507125066240001,38.60550002624
8.35e-08,25.1502500384,1.253837506816,38.58987502784
8.400000000000001e-08,25.13462503744,1.255400006912,38.63675002304
8.450000000000001e-08,25.10337503552,1.256962507008,38.71487501504
8.500000000000001e-08,25.11900003648,1.258525007104,38.77737500864
8.55e-08,25.1502500384,1.258525007104,38.82112500416
8.6e-08,25.18150004032,1.258525007104,38.85550000064
8.65e-08,25.18150004032,1.256962507008,38.8929999968
8.700000000000001e-08,25.16587503936,1.253837506816,38.9086249952
8.750000000000001e-08,25.1502500384,1.2507125066240001,38.89612499648
8.800000000000001e-08,25.18150004032,1.2475875064320001,38.84925000128
8.85e-08,25.18150004032,1.2491500065280001,38.78987500736
8.9e-08,25.16587503936,1.2507125066240001,38.72737501376
8.95e-08,25.13462503744,1.2507125066240001,38.67112501952
9.000000000000001e-08,25.1502500384,1.2507125066240001,38.63675002304
9.050000000000001e-08,25.1502500384,1.2491500065280001,38.6117500256
9.100000000000001e-08,25.1502500384,1.2507125066240001,38.59925002688
9.15e-08,25.1502500384,1.2491500065280001,38.61487502528
9.2e-08,25.1502500384,1.2507125066240001,38.67112501952
9.25e-08,25.11900003648,1.253837506816,38.74925001152
9.300000000000001e-08,25.11900003648,1.253837506816,38.811750005120004
9.350000000000001e-08,25.1502500384,1.2522750067200001,38.84925000128
9.400000000000001e-08,25.1502500384,1.255400006912,38.85862500032
9.45e-08,25.16587503936,1.258525007104,38.86799999936
9.5e-08,25.13462503744,1.258525007104,38.85550000064
9.55e-08,25.08775003456,1.256962507008,38.81800000448
9.600000000000001e-08,25.11900003648,1.255400006912,38.7523750112
9.650000000000001e-08,25.08775003456,1.255400006912,38.68675001792
9.700000000000001e-08,25.10337503552,1.2600875072,38.649250021760004
9.75e-08,25.0721250336,1.256962507008,38.66175002048
9.8e-08,25.08775003456,1.253837506816,38.72425001408
9.85e-08,25.16587503936,1.253837506816,38.79300000704
9.9e-08,25.25962504512,1.253837506816,38.83675000256
9.950000000000001e-08,25.25962504512,1.255400006912,38.85862500032
1.0000000000000001e-07,25.2283750432,1.255400006912,38.87424999872
1.005e-07,25.21275004224,1.258525007104,38.88049999808
1.01e-07,25.2283750432,1.258525007104,38.87112499904
1.015e-07,25.2283750432,1.255400006912,38.827375003520004
1.02e-07,25.16587503936,1.256962507008,38.7523750112
1.0250000000000001e-07,25.08775003456,1.256962507008,38.68362501824
1.0300000000000001e-07,25.05650003264,1.255400006912,38.65237502144
1.0350000000000001e-07,25.05650003264,1.2522750067200001,38.67737501888
1.04e-07,25.05650003264,1.2507125066240001,38.73362501312
1.045e-07,25.04087503168,1.253837506816,38.77425000896
1.05e-07,25.08775003456,1.258525007104,38.80237500608
1.0550000000000001e-07,25.16587503936,1.2600875072,38.827375003520004
1.0600000000000001e-07,25.25962504512,1.2600875072,38.85237500096
1.0650000000000001e-07,25.32212504896,1.263212507392,38.88049999808
1.07e-07,25.33775004992,1.263212507392,38.88674999744
1.075e-07,25.33775004992,1.263212507392,38.87424999872
1.08e-07,25.33775004992,1.261650007296,38.86799999936
1.0850000000000001e-07,25.24400004416,1.261650007296,38.84925000128
1.0900000000000001e-07,25.13462503744,1.256962507008,38.811750005120004
1.0950000000000001e-07,25.08775003456,1.2522750067200001,38.77425000896
1.1e-07,25.11900003648,1.2522750067200001,38.74925001152
1.105e-07,25.11900003648,1.253837506816,38.74925001152
1.11e-07,25.04087503168,1.255400006912,38.75862501056
1.1150000000000001e-07,24.97837502784,1.255400006912,38.7680000096
1.1200000000000001e-07,25.0721250336,1.2507125066240001,38.7680000096
1.1250000000000001e-07,25.2283750432,1.2491500065280001,38.77737500864
1.13e-07,25.35337505088,1.2491500065280001,38.78987500736
1.135e-07,25.35337505088,1.2522750067200001,38.80237500608
1.14e-07,25.24400004416,1.255400006912,38.80862500544
1.1450000000000001e-07,25.2283750432,1.258525007104,38.811750005120004
1.1500000000000001e-07,25.33775004992,1.256962507008,38.796125006720004
1.1550000000000001e-07,25.3846250528,1.2522750067200001,38.77737500864
1.16e-07,25.25962504512,1.253837506816,38.77737500864
1.165e-07,25.05650003264,1.256962507008,38.7992500064
1.17e-07,24.94712502592,1.255400006912,38.827375003520004
1.1750000000000001e-07,25.04087503168,1.2507125066240001,38.83987500224
1.1800000000000001e-07,25.16587503936,1.2475875064320001,38.83675000256
1.1850000000000001e-07,25.2283750432,1.2507125066240001,38.8461250016
1.1900000000000001e-07,25.13462503744,1.253837506816,38.85862500032
1.195e-07,25.04087503168,1.255400006912,38.86175
1.2000000000000002e-07,25.13462503744,1.253837506816,38.83362500288
1.205e-07,25.32212504896,1.2522750067200001,38.796125006720004
1.21e-07,25.50962506048,1.253837506816,38.77425000896
1.215e-07,25.47837505856,1.2522750067200001,38.75862501056
1.22e-07,25.25962504512,1.2522750067200001,38.74925001152
1.2250000000000002e-07,25.11900003648,1.2507125066240001,38.75550001088
1.23e-07,25.18150004032,1.2507125066240001,38.77737500864
1.2350000000000001e-07,25.306500048,1.2507125066240001,38.8148750048
1.24e-07,25.29087504704,1.2491500065280001,38.85237500096
1.245e-07,25.08775003456,1.2491500065280001,38.85862500032
1.2500000000000002e-07,24.884625022079998,1.2491500065280001,38.82425000384
1.255e-07,24.884625022079998,1.2491500065280001,38.7992500064
1.2600000000000002e-07,25.0721250336,1.2491500065280001,38.7992500064
1.265e-07,25.27525004608,1.2522750067200001,38.80862500544
1.27e-07,25.306500048,1.255400006912,38.80237500608
1.275e-07,25.24400004416,1.2600875072,38.783625008
1.28e-07,25.24400004416,1.256962507008,38.77737500864
1.2850000000000002e-07,25.24400004416,1.253837506816,38.78675000768
1.29e-07,25.32212504896,1.253837506816,38.811750005120004
1.2950000000000001e-07,25.306500048,1.253837506816,38.827375003520004
1.3e-07,25.21275004224,1.253837506816,38.82425000384
1.305e-07,25.05650003264,1.2507125066240001,38.83362500288
1.31e-07,24.9940000288,1.2475875064320001,38.85237500096
1.315e-07,25.02525003072,1.246025006336,38.86799999936
1.3200000000000002e-07,25.08775003456,1.24446250624,38.87112499904
1.325e-07,25.13462503744,1.2475875064320001,38.83987500224
1.33e-07,25.10337503552,1.2475875064320001,38.77737500864
1.335e-07,25.11900003648,1.2491500065280001,38.74925001152
1.34e-07,25.21275004224,1.2491500065280001,38.77112500928
1.3450000000000002e-07,25.36900005184,1.2507125066240001,38.82112500416
1.35e-07,25.43150005568,1.2522750067200001,38.83362500288
1.3550000000000002e-07,25.36900005184,1.253837506816,38.78987500736
1.36e-07,25.24400004416,1.2507125066240001,38.74612501184
1.365e-07,25.11900003648,1.2507125066240001,38.7680000096
1.37e-07,25.10337503552,1.2475875064320001,38.8461250016
1.375e-07,25.1502500384,1.246025006336,38.9086249952
1.3800000000000002e-07,25.1502500384,1.246025006336,38.89924999616
1.385e-07,25.04087503168,1.2475875064320001,38.86487499968
1.3900000000000001e-07,24.96275002688,1.2475875064320001,38.84925000128
1.395e-07,24.9940000288,1.246025006336,38.8773749984
1.4e-07,25.13462503744,1.246025006336,38.91487499456
1.4050000000000002e-07,25.25962504512,1.2507125066240001,38.89924999616
1.41e-07,25.27525004608,1.2522750067200001,38.82112500416
1.4150000000000002e-07,25.2283750432,1.2507125066240001,38.7680000096
1.42e-07,25.2283750432,1.2507125066240001,38.78987500736
1.425e-07,25.33775004992,1.2475875064320001,38.87112499904
1.43e-07,25.41587505472,1.24446250624,38.92737499328
1.435e-07,25.33775004992,1.246025006336,38.91799999424
1.4400000000000002e-07,25.16587503936,1.242900006144,38.86799999936
1.445e-07,25.04087503168,1.239775005952,38.85550000064
1.4500000000000001e-07,25.0721250336,1.238212505856,38.90237499584
1.455e-07,25.16587503936,1.241337506048,38.95237499072
1.46e-07,25.18150004032,1.241337506048,38.93362499264
1.4650000000000002e-07,25.0721250336,1.246025006336,38.8461250016
1.47e-07,24.96275002688,1.246025006336,38.76487500992
1.4750000000000002e-07,25.02525003072,1.24446250624,38.75550001088
1.48e-07,25.21275004224,1.246025006336,38.81800000448
1.485e-07,25.36900005184,1.2507125066240001,38.86487499968
1.49e-07,25.36900005184,1.2491500065280001,38.83675000256
1.495e-07,25.27525004608,1.246025006336,38.7992500064
1.5000000000000002e-07,25.21275004224,1.24446250624,38.8148750048
1.505e-07,25.25962504512,1.24446250624,38.90237499584
1.5100000000000002e-07,25.35337505088,1.246025006336,38.958624990080004
1.515e-07,25.33775004992,1.246025006336,38.939874992
1.52e-07,25.21275004224,1.246025006336,38.88049999808
1.5250000000000002e-07,25.05650003264,1.246025006336,38.843000001920004
1.53e-07,25.05650003264,1.246025006336,38.85862500032
1.5350000000000002e-07,25.10337503552,1.24446250624,38.89924999616
1.54e-07,25.18150004032,1.24446250624,38.89924999616
1.5450000000000001e-07,25.16587503936,1.24446250624,38.85862500032
1.55e-07,25.10337503552,1.24446250624,38.811750005120004
1.555e-07,25.08775003456,1.2475875064320001,38.82112500416
1.5600000000000002e-07,25.21275004224,1.246025006336,38.88049999808
1.565e-07,25.33775004992,1.2491500065280001,38.91799999424
1.5700000000000002e-07,25.306500048,1.2507125066240001,38.8773749984
1.575e-07,25.1502500384,1.2491500065280001,38.81800000448
1.58e-07,25.0721250336,1.2507125066240001,38.80237500608
1.5850000000000002e-07,25.11900003648,1.2491500065280001,38.85550000064
1.59e-07,25.21275004224,1.2475875064320001,38.9086249952
1.5950000000000002e-07,25.19712504128,1.2475875064320001,38.91799999424
1.6e-07,25.10337503552,1.2475875064320001,38.88362499776
1.6050000000000001e-07,24.9940000288,1.24446250624,38.86487499968
1.61e-07,25.05650003264,1.24446250624,38.88987499712
1.615e-07,25.18150004032,1.246025006336,38.9242499936
1.6200000000000002e-07,25.29087504704,1.2507125066240001,38.92112499392
1.625e-07,25.25962504512,1.255400006912,38.86799999936
1.6300000000000002e-07,25.2283750432,1.2522750067200001,38.7992500064
1.635e-07,25.21275004224,1.2475875064320001,38.77737500864
