Time (s),VIN,IIN,VOUT
0.0,25.21375004224,1.254075006144,39.16562500608
5e-10,25.37000005184,1.254075006144,39.21250000128
1e-09,25.37000005184,1.25563750624,39.23124999936
1.5000000000000002e-09,25.21375004224,1.25563750624,39.21562500096
2e-09,25.13562503744,1.250950005952,39.225
2.5e-09,25.21375004224,1.24782500576,39.268749995520004
3.0000000000000004e-09,25.37000005184,1.250950005952,39.3343749888
3.5000000000000003e-09,25.416875054720002,1.250950005952,39.35624998656
4e-09,25.21375004224,1.24782500576,39.32812498944
4.500000000000001e-09,25.05750003264,1.249387505856,39.29374999296
5e-09,25.04187503168,1.249387505856,39.27499999488
5.5000000000000004e-09,25.16687503936,1.24782500576,39.2718749952
6.000000000000001e-09,25.24500004416,1.24782500576,39.27499999488
6.5e-09,25.21375004224,1.249387505856,39.24687499776
7.000000000000001e-09,25.08875003456,1.252512506048,39.21875000064
7.500000000000001e-09,25.05750003264,1.252512506048,39.221875000320004
8e-09,25.19812504128,1.252512506048,39.25937499648
8.5e-09,25.35437505088,1.25563750624,39.29062499328
9.000000000000001e-09,25.35437505088,1.257200006336,39.2874999936
9.5e-09,25.19812504128,1.25563750624,39.2406249984
1e-08,25.04187503168,1.25563750624,39.22812499968
1.0500000000000001e-08,25.0731250336,1.25563750624,39.24374999808
1.1000000000000001e-08,25.21375004224,1.252512506048,39.27499999488
1.15e-08,25.27625004608,1.250950005952,39.28124999424
1.2000000000000002e-08,25.1512500384,1.252512506048,39.268749995520004
1.2500000000000001e-08,25.01062502976,1.25563750624,39.25937499648
1.3e-08,25.01062502976,1.257200006336,39.2562499968
1.35e-08,25.18250004032,1.25563750624,39.26562499584
1.4000000000000001e-08,25.32312504896,1.254075006144,39.27499999488
1.45e-08,25.33875004992,1.254075006144,39.2562499968
1.5000000000000002e-08,25.2293750432,1.25563750624,39.21875000064
1.55e-08,25.16687503936,1.252512506048,39.1937500032
1.6e-08,25.24500004416,1.254075006144,39.18437500416
1.6500000000000002e-08,25.307500048,1.25563750624,39.1781250048
1.7e-08,25.24500004416,1.25563750624,39.159375006720005
1.75e-08,25.12000003648,1.250950005952,39.1156250112
1.8000000000000002e-08,25.01062502976,1.249387505856,39.08750001408
1.85e-08,24.9950000288,1.249387505856,39.07812501504
1.9e-08,25.0731250336,1.249387505856,39.10312501248
1.9500000000000003e-08,25.13562503744,1.249387505856,39.15312500736
2e-08,25.08875003456,1.250950005952,39.20312500224
2.05e-08,25.05750003264,1.254075006144,39.22812499968
2.1000000000000003e-08,25.05750003264,1.25563750624,39.2406249984
2.15e-08,25.18250004032,1.25563750624,39.2406249984
2.2000000000000002e-08,25.29187504704,1.25563750624,39.2406249984
2.2500000000000003e-08,25.32312504896,1.25563750624,39.206250001920004
2.3e-08,25.2293750432,1.258762506432,39.15000000768
2.3500000000000002e-08,25.16687503936,1.258762506432,39.090625013760004
2.4000000000000003e-08,25.13562503744,1.260325006528,39.04687501824
2.45e-08,25.16687503936,1.2618875066239998,39.03437501952
2.5000000000000002e-08,25.1512500384,1.257200006336,39.068750016
2.55e-08,25.10437503552,1.254075006144,39.121875010560004
2.6e-08,25.04187503168,1.252512506048,39.17187500544
2.6500000000000002e-08,25.04187503168,1.254075006144,39.206250001920004
2.7e-08,25.13562503744,1.25563750624,39.225
2.75e-08,25.26062504512,1.252512506048,39.22812499968
2.8000000000000003e-08,25.26062504512,1.250950005952,39.21875000064
2.85e-08,25.2293750432,1.254075006144,39.16562500608
2.9e-08,25.19812504128,1.254075006144,39.09687501312
2.9500000000000003e-08,25.2293750432,1.254075006144,39.05000001792
3.0000000000000004e-08,25.26062504512,1.254075006144,39.0375000192
3.05e-08,25.18250004032,1.252512506048,39.04062501888
3.1e-08,25.05750003264,1.249387505856,39.05000001792
3.1500000000000004e-08,25.01062502976,1.249387505856,39.068750016
3.2e-08,25.0731250336,1.250950005952,39.09375001344
3.25e-08,25.1512500384,1.25563750624,39.12812500992
3.3000000000000004e-08,25.18250004032,1.257200006336,39.17187500544
3.35e-08,25.1512500384,1.257200006336,39.20000000256
3.4e-08,25.13562503744,1.257200006336,39.206250001920004
3.4500000000000005e-08,25.19812504128,1.258762506432,39.1781250048
3.5e-08,25.29187504704,1.260325006528,39.14062500864
3.55e-08,25.32312504896,1.2618875066239998,39.10937501184
3.6000000000000005e-08,25.2293750432,1.2618875066239998,39.090625013760004
3.65e-08,25.1512500384,1.260325006528,39.075000015360004
3.7e-08,25.10437503552,1.25563750624,39.043750018560004
3.7500000000000005e-08,25.13562503744,1.250950005952,39.01562502144
3.8e-08,25.18250004032,1.250950005952,39.01875002112
3.85e-08,25.13562503744,1.249387505856,39.03437501952
3.9000000000000005e-08,25.0731250336,1.249387505856,39.05000001792
3.95e-08,25.05750003264,1.246262505664,39.08125001472
4e-08,25.1512500384,1.249387505856,39.11875001088
4.0500000000000005e-08,25.24500004416,1.254075006144,39.15000000768
4.1e-08,25.27625004608,1.260325006528,39.16562500608
4.15e-08,25.2293750432,1.260325006528,39.159375006720005
4.2000000000000006e-08,25.1512500384,1.25563750624,39.15312500736
4.2500000000000003e-08,25.21375004224,1.25563750624,39.143750008320005
4.3e-08,25.29187504704,1.257200006336,39.13437500928
4.3500000000000006e-08,25.27625004608,1.258762506432,39.11250001152
4.4000000000000004e-08,25.10437503552,1.260325006528,39.0843750144
4.45e-08,25.01062502976,1.257200006336,39.06250001664
4.5000000000000006e-08,25.04187503168,1.249387505856,39.05625001728
4.5500000000000004e-08,25.18250004032,1.246262505664,39.068750016
4.6e-08,25.21375004224,1.250950005952,39.08750001408
4.6500000000000006e-08,25.1512500384,1.252512506048,39.090625013760004
4.7000000000000004e-08,25.02625003072,1.254075006144,39.075000015360004
4.75e-08,25.05750003264,1.250950005952,39.06250001664
4.8000000000000006e-08,25.27625004608,1.249387505856,39.059375016960004
4.8500000000000004e-08,25.401250053760002,1.250950005952,39.0375000192
4.9e-08,25.35437505088,1.254075006144,39.00937502208
4.95e-08,25.1512500384,1.25563750624,38.99375002368
5.0000000000000004e-08,25.01062502976,1.25563750624,39.00937502208
5.05e-08,25.08875003456,1.252512506048,39.04062501888
5.1e-08,25.24500004416,1.254075006144,39.07187501568
5.1500000000000005e-08,25.26062504512,1.258762506432,39.059375016960004
5.2e-08,25.04187503168,1.260325006528,39.03125001984
5.25e-08,24.90125002304,1.2618875066239998,38.990625024
5.3000000000000005e-08,24.916875024,1.258762506432,38.96875002624
5.35e-08,25.10437503552,1.25563750624,38.97812502528
5.4e-08,25.29187504704,1.257200006336,39.0062500224
5.4500000000000005e-08,25.27625004608,1.258762506432,39.01562502144
5.5e-08,25.12000003648,1.260325006528,39.0218750208
5.55e-08,25.04187503168,1.25563750624,39.05000001792
5.6000000000000005e-08,25.13562503744,1.25563750624,39.1000000128
5.65e-08,25.26062504512,1.258762506432,39.137500008960004
5.7e-08,25.307500048,1.257200006336,39.11875001088
5.7500000000000005e-08,25.19812504128,1.25563750624,39.04687501824
5.8e-08,25.04187503168,1.254075006144,38.97812502528
5.85e-08,24.9950000288,1.249387505856,38.93125003008
5.9000000000000006e-08,25.12000003648,1.24782500576,38.943750028800004
5.9500000000000003e-08,25.2293750432,1.249387505856,38.96250002688
6.000000000000001e-08,25.16687503936,1.249387505856,38.95625002752
6.05e-08,25.04187503168,1.252512506048,38.93125003008
6.1e-08,24.96375002688,1.254075006144,38.93750002944
6.15e-08,25.04187503168,1.25563750624,38.97812502528
6.2e-08,25.21375004224,1.258762506432,39.03125001984
6.250000000000001e-08,25.307500048,1.260325006528,39.04062501888
6.300000000000001e-08,25.24500004416,1.260325006528,39.00000002304
6.35e-08,25.12000003648,1.2618875066239998,38.97187502592
6.4e-08,25.10437503552,1.260325006528,38.98437502464
6.45e-08,25.19812504128,1.258762506432,39.03437501952
6.5e-08,25.26062504512,1.257200006336,39.07812501504
6.55e-08,25.2293750432,1.257200006336,39.07187501568
6.600000000000001e-08,25.08875003456,1.257200006336,39.03437501952
6.65e-08,24.96375002688,1.258762506432,39.00000002304
6.7e-08,25.04187503168,1.257200006336,39.01875002112
6.75e-08,25.18250004032,1.258762506432,39.0531250176
6.8e-08,25.21375004224,1.258762506432,39.05000001792
6.85e-08,25.19812504128,1.25563750624,39.0062500224
6.900000000000001e-08,25.1512500384,1.254075006144,38.981250024960005
6.950000000000001e-08,25.21375004224,1.254075006144,39.00937502208
7e-08,25.32312504896,1.257200006336,39.090625013760004
7.05e-08,25.33875004992,1.25563750624,39.143750008320005
7.1e-08,25.27625004608,1.258762506432,39.1312500096
7.15e-08,25.1512500384,1.260325006528,39.0843750144
7.200000000000001e-08,25.10437503552,1.2618875066239998,39.0531250176
7.250000000000001e-08,25.13562503744,1.260325006528,39.06562501632
7.3e-08,25.1512500384,1.25563750624,39.1000000128
7.35e-08,25.12000003648,1.252512506048,39.10937501184
7.4e-08,25.04187503168,1.252512506048,39.09375001344
7.45e-08,25.04187503168,1.254075006144,39.06562501632
7.500000000000001e-08,25.10437503552,1.258762506432,39.075000015360004
7.550000000000001e-08,25.27625004608,1.258762506432,39.09375001344
7.6e-08,25.33875004992,1.257200006336,39.1000000128
7.65e-08,25.35437505088,1.258762506432,39.068750016
7.7e-08,25.27625004608,1.2618875066239998,39.01875002112
7.75e-08,25.26062504512,1.2618875066239998,39.00312502272
7.800000000000001e-08,25.29187504704,1.257200006336,39.0531250176
7.850000000000001e-08,25.33875004992,1.254075006144,39.13437500928
7.9e-08,25.27625004608,1.254075006144,39.20000000256
7.95e-08,25.1512500384,1.25563750624,39.225
8e-08,25.08875003456,1.258762506432,39.21875000064
8.05e-08,25.10437503552,1.258762506432,39.20312500224
8.100000000000001e-08,25.16687503936,1.257200006336,39.18750000384
8.150000000000001e-08,25.18250004032,1.257200006336,39.15312500736
8.2e-08,25.18250004032,1.257200006336,39.09687501312
8.25e-08,25.13562503744,1.258762506432,39.01562502144
8.3e-08,25.13562503744,1.260325006528,38.9750000256
8.35e-08,25.21375004224,1.260325006528,38.98437502464
8.400000000000001e-08,25.2293750432,1.2618875066239998,39.05000001792
8.450000000000001e-08,25.24500004416,1.2634500067199999,39.12812500992
8.500000000000001e-08,25.21375004224,1.260325006528,39.1781250048
8.55e-08,25.16687503936,1.2634500067199999,39.20312500224
8.6e-08,25.13562503744,1.2665750069119999,39.22812499968
8.65e-08,25.1512500384,1.2650125068159999,39.24999999744
8.700000000000001e-08,25.16687503936,1.260325006528,39.24999999744
8.750000000000001e-08,25.18250004032,1.260325006528,39.23124999936
8.800000000000001e-08,25.1512500384,1.260325006528,39.1781250048
8.85e-08,25.12000003648,1.258762506432,39.11875001088
8.9e-08,25.1512500384,1.257200006336,39.07187501568
8.95e-08,25.21375004224,1.25563750624,39.04062501888
9.000000000000001e-08,25.27625004608,1.257200006336,39.0218750208
9.050000000000001e-08,25.24500004416,1.258762506432,38.990625024
9.100000000000001e-08,25.16687503936,1.2618875066239998,38.9750000256
9.15e-08,25.10437503552,1.2618875066239998,38.99375002368
9.2e-08,25.10437503552,1.260325006528,39.05625001728
9.25e-08,25.16687503936,1.258762506432,39.1312500096
9.300000000000001e-08,25.1512500384,1.258762506432,39.18437500416
9.350000000000001e-08,25.12000003648,1.260325006528,39.206250001920004
9.400000000000001e-08,25.05750003264,1.2618875066239998,39.22812499968
9.45e-08,25.04187503168,1.260325006528,39.237499998720004
9.5e-08,25.0731250336,1.260325006528,39.225
9.55e-08,25.13562503744,1.260325006528,39.175000005120005
9.600000000000001e-08,25.16687503936,1.2634500067199999,39.09687501312
9.650000000000001e-08,25.13562503744,1.2650125068159999,39.0218750208
9.700000000000001e-08,25.12000003648,1.258762506432,39.00000002304
9.75e-08,25.1512500384,1.258762506432,39.03437501952
9.8e-08,25.2293750432,1.260325006528,39.10937501184
9.85e-08,25.29187504704,1.260325006528,39.1625000064
9.9e-08,25.24500004416,1.258762506432,39.190625003520005
9.950000000000001e-08,25.1512500384,1.258762506432,39.206250001920004
1.0000000000000001e-07,25.0731250336,1.258762506432,39.221875000320004
1.005e-07,25.13562503744,1.260325006528,39.22812499968
1.01e-07,25.2293750432,1.260325006528,39.2093750016
1.015e-07,25.21375004224,1.257200006336,39.1625000064
1.02e-07,25.12000003648,1.258762506432,39.10312501248
1.0250000000000001e-07,25.02625003072,1.257200006336,39.059375016960004
1.0300000000000001e-07,25.0731250336,1.257200006336,39.059375016960004
1.0350000000000001e-07,25.1512500384,1.254075006144,39.09687501312
1.04e-07,25.18250004032,1.25563750624,39.1312500096
1.045e-07,25.13562503744,1.260325006528,39.15312500736
1.05e-07,25.10437503552,1.2665750069119999,39.175000005120005
1.0550000000000001e-07,25.16687503936,1.2681375070079999,39.18125000448
1.0600000000000001e-07,25.27625004608,1.2681375070079999,39.190625003520005
1.0650000000000001e-07,25.35437505088,1.2650125068159999,39.190625003520005
1.07e-07,25.33875004992,1.2650125068159999,39.19687500288
1.075e-07,25.27625004608,1.2650125068159999,39.21250000128
1.08e-07,25.19812504128,1.2618875066239998,39.23124999936
1.0850000000000001e-07,25.1512500384,1.258762506432,39.22812499968
1.0900000000000001e-07,25.12000003648,1.25563750624,39.20312500224
1.0950000000000001e-07,25.16687503936,1.258762506432,39.18750000384
1.1e-07,25.16687503936,1.2618875066239998,39.18750000384
1.105e-07,25.0731250336,1.2634500067199999,39.1781250048
1.11e-07,24.97937502784,1.2618875066239998,39.159375006720005
1.1150000000000001e-07,25.04187503168,1.25563750624,39.13437500928
1.1200000000000001e-07,25.24500004416,1.254075006144,39.121875010560004
1.1250000000000001e-07,25.416875054720002,1.257200006336,39.137500008960004
1.13e-07,25.401250053760002,1.260325006528,39.175000005120005
1.135e-07,25.24500004416,1.2618875066239998,39.20312500224
1.14e-07,25.12000003648,1.2618875066239998,39.2093750016
1.1450000000000001e-07,25.2293750432,1.260325006528,39.190625003520005
1.1500000000000001e-07,25.385625052800002,1.258762506432,39.1781250048
1.1550000000000001e-07,25.33875004992,1.2634500067199999,39.18750000384
1.16e-07,25.08875003456,1.2665750069119999,39.225
1.165e-07,24.90125002304,1.2650125068159999,39.25937499648
1.17e-07,24.93250002496,1.260325006528,39.26562499584
1.1750000000000001e-07,25.19812504128,1.25563750624,39.237499998720004
1.1800000000000001e-07,25.37000005184,1.260325006528,39.221875000320004
1.1850000000000001e-07,25.27625004608,1.2634500067199999,39.21875000064
1.1900000000000001e-07,25.0731250336,1.2634500067199999,39.23124999936
1.195e-07,25.01062502976,1.260325006528,39.221875000320004
1.2000000000000002e-07,25.19812504128,1.258762506432,39.18437500416
1.205e-07,25.463750057600002,1.2618875066239998,39.143750008320005
1.21e-07,25.526250061440003,1.2618875066239998,39.137500008960004
1.215e-07,25.27625004608,1.2618875066239998,39.146875008
1.22e-07,24.9950000288,1.258762506432,39.16562500608
1.2250000000000002e-07,25.01062502976,1.257200006336,39.1937500032
1.23e-07,25.26062504512,1.25563750624,39.237499998720004
1.2350000000000001e-07,25.401250053760002,1.254075006144,39.268749995520004
1.24e-07,25.2293750432,1.254075006144,39.28124999424
1.245e-07,24.96375002688,1.258762506432,39.24687499776
1.2500000000000002e-07,24.854375020160003,1.258762506432,39.20312500224
1.255e-07,25.0731250336,1.258762506432,39.17187500544
1.2600000000000002e-07,25.33875004992,1.258762506432,39.17187500544
1.265e-07,25.401250053760002,1.2618875066239998,39.17187500544
1.27e-07,25.2293750432,1.2618875066239998,39.15312500736
1.275e-07,25.05750003264,1.2618875066239998,39.13437500928
1.28e-07,25.13562503744,1.2634500067199999,39.137500008960004
1.2850000000000002e-07,25.307500048,1.260325006528,39.16562500608
1.29e-07,25.37000005184,1.2618875066239998,39.21562500096
1.2950000000000001e-07,25.21375004224,1.260325006528,39.2406249984
1.3e-07,24.9950000288,1.258762506432,39.2406249984
1.305e-07,24.916875024,1.25563750624,39.225
1.31e-07,25.05750003264,1.252512506048,39.23437499904
1.315e-07,25.24500004416,1.252512506048,39.2562499968
1.3200000000000002e-07,25.24500004416,1.254075006144,39.25937499648
1.325e-07,25.1512500384,1.25563750624,39.2093750016
1.33e-07,25.04187503168,1.254075006144,39.137500008960004
1.335e-07,25.13562503744,1.25563750624,39.106250012160004
1.34e-07,25.33875004992,1.260325006528,39.146875008
1.3450000000000002e-07,25.448125056640002,1.2618875066239998,39.20000000256
1.35e-07,25.32312504896,1.2634500067199999,39.20000000256
1.3550000000000002e-07,25.12000003648,1.260325006528,39.15312500736
1.36e-07,25.02625003072,1.258762506432,39.12500001024
1.365e-07,25.0731250336,1.25563750624,39.159375006720005
1.37e-07,25.18250004032,1.25563750624,39.24999999744
1.375e-07,25.16687503936,1.257200006336,39.303124992
1.3800000000000002e-07,25.02625003072,1.258762506432,39.29062499328
1.385e-07,24.94812502592,1.25563750624,39.23437499904
1.3900000000000001e-07,25.05750003264,1.25563750624,39.21875000064
1.395e-07,25.2293750432,1.257200006336,39.237499998720004
1.4e-07,25.32312504896,1.260325006528,39.2562499968
1.4050000000000002e-07,25.27625004608,1.2618875066239998,39.21875000064
1.41e-07,25.16687503936,1.260325006528,39.15000000768
1.4150000000000002e-07,25.16687503936,1.258762506432,39.121875010560004
1.42e-07,25.26062504512,1.25563750624,39.18437500416
1.425e-07,25.37000005184,1.252512506048,39.27499999488
1.43e-07,25.32312504896,1.254075006144,39.321874990080005
1.435e-07,25.12000003648,1.25563750624,39.30937499136
1.4400000000000002e-07,24.9950000288,1.252512506048,39.28124999424
1.445e-07,25.05750003264,1.250950005952,39.284374993920004
1.4500000000000001e-07,25.21375004224,1.249387505856,39.32812498944
1.455e-07,25.27625004608,1.252512506048,39.34062498816
1.46e-07,25.1512500384,1.254075006144,39.2874999936
1.4650000000000002e-07,24.9950000288,1.252512506048,39.1937500032
1.47e-07,25.01062502976,1.254075006144,39.146875008
1.4750000000000002e-07,25.21375004224,1.25563750624,39.16562500608
1.48e-07,25.37000005184,1.257200006336,39.21250000128
1.485e-07,25.35437505088,1.257200006336,39.225
1.49e-07,25.2293750432,1.25563750624,39.21250000128
1.495e-07,25.1512500384,1.252512506048,39.21250000128
1.5000000000000002e-07,25.2293750432,1.254075006144,39.26562499584
1.505e-07,25.37000005184,1.254075006144,39.33124998912
1.5100000000000002e-07,25.401250053760002,1.252512506048,39.353124986880005
1.515e-07,25.2293750432,1.252512506048,39.32499998976
1.52e-07,25.08875003456,1.250950005952,39.29062499328
1.5250000000000002e-07,25.05750003264,1.249387505856,39.268749995520004
1.53e-07,25.16687503936,1.24782500576,39.268749995520004
1.5350000000000002e-07,25.2293750432,1.250950005952,39.26249999616
1.54e-07,25.19812504128,1.250950005952,39.2406249984
1.5450000000000001e-07,25.10437503552,1.250950005952,39.2093750016
1.55e-07,25.05750003264,1.24782500576,39.21250000128
1.555e-07,25.19812504128,1.24782500576,39.24374999808
1.5600000000000002e-07,25.35437505088,1.249387505856,39.284374993920004
1.565e-07,25.37000005184,1.252512506048,39.27812499456
1.5700000000000002e-07,25.19812504128,1.252512506048,39.237499998720004
1.575e-07,25.05750003264,1.252512506048,39.21562500096
1.58e-07,25.0731250336,1.254075006144,39.24374999808
1.5850000000000002e-07,25.21375004224,1.25563750624,39.27499999488
1.59e-07,25.27625004608,1.254075006144,39.284374993920004
1.5950000000000002e-07,25.1512500384,1.254075006144,39.27499999488
1.6e-07,25.02625003072,1.25563750624,39.25937499648
1.6050000000000001e-07,25.02625003072,1.25563750624,39.25937499648
1.61e-07,25.18250004032,1.254075006144,39.2718749952
1.615e-07,25.32312504896,1.252512506048,39.2718749952
1.6200000000000002e-07,25.32312504896,1.254075006144,39.253124997120004
1.625e-07,25.2293750432,1.254075006144,39.21875000064
1.6300000000000002e-07,25.18250004032,1.254075006144,39.190625003520005
1.635e-07,25.24500004416,1.249387505856,39.18437500416
1.64e-07,25.27625004608,1.249387505856,39.18437500416
1.645e-07,25.24500004416,1.252512506048,39.16875000576
1.65e-07,25.08875003456,1.250950005952,39.12500001024
1.6550000000000002e-07,25.01062502976,1.249387505856,39.08125001472
