Time (s),VIN,IIN,VOUT
0.0,25.20962504128,1.39561250624,43.958750001279995
5e-10,25.27212504512,1.39561250624,44.005624996479995
1e-09,25.33462504896,1.394050006144,44.027499994239996
1.5000000000000002e-09,25.25650004416,1.392487506048,44.0181249952
2e-09,25.14712503744,1.390925005952,43.9868749984
2.5e-09,25.069000032639998,1.394050006144,43.965000000639996
3.0000000000000004e-09,25.13150003648,1.394050006144,43.965000000639996
3.5000000000000003e-09,25.25650004416,1.390925005952,43.9556250016
4e-09,25.27212504512,1.38780000576,43.943125002879995
4.500000000000001e-09,25.20962504128,1.386237505664,43.94625000256
5e-09,25.17837503936,1.390925005952,43.96187500096
5.5000000000000004e-09,25.20962504128,1.39561250624,44.0024999968
6.000000000000001e-09,25.319000048,1.39561250624,44.0337499936
6.5e-09,25.36587505088,1.397175006336,44.043124992639996
7.000000000000001e-09,25.319000048,1.394050006144,44.0337499936
7.500000000000001e-09,25.17837503936,1.394050006144,44.021249994879994
8e-09,25.14712503744,1.392487506048,44.01499999552
8.5e-09,25.19400004032,1.392487506048,44.01499999552
9.000000000000001e-09,25.2408750432,1.392487506048,44.0024999968
9.5e-09,25.20962504128,1.394050006144,43.97749999936
1e-08,25.13150003648,1.392487506048,43.96812500032
1.0500000000000001e-08,25.0846250336,1.394050006144,43.980624999039996
1.1000000000000001e-08,25.1627500384,1.397175006336,44.005624996479995
1.15e-08,25.2408750432,1.400300006528,44.005624996479995
1.2000000000000002e-08,25.22525004224,1.398737506432,43.974374999679995
1.2500000000000001e-08,25.19400004032,1.400300006528,43.958750001279995
1.3e-08,25.20962504128,1.397175006336,43.96187500096
1.35e-08,25.2408750432,1.394050006144,43.97749999936
1.4000000000000001e-08,25.27212504512,1.394050006144,43.980624999039996
1.45e-08,25.22525004224,1.397175006336,43.96187500096
1.5000000000000002e-08,25.17837503936,1.398737506432,43.92125000512
1.55e-08,25.13150003648,1.397175006336,43.893125008
1.6e-08,25.1627500384,1.392487506048,43.874375009919994
1.6500000000000002e-08,25.17837503936,1.390925005952,43.87125001024
1.7e-08,25.1627500384,1.390925005952,43.858750011519994
1.75e-08,25.0846250336,1.392487506048,43.85250001216
1.8000000000000002e-08,25.069000032639998,1.389362505856,43.85250001216
1.85e-08,25.11587503552,1.38780000576,43.8775000096
1.9e-08,25.20962504128,1.389362505856,43.91500000576
1.9500000000000003e-08,25.27212504512,1.394050006144,43.94937500224
2e-08,25.22525004224,1.398737506432,43.94937500224
2.05e-08,25.17837503936,1.398737506432,43.927500004479995
2.1000000000000003e-08,25.14712503744,1.39561250624,43.88375000896
2.15e-08,25.1627500384,1.394050006144,43.85562501184
2.2000000000000002e-08,25.19400004032,1.392487506048,43.8306250144
2.2500000000000003e-08,25.17837503936,1.39561250624,43.818125015679996
2.3e-08,25.13150003648,1.394050006144,43.815000016
2.3500000000000002e-08,25.069000032639998,1.392487506048,43.827500014719995
2.4000000000000003e-08,25.069000032639998,1.392487506048,43.84000001344
2.45e-08,25.0846250336,1.394050006144,43.865000010879996
2.5000000000000002e-08,25.13150003648,1.394050006144,43.90250000704
2.55e-08,25.14712503744,1.39561250624,43.95250000192
2.6e-08,25.1627500384,1.394050006144,43.97125
2.6500000000000002e-08,25.17837503936,1.392487506048,43.9556250016
2.7e-08,25.22525004224,1.392487506048,43.90562500672
2.75e-08,25.25650004416,1.39561250624,43.858750011519994
2.8000000000000003e-08,25.28775004608,1.39561250624,43.82437501504
2.85e-08,25.2408750432,1.392487506048,43.80562501696
2.9e-08,25.17837503936,1.389362505856,43.79312501824
2.9500000000000003e-08,25.1627500384,1.392487506048,43.796250017919995
3.0000000000000004e-08,25.11587503552,1.397175006336,43.79312501824
3.05e-08,25.069000032639998,1.400300006528,43.811875016319995
3.1e-08,25.053375031679998,1.397175006336,43.849375012479996
3.1500000000000004e-08,25.069000032639998,1.394050006144,43.89937500736
3.2e-08,25.14712503744,1.394050006144,43.9243750048
3.25e-08,25.17837503936,1.398737506432,43.91500000576
3.3000000000000004e-08,25.17837503936,1.397175006336,43.880625009279996
3.35e-08,25.19400004032,1.397175006336,43.85250001216
3.4e-08,25.22525004224,1.394050006144,43.8306250144
3.4500000000000005e-08,25.28775004608,1.392487506048,43.811875016319995
3.5e-08,25.30337504704,1.394050006144,43.786875018879996
3.55e-08,25.22525004224,1.397175006336,43.75875002176
3.6000000000000005e-08,25.13150003648,1.397175006336,43.74312502336
3.65e-08,25.069000032639998,1.394050006144,43.7681250208
3.7e-08,25.0846250336,1.390925005952,43.796250017919995
3.7500000000000005e-08,25.13150003648,1.392487506048,43.82125001536
3.8e-08,25.14712503744,1.39561250624,43.827500014719995
3.85e-08,25.13150003648,1.397175006336,43.83687501376
3.9000000000000005e-08,25.11587503552,1.397175006336,43.85562501184
3.95e-08,25.13150003648,1.39561250624,43.88375000896
4e-08,25.22525004224,1.394050006144,43.89000000832
4.0500000000000005e-08,25.27212504512,1.39561250624,43.865000010879996
4.1e-08,25.27212504512,1.398737506432,43.815000016
4.15e-08,25.19400004032,1.400300006528,43.77125002048
4.2000000000000006e-08,25.14712503744,1.398737506432,43.74625002304
4.2500000000000003e-08,25.17837503936,1.394050006144,43.75562502208
4.3e-08,25.22525004224,1.389362505856,43.77437502016
4.3500000000000006e-08,25.19400004032,1.390925005952,43.796250017919995
4.4000000000000004e-08,25.069000032639998,1.39561250624,43.815000016
4.45e-08,25.022125029759998,1.397175006336,43.849375012479996
4.5000000000000006e-08,25.069000032639998,1.39561250624,43.87125001024
4.5500000000000004e-08,25.19400004032,1.394050006144,43.86812501056
4.6e-08,25.27212504512,1.39561250624,43.827500014719995
4.6500000000000006e-08,25.2408750432,1.397175006336,43.7837500192
4.7000000000000004e-08,25.17837503936,1.398737506432,43.7525000224
4.75e-08,25.19400004032,1.398737506432,43.74000002368
4.8000000000000006e-08,25.27212504512,1.394050006144,43.74312502336
4.8500000000000004e-08,25.33462504896,1.394050006144,43.74625002304
4.9e-08,25.25650004416,1.392487506048,43.736875024
4.95e-08,25.10025003456,1.394050006144,43.73062502464
5.0000000000000004e-08,25.006500028799998,1.394050006144,43.74625002304
5.05e-08,25.037750030719998,1.392487506048,43.780625019519995
5.1e-08,25.13150003648,1.392487506048,43.7993750176
5.1500000000000005e-08,25.19400004032,1.394050006144,43.77125002048
5.2e-08,25.14712503744,1.39561250624,43.71500002624
5.25e-08,25.10025003456,1.39561250624,43.6743750304
5.3000000000000005e-08,25.11587503552,1.397175006336,43.680625029759995
5.35e-08,25.19400004032,1.400300006528,43.72437502528
5.4e-08,25.28775004608,1.401862506624,43.75875002176
5.4500000000000005e-08,25.30337504704,1.4049875068159998,43.75562502208
5.5e-08,25.22525004224,1.40342500672,43.72750002496
5.55e-08,25.11587503552,1.401862506624,43.718125025919996
5.6000000000000005e-08,25.0846250336,1.397175006336,43.74312502336
5.65e-08,25.11587503552,1.39561250624,43.786875018879996
5.7e-08,25.1627500384,1.39561250624,43.7837500192
5.7500000000000005e-08,25.11587503552,1.398737506432,43.736875024
5.8e-08,25.069000032639998,1.397175006336,43.6900000288
5.85e-08,25.037750030719998,1.397175006336,43.67750003008
5.9000000000000006e-08,25.0846250336,1.397175006336,43.711875026559994
5.9500000000000003e-08,25.20962504128,1.398737506432,43.736875024
6.000000000000001e-08,25.25650004416,1.400300006528,43.711875026559994
6.05e-08,25.2408750432,1.398737506432,43.655625032319996
6.1e-08,25.19400004032,1.397175006336,43.63062503488
6.15e-08,25.1627500384,1.397175006336,43.66812503104
6.2e-08,25.17837503936,1.398737506432,43.733750024319995
6.250000000000001e-08,25.20962504128,1.398737506432,43.77437502016
6.300000000000001e-08,25.17837503936,1.398737506432,43.75562502208
6.35e-08,25.10025003456,1.397175006336,43.7212500256
6.4e-08,25.037750030719998,1.400300006528,43.711875026559994
6.45e-08,25.022125029759998,1.398737506432,43.74312502336
6.5e-08,25.10025003456,1.397175006336,43.7681250208
6.55e-08,25.1627500384,1.400300006528,43.76187502144
6.600000000000001e-08,25.17837503936,1.400300006528,43.70875002688
6.65e-08,25.14712503744,1.398737506432,43.68375002944
6.7e-08,25.17837503936,1.400300006528,43.72437502528
6.75e-08,25.22525004224,1.400300006528,43.7993750176
6.8e-08,25.28775004608,1.400300006528,43.8306250144
6.85e-08,25.30337504704,1.401862506624,43.80875001664
6.900000000000001e-08,25.25650004416,1.40342500672,43.77125002048
6.950000000000001e-08,25.20962504128,1.40342500672,43.77437502016
7e-08,25.17837503936,1.40342500672,43.815000016
7.05e-08,25.1627500384,1.401862506624,43.843125013119995
7.1e-08,25.14712503744,1.401862506624,43.818125015679996
7.15e-08,25.11587503552,1.400300006528,43.77125002048
7.200000000000001e-08,25.0846250336,1.400300006528,43.74312502336
7.250000000000001e-08,25.053375031679998,1.400300006528,43.75875002176
7.3e-08,25.10025003456,1.400300006528,43.796250017919995
7.35e-08,25.17837503936,1.401862506624,43.818125015679996
7.4e-08,25.27212504512,1.398737506432,43.796250017919995
7.45e-08,25.28775004608,1.39561250624,43.7681250208
7.500000000000001e-08,25.25650004416,1.397175006336,43.765000021119995
7.550000000000001e-08,25.2408750432,1.398737506432,43.7837500192
7.6e-08,25.30337504704,1.398737506432,43.7837500192
7.65e-08,25.33462504896,1.397175006336,43.77437502016
7.7e-08,25.30337504704,1.397175006336,43.765000021119995
7.75e-08,25.2408750432,1.400300006528,43.79312501824
7.800000000000001e-08,25.14712503744,1.398737506432,43.849375012479996
7.850000000000001e-08,25.0846250336,1.400300006528,43.91500000576
7.9e-08,25.14712503744,1.398737506432,43.9400000032
7.95e-08,25.17837503936,1.398737506432,43.91500000576
8e-08,25.19400004032,1.400300006528,43.87125001024
8.05e-08,25.1627500384,1.400300006528,43.833750014079996
8.100000000000001e-08,25.1627500384,1.398737506432,43.80875001664
8.150000000000001e-08,25.19400004032,1.401862506624,43.796250017919995
8.2e-08,25.27212504512,1.400300006528,43.77750001984
8.25e-08,25.30337504704,1.400300006528,43.75875002176
8.3e-08,25.27212504512,1.401862506624,43.7681250208
8.35e-08,25.2408750432,1.40342500672,43.815000016
8.400000000000001e-08,25.17837503936,1.401862506624,43.880625009279996
8.450000000000001e-08,25.1627500384,1.401862506624,43.93375000384
8.500000000000001e-08,25.17837503936,1.400300006528,43.94937500224
8.55e-08,25.17837503936,1.401862506624,43.94937500224
8.6e-08,25.11587503552,1.40342500672,43.9400000032
8.65e-08,25.069000032639998,1.4049875068159998,43.93375000384
8.700000000000001e-08,25.10025003456,1.40342500672,43.896250007679996
8.750000000000001e-08,25.17837503936,1.40342500672,43.84000001344
8.800000000000001e-08,25.27212504512,1.40342500672,43.786875018879996
8.85e-08,25.25650004416,1.400300006528,43.74625002304
8.9e-08,25.22525004224,1.401862506624,43.733750024319995
8.95e-08,25.14712503744,1.40342500672,43.74625002304
9.000000000000001e-08,25.17837503936,1.40342500672,43.75562502208
9.050000000000001e-08,25.20962504128,1.40342500672,43.7681250208
9.100000000000001e-08,25.22525004224,1.4049875068159998,43.796250017919995
9.15e-08,25.17837503936,1.4049875068159998,43.843125013119995
9.2e-08,25.10025003456,1.4049875068159998,43.9087500064
9.25e-08,25.053375031679998,1.40342500672,43.94937500224
9.300000000000001e-08,25.053375031679998,1.40342500672,43.943125002879995
9.350000000000001e-08,25.11587503552,1.40342500672,43.90250000704
9.400000000000001e-08,25.14712503744,1.400300006528,43.84000001344
9.45e-08,25.13150003648,1.400300006528,43.802500017279996
9.5e-08,25.11587503552,1.398737506432,43.780625019519995
9.55e-08,25.14712503744,1.400300006528,43.75562502208
9.600000000000001e-08,25.20962504128,1.40342500672,43.72750002496
9.650000000000001e-08,25.25650004416,1.401862506624,43.72750002496
9.700000000000001e-08,25.27212504512,1.40342500672,43.77125002048
9.75e-08,25.22525004224,1.4049875068159998,43.85562501184
9.8e-08,25.1627500384,1.4049875068159998,43.93375000384
9.85e-08,25.13150003648,1.4049875068159998,43.965000000639996
9.9e-08,25.11587503552,1.4049875068159998,43.94937500224
9.950000000000001e-08,25.10025003456,1.4049875068159998,43.91812500544
1.0000000000000001e-07,25.022125029759998,1.401862506624,43.89000000832
1.005e-07,24.990875027839998,1.401862506624,43.880625009279996
1.01e-07,25.022125029759998,1.40342500672,43.85250001216
1.015e-07,25.13150003648,1.401862506624,43.818125015679996
1.02e-07,25.19400004032,1.401862506624,43.7837500192
1.0250000000000001e-07,25.22525004224,1.398737506432,43.77437502016
1.0300000000000001e-07,25.28775004608,1.397175006336,43.79000001856
1.0350000000000001e-07,25.28775004608,1.397175006336,43.84000001344
1.04e-07,25.28775004608,1.400300006528,43.89000000832
1.045e-07,25.2408750432,1.400300006528,43.927500004479995
1.05e-07,25.22525004224,1.400300006528,43.958750001279995
1.0550000000000001e-07,25.17837503936,1.4049875068159998,43.9868749984
1.0600000000000001e-07,25.14712503744,1.4049875068159998,43.989999998079995
1.0650000000000001e-07,25.14712503744,1.40342500672,43.974374999679995
1.07e-07,25.1627500384,1.40342500672,43.9400000032
1.075e-07,25.1627500384,1.4049875068159998,43.911875006079995
1.08e-07,25.1627500384,1.4049875068159998,43.88687500864
1.0850000000000001e-07,25.13150003648,1.40342500672,43.858750011519994
1.0900000000000001e-07,25.10025003456,1.401862506624,43.82125001536
1.0950000000000001e-07,25.1627500384,1.401862506624,43.80875001664
1.1e-07,25.30337504704,1.40342500672,43.815000016
1.105e-07,25.30337504704,1.40342500672,43.849375012479996
1.11e-07,25.17837503936,1.40342500672,43.893125008
1.1150000000000001e-07,25.053375031679998,1.400300006528,43.9243750048
1.1200000000000001e-07,25.17837503936,1.398737506432,43.93375000384
1.1250000000000001e-07,25.35025004992,1.398737506432,43.94625000256
1.13e-07,25.3971250528,1.401862506624,43.95250000192
1.135e-07,25.25650004416,1.4049875068159998,43.96187500096
1.14e-07,25.053375031679998,1.4065500069119998,43.94625000256
1.1450000000000001e-07,25.053375031679998,1.4049875068159998,43.92125000512
1.1500000000000001e-07,25.22525004224,1.400300006528,43.893125008
1.1550000000000001e-07,25.35025004992,1.401862506624,43.88375000896
1.16e-07,25.2408750432,1.40342500672,43.896250007679996
1.165e-07,25.069000032639998,1.40342500672,43.93375000384
1.17e-07,25.006500028799998,1.401862506624,43.95250000192
1.1750000000000001e-07,25.19400004032,1.400300006528,43.94625000256
1.1800000000000001e-07,25.41275005376,1.398737506432,43.92125000512
1.1850000000000001e-07,25.44400005568,1.401862506624,43.91812500544
1.1900000000000001e-07,25.2408750432,1.401862506624,43.943125002879995
1.195e-07,25.053375031679998,1.401862506624,43.97749999936
1.2000000000000002e-07,25.0846250336,1.401862506624,43.98374999872
1.205e-07,25.25650004416,1.398737506432,43.96187500096
1.21e-07,25.36587505088,1.398737506432,43.93375000384
1.215e-07,25.25650004416,1.398737506432,43.927500004479995
1.22e-07,25.037750030719998,1.397175006336,43.93375000384
1.2250000000000002e-07,24.959625025919998,1.394050006144,43.943125002879995
1.23e-07,25.13150003648,1.39561250624,43.94937500224
1.2350000000000001e-07,25.35025004992,1.401862506624,43.9400000032
1.24e-07,25.36587505088,1.4049875068159998,43.93062500416
1.245e-07,25.22525004224,1.4065500069119998,43.91812500544
1.2500000000000002e-07,25.11587503552,1.4049875068159998,43.911875006079995
1.255e-07,25.14712503744,1.40342500672,43.9087500064
1.2600000000000002e-07,25.30337504704,1.400300006528,43.90250000704
1.265e-07,25.35025004992,1.401862506624,43.90250000704
1.27e-07,25.2408750432,1.4049875068159998,43.89937500736
1.275e-07,25.069000032639998,1.401862506624,43.896250007679996
1.28e-07,25.006500028799998,1.400300006528,43.89937500736
1.2850000000000002e-07,25.069000032639998,1.39561250624,43.9087500064
1.29e-07,25.17837503936,1.397175006336,43.93062500416
1.2950000000000001e-07,25.17837503936,1.398737506432,43.95250000192
1.3e-07,25.0846250336,1.397175006336,43.94625000256
1.305e-07,25.037750030719998,1.394050006144,43.9243750048
1.31e-07,25.10025003456,1.394050006144,43.90562500672
1.315e-07,25.27212504512,1.398737506432,43.9087500064
1.3200000000000002e-07,25.36587505088,1.401862506624,43.93687500352
1.325e-07,25.36587505088,1.40342500672,43.9400000032
1.33e-07,25.25650004416,1.400300006528,43.90562500672
1.335e-07,25.1627500384,1.39561250624,43.8775000096
1.34e-07,25.17837503936,1.39561250624,43.88375000896
1.3450000000000002e-07,25.2408750432,1.400300006528,43.93375000384
1.35e-07,25.2408750432,1.401862506624,43.965000000639996
1.3550000000000002e-07,25.13150003648,1.398737506432,43.94625000256
1.36e-07,25.006500028799998,1.394050006144,43.893125008
1.365e-07,24.959625025919998,1.392487506048,43.8618750112
1.37e-07,25.069000032639998,1.39561250624,43.88687500864
1.375e-07,25.19400004032,1.400300006528,43.94937500224
1.3800000000000002e-07,25.2408750432,1.401862506624,43.97125
1.385e-07,25.20962504128,1.398737506432,43.95250000192
1.3900000000000001e-07,25.19400004032,1.397175006336,43.93375000384
1.395e-07,25.27212504512,1.398737506432,43.94625000256
1.4e-07,25.35025004992,1.400300006528,43.98374999872
1.4050000000000002e-07,25.35025004992,1.398737506432,44.01499999552
1.41e-07,25.22525004224,1.398737506432,44.0024999968
1.4150000000000002e-07,25.0846250336,1.398737506432,43.980624999039996
1.42e-07,25.053375031679998,1.400300006528,43.98374999872
1.425e-07,25.13150003648,1.398737506432,44.01499999552
1.43e-07,25.25650004416,1.397175006336,44.03062499392
1.435e-07,25.19400004032,1.394050006144,44.011874995839996
1.4400000000000002e-07,25.069000032639998,1.392487506048,43.96812500032
1.445e-07,25.022125029759998,1.394050006144,43.943125002879995
1.4500000000000001e-07,25.14712503744,1.39561250624,43.94625000256
1.455e-07,25.33462504896,1.398737506432,43.97125
1.46e-07,25.3971250528,1.401862506624,43.96187500096
1.4650000000000002e-07,25.30337504704,1.397175006336,43.93375000384
1.47e-07,25.17837503936,1.394050006144,43.9243750048
1.4750000000000002e-07,25.19400004032,1.394050006144,43.94937500224
1.48e-07,25.27212504512,1.394050006144,43.9868749984
1.485e-07,25.33462504896,1.394050006144,44.00874999616
1.49e-07,25.25650004416,1.392487506048,43.99312499776
1.495e-07,25.11587503552,1.394050006144,43.96187500096
1.5000000000000002e-07,25.037750030719998,1.394050006144,43.95250000192
1.505e-07,25.11587503552,1.39561250624,43.95250000192
1.5100000000000002e-07,25.25650004416,1.39561250624,43.943125002879995
1.515e-07,25.27212504512,1.392487506048,43.93062500416
1.52e-07,25.20962504128,1.390925005952,43.93062500416
1.5250000000000002e-07,25.14712503744,1.394050006144,43.94937500224
1.53e-07,25.19400004032,1.392487506048,43.98374999872
1.5350000000000002e-07,25.319000048,1.398737506432,44.021249994879994
1.54e-07,25.38150005184,1.40342500672,44.0337499936
1.5450000000000001e-07,25.319000048,1.401862506624,44.021249994879994
1.55e-07,25.17837503936,1.39561250624,44.005624996479995
1.555e-07,25.13150003648,1.394050006144,43.99937499712
1.5600000000000002e-07,25.19400004032,1.394050006144,43.996249997439996
1.565e-07,25.2408750432,1.394050006144,43.98374999872
1.5700000000000002e-07,25.20962504128,1.39561250624,43.958750001279995
1.575e-07,25.11587503552,1.394050006144,43.95250000192
1.58e-07,25.10025003456,1.392487506048,43.965000000639996
1.5850000000000002e-07,25.14712503744,1.394050006144,43.98374999872
1.59e-07,25.2408750432,1.39561250624,43.98374999872
1.5950000000000002e-07,25.2408750432,1.398737506432,43.965000000639996
1.6e-07,25.2408750432,1.398737506432,43.943125002879995
1.6050000000000001e-07,25.22525004224,1.397175006336,43.94625000256
1.61e-07,25.25650004416,1.397175006336,43.958750001279995
1.615e-07,25.27212504512,1.398737506432,43.97125
1.6200000000000002e-07,25.22525004224,1.400300006528,43.94937500224
1.625e-07,25.17837503936,1.400300006528,43.9087500064
1.6300000000000002e-07,25.13150003648,1.397175006336,43.874375009919994
1.635e-07,25.1627500384,1.394050006144,43.858750011519994
1.64e-07,25.19400004032,1.392487506048,43.858750011519994
