Time (s),VIN,IIN,VOUT
0.0,25.1625000384,1.41315000672,44.27975000384
5e-10,25.22500004224,1.408462506432,44.32037499968
1e-09,25.28750004608,1.408462506432,44.35162499648
1.5000000000000002e-09,25.25625004416,1.406900006336,44.35162499648
2e-09,25.14687503744,1.408462506432,44.314125000320004
2.5e-09,25.03750003072,1.408462506432,44.28912500288
3.0000000000000004e-09,25.05312503168,1.40533750624,44.29225000256
3.5000000000000003e-09,25.19375004032,1.403775006144,44.29225000256
4e-09,25.27187504512,1.400650005952,44.27975000384
4.500000000000001e-09,25.22500004224,1.402212506048,44.27662500416
5e-09,25.1625000384,1.403775006144,44.28912500288
5.5000000000000004e-09,25.1625000384,1.408462506432,44.32349999936
6.000000000000001e-09,25.2406250432,1.408462506432,44.360999995520004
6.5e-09,25.334375048960002,1.408462506432,44.38599999296
7.000000000000001e-09,25.334375048960002,1.406900006336,44.3797499936
7.500000000000001e-09,25.19375004032,1.40533750624,44.3641249952
8e-09,25.10000003456,1.406900006336,44.35474999616
8.5e-09,25.13125003648,1.408462506432,44.3484999968
9.000000000000001e-09,25.20937504128,1.408462506432,44.34224999744
9.5e-09,25.20937504128,1.406900006336,44.314125000320004
1e-08,25.13125003648,1.40533750624,44.28912500288
1.0500000000000001e-08,25.0843750336,1.40533750624,44.298500001920004
1.1000000000000001e-08,25.11562503552,1.406900006336,44.32662499904
1.15e-08,25.20937504128,1.408462506432,44.33599999808
1.2000000000000002e-08,25.22500004224,1.411587506624,44.31725
1.2500000000000001e-08,25.20937504128,1.410025006528,44.28912500288
1.3e-08,25.19375004032,1.40533750624,44.2860000032
1.35e-08,25.22500004224,1.403775006144,44.30475000128
1.4000000000000001e-08,25.25625004416,1.406900006336,44.314125000320004
1.45e-08,25.2406250432,1.410025006528,44.298500001920004
1.5000000000000002e-08,25.19375004032,1.408462506432,44.25787500608
1.55e-08,25.11562503552,1.408462506432,44.22037500992
1.6e-08,25.11562503552,1.408462506432,44.1922500128
1.6500000000000002e-08,25.1625000384,1.406900006336,44.1922500128
1.7e-08,25.17812503936,1.408462506432,44.18600001344
1.75e-08,25.11562503552,1.406900006336,44.182875013760004
1.8000000000000002e-08,25.06875003264,1.40533750624,44.17975001408
1.85e-08,25.10000003456,1.40533750624,44.19537501248
1.9e-08,25.17812503936,1.408462506432,44.23287500864
1.9500000000000003e-08,25.25625004416,1.41315000672,44.26412500544
2e-08,25.27187504512,1.41315000672,44.2703750048
2.05e-08,25.20937504128,1.410025006528,44.251625006720005
2.1000000000000003e-08,25.1625000384,1.410025006528,44.214125010560004
2.15e-08,25.1625000384,1.406900006336,44.182875013760004
2.2000000000000002e-08,25.14687503744,1.406900006336,44.15475001664
2.2500000000000003e-08,25.1625000384,1.406900006336,44.136000018560004
2.3e-08,25.13125003648,1.40533750624,44.13287501888
2.3500000000000002e-08,25.06875003264,1.403775006144,44.13912501824
2.4000000000000003e-08,25.05312503168,1.406900006336,44.15475001664
2.45e-08,25.06875003264,1.406900006336,44.1766250144
2.5000000000000002e-08,25.10000003456,1.410025006528,44.198500012160004
2.55e-08,25.13125003648,1.406900006336,44.24850000704
2.6e-08,25.14687503744,1.40533750624,44.27975000384
2.6500000000000002e-08,25.1625000384,1.403775006144,44.27350000448
2.7e-08,25.19375004032,1.406900006336,44.23287500864
2.75e-08,25.2406250432,1.410025006528,44.17975001408
2.8000000000000003e-08,25.28750004608,1.408462506432,44.13912501824
2.85e-08,25.25625004416,1.403775006144,44.1141250208
2.9e-08,25.17812503936,1.40533750624,44.0985000224
2.9500000000000003e-08,25.13125003648,1.408462506432,44.09537502272
3.0000000000000004e-08,25.11562503552,1.408462506432,44.09537502272
3.05e-08,25.0843750336,1.410025006528,44.1141250208
3.1e-08,25.05312503168,1.406900006336,44.1453750176
3.1500000000000004e-08,25.03750003072,1.410025006528,44.1922500128
3.2e-08,25.11562503552,1.411587506624,44.22975000896
3.25e-08,25.1625000384,1.41315000672,44.22975000896
3.3000000000000004e-08,25.1625000384,1.4147125068159998,44.19537501248
3.35e-08,25.1625000384,1.4147125068159998,44.16412501568
3.4e-08,25.17812503936,1.411587506624,44.14225001792
3.4500000000000005e-08,25.25625004416,1.410025006528,44.1297500192
3.5e-08,25.30312504704,1.410025006528,44.10162502208
3.55e-08,25.27187504512,1.408462506432,44.073500024960005
3.6000000000000005e-08,25.14687503744,1.408462506432,44.05475002688
3.65e-08,25.06875003264,1.40533750624,44.07037502528
3.7e-08,25.06875003264,1.40533750624,44.104750021760005
3.7500000000000005e-08,25.11562503552,1.410025006528,44.136000018560004
3.8e-08,25.14687503744,1.411587506624,44.14225001792
3.85e-08,25.13125003648,1.411587506624,44.14850001728
3.9000000000000005e-08,25.13125003648,1.408462506432,44.161000016
3.95e-08,25.11562503552,1.408462506432,44.18912501312
4e-08,25.19375004032,1.408462506432,44.20162501184
4.0500000000000005e-08,25.25625004416,1.411587506624,44.18912501312
4.1e-08,25.28750004608,1.4147125068159998,44.1453750176
4.15e-08,25.22500004224,1.411587506624,44.09537502272
4.2000000000000006e-08,25.1625000384,1.406900006336,44.0672500256
4.2500000000000003e-08,25.14687503744,1.40533750624,44.07037502528
4.3e-08,25.19375004032,1.406900006336,44.09537502272
4.3500000000000006e-08,25.19375004032,1.408462506432,44.11725002048
4.4000000000000004e-08,25.10000003456,1.410025006528,44.136000018560004
4.45e-08,25.02187502976,1.410025006528,44.16412501568
4.5000000000000006e-08,25.02187502976,1.406900006336,44.1922500128
4.5500000000000004e-08,25.14687503744,1.406900006336,44.19537501248
4.6e-08,25.25625004416,1.410025006528,44.161000016
4.6500000000000006e-08,25.25625004416,1.41315000672,44.120375020160004
4.7000000000000004e-08,25.19375004032,1.41315000672,44.07975002432
4.75e-08,25.14687503744,1.410025006528,44.06412502592
4.8000000000000006e-08,25.22500004224,1.408462506432,44.06412502592
4.8500000000000004e-08,25.30312504704,1.410025006528,44.073500024960005
4.9e-08,25.28750004608,1.41315000672,44.06412502592
4.95e-08,25.13125003648,1.41315000672,44.05475002688
5.0000000000000004e-08,24.99062502784,1.410025006528,44.06412502592
5.05e-08,24.99062502784,1.40533750624,44.09537502272
5.1e-08,25.06875003264,1.40533750624,44.1297500192
5.1500000000000005e-08,25.14687503744,1.408462506432,44.12350001984
5.2e-08,25.13125003648,1.411587506624,44.07037502528
5.25e-08,25.10000003456,1.411587506624,44.020375030400004
5.3000000000000005e-08,25.10000003456,1.411587506624,44.00162503232
5.35e-08,25.1625000384,1.411587506624,44.03912502848
5.4e-08,25.27187504512,1.4147125068159998,44.07662502464
5.4500000000000005e-08,25.30312504704,1.4147125068159998,44.09537502272
5.5e-08,25.2406250432,1.411587506624,44.0672500256
5.55e-08,25.13125003648,1.408462506432,44.04225002816
5.6000000000000005e-08,25.06875003264,1.406900006336,44.05475002688
5.65e-08,25.0843750336,1.40533750624,44.0985000224
5.7e-08,25.13125003648,1.408462506432,44.11725002048
5.7500000000000005e-08,25.11562503552,1.408462506432,44.082875024
5.8e-08,25.06875003264,1.40533750624,44.02975002944
5.85e-08,25.03750003072,1.40533750624,43.99537503296
5.9000000000000006e-08,25.05312503168,1.406900006336,44.01725003072
5.9500000000000003e-08,25.17812503936,1.408462506432,44.05475002688
6.000000000000001e-08,25.25625004416,1.406900006336,44.04537502784
6.05e-08,25.25625004416,1.408462506432,43.99225003328
6.1e-08,25.20937504128,1.411587506624,43.95162503744
6.15e-08,25.1625000384,1.41315000672,43.97037503552
6.2e-08,25.1625000384,1.4147125068159998,44.020375030400004
6.250000000000001e-08,25.17812503936,1.41315000672,44.082875024
6.300000000000001e-08,25.19375004032,1.41315000672,44.09225002304
6.35e-08,25.13125003648,1.411587506624,44.06412502592
6.4e-08,25.05312503168,1.410025006528,44.036000028800004
6.45e-08,25.02187502976,1.408462506432,44.051625027200004
6.5e-08,25.06875003264,1.410025006528,44.082875024
6.55e-08,25.14687503744,1.41315000672,44.09537502272
6.600000000000001e-08,25.17812503936,1.41315000672,44.051625027200004
6.65e-08,25.14687503744,1.4147125068159998,44.01100003136
6.7e-08,25.14687503744,1.4162750069119998,44.02975002944
6.75e-08,25.19375004032,1.4162750069119998,44.104750021760005
6.8e-08,25.27187504512,1.4147125068159998,44.151625016960004
6.85e-08,25.30312504704,1.4162750069119998,44.14225001792
6.900000000000001e-08,25.27187504512,1.4147125068159998,44.10162502208
6.950000000000001e-08,25.22500004224,1.4147125068159998,44.089125023360005
7e-08,25.1625000384,1.4147125068159998,44.1141250208
7.05e-08,25.14687503744,1.41315000672,44.15787501632
7.1e-08,25.14687503744,1.41315000672,44.14850001728
7.15e-08,25.11562503552,1.4147125068159998,44.104750021760005
7.200000000000001e-08,25.06875003264,1.4147125068159998,44.06100002624
7.250000000000001e-08,25.05312503168,1.41315000672,44.05787502656
7.3e-08,25.0843750336,1.41315000672,44.089125023360005
7.35e-08,25.13125003648,1.4147125068159998,44.11725002048
7.4e-08,25.2406250432,1.4147125068159998,44.104750021760005
7.45e-08,25.28750004608,1.4147125068159998,44.07662502464
7.500000000000001e-08,25.27187504512,1.4147125068159998,44.073500024960005
7.550000000000001e-08,25.2406250432,1.41315000672,44.09537502272
7.6e-08,25.27187504512,1.410025006528,44.10162502208
7.65e-08,25.30312504704,1.410025006528,44.0985000224
7.7e-08,25.30312504704,1.41315000672,44.08600002368
7.75e-08,25.2406250432,1.4147125068159998,44.0985000224
7.800000000000001e-08,25.14687503744,1.4178375070079998,44.136000018560004
7.850000000000001e-08,25.0843750336,1.4147125068159998,44.198500012160004
7.9e-08,25.11562503552,1.411587506624,44.23287500864
7.95e-08,25.14687503744,1.4147125068159998,44.2235000096
8e-08,25.17812503936,1.4162750069119998,44.17975001408
8.05e-08,25.17812503936,1.41315000672,44.1453750176
8.100000000000001e-08,25.19375004032,1.41315000672,44.11725002048
8.150000000000001e-08,25.19375004032,1.41315000672,44.10787502144
8.2e-08,25.27187504512,1.4147125068159998,44.09225002304
8.25e-08,25.318750048000002,1.41315000672,44.07662502464
8.3e-08,25.27187504512,1.4162750069119998,44.07975002432
8.35e-08,25.22500004224,1.4162750069119998,44.11725002048
8.400000000000001e-08,25.17812503936,1.4147125068159998,44.1766250144
8.450000000000001e-08,25.1625000384,1.4147125068159998,44.23287500864
8.500000000000001e-08,25.17812503936,1.4178375070079998,44.26100000576
8.55e-08,25.19375004032,1.4194000071039998,44.26412500544
8.6e-08,25.14687503744,1.4209625071999998,44.2547500064
8.65e-08,25.0843750336,1.4194000071039998,44.24537500736
8.700000000000001e-08,25.0843750336,1.4162750069119998,44.22037500992
8.750000000000001e-08,25.14687503744,1.4178375070079998,44.17975001408
8.800000000000001e-08,25.22500004224,1.4162750069119998,44.12350001984
8.85e-08,25.27187504512,1.411587506624,44.07975002432
8.9e-08,25.2406250432,1.41315000672,44.06100002624
8.95e-08,25.17812503936,1.4147125068159998,44.073500024960005
9.000000000000001e-08,25.17812503936,1.4147125068159998,44.089125023360005
9.050000000000001e-08,25.20937504128,1.4147125068159998,44.0985000224
9.100000000000001e-08,25.22500004224,1.4147125068159998,44.11725002048
9.15e-08,25.20937504128,1.4147125068159998,44.151625016960004
9.2e-08,25.13125003648,1.4162750069119998,44.2078750112
9.25e-08,25.0843750336,1.4147125068159998,44.26412500544
9.300000000000001e-08,25.06875003264,1.4147125068159998,44.27350000448
9.350000000000001e-08,25.11562503552,1.4162750069119998,44.24225000768
9.400000000000001e-08,25.14687503744,1.4162750069119998,44.17975001408
9.45e-08,25.14687503744,1.4147125068159998,44.13912501824
9.5e-08,25.14687503744,1.4162750069119998,44.11100002112
9.55e-08,25.11562503552,1.4194000071039998,44.089125023360005
9.600000000000001e-08,25.17812503936,1.4194000071039998,44.06412502592
9.650000000000001e-08,25.25625004416,1.4162750069119998,44.05787502656
9.700000000000001e-08,25.30312504704,1.4162750069119998,44.089125023360005
9.75e-08,25.25625004416,1.4178375070079998,44.167250015360004
9.8e-08,25.17812503936,1.4194000071039998,44.251625006720005
9.85e-08,25.14687503744,1.4194000071039998,44.29537500224
9.9e-08,25.13125003648,1.4194000071039998,44.29225000256
9.950000000000001e-08,25.11562503552,1.4162750069119998,44.2547500064
1.0000000000000001e-07,25.05312503168,1.4162750069119998,44.2235000096
1.005e-07,24.99062502784,1.4162750069119998,44.21100001088
1.01e-07,25.0062500288,1.4147125068159998,44.1922500128
1.015e-07,25.11562503552,1.41315000672,44.167250015360004
1.02e-07,25.19375004032,1.4147125068159998,44.13287501888
1.0250000000000001e-07,25.22500004224,1.411587506624,44.1141250208
1.0300000000000001e-07,25.27187504512,1.41315000672,44.1297500192
1.0350000000000001e-07,25.28750004608,1.4178375070079998,44.17975001408
1.04e-07,25.30312504704,1.4194000071039998,44.22662500928
1.045e-07,25.25625004416,1.4209625071999998,44.26100000576
1.05e-07,25.2406250432,1.4178375070079998,44.29225000256
1.0550000000000001e-07,25.19375004032,1.4178375070079998,44.32037499968
1.0600000000000001e-07,25.1625000384,1.4162750069119998,44.3328749984
1.0650000000000001e-07,25.17812503936,1.4162750069119998,44.31725
1.07e-07,25.19375004032,1.4194000071039998,44.2860000032
1.075e-07,25.17812503936,1.4194000071039998,44.24850000704
1.08e-07,25.17812503936,1.4162750069119998,44.22037500992
1.0850000000000001e-07,25.14687503744,1.4147125068159998,44.198500012160004
1.0900000000000001e-07,25.10000003456,1.4162750069119998,44.167250015360004
1.0950000000000001e-07,25.1625000384,1.4162750069119998,44.14225001792
1.1e-07,25.27187504512,1.4162750069119998,44.14225001792
1.105e-07,25.350000049920002,1.4147125068159998,44.17037501504
1.11e-07,25.2406250432,1.4147125068159998,44.21100001088
1.1150000000000001e-07,25.0843750336,1.4147125068159998,44.24537500736
1.1200000000000001e-07,25.13125003648,1.41315000672,44.25787500608
1.1250000000000001e-07,25.28750004608,1.411587506624,44.267250005120005
1.13e-07,25.412500053760002,1.41315000672,44.27350000448
1.135e-07,25.350000049920002,1.4147125068159998,44.27975000384
1.14e-07,25.14687503744,1.41315000672,44.2703750048
1.1450000000000001e-07,25.03750003072,1.4147125068159998,44.24850000704
1.1500000000000001e-07,25.17812503936,1.4162750069119998,44.21725001024
1.1550000000000001e-07,25.334375048960002,1.4162750069119998,44.20162501184
1.16e-07,25.334375048960002,1.4162750069119998,44.20475001152
1.165e-07,25.14687503744,1.4147125068159998,44.22975000896
1.17e-07,25.0062500288,1.41315000672,44.2547500064
1.1750000000000001e-07,25.10000003456,1.411587506624,44.25787500608
1.1800000000000001e-07,25.334375048960002,1.41315000672,44.236000008320005
1.1850000000000001e-07,25.443750055680002,1.4162750069119998,44.22975000896
1.1900000000000001e-07,25.334375048960002,1.4147125068159998,44.24850000704
1.195e-07,25.0843750336,1.41315000672,44.2860000032
1.2000000000000002e-07,25.03750003072,1.411587506624,44.298500001920004
1.205e-07,25.17812503936,1.411587506624,44.27975000384
1.21e-07,25.334375048960002,1.4147125068159998,44.251625006720005
1.215e-07,25.318750048000002,1.41315000672,44.24225000768
1.22e-07,25.11562503552,1.411587506624,44.24225000768
1.2250000000000002e-07,24.97500002688,1.408462506432,44.251625006720005
1.23e-07,25.05312503168,1.406900006336,44.25787500608
1.2350000000000001e-07,25.28750004608,1.408462506432,44.2547500064
1.24e-07,25.396875052800002,1.41315000672,44.24537500736
1.245e-07,25.30312504704,1.4147125068159998,44.239125008
1.2500000000000002e-07,25.14687503744,1.4162750069119998,44.236000008320005
1.255e-07,25.13125003648,1.41315000672,44.236000008320005
1.2600000000000002e-07,25.2406250432,1.41315000672,44.22975000896
1.265e-07,25.350000049920002,1.41315000672,44.22662500928
1.27e-07,25.30312504704,1.4147125068159998,44.22037500992
1.275e-07,25.13125003648,1.411587506624,44.22037500992
1.28e-07,25.02187502976,1.408462506432,44.22037500992
1.2850000000000002e-07,25.02187502976,1.408462506432,44.22037500992
1.29e-07,25.13125003648,1.410025006528,44.236000008320005
1.2950000000000001e-07,25.19375004032,1.410025006528,44.26100000576
1.3e-07,25.14687503744,1.408462506432,44.267250005120005
1.305e-07,25.06875003264,1.40533750624,44.251625006720005
1.31e-07,25.06875003264,1.406900006336,44.23287500864
1.315e-07,25.19375004032,1.410025006528,44.23287500864
1.3200000000000002e-07,25.334375048960002,1.410025006528,44.251625006720005
1.325e-07,25.396875052800002,1.411587506624,44.2703750048
1.33e-07,25.28750004608,1.410025006528,44.24850000704
1.335e-07,25.17812503936,1.408462506432,44.214125010560004
1.34e-07,25.14687503744,1.411587506624,44.20162501184
1.3450000000000002e-07,25.20937504128,1.411587506624,44.236000008320005
1.35e-07,25.25625004416,1.411587506624,44.27975000384
1.3550000000000002e-07,25.1625000384,1.411587506624,44.282875003520004
1.36e-07,25.02187502976,1.408462506432,44.23287500864
1.365e-07,24.95937502592,1.406900006336,44.18600001344
1.37e-07,25.02187502976,1.410025006528,44.18912501312
1.375e-07,25.14687503744,1.411587506624,44.24850000704
1.3800000000000002e-07,25.2406250432,1.410025006528,44.29225000256
1.385e-07,25.22500004224,1.408462506432,44.28912500288
1.3900000000000001e-07,25.19375004032,1.411587506624,44.26412500544
1.395e-07,25.2406250432,1.411587506624,44.26412500544
1.4e-07,25.334375048960002,1.411587506624,44.298500001920004
1.4050000000000002e-07,25.381250051840002,1.408462506432,44.33912499776
1.41e-07,25.28750004608,1.408462506432,44.33912499776
1.4150000000000002e-07,25.14687503744,1.406900006336,44.32037499968
1.42e-07,25.05312503168,1.410025006528,44.30787500096
1.425e-07,25.11562503552,1.411587506624,44.329749998720004
1.43e-07,25.2406250432,1.411587506624,44.35474999616
1.435e-07,25.2406250432,1.408462506432,44.35474999616
1.4400000000000002e-07,25.14687503744,1.406900006336,44.31725
1.445e-07,25.06875003264,1.406900006336,44.282875003520004
1.4500000000000001e-07,25.10000003456,1.410025006528,44.27350000448
1.455e-07,25.27187504512,1.410025006528,44.298500001920004
1.46e-07,25.396875052800002,1.408462506432,44.31100000064
1.4650000000000002e-07,25.365625050880002,1.408462506432,44.29225000256
1.47e-07,25.20937504128,1.410025006528,44.27662500416
1.4750000000000002e-07,25.17812503936,1.410025006528,44.2860000032
1.48e-07,25.2406250432,1.410025006528,44.31725
1.485e-07,25.318750048000002,1.408462506432,44.35162499648
1.49e-07,25.28750004608,1.406900006336,44.345374997120004
1.495e-07,25.17812503936,1.403775006144,44.31725
1.5000000000000002e-07,25.05312503168,1.40533750624,44.28912500288
1.505e-07,25.0843750336,1.40533750624,44.2860000032
1.5100000000000002e-07,25.20937504128,1.406900006336,44.27975000384
1.515e-07,25.27187504512,1.408462506432,44.27350000448
1.52e-07,25.2406250432,1.40533750624,44.27350000448
1.5250000000000002e-07,25.1625000384,1.403775006144,44.2860000032
1.53e-07,25.19375004032,1.408462506432,44.31100000064
1.5350000000000002e-07,25.25625004416,1.408462506432,44.35787499584
1.54e-07,25.334375048960002,1.408462506432,44.3797499936
1.5450000000000001e-07,25.334375048960002,1.40533750624,44.37349999424
1.55e-07,25.20937504128,1.40533750624,44.360999995520004
1.555e-07,25.11562503552,1.406900006336,44.3484999968
1.5600000000000002e-07,25.14687503744,1.406900006336,44.34224999744
1.565e-07,25.20937504128,1.40533750624,44.3328749984
1.5700000000000002e-07,25.22500004224,1.406900006336,44.30787500096
1.575e-07,25.14687503744,1.408462506432,44.28912500288
1.58e-07,25.0843750336,1.40533750624,44.298500001920004
1.5850000000000002e-07,25.11562503552,1.40533750624,44.32349999936
1.59e-07,25.22500004224,1.406900006336,44.32662499904
1.5950000000000002e-07,25.2406250432,1.411587506624,44.31100000064
1.6e-07,25.2406250432,1.411587506624,44.29225000256
1.6050000000000001e-07,25.22500004224,1.408462506432,44.282875003520004
1.61e-07,25.22500004224,1.406900006336,44.29537500224
1.615e-07,25.25625004416,1.406900006336,44.30787500096
1.6200000000000002e-07,25.25625004416,1.408462506432,44.29537500224
1.625e-07,25.19375004032,1.406900006336,44.2547500064
1.6300000000000002e-07,25.13125003648,1.406900006336,44.214125010560004
