Time (s),VIN,IIN,VOUT
0.0,25.15237503744,1.616037506432,51.63462499968
5e-10,25.23050004224,1.616037506432,51.62525000064
1e-09,25.30862504704,1.617600006528,51.61900000128
1.5000000000000002e-09,25.29300004608,1.6191625066239999,51.60337500288
2e-09,25.1680000384,1.616037506432,51.5690000064
2.5e-09,25.04300003072,1.616037506432,51.553375008
3.0000000000000004e-09,25.05862503168,1.6191625066239999,51.5846250048
3.5000000000000003e-09,25.1680000384,1.6191625066239999,51.6471249984
4e-09,25.26175004416,1.617600006528,51.6783749952
4.500000000000001e-09,25.21487504128,1.6191625066239999,51.684624994560004
5e-09,25.1680000384,1.6207250067199999,51.684624994560004
5.5000000000000004e-09,25.21487504128,1.6207250067199999,51.690874993920005
6.000000000000001e-09,25.29300004608,1.6207250067199999,51.706499992320005
6.5e-09,25.35550004992,1.616037506432,51.709624992
7.000000000000001e-09,25.35550004992,1.616037506432,51.66587499648
7.500000000000001e-09,25.2461250432,1.616037506432,51.612750001920006
8e-09,25.15237503744,1.616037506432,51.57837500544
8.5e-09,25.15237503744,1.616037506432,51.59400000384
9.000000000000001e-09,25.23050004224,1.617600006528,51.6315
9.5e-09,25.18362503936,1.6222875068159999,51.653374997760004
1e-08,25.10550003456,1.6222875068159999,51.65649999744
1.0500000000000001e-08,25.05862503168,1.6222875068159999,51.659624997120005
1.1000000000000001e-08,25.12112503552,1.6207250067199999,51.668999996160004
1.15e-08,25.23050004224,1.6207250067199999,51.6783749952
1.2000000000000002e-08,25.27737504512,1.6222875068159999,51.65649999744
1.2500000000000001e-08,25.2461250432,1.6191625066239999,51.606500002560004
1.3e-08,25.21487504128,1.617600006528,51.56275000704
1.35e-08,25.23050004224,1.6191625066239999,51.53150001024
1.4000000000000001e-08,25.26175004416,1.6207250067199999,51.5221250112
1.45e-08,25.23050004224,1.6238500069119999,51.51900001152
1.5000000000000002e-08,25.1680000384,1.6222875068159999,51.512750012160005
1.55e-08,25.10550003456,1.617600006528,51.50962501248
1.6e-08,25.12112503552,1.617600006528,51.51900001152
1.6500000000000002e-08,25.15237503744,1.617600006528,51.553375008
1.7e-08,25.18362503936,1.617600006528,51.59400000384
1.75e-08,25.13675003648,1.6191625066239999,51.61900000128
1.8000000000000002e-08,25.12112503552,1.616037506432,51.60962500224
1.85e-08,25.15237503744,1.616037506432,51.5690000064
1.9e-08,25.21487504128,1.6207250067199999,51.52525001088
1.9500000000000003e-08,25.27737504512,1.6222875068159999,51.490875014400004
2e-08,25.2461250432,1.6191625066239999,51.45337501824
2.05e-08,25.1680000384,1.616037506432,51.43150002048
2.1000000000000003e-08,25.10550003456,1.614475006336,51.43150002048
2.15e-08,25.12112503552,1.616037506432,51.450250018560006
2.2000000000000002e-08,25.10550003456,1.614475006336,51.475250016000004
2.2500000000000003e-08,25.15237503744,1.616037506432,51.51900001152
2.3e-08,25.13675003648,1.6191625066239999,51.56275000704
2.3500000000000002e-08,25.13675003648,1.6207250067199999,51.60337500288
2.4000000000000003e-08,25.13675003648,1.6222875068159999,51.612750001920006
2.45e-08,25.1680000384,1.6191625066239999,51.58775000448
2.5000000000000002e-08,25.21487504128,1.6191625066239999,51.544000008960005
2.55e-08,25.21487504128,1.617600006528,51.506500012800004
2.6e-08,25.1680000384,1.616037506432,51.47212501632
2.6500000000000002e-08,25.12112503552,1.614475006336,51.43150002048
2.7e-08,25.13675003648,1.6191625066239999,51.397125024000005
2.75e-08,25.15237503744,1.6191625066239999,51.397125024000005
2.8000000000000003e-08,25.19925004032,1.6191625066239999,51.428375020800004
2.85e-08,25.19925004032,1.617600006528,51.475250016000004
2.9e-08,25.15237503744,1.6191625066239999,51.51587501184
2.9500000000000003e-08,25.13675003648,1.6191625066239999,51.53462500992
3.0000000000000004e-08,25.1680000384,1.6191625066239999,51.52525001088
3.05e-08,25.18362503936,1.6191625066239999,51.51900001152
3.1e-08,25.15237503744,1.617600006528,51.51587501184
3.1500000000000004e-08,25.15237503744,1.616037506432,51.52525001088
3.2e-08,25.15237503744,1.616037506432,51.50962501248
3.25e-08,25.1680000384,1.617600006528,51.48462501504
3.3000000000000004e-08,25.1680000384,1.6191625066239999,51.44712501888
3.35e-08,25.12112503552,1.6207250067199999,51.428375020800004
3.4e-08,25.13675003648,1.616037506432,51.434625020160006
3.4500000000000005e-08,25.18362503936,1.6191625066239999,51.44712501888
3.5e-08,25.26175004416,1.6238500069119999,51.44087501952
3.55e-08,25.26175004416,1.6254125070079999,51.43775001984
3.6000000000000005e-08,25.19925004032,1.6238500069119999,51.444000019200004
3.65e-08,25.13675003648,1.6207250067199999,51.475250016000004
3.7e-08,25.12112503552,1.6207250067199999,51.50337501312
3.7500000000000005e-08,25.1680000384,1.6191625066239999,51.50337501312
3.8e-08,25.1680000384,1.6191625066239999,51.481500015360005
3.85e-08,25.15237503744,1.6207250067199999,51.45650001792
3.9000000000000005e-08,25.10550003456,1.6191625066239999,51.444000019200004
3.95e-08,25.05862503168,1.616037506432,51.444000019200004
4e-08,25.0898750336,1.616037506432,51.42525002112
4.0500000000000005e-08,25.15237503744,1.616037506432,51.403375023360006
4.1e-08,25.23050004224,1.617600006528,51.39087502464
4.15e-08,25.23050004224,1.6207250067199999,51.39087502464
4.2000000000000006e-08,25.1680000384,1.6191625066239999,51.40650002304
4.2500000000000003e-08,25.13675003648,1.616037506432,51.43775001984
4.3e-08,25.18362503936,1.616037506432,51.459625017600004
4.3500000000000006e-08,25.2461250432,1.6207250067199999,51.47212501632
4.4000000000000004e-08,25.23050004224,1.6222875068159999,51.46275001728
4.45e-08,25.13675003648,1.6207250067199999,51.465875016960005
4.5000000000000006e-08,25.07425003264,1.6191625066239999,51.481500015360005
4.5500000000000004e-08,25.10550003456,1.616037506432,51.475250016000004
4.6e-08,25.1680000384,1.616037506432,51.434625020160006
4.6500000000000006e-08,25.19925004032,1.616037506432,51.40025002368
4.7000000000000004e-08,25.15237503744,1.6191625066239999,51.39400002432
4.75e-08,25.0898750336,1.614475006336,51.40962502272
4.8000000000000006e-08,25.12112503552,1.614475006336,51.41587502208
4.8500000000000004e-08,25.1680000384,1.616037506432,51.412750022400004
4.9e-08,25.19925004032,1.617600006528,51.387750024960006
4.95e-08,25.1680000384,1.6222875068159999,51.35962502784
5.0000000000000004e-08,25.0898750336,1.6191625066239999,51.35650002816
5.05e-08,25.07425003264,1.616037506432,51.387750024960006
5.1e-08,25.1680000384,1.616037506432,51.42212502144
5.1500000000000005e-08,25.23050004224,1.6191625066239999,51.428375020800004
5.2e-08,25.2461250432,1.6222875068159999,51.397125024000005
5.25e-08,25.19925004032,1.6207250067199999,51.35962502784
5.3000000000000005e-08,25.12112503552,1.6207250067199999,51.34087502976
5.35e-08,25.07425003264,1.617600006528,51.35337502848
5.4e-08,25.10550003456,1.617600006528,51.381500025600005
5.4500000000000005e-08,25.15237503744,1.6191625066239999,51.39087502464
5.5e-08,25.0898750336,1.6191625066239999,51.365875027200005
5.55e-08,24.996125027839998,1.616037506432,51.34087502976
5.6000000000000005e-08,24.964875025919998,1.616037506432,51.344000029440004
5.65e-08,25.05862503168,1.617600006528,51.387750024960006
5.7e-08,25.19925004032,1.6222875068159999,51.41587502208
5.7500000000000005e-08,25.27737504512,1.626975007104,51.387750024960006
5.8e-08,25.27737504512,1.6238500069119999,51.32525003136
5.85e-08,25.21487504128,1.6222875068159999,51.28462503552
5.9000000000000006e-08,25.15237503744,1.6191625066239999,51.30025003392
5.9500000000000003e-08,25.15237503744,1.6191625066239999,51.35650002816
6.000000000000001e-08,25.19925004032,1.617600006528,51.387750024960006
6.05e-08,25.18362503936,1.617600006528,51.36900002688
6.1e-08,25.07425003264,1.6191625066239999,51.32525003136
6.15e-08,24.996125027839998,1.6191625066239999,51.32212503168
6.2e-08,24.949250024959998,1.6191625066239999,51.35962502784
6.250000000000001e-08,25.04300003072,1.6222875068159999,51.40962502272
6.300000000000001e-08,25.15237503744,1.6222875068159999,51.419000021760006
6.35e-08,25.19925004032,1.6207250067199999,51.37525002624
6.4e-08,25.15237503744,1.6207250067199999,51.32525003136
6.45e-08,25.15237503744,1.6207250067199999,51.319000032000005
6.5e-08,25.19925004032,1.6191625066239999,51.350250028800005
6.55e-08,25.27737504512,1.6222875068159999,51.38462502528
6.600000000000001e-08,25.30862504704,1.6222875068159999,51.381500025600005
6.65e-08,25.23050004224,1.6207250067199999,51.350250028800005
6.7e-08,25.13675003648,1.6191625066239999,51.35337502848
6.75e-08,25.07425003264,1.617600006528,51.42525002112
6.8e-08,25.0898750336,1.6191625066239999,51.490875014400004
6.85e-08,25.12112503552,1.6207250067199999,51.512750012160005
6.900000000000001e-08,25.10550003456,1.6254125070079999,51.48462501504
6.950000000000001e-08,25.10550003456,1.6254125070079999,51.45337501824
7e-08,25.10550003456,1.6238500069119999,51.43775001984
7.05e-08,25.1680000384,1.6207250067199999,51.450250018560006
7.1e-08,25.21487504128,1.6207250067199999,51.44087501952
7.15e-08,25.26175004416,1.6191625066239999,51.419000021760006
7.200000000000001e-08,25.2461250432,1.6222875068159999,51.36900002688
7.250000000000001e-08,25.21487504128,1.6207250067199999,51.35962502784
7.3e-08,25.18362503936,1.6191625066239999,51.38462502528
7.35e-08,25.15237503744,1.6222875068159999,51.428375020800004
7.4e-08,25.18362503936,1.6222875068159999,51.459625017600004
7.45e-08,25.18362503936,1.6222875068159999,51.465875016960005
7.500000000000001e-08,25.15237503744,1.6238500069119999,51.459625017600004
7.550000000000001e-08,25.0898750336,1.6254125070079999,51.46900001664
7.6e-08,25.13675003648,1.6238500069119999,51.48462501504
7.65e-08,25.23050004224,1.6207250067199999,51.506500012800004
7.7e-08,25.27737504512,1.6207250067199999,51.50962501248
7.75e-08,25.26175004416,1.6222875068159999,51.490875014400004
7.800000000000001e-08,25.23050004224,1.6222875068159999,51.46900001664
7.850000000000001e-08,25.19925004032,1.6207250067199999,51.459625017600004
7.9e-08,25.21487504128,1.6191625066239999,51.465875016960005
7.95e-08,25.26175004416,1.617600006528,51.45650001792
8e-08,25.26175004416,1.6207250067199999,51.43150002048
8.05e-08,25.19925004032,1.6191625066239999,51.40962502272
8.100000000000001e-08,25.13675003648,1.6222875068159999,51.40962502272
8.150000000000001e-08,25.0898750336,1.6254125070079999,51.45337501824
8.2e-08,25.12112503552,1.6238500069119999,51.51900001152
8.25e-08,25.1680000384,1.6238500069119999,51.565875006720006
8.3e-08,25.18362503936,1.6254125070079999,51.56275000704
8.35e-08,25.1680000384,1.6238500069119999,51.544000008960005
8.400000000000001e-08,25.15237503744,1.6222875068159999,51.52525001088
8.450000000000001e-08,25.18362503936,1.6207250067199999,51.5221250112
8.500000000000001e-08,25.2461250432,1.6222875068159999,51.52525001088
8.55e-08,25.324250048,1.6238500069119999,51.50337501312
8.6e-08,25.29300004608,1.6238500069119999,51.46900001664
8.65e-08,25.21487504128,1.6238500069119999,51.45337501824
8.700000000000001e-08,25.13675003648,1.6222875068159999,51.46275001728
8.750000000000001e-08,25.12112503552,1.6222875068159999,51.49400001408
8.800000000000001e-08,25.15237503744,1.626975007104,51.50025001344
8.85e-08,25.15237503744,1.6254125070079999,51.481500015360005
8.9e-08,25.10550003456,1.6238500069119999,51.44712501888
8.95e-08,25.027375029759998,1.6238500069119999,51.444000019200004
9.000000000000001e-08,25.04300003072,1.6238500069119999,51.475250016000004
9.050000000000001e-08,25.12112503552,1.6222875068159999,51.51587501184
9.100000000000001e-08,25.19925004032,1.6254125070079999,51.528375010560005
9.15e-08,25.23050004224,1.626975007104,51.5221250112
9.2e-08,25.23050004224,1.6254125070079999,51.51587501184
9.25e-08,25.19925004032,1.6222875068159999,51.52525001088
9.300000000000001e-08,25.18362503936,1.6254125070079999,51.53462500992
9.350000000000001e-08,25.19925004032,1.626975007104,51.50962501248
9.400000000000001e-08,25.23050004224,1.626975007104,51.46275001728
9.45e-08,25.19925004032,1.626975007104,51.42212502144
9.5e-08,25.13675003648,1.626975007104,51.42212502144
9.55e-08,25.0898750336,1.626975007104,51.450250018560006
9.600000000000001e-08,25.0898750336,1.626975007104,51.46900001664
9.650000000000001e-08,25.13675003648,1.626975007104,51.481500015360005
9.700000000000001e-08,25.19925004032,1.6238500069119999,51.481500015360005
9.75e-08,25.18362503936,1.6285375072,51.497125013760005
9.8e-08,25.12112503552,1.6285375072,51.5221250112
9.85e-08,25.12112503552,1.626975007104,51.54087500928
9.9e-08,25.18362503936,1.626975007104,51.52525001088
9.950000000000001e-08,25.18362503936,1.6254125070079999,51.497125013760005
1.0000000000000001e-07,25.18362503936,1.6222875068159999,51.46900001664
1.005e-07,25.15237503744,1.6207250067199999,51.475250016000004
1.01e-07,25.13675003648,1.6222875068159999,51.50337501312
1.015e-07,25.18362503936,1.6238500069119999,51.53150001024
1.02e-07,25.21487504128,1.6238500069119999,51.5377500096
1.0250000000000001e-07,25.18362503936,1.6222875068159999,51.52525001088
1.0300000000000001e-07,25.1680000384,1.626975007104,51.50962501248
1.0350000000000001e-07,25.19925004032,1.6285375072,51.5221250112
1.04e-07,25.21487504128,1.6285375072,51.54087500928
1.045e-07,25.21487504128,1.6285375072,51.5690000064
1.05e-07,25.2461250432,1.630100007296,51.58775000448
1.0550000000000001e-07,25.23050004224,1.631662507392,51.60337500288
1.0600000000000001e-07,25.23050004224,1.630100007296,51.60962500224
1.0650000000000001e-07,25.26175004416,1.626975007104,51.6002500032
1.07e-07,25.23050004224,1.630100007296,51.581500005120006
1.075e-07,25.21487504128,1.6285375072,51.57212500608
1.08e-07,25.18362503936,1.626975007104,51.559625007360005
1.0850000000000001e-07,25.12112503552,1.6254125070079999,51.544000008960005
1.0900000000000001e-07,25.04300003072,1.6254125070079999,51.51587501184
1.0950000000000001e-07,25.07425003264,1.6254125070079999,51.497125013760005
1.1e-07,25.19925004032,1.6254125070079999,51.506500012800004
1.105e-07,25.27737504512,1.6254125070079999,51.52525001088
1.11e-07,25.23050004224,1.6254125070079999,51.5377500096
1.1150000000000001e-07,25.12112503552,1.6222875068159999,51.544000008960005
1.1200000000000001e-07,25.1680000384,1.6254125070079999,51.5377500096
1.1250000000000001e-07,25.324250048,1.6285375072,51.544000008960005
1.13e-07,25.44925005568,1.626975007104,51.55650000768
1.135e-07,25.35550004992,1.6254125070079999,51.5690000064
1.14e-07,25.13675003648,1.6238500069119999,51.565875006720006
1.1450000000000001e-07,25.027375029759998,1.6238500069119999,51.56275000704
1.1500000000000001e-07,25.15237503744,1.6238500069119999,51.559625007360005
1.1550000000000001e-07,25.27737504512,1.6238500069119999,51.56275000704
1.16e-07,25.29300004608,1.626975007104,51.565875006720006
1.165e-07,25.13675003648,1.6254125070079999,51.575250005760005
1.17e-07,25.011750028799998,1.6222875068159999,51.5846250048
1.1750000000000001e-07,25.12112503552,1.6191625066239999,51.57212500608
1.1800000000000001e-07,25.30862504704,1.6191625066239999,51.550250008320006
1.1850000000000001e-07,25.43362505472,1.6254125070079999,51.5377500096
1.1900000000000001e-07,25.324250048,1.626975007104,51.54712500864
1.195e-07,25.13675003648,1.6254125070079999,51.581500005120006
1.2000000000000002e-07,25.0898750336,1.626975007104,51.606500002560004
1.205e-07,25.21487504128,1.6254125070079999,51.62525000064
1.21e-07,25.35550004992,1.6238500069119999,51.61900000128
1.215e-07,25.324250048,1.6254125070079999,51.60337500288
1.22e-07,25.15237503744,1.6222875068159999,51.581500005120006
1.2250000000000002e-07,25.011750028799998,1.6191625066239999,51.575250005760005
1.23e-07,25.0898750336,1.6191625066239999,51.5846250048
1.2350000000000001e-07,25.26175004416,1.6207250067199999,51.59400000384
1.24e-07,25.33987504896,1.6238500069119999,51.57837500544
1.245e-07,25.2461250432,1.6238500069119999,51.550250008320006
1.2500000000000002e-07,25.12112503552,1.6238500069119999,51.528375010560005
1.255e-07,25.12112503552,1.6222875068159999,51.53150001024
1.2600000000000002e-07,25.2461250432,1.6238500069119999,51.544000008960005
1.265e-07,25.38675005184,1.6254125070079999,51.56275000704
1.27e-07,25.35550004992,1.6238500069119999,51.565875006720006
1.275e-07,25.21487504128,1.6222875068159999,51.55650000768
1.28e-07,25.13675003648,1.6207250067199999,51.553375008
1.2850000000000002e-07,25.15237503744,1.6191625066239999,51.5690000064
1.29e-07,25.19925004032,1.6207250067199999,51.58775000448
1.2950000000000001e-07,25.19925004032,1.6222875068159999,51.60962500224
1.3e-07,25.15237503744,1.6207250067199999,51.6002500032
1.305e-07,25.05862503168,1.6191625066239999,51.5690000064
1.31e-07,25.05862503168,1.6207250067199999,51.54712500864
1.315e-07,25.1680000384,1.6191625066239999,51.55650000768
1.3200000000000002e-07,25.27737504512,1.6191625066239999,51.581500005120006
1.325e-07,25.33987504896,1.6191625066239999,51.59400000384
1.33e-07,25.27737504512,1.6191625066239999,51.565875006720006
1.335e-07,25.1680000384,1.6191625066239999,51.51587501184
1.34e-07,25.1680000384,1.6207250067199999,51.50337501312
1.3450000000000002e-07,25.23050004224,1.6238500069119999,51.553375008
1.35e-07,25.27737504512,1.6222875068159999,51.612750001920006
1.3550000000000002e-07,25.21487504128,1.617600006528,51.628375000320005
1.36e-07,25.07425003264,1.6191625066239999,51.581500005120006
1.365e-07,25.027375029759998,1.6191625066239999,51.53462500992
1.37e-07,25.07425003264,1.6207250067199999,51.553375008
1.375e-07,25.1680000384,1.6238500069119999,51.6158750016
1.3800000000000002e-07,25.23050004224,1.6222875068159999,51.659624997120005
1.385e-07,25.19925004032,1.6207250067199999,51.6471249984
1.3900000000000001e-07,25.1680000384,1.6207250067199999,51.60337500288
1.395e-07,25.21487504128,1.6207250067199999,51.597125003520006
1.4e-07,25.30862504704,1.617600006528,51.637749999360004
1.4050000000000002e-07,25.33987504896,1.617600006528,51.68774999424
1.41e-07,25.27737504512,1.617600006528,51.69712499328
1.4150000000000002e-07,25.1680000384,1.617600006528,51.65649999744
1.42e-07,25.10550003456,1.6191625066239999,51.6158750016
1.425e-07,25.18362503936,1.6207250067199999,51.62525000064
1.43e-07,25.26175004416,1.6207250067199999,51.66587499648
1.435e-07,25.27737504512,1.6191625066239999,51.690874993920005
1.4400000000000002e-07,25.15237503744,1.6191625066239999,51.659624997120005
1.445e-07,25.07425003264,1.6191625066239999,51.61900000128
1.4500000000000001e-07,25.12112503552,1.6191625066239999,51.6158750016
1.455e-07,25.26175004416,1.6207250067199999,51.659624997120005
1.46e-07,25.4023750528,1.6222875068159999,51.706499992320005
1.4650000000000002e-07,25.35550004992,1.6191625066239999,51.70337499264
1.47e-07,25.21487504128,1.6191625066239999,51.6627499968
1.4750000000000002e-07,25.15237503744,1.6191625066239999,51.6315
1.48e-07,25.26175004416,1.6191625066239999,51.622125000960004
1.485e-07,25.33987504896,1.617600006528,51.6158750016
1.49e-07,25.27737504512,1.6191625066239999,51.590875004160004
1.495e-07,25.18362503936,1.6191625066239999,51.559625007360005
1.5000000000000002e-07,25.07425003264,1.6191625066239999,51.54712500864
1.505e-07,25.0898750336,1.617600006528,51.58775000448
1.5100000000000002e-07,25.19925004032,1.614475006336,51.63462499968
1.515e-07,25.27737504512,1.616037506432,51.668999996160004
1.52e-07,25.26175004416,1.6191625066239999,51.67212499584
1.5250000000000002e-07,25.18362503936,1.6207250067199999,51.675249995520005
1.53e-07,25.21487504128,1.6191625066239999,51.68149999488
1.5350000000000002e-07,25.27737504512,1.6191625066239999,51.70024999296
1.54e-07,25.37112505088,1.6191625066239999,51.69712499328
1.5450000000000001e-07,25.35550004992,1.616037506432,51.65649999744
1.55e-07,25.26175004416,1.614475006336,51.597125003520006
1.555e-07,25.18362503936,1.61291250624,51.57212500608
1.5600000000000002e-07,25.19925004032,1.614475006336,51.5846250048
1.565e-07,25.23050004224,1.616037506432,51.622125000960004
1.5700000000000002e-07,25.18362503936,1.617600006528,51.643999998720005
1.575e-07,25.12112503552,1.6191625066239999,51.6471249984
