Time (s),VIN,IIN,VOUT
0.0,25.18562503936,1.655512506048,53.25900000704
5e-10,25.2481250432,1.655512506048,53.255875007360004
1e-09,25.279375045120002,1.655512506048,53.25900000704
1.5000000000000002e-09,25.18562503936,1.655512506048,53.23087500992
2e-09,25.06062503168,1.655512506048,53.21212501184
2.5e-09,25.0137500288,1.653950005952,53.2183750112
3.0000000000000004e-09,25.06062503168,1.655512506048,53.25900000704
3.5000000000000003e-09,25.21687504128,1.655512506048,53.2965000032
4e-09,25.279375045120002,1.653950005952,53.30587500224
4.500000000000001e-09,25.23250004224,1.653950005952,53.30275000256
5e-09,25.21687504128,1.657075006144,53.30275000256
5.5000000000000004e-09,25.279375045120002,1.65863750624,53.309000001920005
6.000000000000001e-09,25.341875048960002,1.657075006144,53.31525000128
6.5e-09,25.388750051840002,1.655512506048,53.30275000256
7.000000000000001e-09,25.310625047040002,1.655512506048,53.255875007360004
7.500000000000001e-09,25.1700000384,1.652387505856,53.22150001088
8e-09,25.10750003456,1.653950005952,53.224625010560004
8.5e-09,25.12312503552,1.657075006144,53.2652500064
9.000000000000001e-09,25.13875003648,1.660200006336,53.309000001920005
9.5e-09,25.10750003456,1.65863750624,53.3121250016
1e-08,25.06062503168,1.657075006144,53.29962500288
1.0500000000000001e-08,25.0918750336,1.653950005952,53.293375003520005
1.1000000000000001e-08,25.1700000384,1.653950005952,53.29025000384
1.15e-08,25.279375045120002,1.655512506048,53.277750005120005
1.2000000000000002e-08,25.263750044160002,1.653950005952,53.240250008960004
1.2500000000000001e-08,25.263750044160002,1.653950005952,53.193375013760004
1.3e-08,25.2481250432,1.657075006144,53.16525001664
1.35e-08,25.279375045120002,1.655512506048,53.15275001792
1.4000000000000001e-08,25.279375045120002,1.657075006144,53.1558750176
1.45e-08,25.20125004032,1.65863750624,53.171500016
1.5000000000000002e-08,25.12312503552,1.660200006336,53.17462501568
1.55e-08,25.06062503168,1.65863750624,53.18087501504
1.6e-08,25.07625003264,1.657075006144,53.209000012160004
1.6500000000000002e-08,25.10750003456,1.655512506048,53.24337500864
1.7e-08,25.12312503552,1.655512506048,53.26837500608
1.75e-08,25.12312503552,1.653950005952,53.249625008
1.8000000000000002e-08,25.13875003648,1.652387505856,53.19962501312
1.85e-08,25.18562503936,1.652387505856,53.14337501888
1.9e-08,25.2481250432,1.655512506048,53.099625023360005
1.9500000000000003e-08,25.279375045120002,1.655512506048,53.07150002624
2e-08,25.2481250432,1.657075006144,53.06525002688
2.05e-08,25.1700000384,1.655512506048,53.077750025600004
2.1000000000000003e-08,25.10750003456,1.655512506048,53.115250021760005
2.15e-08,25.0918750336,1.65082500576,53.15275001792
2.2000000000000002e-08,25.10750003456,1.65082500576,53.19025001408
2.2500000000000003e-08,25.12312503552,1.652387505856,53.2340000096
2.3e-08,25.12312503552,1.653950005952,53.26837500608
2.3500000000000002e-08,25.0918750336,1.655512506048,53.271500005760004
2.4000000000000003e-08,25.10750003456,1.652387505856,53.24337500864
2.45e-08,25.1700000384,1.652387505856,53.18087501504
2.5000000000000002e-08,25.21687504128,1.653950005952,53.13400001984
2.55e-08,25.20125004032,1.655512506048,53.09025002432
2.6e-08,25.15437503744,1.653950005952,53.06525002688
2.6500000000000002e-08,25.13875003648,1.649262505664,53.046500028800004
2.7e-08,25.13875003648,1.652387505856,53.04337502912
2.75e-08,25.18562503936,1.657075006144,53.07150002624
2.8000000000000003e-08,25.20125004032,1.660200006336,53.12150002112
2.85e-08,25.1700000384,1.65863750624,53.171500016
2.9e-08,25.12312503552,1.657075006144,53.2027500128
2.9500000000000003e-08,25.13875003648,1.655512506048,53.2027500128
3.0000000000000004e-08,25.15437503744,1.65863750624,53.19025001408
3.05e-08,25.13875003648,1.660200006336,53.18087501504
3.1e-08,25.10750003456,1.660200006336,53.171500016
3.1500000000000004e-08,25.12312503552,1.65863750624,53.15275001792
3.2e-08,25.15437503744,1.655512506048,53.12775002048
3.25e-08,25.1700000384,1.657075006144,53.093375024000004
3.3000000000000004e-08,25.1700000384,1.65863750624,53.077750025600004
3.35e-08,25.13875003648,1.660200006336,53.077750025600004
3.4e-08,25.1700000384,1.657075006144,53.099625023360005
3.4500000000000005e-08,25.2481250432,1.653950005952,53.115250021760005
3.5e-08,25.263750044160002,1.660200006336,53.11837502144
3.55e-08,25.263750044160002,1.661762506432,53.11837502144
3.6000000000000005e-08,25.1700000384,1.660200006336,53.13712501952
3.65e-08,25.12312503552,1.65863750624,53.162125016960005
3.7e-08,25.12312503552,1.660200006336,53.171500016
3.7500000000000005e-08,25.13875003648,1.65863750624,53.14337501888
3.8e-08,25.10750003456,1.65863750624,53.10275002304
3.85e-08,25.10750003456,1.65863750624,53.08087502528
3.9000000000000005e-08,25.10750003456,1.660200006336,53.07462502592
3.95e-08,25.06062503168,1.655512506048,53.08087502528
4e-08,25.12312503552,1.653950005952,53.077750025600004
4.0500000000000005e-08,25.18562503936,1.655512506048,53.07150002624
4.1e-08,25.263750044160002,1.661762506432,53.077750025600004
4.15e-08,25.263750044160002,1.661762506432,53.08087502528
4.2000000000000006e-08,25.18562503936,1.661762506432,53.09650002368
4.2500000000000003e-08,25.18562503936,1.657075006144,53.109000022400004
4.3e-08,25.20125004032,1.653950005952,53.11212502208
4.3500000000000006e-08,25.21687504128,1.653950005952,53.099625023360005
4.4000000000000004e-08,25.1700000384,1.65863750624,53.09650002368
4.45e-08,25.10750003456,1.65863750624,53.10587502272
4.5000000000000006e-08,25.06062503168,1.65863750624,53.12150002112
4.5500000000000004e-08,25.12312503552,1.652387505856,53.099625023360005
4.6e-08,25.15437503744,1.65082500576,53.06525002688
4.6500000000000006e-08,25.18562503936,1.653950005952,53.05275002816
4.7000000000000004e-08,25.13875003648,1.655512506048,53.062125027200004
4.75e-08,25.0918750336,1.655512506048,53.06837502656
4.8000000000000006e-08,25.15437503744,1.655512506048,53.06837502656
4.8500000000000004e-08,25.23250004224,1.655512506048,53.046500028800004
4.9e-08,25.2481250432,1.657075006144,53.02150003136
4.95e-08,25.1700000384,1.657075006144,52.99025003456
5.0000000000000004e-08,25.0918750336,1.65863750624,52.99650003392
5.05e-08,25.10750003456,1.65863750624,53.02462503104
5.1e-08,25.18562503936,1.661762506432,53.05587502784
5.1500000000000005e-08,25.23250004224,1.663325006528,53.046500028800004
5.2e-08,25.18562503936,1.6648875066239999,53.01212503232
5.25e-08,25.10750003456,1.6664500067199999,52.98087503552
5.3000000000000005e-08,25.04500003072,1.663325006528,52.99025003456
5.35e-08,25.06062503168,1.660200006336,53.015250032000004
5.4e-08,25.12312503552,1.655512506048,53.04337502912
5.4500000000000005e-08,25.13875003648,1.65863750624,53.04025002944
5.5e-08,25.10750003456,1.65863750624,52.999625033600005
5.55e-08,25.04500003072,1.65863750624,52.968375036800005
5.6000000000000005e-08,25.07625003264,1.657075006144,52.98087503552
5.65e-08,25.1700000384,1.657075006144,53.01837503168
5.7e-08,25.2481250432,1.660200006336,53.03712502976
5.7500000000000005e-08,25.295000046080002,1.657075006144,52.99025003456
5.8e-08,25.21687504128,1.655512506048,52.93400004032
5.85e-08,25.13875003648,1.655512506048,52.930875040640004
5.9000000000000006e-08,25.0918750336,1.657075006144,52.97775003584
5.9500000000000003e-08,25.13875003648,1.65863750624,53.03712502976
6.000000000000001e-08,25.15437503744,1.65863750624,53.04962502848
6.05e-08,25.13875003648,1.65863750624,53.01212503232
6.1e-08,25.04500003072,1.657075006144,52.98087503552
6.15e-08,24.99812502784,1.653950005952,52.984000035200005
6.2e-08,25.0137500288,1.655512506048,53.02462503104
6.250000000000001e-08,25.13875003648,1.65863750624,53.05900002752
6.300000000000001e-08,25.21687504128,1.663325006528,53.046500028800004
6.35e-08,25.23250004224,1.660200006336,52.999625033600005
6.4e-08,25.18562503936,1.65863750624,52.97462503616
6.45e-08,25.15437503744,1.65863750624,52.99025003456
6.5e-08,25.20125004032,1.660200006336,53.03712502976
6.55e-08,25.263750044160002,1.65863750624,53.05587502784
6.600000000000001e-08,25.2481250432,1.65863750624,53.04025002944
6.65e-08,25.15437503744,1.657075006144,53.015250032000004
6.7e-08,25.04500003072,1.657075006144,53.046500028800004
6.75e-08,25.07625003264,1.65863750624,53.12150002112
6.8e-08,25.12312503552,1.65863750624,53.18400001472
6.85e-08,25.18562503936,1.655512506048,53.177750015360004
6.900000000000001e-08,25.1700000384,1.657075006144,53.130875020160005
6.950000000000001e-08,25.15437503744,1.660200006336,53.09025002432
7e-08,25.18562503936,1.660200006336,53.08712502464
7.05e-08,25.21687504128,1.65863750624,53.10275002304
7.1e-08,25.2481250432,1.65863750624,53.09650002368
7.15e-08,25.23250004224,1.661762506432,53.06525002688
7.200000000000001e-08,25.20125004032,1.660200006336,53.03712502976
7.250000000000001e-08,25.15437503744,1.660200006336,53.03712502976
7.3e-08,25.12312503552,1.661762506432,53.07150002624
7.35e-08,25.13875003648,1.661762506432,53.10275002304
7.4e-08,25.18562503936,1.660200006336,53.12150002112
7.45e-08,25.21687504128,1.65863750624,53.1246250208
7.500000000000001e-08,25.1700000384,1.660200006336,53.1246250208
7.550000000000001e-08,25.15437503744,1.661762506432,53.14337501888
7.6e-08,25.21687504128,1.65863750624,53.171500016
7.65e-08,25.295000046080002,1.65863750624,53.1871250144
7.7e-08,25.310625047040002,1.660200006336,53.18400001472
7.75e-08,25.279375045120002,1.661762506432,53.15900001728
7.800000000000001e-08,25.20125004032,1.661762506432,53.13400001984
7.850000000000001e-08,25.1700000384,1.65863750624,53.1246250208
7.9e-08,25.20125004032,1.65863750624,53.12150002112
7.95e-08,25.21687504128,1.65863750624,53.09650002368
8e-08,25.20125004032,1.660200006336,53.07462502592
8.05e-08,25.13875003648,1.660200006336,53.05900002752
8.100000000000001e-08,25.0918750336,1.661762506432,53.084000024960005
8.150000000000001e-08,25.10750003456,1.661762506432,53.14337501888
8.2e-08,25.1700000384,1.661762506432,53.2183750112
8.25e-08,25.2481250432,1.661762506432,53.249625008
8.3e-08,25.23250004224,1.663325006528,53.2340000096
8.35e-08,25.23250004224,1.6648875066239999,53.2027500128
8.400000000000001e-08,25.20125004032,1.663325006528,53.19025001408
8.450000000000001e-08,25.23250004224,1.661762506432,53.19650001344
8.500000000000001e-08,25.310625047040002,1.6648875066239999,53.19650001344
8.55e-08,25.310625047040002,1.6664500067199999,53.16525001664
8.6e-08,25.23250004224,1.6648875066239999,53.12775002048
8.65e-08,25.13875003648,1.6648875066239999,53.109000022400004
8.700000000000001e-08,25.07625003264,1.6648875066239999,53.1246250208
8.750000000000001e-08,25.07625003264,1.663325006528,53.1402500192
8.800000000000001e-08,25.15437503744,1.663325006528,53.13712501952
8.85e-08,25.13875003648,1.6680125068159999,53.109000022400004
8.9e-08,25.10750003456,1.6664500067199999,53.10275002304
8.95e-08,25.06062503168,1.6648875066239999,53.130875020160005
9.000000000000001e-08,25.10750003456,1.663325006528,53.18400001472
9.050000000000001e-08,25.21687504128,1.660200006336,53.224625010560004
9.100000000000001e-08,25.2481250432,1.6648875066239999,53.22775001024
9.15e-08,25.2481250432,1.6664500067199999,53.20587501248
9.2e-08,25.20125004032,1.6664500067199999,53.193375013760004
9.25e-08,25.15437503744,1.6648875066239999,53.193375013760004
9.300000000000001e-08,25.15437503744,1.669575006912,53.1871250144
9.350000000000001e-08,25.1700000384,1.6680125068159999,53.146500018560005
9.400000000000001e-08,25.18562503936,1.6664500067199999,53.09650002368
9.45e-08,25.15437503744,1.6664500067199999,53.077750025600004
9.5e-08,25.10750003456,1.6680125068159999,53.09650002368
9.55e-08,25.0918750336,1.671137507008,53.1246250208
9.600000000000001e-08,25.12312503552,1.669575006912,53.15275001792
9.650000000000001e-08,25.18562503936,1.6680125068159999,53.162125016960005
9.700000000000001e-08,25.20125004032,1.6680125068159999,53.171500016
9.75e-08,25.13875003648,1.6664500067199999,53.177750015360004
9.8e-08,25.10750003456,1.6664500067199999,53.193375013760004
9.85e-08,25.15437503744,1.6664500067199999,53.19650001344
9.9e-08,25.15437503744,1.663325006528,53.17462501568
9.950000000000001e-08,25.15437503744,1.663325006528,53.1402500192
1.0000000000000001e-07,25.12312503552,1.661762506432,53.130875020160005
1.005e-07,25.0918750336,1.660200006336,53.146500018560005
1.01e-07,25.12312503552,1.663325006528,53.17462501568
1.015e-07,25.1700000384,1.661762506432,53.18400001472
1.02e-07,25.18562503936,1.663325006528,53.171500016
1.0250000000000001e-07,25.1700000384,1.663325006528,53.162125016960005
1.0300000000000001e-07,25.21687504128,1.663325006528,53.16525001664
1.0350000000000001e-07,25.23250004224,1.663325006528,53.1871250144
1.04e-07,25.23250004224,1.6648875066239999,53.2183750112
1.045e-07,25.2481250432,1.6664500067199999,53.24337500864
1.05e-07,25.2481250432,1.6664500067199999,53.26837500608
1.0550000000000001e-07,25.2481250432,1.6664500067199999,53.2808750048
1.0600000000000001e-07,25.21687504128,1.6648875066239999,53.27462500544
1.0650000000000001e-07,25.21687504128,1.6648875066239999,53.255875007360004
1.07e-07,25.15437503744,1.6648875066239999,53.22775001024
1.075e-07,25.12312503552,1.6664500067199999,53.20587501248
1.08e-07,25.0918750336,1.6648875066239999,53.19650001344
1.0850000000000001e-07,25.06062503168,1.663325006528,53.17462501568
1.0900000000000001e-07,25.04500003072,1.6648875066239999,53.1558750176
1.0950000000000001e-07,25.13875003648,1.663325006528,53.146500018560005
1.1e-07,25.295000046080002,1.663325006528,53.1558750176
1.105e-07,25.341875048960002,1.6664500067199999,53.18087501504
1.11e-07,25.2481250432,1.669575006912,53.19962501312
1.1150000000000001e-07,25.18562503936,1.6680125068159999,53.20587501248
1.1200000000000001e-07,25.2481250432,1.6664500067199999,53.20587501248
1.1250000000000001e-07,25.373125050880002,1.6664500067199999,53.21212501184
1.13e-07,25.388750051840002,1.6664500067199999,53.23087500992
1.135e-07,25.21687504128,1.6648875066239999,53.2340000096
1.14e-07,25.0137500288,1.661762506432,53.2340000096
1.1450000000000001e-07,24.99812502784,1.65863750624,53.224625010560004
1.1500000000000001e-07,25.15437503744,1.661762506432,53.2183750112
1.1550000000000001e-07,25.279375045120002,1.663325006528,53.21212501184
1.16e-07,25.2481250432,1.6648875066239999,53.21525001152
1.165e-07,25.10750003456,1.6664500067199999,53.224625010560004
1.17e-07,25.0918750336,1.6680125068159999,53.22775001024
1.1750000000000001e-07,25.21687504128,1.6664500067199999,53.21525001152
1.1800000000000001e-07,25.388750051840002,1.663325006528,53.209000012160004
1.1850000000000001e-07,25.451250055680003,1.661762506432,53.21525001152
1.1900000000000001e-07,25.279375045120002,1.663325006528,53.246500008320005
1.195e-07,25.0918750336,1.6648875066239999,53.28400000448
1.2000000000000002e-07,25.0918750336,1.661762506432,53.30587500224
1.205e-07,25.21687504128,1.65863750624,53.29962500288
1.21e-07,25.295000046080002,1.663325006528,53.29025000384
1.215e-07,25.21687504128,1.663325006528,53.25900000704
1.22e-07,25.0137500288,1.663325006528,53.23712500928
1.2250000000000002e-07,24.95125002496,1.660200006336,53.23087500992
1.23e-07,25.07625003264,1.660200006336,53.23087500992
1.2350000000000001e-07,25.295000046080002,1.6648875066239999,53.23087500992
1.24e-07,25.310625047040002,1.6664500067199999,53.21525001152
1.245e-07,25.23250004224,1.6664500067199999,53.193375013760004
1.2500000000000002e-07,25.13875003648,1.6648875066239999,53.193375013760004
1.255e-07,25.1700000384,1.661762506432,53.20587501248
1.2600000000000002e-07,25.310625047040002,1.661762506432,53.23087500992
1.265e-07,25.373125050880002,1.6664500067199999,53.246500008320005
1.27e-07,25.279375045120002,1.6680125068159999,53.246500008320005
1.275e-07,25.12312503552,1.6680125068159999,53.22775001024
1.28e-07,25.06062503168,1.663325006528,53.224625010560004
1.2850000000000002e-07,25.0918750336,1.660200006336,53.2340000096
1.29e-07,25.13875003648,1.661762506432,53.25900000704
1.2950000000000001e-07,25.15437503744,1.663325006528,53.262125006720005
1.3e-07,25.0918750336,1.661762506432,53.24337500864
1.305e-07,25.04500003072,1.65863750624,53.209000012160004
1.31e-07,25.0918750336,1.65863750624,53.19962501312
1.315e-07,25.2481250432,1.65863750624,53.2183750112
1.3200000000000002e-07,25.373125050880002,1.660200006336,53.25275000768
1.325e-07,25.388750051840002,1.65863750624,53.255875007360004
1.33e-07,25.263750044160002,1.660200006336,53.21525001152
1.335e-07,25.13875003648,1.65863750624,53.177750015360004
1.34e-07,25.15437503744,1.657075006144,53.193375013760004
1.3450000000000002e-07,25.23250004224,1.661762506432,53.255875007360004
1.35e-07,25.2481250432,1.6648875066239999,53.30275000256
1.3550000000000002e-07,25.13875003648,1.6648875066239999,53.2808750048
1.36e-07,25.0137500288,1.661762506432,53.2183750112
1.365e-07,24.99812502784,1.65863750624,53.18087501504
1.37e-07,25.0918750336,1.661762506432,53.21525001152
1.375e-07,25.23250004224,1.661762506432,53.271500005760004
1.3800000000000002e-07,25.263750044160002,1.660200006336,53.29962500288
1.385e-07,25.23250004224,1.660200006336,53.271500005760004
1.3900000000000001e-07,25.20125004032,1.65863750624,53.24337500864
1.395e-07,25.279375045120002,1.65863750624,53.255875007360004
1.4e-07,25.357500049920002,1.65863750624,53.30587500224
1.4050000000000002e-07,25.341875048960002,1.660200006336,53.34649999808
1.41e-07,25.21687504128,1.660200006336,53.33712499904
1.4150000000000002e-07,25.0918750336,1.657075006144,53.28712500416
1.42e-07,25.06062503168,1.657075006144,53.26837500608
1.425e-07,25.13875003648,1.657075006144,53.293375003520005
1.43e-07,25.23250004224,1.660200006336,53.32775
1.435e-07,25.21687504128,1.65863750624,53.32775
1.4400000000000002e-07,25.12312503552,1.657075006144,53.28712500416
1.445e-07,25.0918750336,1.655512506048,53.25275000768
1.4500000000000001e-07,25.20125004032,1.655512506048,53.27462500544
1.455e-07,25.341875048960002,1.657075006144,53.32150000064
1.46e-07,25.435625054720003,1.65863750624,53.3433749984
1.4650000000000002e-07,25.341875048960002,1.657075006144,53.32150000064
1.47e-07,25.18562503936,1.65863750624,53.277750005120005
1.4750000000000002e-07,25.1700000384,1.660200006336,53.249625008
1.48e-07,25.263750044160002,1.65863750624,53.249625008
1.485e-07,25.295000046080002,1.657075006144,53.246500008320005
1.49e-07,25.21687504128,1.657075006144,53.2340000096
1.495e-07,25.07625003264,1.657075006144,53.21525001152
1.5000000000000002e-07,24.99812502784,1.660200006336,53.2183750112
1.505e-07,25.07625003264,1.65863750624,53.262125006720005
1.5100000000000002e-07,25.23250004224,1.660200006336,53.30275000256
1.515e-07,25.295000046080002,1.657075006144,53.3121250016
1.52e-07,25.2481250432,1.655512506048,53.30587500224
1.5250000000000002e-07,25.21687504128,1.655512506048,53.30275000256
1.53e-07,25.2481250432,1.657075006144,53.3121250016
1.5350000000000002e-07,25.326250048000002,1.657075006144,53.32150000064
1.54e-07,25.404375052800003,1.657075006144,53.3121250016
1.5450000000000001e-07,25.341875048960002,1.655512506048,53.26837500608
1.55e-07,25.18562503936,1.655512506048,53.2340000096
1.555e-07,25.10750003456,1.655512506048,53.246500008320005
1.5600000000000002e-07,25.12312503552,1.655512506048,53.29025000384
1.565e-07,25.15437503744,1.657075006144,53.324625000320005
1.5700000000000002e-07,25.12312503552,1.660200006336,53.33399999936
1.575e-07,25.04500003072,1.657075006144,53.31525000128
1.58e-07,25.06062503168,1.655512506048,53.30275000256
1.5850000000000002e-07,25.13875003648,1.65863750624,53.30275000256
1.59e-07,25.2481250432,1.663325006528,53.29025000384
1.5950000000000002e-07,25.279375045120002,1.660200006336,53.255875007360004
1.6e-07,25.2481250432,1.657075006144,53.209000012160004
1.6050000000000001e-07,25.2481250432,1.655512506048,53.171500016
1.61e-07,25.263750044160002,1.657075006144,53.16525001664
1.615e-07,25.2481250432,1.657075006144,53.16837501632
1.6200000000000002e-07,25.18562503936,1.65863750624,53.18400001472
1.625e-07,25.10750003456,1.65863750624,53.19025001408
