ROUT,V_IN,I_IN,P_IN,V_OUT,I_OUT,P_OUT,V_GS_A_pp,V_GS_A_amp,V_GS_A_max,V_GS_A_top,V_GS_A_min,V_GS_A_bot,V_GS_B_pp,V_GS_B_amp,V_GS_B_max,V_GS_B_top,V_GS_B_min,V_GS_B_bot,V_DS_A_pp,V_DS_A_amp,V_DS_A_max,V_DS_A_top,V_DS_A_min,V_DS_A_bot,V_DS_B_pp
50.0,25.009287,1.31399595,32.86210183038765,38.43204,0.7683858,29.53021,8.1,5.0,5.75,4.81,-2.38,-0.19,8.6,5.1,5.83,4.97,-2.77,-0.11,59.4,56.9,55.6,55.0,-4.4,-1.9,55.6
50.5,25.008928,1.3261793,33.1663226287904,38.81486,0.768333,29.82749,8.0,5.1,5.75,4.89,-2.3,-0.11,8.7,4.9,5.91,4.81,-2.77,-0.11,60.6,57.5,55.6,55.6,-4.4,-1.9,55.6
51.0,25.008802,1.33853196,33.47508075831192,39.21836,0.7685884,30.13901,8.0,5.0,5.75,4.89,-2.38,-0.19,8.6,5.1,5.83,4.89,-2.77,-0.11,59.4,56.9,55.0,55.0,-4.4,-1.9,55.6
51.5,25.008924,1.35153061,33.80032630916364,39.60859,0.7685837,30.44233,8.0,5.1,5.67,4.81,-2.38,-0.19,8.6,5.0,5.75,4.89,-2.84,-0.11,60.0,57.5,55.6,55.6,-4.4,-1.9,56.3
52.0,25.008935,1.36328334,34.0942644366429,39.97079,0.7684584,30.71479,8.0,5.1,5.75,4.89,-2.3,-0.19,8.4,5.0,5.91,4.89,-2.84,-0.19,60.6,56.9,55.0,55.0,-4.4,-1.9,56.9
52.5,25.009175,1.37535843,34.39657966359525,40.35182,0.7685135,31.01033,8.0,5.0,5.67,4.81,-2.3,-0.19,8.6,5.0,5.83,4.89,-2.77,-0.11,60.0,57.5,55.6,55.6,-4.4,-1.9,55.6
53.0,25.009349,1.3879478,34.711670923982204,40.73876,0.7684934,31.31092,8.0,5.1,5.75,4.89,-2.3,-0.19,8.5,5.0,5.75,4.89,-2.77,-0.11,61.3,58.1,56.3,56.3,-5.0,-1.9,56.3
53.5,25.009531,1.40045019,35.02460244076089,41.12697,0.7684995,31.60583,8.0,5.1,5.83,4.89,-2.3,-0.19,8.5,5.2,5.75,4.81,-2.77,-0.11,60.0,57.5,55.6,55.6,-4.4,-1.9,56.3
54.0,25.00972,1.41428539,35.3708816039908,41.56803,0.7687736,31.95667,8.0,4.9,5.67,4.89,-2.3,-0.19,8.4,4.9,5.67,4.81,-2.69,-0.11,60.0,57.5,55.6,55.6,-4.4,-1.9,55.6
54.5,25.009979,1.42542021,35.64972951827559,41.92216,0.7688342,32.22604,8.0,5.1,5.75,4.81,-2.3,-0.19,8.4,5.1,5.67,4.97,-2.77,-0.11,60.0,57.5,55.0,55.6,-5.0,-1.9,55.6
55.0,25.010059,1.43746137,35.95099367392083,42.30434,0.7688554,32.52702,8.0,5.0,5.67,4.89,-2.3,-0.19,8.5,5.2,5.75,4.97,-2.84,-0.11,60.6,58.1,56.3,56.3,-5.0,-1.9,55.6
55.5,25.010112,1.44967219,36.25646383518528,42.68864,0.7688483,32.81365,8.0,5.0,5.75,4.81,-2.3,-0.11,8.5,5.0,5.75,4.81,-2.84,-0.11,60.0,57.5,55.6,55.0,-4.4,-1.9,56.3
56.0,25.010073,1.4618645,36.5613378611085,43.07421,0.7688151,33.11787,8.0,5.0,5.67,4.89,-2.22,-0.19,8.5,4.9,5.75,4.81,-2.84,-0.11,59.4,56.9,55.0,55.0,-4.4,-1.9,55.6
56.5,25.009828,1.47378709,36.85916162952052,43.45587,0.769018,33.41875,8.0,5.1,5.67,4.89,-2.3,-0.19,8.6,5.2,5.75,4.97,-2.77,-0.19,60.6,58.1,55.6,55.6,-5.0,-1.9,56.3
57.0,25.009683,1.48583682,37.16030785792806,43.83519,0.768653,33.68413,8.0,5.1,5.75,4.81,-2.3,-0.19,8.5,5.0,5.67,4.81,-2.77,-0.11,60.0,57.5,55.6,55.6,-4.4,-1.9,56.3
57.5,25.009371,1.49769792,37.45648292720832,44.22332,0.7688314,33.99722,8.0,4.9,5.67,4.89,-2.3,-0.11,8.4,5.0,5.67,4.89,-2.77,-0.11,60.6,57.5,55.6,55.6,-4.4,-1.9,55.6
58.0,25.009056,1.50968778,37.75586623253568,44.6054,0.7687151,34.29091,8.0,5.1,5.75,4.81,-2.3,-0.19,8.5,5.1,5.83,4.97,-2.69,-0.19,60.0,57.5,55.6,55.0,-4.4,-1.9,56.3
58.5,25.008753,1.5215858,38.0529634405074,44.98959,0.768778,34.58649,8.0,5.0,5.75,4.81,-2.3,-0.19,8.7,5.1,5.75,4.89,-2.77,-0.19,60.0,57.5,55.6,55.6,-4.4,-1.9,55.6
59.0,25.008357,1.53329089,38.345085961967726,45.37308,0.7685535,34.87811,8.0,5.0,5.75,4.81,-2.3,-0.19,8.5,5.2,5.67,4.97,-2.77,-0.11,60.0,57.5,55.6,55.6,-4.4,-1.9,55.6
59.5,25.00812,1.54500988,38.637792480225606,45.7565,0.7685723,35.14744,8.0,5.1,5.75,4.89,-2.22,-0.19,8.4,5.0,5.75,4.89,-2.77,-0.11,58.8,56.9,55.6,55.6,-4.4,-1.9,55.6
60.0,25.007935,1.55615501,38.91622334000435,46.11663,0.7683372,35.43446,8.0,5.1,5.75,4.89,-2.3,-0.19,8.4,5.0,5.67,4.89,-2.77,-0.11,60.0,57.5,55.0,55.6,-4.4,-1.9,55.6
60.5,25.007663,1.56777178,39.20630833515014,46.4988,0.7684755,35.72457,7.9,5.1,5.59,4.89,-2.3,-0.19,8.4,4.9,5.75,4.89,-2.84,-0.11,60.0,57.5,55.6,55.6,-3.8,-1.9,55.6
61.0,25.007477,1.57930409,39.49441070668093,46.86993,0.7680455,36.00135,8.0,5.1,5.67,4.89,-2.3,-0.19,8.4,5.0,5.75,4.97,-2.77,-0.11,59.4,57.5,55.0,55.0,-4.4,-1.9,55.6
61.5,25.007312,1.5903112,39.7694083554944,47.23272,0.7678126,36.28196,8.0,5.1,5.75,4.89,-2.3,-0.19,8.4,5.1,5.75,4.97,-2.77,-0.19,60.0,57.5,56.3,55.0,-3.8,-1.9,56.3
61.68502750680849,25.007166,1.59375608,39.85532285606928,47.34754,0.767911,36.35725,8.0,5.1,5.67,4.89,-2.22,-0.19,8.6,5.0,5.83,4.97,-2.77,-0.11,60.0,56.9,55.6,55.6,-3.8,-1.9,56.3
62.0,25.007065,1.60073385,40.02965543465025,47.57678,0.767655,36.5271,8.0,5.0,5.67,4.81,-2.38,-0.19,8.7,5.1,5.83,4.97,-2.69,-0.11,60.0,57.5,55.0,55.0,-3.8,-1.9,55.6
62.5,25.007019,1.61242516,40.32194661219804,47.96333,0.7674879,36.80934,8.0,5.1,5.67,4.89,-2.3,-0.19,8.6,5.1,5.75,4.97,-2.84,-0.11,59.4,56.9,55.6,55.6,-3.8,-1.9,55.6
63.0,25.00701,1.62405337,40.6127188641237,48.34807,0.7672503,37.10057,8.0,5.1,5.67,4.89,-2.3,-0.19,8.5,5.1,5.75,4.89,-2.77,-0.19,59.4,56.9,55.6,55.6,-3.8,-1.9,55.6
63.5,25.007065,1.6354979,40.8990022926635,48.72956,0.767036,37.37321,8.0,5.1,5.75,4.89,-2.22,-0.19,8.5,5.0,5.67,4.89,-2.77,-0.11,59.4,56.9,55.0,55.0,-3.8,-1.9,56.3
64.0,25.006989,1.64707763,41.18845217555607,49.11554,0.7667273,37.66033,8.0,5.0,5.67,4.81,-2.3,-0.19,8.5,5.0,5.75,4.89,-2.77,-0.11,59.4,57.5,55.6,55.6,-3.8,-1.9,56.3
64.5,25.007043,1.6573189,41.444644997012695,49.45501,0.7663537,37.90695,8.0,5.1,5.67,4.89,-2.3,-0.19,8.5,5.0,5.75,4.89,-2.84,-0.11,59.4,57.5,55.6,55.6,-3.8,-1.9,55.6
65.0,25.00707,1.66872109,41.7298251081063,49.842,0.7663788,38.18512,8.0,5.1,5.67,4.89,-2.3,-0.19,8.4,5.1,5.75,4.97,-2.69,-0.11,58.8,56.9,55.6,55.6,-3.8,-1.9,55.6
65.5,25.007088,1.67688624,41.93404176966912,50.11392,0.7659577,38.38667,8.0,5.1,5.67,4.89,-2.3,-0.19,8.7,5.0,5.75,4.89,-2.77,-0.11,58.1,57.5,55.6,55.6,-4.4,-1.9,55.6
66.0,25.00708,1.68940945,42.247197268906,50.53901,0.7655984,38.69961,8.0,5.1,5.67,4.81,-2.22,-0.19,8.5,4.9,5.75,4.81,-2.77,-0.11,58.8,56.9,55.0,55.0,-3.8,-1.9,56.3
66.5,25.00706,1.69956345,42.501085167957,50.88251,0.7653717,38.9498,7.9,5.0,5.67,4.81,-2.22,-0.19,8.4,5.1,5.67,4.89,-2.77,-0.19,59.4,56.9,55.0,55.0,-3.8,-1.9,55.6
67.0,25.007089,1.71086285,42.78369955674365,51.2663,0.7649868,39.21502,8.0,5.1,5.67,4.89,-2.3,-0.19,8.6,5.1,5.75,4.97,-2.84,-0.11,58.1,57.5,55.6,55.6,-3.8,-1.9,56.3
67.5,25.006916,1.72201196,43.06220843471536,51.64954,0.7645857,39.49369,7.9,5.1,5.75,4.81,-2.38,-0.19,8.6,5.0,5.75,4.89,-2.84,-0.11,59.4,57.5,55.6,55.6,-3.8,-1.9,55.6
68.0,25.006863,1.73194819,43.31059111042797,51.99333,0.7642896,39.74276,7.8,5.1,5.59,4.81,-2.3,-0.19,8.4,5.2,5.67,4.97,-2.77,-0.11,59.4,56.9,55.6,55.6,-3.8,-1.9,56.3
68.5,25.006806,1.74178963,43.55659537022178,52.3371,0.763793,39.97666,8.0,5.1,5.67,4.89,-2.3,-0.19,8.5,5.0,5.75,4.97,-2.77,-0.11,59.4,57.5,55.6,55.6,-3.1,-1.9,55.6
69.0,25.00663,1.75192157,43.8096544900091,52.68266,0.7634562,40.21339,8.0,5.1,5.67,4.89,-2.3,-0.19,8.5,5.1,5.75,4.89,-2.77,-0.11,58.8,56.9,55.0,55.0,-3.8,-1.9,56.3
69.5,25.006589,1.76123284,44.04242576318276,53.01629,0.7629591,40.44513,8.0,5.1,5.59,4.89,-2.3,-0.19,8.4,5.0,5.75,4.97,-2.84,-0.11,59.4,57.5,55.6,55.6,-3.8,-1.9,56.3
70.0,25.006505,1.77209253,44.31384071190765,53.39914,0.7624437,40.7068,8.0,5.1,5.67,4.81,-2.3,-0.19,8.6,5.1,5.83,4.97,-2.77,-0.11,58.8,56.9,55.0,55.0,-3.8,-1.9,55.6
70.5,25.006512,1.78140623,44.54675626736976,53.72266,0.761756,40.92696,7.9,5.0,5.59,4.81,-2.38,-0.19,8.5,5.0,5.75,4.89,-2.77,-0.11,59.4,57.5,55.6,55.6,-3.8,-1.9,56.3
71.0,25.006511,1.78891055,44.73441134659105,54.00329,0.7613429,41.11224,7.9,5.1,5.59,4.89,-2.3,-0.19,8.5,5.0,5.67,4.89,-2.69,-0.11,58.8,57.5,55.6,55.6,-3.1,-1.9,56.3
71.5,25.006548,1.79912241,44.98984090354068,54.37857,0.7605315,41.36525,8.0,5.0,5.67,4.89,-2.38,-0.19,8.4,5.0,5.75,4.81,-2.77,-0.11,58.1,56.9,55.0,55.0,-3.1,-1.9,55.6
72.0,25.006832,1.80825191,45.21865172704912,54.71935,0.7597045,41.57114,7.8,5.0,5.59,4.89,-2.3,-0.19,8.5,5.0,5.83,4.89,-2.77,-0.11,58.8,56.9,55.0,56.3,-3.1,-1.9,56.3
72.5,25.006909,1.81473867,45.381004779471034,54.96448,0.759189,41.72234,8.0,5.0,5.67,4.81,-2.3,-0.19,8.5,5.0,5.75,4.89,-2.77,-0.11,58.8,56.9,55.0,55.6,-3.1,-1.9,56.3
73.0,25.007216,1.82477269,45.63248480973104,55.3465,0.7580624,41.9579,8.0,5.1,5.75,4.89,-2.38,-0.19,8.5,5.0,5.75,4.89,-2.77,-0.11,58.8,57.5,55.6,55.6,-3.1,-1.9,56.3
73.5,25.007403,1.83138918,45.798287274099536,55.59952,0.7575497,42.12145,8.0,5.1,5.59,4.81,-2.3,-0.19,8.4,5.1,5.75,4.89,-2.69,-0.19,59.4,57.5,55.6,55.6,-3.8,-1.9,56.3
74.0,25.007772,1.84124276,46.04537913873072,55.97678,0.7566087,42.35246,8.0,5.1,5.67,4.89,-2.3,-0.19,8.4,5.1,5.67,4.97,-2.69,-0.11,58.8,57.5,55.6,55.6,-3.1,-1.9,55.6
74.5,25.007757,1.85019287,46.269173696092594,56.31514,0.7556782,42.56096,7.9,5.1,5.67,4.89,-2.22,-0.19,8.5,5.0,5.83,4.97,-2.77,-0.11,58.8,57.5,55.6,55.6,-3.1,-1.9,56.3
75.0,25.008446,1.85670846,46.43339325965316,56.56464,0.7542452,42.6631,8.0,5.0,5.75,4.81,-2.3,-0.19,8.6,5.1,5.75,4.89,-2.77,-0.11,59.4,57.5,56.3,55.6,-3.1,-1.9,56.3
