"# Channel 1"
"# Trace 1"
Frequency, Formatted Data, Formatted Data
+5.00000000000E+004, -5.05397177411E+003, -3.49786137406E+003
+5.19950000000E+004, -3.87921459257E+003, -7.88412099506E+003
+5.39900000000E+004, -3.36701399087E+003, -9.09551083726E+003
+5.59850000000E+004, -2.36709136650E+003, -9.04719818156E+003
+5.79800000000E+004, -2.11313749953E+003, -8.99209788558E+003
+5.99750000000E+004, -1.61533931621E+003, -8.65184417410E+003
+6.19700000000E+004, -1.55827193268E+003, -8.32560613788E+003
+6.39650000000E+004, -1.37816030533E+003, -8.15156714054E+003
+6.59600000000E+004, -1.18053666843E+003, -7.86904635941E+003
+6.79550000000E+004, -1.58980731567E+003, -7.26135581643E+003
+6.99500000000E+004, -1.32346437073E+003, -7.23091263104E+003
+7.19450000000E+004, -1.20150115108E+003, -6.94717213516E+003
+7.39400000000E+004, -1.10410649065E+003, -6.75938387504E+003
+7.59350000000E+004, -8.47144144836E+002, -6.54062086572E+003
+7.79300000000E+004, -8.61238392464E+002, -6.40892597621E+003
+7.99250000000E+004, -6.83060301865E+002, -6.29304916938E+003
+8.19200000000E+004, -6.49555848269E+002, -6.05454558782E+003
+8.39150000000E+004, -7.46275870492E+002, -5.96121039501E+003
+8.59100000000E+004, -6.85875270756E+002, -5.83802886737E+003
+8.79050000000E+004, -6.18994911696E+002, -5.73224595874E+003
+8.99000000000E+004, -6.29289602443E+002, -5.50900579479E+003
+9.18950000000E+004, -5.84119702540E+002, -5.34222684791E+003
+9.38900000000E+004, -5.37546994784E+002, -5.30259950686E+003
+9.58850000000E+004, -5.60041449859E+002, -5.15531432329E+003
+9.78800000000E+004, -4.93337530456E+002, -5.03418698760E+003
+9.98750000000E+004, -5.78460368320E+002, -4.98490399960E+003
+1.01870000000E+005, -4.66938469189E+002, -4.83094843723E+003
+1.03865000000E+005, -4.72722856032E+002, -4.75821940244E+003
+1.05860000000E+005, -4.73693344436E+002, -4.64167919115E+003
+1.07855000000E+005, -4.22488644425E+002, -4.59777437633E+003
+1.09850000000E+005, -3.34865617518E+002, -4.50059314300E+003
+1.11845000000E+005, -3.26001807885E+002, -4.38041704068E+003
+1.13840000000E+005, -4.21433577008E+002, -4.32158078242E+003
+1.15835000000E+005, -3.39631264282E+002, -4.23898287729E+003
+1.17830000000E+005, -3.10472587688E+002, -4.20095399466E+003
+1.19825000000E+005, -3.24067244866E+002, -4.10416951596E+003
+1.21820000000E+005, -3.33097949942E+002, -4.07031078480E+003
+1.23815000000E+005, -3.03334214126E+002, -4.00528807367E+003
+1.25810000000E+005, -2.94035108148E+002, -3.94565534709E+003
+1.27805000000E+005, -2.72409581246E+002, -3.86399074480E+003
+1.29800000000E+005, -2.68537062886E+002, -3.81913129936E+003
+1.31795000000E+005, -2.50866090875E+002, -3.75082268425E+003
+1.33790000000E+005, -3.19548721552E+002, -3.68243372280E+003
+1.35785000000E+005, -2.83141333787E+002, -3.63247023588E+003
+1.37780000000E+005, -2.77736976197E+002, -3.55452335062E+003
+1.39775000000E+005, -2.58724086007E+002, -3.54247944120E+003
+1.41770000000E+005, -2.53723940294E+002, -3.50625280667E+003
+1.43765000000E+005, -2.59368837264E+002, -3.46478825752E+003
+1.45760000000E+005, -2.10685590559E+002, -3.39392546137E+003
+1.47755000000E+005, -2.11917227023E+002, -3.35264827139E+003
+1.49750000000E+005, -1.96711159418E+002, -3.31088107160E+003
+1.51745000000E+005, -1.73549755883E+002, -3.28374475463E+003
+1.53740000000E+005, -1.74360096951E+002, -3.24172166301E+003
+1.55735000000E+005, -1.61004202062E+002, -3.20281551072E+003
+1.57730000000E+005, -1.84064566337E+002, -3.17233129823E+003
+1.59725000000E+005, -1.82804243461E+002, -3.12327511123E+003
+1.61720000000E+005, -1.61978356294E+002, -3.09012453118E+003
+1.63715000000E+005, -1.49492067510E+002, -3.05374666334E+003
+1.65710000000E+005, -1.55881473161E+002, -3.00347672902E+003
+1.67705000000E+005, -1.66743875492E+002, -2.99085245474E+003
+1.69700000000E+005, -1.66319096017E+002, -2.94326065123E+003
+1.71695000000E+005, -1.40474658738E+002, -2.92755750528E+003
+1.73690000000E+005, -1.46457501403E+002, -2.88830166644E+003
+1.75685000000E+005, -1.56842143925E+002, -2.86165340605E+003
+1.77680000000E+005, -1.55205369679E+002, -2.83725993563E+003
+1.79675000000E+005, -1.46458262880E+002, -2.80096932405E+003
+1.81670000000E+005, -1.34322178451E+002, -2.76503053945E+003
+1.83665000000E+005, -1.35028637173E+002, -2.73820021976E+003
+1.85660000000E+005, -1.30924195970E+002, -2.69184848985E+003
+1.87655000000E+005, -1.30521774591E+002, -2.68108185154E+003
+1.89650000000E+005, -1.13765297319E+002, -2.66321356667E+003
+1.91645000000E+005, -1.23535483975E+002, -2.62352781509E+003
+1.93640000000E+005, -1.04535780115E+002, -2.58962866407E+003
+1.95635000000E+005, -1.24575885332E+002, -2.56635706907E+003
+1.97630000000E+005, -1.07006027846E+002, -2.55715112241E+003
+1.99625000000E+005, -1.24546772610E+002, -2.52566675279E+003
+2.01620000000E+005, -1.34634155925E+002, -2.49619306390E+003
+2.03615000000E+005, -1.20580746231E+002, -2.47249103408E+003
+2.05610000000E+005, -1.20390094189E+002, -2.43517851621E+003
+2.07605000000E+005, -1.09911073009E+002, -2.43054695033E+003
+2.09600000000E+005, -1.04857787105E+002, -2.40967404362E+003
+2.11595000000E+005, -1.04724571346E+002, -2.37953276201E+003
+2.13590000000E+005, -1.11007260800E+002, -2.36238533574E+003
+2.15585000000E+005, -9.22705500944E+001, -2.34249168092E+003
+2.17580000000E+005, -1.01946762756E+002, -2.31940155872E+003
+2.19575000000E+005, -1.01228336166E+002, -2.29899133422E+003
+2.21570000000E+005, -1.02220836716E+002, -2.27228433711E+003
+2.23565000000E+005, -9.14200665468E+001, -2.26664273155E+003
+2.25560000000E+005, -8.83743450479E+001, -2.22448140474E+003
+2.27555000000E+005, -8.37056909262E+001, -2.21917734045E+003
+2.29550000000E+005, -8.41150829025E+001, -2.20621763351E+003
+2.31545000000E+005, -9.33528141519E+001, -2.19621273125E+003
+2.33540000000E+005, -8.18969993370E+001, -2.17105004214E+003
+2.35535000000E+005, -7.61193348589E+001, -2.14865258835E+003
+2.37530000000E+005, -7.97680859079E+001, -2.12409240098E+003
+2.39525000000E+005, -6.91876823680E+001, -2.10332600493E+003
+2.41520000000E+005, -7.87220702181E+001, -2.09233526707E+003
+2.43515000000E+005, -7.36640894830E+001, -2.07995470889E+003
+2.45510000000E+005, -7.22971019495E+001, -2.06933935586E+003
+2.47505000000E+005, -7.33374776497E+001, -2.04669452342E+003
+2.49500000000E+005, -7.09296007137E+001, -2.02825206214E+003
+2.51495000000E+005, -7.02782660835E+001, -2.01758852060E+003
+2.53490000000E+005, -6.27233539825E+001, -1.99739515592E+003
+2.55485000000E+005, -6.22327667495E+001, -1.98229347120E+003
+2.57480000000E+005, -6.02555358064E+001, -1.97369568445E+003
+2.59475000000E+005, -6.11570316250E+001, -1.95710372638E+003
+2.61470000000E+005, -6.62435342814E+001, -1.93760825144E+003
+2.63465000000E+005, -6.65808652684E+001, -1.92290823251E+003
+2.65460000000E+005, -7.14045966225E+001, -1.90869234077E+003
+2.67455000000E+005, -6.89745023039E+001, -1.89339204449E+003
+2.69450000000E+005, -6.95473320868E+001, -1.88071898694E+003
+2.71445000000E+005, -6.59665486250E+001, -1.86714225077E+003
+2.73440000000E+005, -6.49593518512E+001, -1.86266284895E+003
+2.75435000000E+005, -6.29852332843E+001, -1.84042050866E+003
+2.77430000000E+005, -6.20078711290E+001, -1.82655539741E+003
+2.79425000000E+005, -6.05173752579E+001, -1.81745315252E+003
+2.81420000000E+005, -5.89423837883E+001, -1.80600032574E+003
+2.83415000000E+005, -5.77950791998E+001, -1.78936084208E+003
+2.85410000000E+005, -5.48365764494E+001, -1.77577709973E+003
+2.87405000000E+005, -5.66190830347E+001, -1.76887108686E+003
+2.89400000000E+005, -5.23964449964E+001, -1.75213700904E+003
+2.91395000000E+005, -5.03724551687E+001, -1.74329050785E+003
+2.93390000000E+005, -5.23218000613E+001, -1.73213256888E+003
+2.95385000000E+005, -5.30957878056E+001, -1.72218408881E+003
+2.97380000000E+005, -5.56727579477E+001, -1.70927432258E+003
+2.99375000000E+005, -4.66842552383E+001, -1.69177140731E+003
+3.01370000000E+005, -4.60766216561E+001, -1.67952215507E+003
+3.03365000000E+005, -4.22873943141E+001, -1.67798291559E+003
+3.05360000000E+005, -4.64552894839E+001, -1.66365528871E+003
+3.07355000000E+005, -5.14106795188E+001, -1.65235914585E+003
+3.09350000000E+005, -4.75714788817E+001, -1.64119708843E+003
+3.11345000000E+005, -5.00176561172E+001, -1.63396019685E+003
+3.13340000000E+005, -4.50054913427E+001, -1.62317728929E+003
+3.15335000000E+005, -4.06290224552E+001, -1.61359441410E+003
+3.17330000000E+005, -3.96999930375E+001, -1.60207001530E+003
+3.19325000000E+005, -4.76184285046E+001, -1.59234646487E+003
+3.21320000000E+005, -4.36793504000E+001, -1.57958271947E+003
+3.23315000000E+005, -3.84975484264E+001, -1.57275787006E+003
+3.25310000000E+005, -3.78418289695E+001, -1.56396570763E+003
+3.27305000000E+005, -4.47810873861E+001, -1.55691522010E+003
+3.29300000000E+005, -4.23837024622E+001, -1.54798821296E+003
+3.31295000000E+005, -4.03641908837E+001, -1.53857992651E+003
+3.33290000000E+005, -3.74869640885E+001, -1.52440979739E+003
+3.35285000000E+005, -3.58642312818E+001, -1.51531774921E+003
+3.37280000000E+005, -3.69249087337E+001, -1.50890278944E+003
+3.39275000000E+005, -3.48424785947E+001, -1.49957651001E+003
+3.41270000000E+005, -3.56411455582E+001, -1.49830339166E+003
+3.43265000000E+005, -3.05184339117E+001, -1.47821409437E+003
+3.45260000000E+005, -2.76476533903E+001, -1.47235789280E+003
+3.47255000000E+005, -3.28683701509E+001, -1.46234056519E+003
+3.49250000000E+005, -3.59345451667E+001, -1.45771816112E+003
+3.51245000000E+005, -3.36632040189E+001, -1.44792056425E+003
+3.53240000000E+005, -3.64119128387E+001, -1.44011369060E+003
+3.55235000000E+005, -3.52286971254E+001, -1.43326994757E+003
+3.57230000000E+005, -2.94415948571E+001, -1.42696586221E+003
+3.59225000000E+005, -3.19182237285E+001, -1.41474935626E+003
+3.61220000000E+005, -3.71056350456E+001, -1.40727066299E+003
+3.63215000000E+005, -3.59097370281E+001, -1.40083210172E+003
+3.65210000000E+005, -3.30404647691E+001, -1.39418503602E+003
+3.67205000000E+005, -2.90045316019E+001, -1.38813348711E+003
+3.69200000000E+005, -3.18828601981E+001, -1.37946578659E+003
+3.71195000000E+005, -3.27637942337E+001, -1.37113587917E+003
+3.73190000000E+005, -2.88954678314E+001, -1.36458645236E+003
+3.75185000000E+005, -2.89375559134E+001, -1.36033272469E+003
+3.77180000000E+005, -3.02274394253E+001, -1.35142336481E+003
+3.79175000000E+005, -2.97615622730E+001, -1.34153078352E+003
+3.81170000000E+005, -2.87141713815E+001, -1.33655999712E+003
+3.83165000000E+005, -2.84435035297E+001, -1.32880046223E+003
+3.85160000000E+005, -2.92555745421E+001, -1.32200524613E+003
+3.87155000000E+005, -2.78566081253E+001, -1.31694409847E+003
+3.89150000000E+005, -3.09586337158E+001, -1.30755957376E+003
+3.91145000000E+005, -2.94830429905E+001, -1.30243598393E+003
+3.93140000000E+005, -2.80608804027E+001, -1.29389997793E+003
+3.95135000000E+005, -2.52285151328E+001, -1.28643856838E+003
+3.97130000000E+005, -2.80446348757E+001, -1.28123618509E+003
+3.99125000000E+005, -2.79633764524E+001, -1.27475327181E+003
+4.01120000000E+005, -3.25489590136E+001, -1.26778508559E+003
+4.03115000000E+005, -3.25678864632E+001, -1.26287700843E+003
+4.05110000000E+005, -2.90792413960E+001, -1.25719046868E+003
+4.07105000000E+005, -3.09699234789E+001, -1.24958146886E+003
+4.09100000000E+005, -2.49893833474E+001, -1.24270751561E+003
+4.11095000000E+005, -2.89069693984E+001, -1.23853417299E+003
+4.13090000000E+005, -2.73115918726E+001, -1.23428021800E+003
+4.15085000000E+005, -2.73413127907E+001, -1.22369247540E+003
+4.17080000000E+005, -2.55911094139E+001, -1.21984889486E+003
+4.19075000000E+005, -2.58383723926E+001, -1.21584297865E+003
+4.21070000000E+005, -2.64011576926E+001, -1.20884230498E+003
+4.23065000000E+005, -2.37471828549E+001, -1.20374715014E+003
+4.25060000000E+005, -2.38373898333E+001, -1.19699069520E+003
+4.27055000000E+005, -2.63751674957E+001, -1.19321143208E+003
+4.29050000000E+005, -2.36305781536E+001, -1.18594445522E+003
+4.31045000000E+005, -2.34430756366E+001, -1.17960138844E+003
+4.33040000000E+005, -2.30387472883E+001, -1.17429920359E+003
+4.35035000000E+005, -2.29735166362E+001, -1.17049116347E+003
+4.37030000000E+005, -2.18501565162E+001, -1.16627038020E+003
+4.39025000000E+005, -2.17268245068E+001, -1.15788057030E+003
+4.41020000000E+005, -2.24681170117E+001, -1.15386223031E+003
+4.43015000000E+005, -2.09766651380E+001, -1.14831545436E+003
+4.45010000000E+005, -2.25981492998E+001, -1.14415618303E+003
+4.47005000000E+005, -2.24440645728E+001, -1.14094389777E+003
+4.49000000000E+005, -2.19546131939E+001, -1.13556793714E+003
+4.50995000000E+005, -2.04201064022E+001, -1.12777552271E+003
+4.52990000000E+005, -2.21331522638E+001, -1.12402864760E+003
+4.54985000000E+005, -2.16565087306E+001, -1.11986790268E+003
+4.56980000000E+005, -2.07235481741E+001, -1.11580532220E+003
+4.58975000000E+005, -2.11614029831E+001, -1.10773720348E+003
+4.60970000000E+005, -2.00295587641E+001, -1.10500973641E+003
+4.62965000000E+005, -2.15884714725E+001, -1.10015722966E+003
+4.64960000000E+005, -1.84012963091E+001, -1.09587628757E+003
+4.66955000000E+005, -1.88723509263E+001, -1.09208139016E+003
+4.68950000000E+005, -2.00718421039E+001, -1.08622593574E+003
+4.70945000000E+005, -1.95281590264E+001, -1.08412892150E+003
+4.72940000000E+005, -2.10022167105E+001, -1.07595505930E+003
+4.74935000000E+005, -1.98403210346E+001, -1.07217156663E+003
+4.76930000000E+005, -1.86682663664E+001, -1.06977149101E+003
+4.78925000000E+005, -1.81294758519E+001, -1.06307112163E+003
+4.80920000000E+005, -1.73308942762E+001, -1.05986699684E+003
+4.82915000000E+005, -1.93566938903E+001, -1.05419316598E+003
+4.84910000000E+005, -1.64180475079E+001, -1.04968011019E+003
+4.86905000000E+005, -1.80144776947E+001, -1.04735428471E+003
+4.88900000000E+005, -1.59884444284E+001, -1.04162681646E+003
+4.90895000000E+005, -1.94262422916E+001, -1.03666963836E+003
+4.92890000000E+005, -1.74727606413E+001, -1.03408776628E+003
+4.94885000000E+005, -1.58295310628E+001, -1.02976957001E+003
+4.96880000000E+005, -1.76329866131E+001, -1.02493818456E+003
+4.98875000000E+005, -1.78990667915E+001, -1.02119416197E+003
+5.00870000000E+005, -1.89701036044E+001, -1.01725386541E+003
+5.02865000000E+005, -1.65444081275E+001, -1.01211150051E+003
+5.04860000000E+005, -1.46792915667E+001, -1.00732942952E+003
+5.06855000000E+005, -1.59861314320E+001, -1.00608097041E+003
+5.08850000000E+005, -1.69296706787E+001, -1.00076281474E+003
+5.10845000000E+005, -1.65409513056E+001, -9.97358189322E+002
+5.12840000000E+005, -1.60469374747E+001, -9.93115470115E+002
+5.14835000000E+005, -1.39069471188E+001, -9.91702825752E+002
+5.16830000000E+005, -1.48495942658E+001, -9.85685506226E+002
+5.18825000000E+005, -1.60806693247E+001, -9.82339602781E+002
+5.20820000000E+005, -1.53288716597E+001, -9.78517046971E+002
+5.22815000000E+005, -1.42796863342E+001, -9.75737829893E+002
+5.24810000000E+005, -1.65285598250E+001, -9.71084243721E+002
+5.26805000000E+005, -1.66769525302E+001, -9.68639950697E+002
+5.28800000000E+005, -1.35408122740E+001, -9.64285881878E+002
+5.30795000000E+005, -1.93082377188E+001, -9.60777414370E+002
+5.32790000000E+005, -1.65207778734E+001, -9.56224181322E+002
+5.34785000000E+005, -1.75346182065E+001, -9.52480523468E+002
+5.36780000000E+005, -1.65846692962E+001, -9.48257336235E+002
+5.38775000000E+005, -1.60573737336E+001, -9.45157834613E+002
+5.40770000000E+005, -1.54110082081E+001, -9.41629683469E+002
+5.42765000000E+005, -1.56872280351E+001, -9.38409109271E+002
+5.44760000000E+005, -1.48062958979E+001, -9.36375706530E+002
+5.46755000000E+005, -1.59553285067E+001, -9.32581940695E+002
+5.48750000000E+005, -1.58126771815E+001, -9.27859173150E+002
+5.50745000000E+005, -1.47688185431E+001, -9.25082581174E+002
+5.52740000000E+005, -1.28234083036E+001, -9.22114398757E+002
+5.54735000000E+005, -1.44926201805E+001, -9.19367407220E+002
+5.56730000000E+005, -1.31428508481E+001, -9.16080237733E+002
+5.58725000000E+005, -1.41323957481E+001, -9.11410537235E+002
+5.60720000000E+005, -1.37120015735E+001, -9.08228083825E+002
+5.62715000000E+005, -1.35757813996E+001, -9.04968941929E+002
+5.64710000000E+005, -1.37766044988E+001, -9.02200016522E+002
+5.66705000000E+005, -1.36471660133E+001, -8.99381904829E+002
+5.68700000000E+005, -1.32404574144E+001, -8.96228075118E+002
+5.70695000000E+005, -1.42844453843E+001, -8.92523710170E+002
+5.72690000000E+005, -1.29648084889E+001, -8.89912568109E+002
+5.74685000000E+005, -1.30587832292E+001, -8.86824260808E+002
+5.76680000000E+005, -1.17215961419E+001, -8.83783972668E+002
+5.78675000000E+005, -1.09270067327E+001, -8.80624029959E+002
+5.80670000000E+005, -1.26844672080E+001, -8.77012416984E+002
+5.82665000000E+005, -1.19733306120E+001, -8.74004541202E+002
+5.84660000000E+005, -1.31261946878E+001, -8.71686218569E+002
+5.86655000000E+005, -9.82002910018E+000, -8.69671462781E+002
+5.88650000000E+005, -1.25516868716E+001, -8.66507393640E+002
+5.90645000000E+005, -1.17382488351E+001, -8.63643218200E+002
+5.92640000000E+005, -1.26943584891E+001, -8.60583080592E+002
+5.94635000000E+005, -1.13800230553E+001, -8.56983712377E+002
+5.96630000000E+005, -1.06124843631E+001, -8.54821099549E+002
+5.98625000000E+005, -1.23337492781E+001, -8.52116804945E+002
+6.00620000000E+005, -1.14954899790E+001, -8.47129470053E+002
+6.02615000000E+005, -1.08135683183E+001, -8.46331454034E+002
+6.04610000000E+005, -1.21476386316E+001, -8.43611912949E+002
+6.06605000000E+005, -1.19552783231E+001, -8.40646708225E+002
+6.08600000000E+005, -1.11288052684E+001, -8.36767949374E+002
+6.10595000000E+005, -1.18484502870E+001, -8.34986113848E+002
+6.12590000000E+005, -1.03872810145E+001, -8.30525599160E+002
+6.14585000000E+005, -1.06801546143E+001, -8.27600566320E+002
+6.16580000000E+005, -1.08590628925E+001, -8.25794201405E+002
+6.18575000000E+005, -1.08974386233E+001, -8.24270319672E+002
+6.20570000000E+005, -1.05124697046E+001, -8.21025279592E+002
+6.22565000000E+005, -1.03548031407E+001, -8.18669599266E+002
+6.24560000000E+005, -1.03208744195E+001, -8.15197053413E+002
+6.26555000000E+005, -9.85834630599E+000, -8.13631407904E+002
+6.28550000000E+005, -1.14093637536E+001, -8.11185880705E+002
+6.30545000000E+005, -1.02931812205E+001, -8.08069584683E+002
+6.32540000000E+005, -1.04975516137E+001, -8.06139676057E+002
+6.34535000000E+005, -9.97320595064E+000, -8.01981182010E+002
+6.36530000000E+005, -1.03755251046E+001, -8.00901283428E+002
+6.38525000000E+005, -9.09997897264E+000, -7.98322949714E+002
+6.40520000000E+005, -1.35284666915E+001, -7.95353800085E+002
+6.42515000000E+005, -1.11840092454E+001, -7.92867849421E+002
+6.44510000000E+005, -1.24165005617E+001, -7.90128559158E+002
+6.46505000000E+005, -1.09292530961E+001, -7.89228318485E+002
+6.48500000000E+005, -1.16266637488E+001, -7.85534091485E+002
+6.50495000000E+005, -9.76225962389E+000, -7.84150361998E+002
+6.52490000000E+005, -1.25689166538E+001, -7.80743164727E+002
+6.54485000000E+005, -1.04637767034E+001, -7.77648329561E+002
+6.56480000000E+005, -1.03669977456E+001, -7.76531422009E+002
+6.58475000000E+005, -9.66571651598E+000, -7.73058788622E+002
+6.60470000000E+005, -9.76810120936E+000, -7.72017498538E+002
+6.62465000000E+005, -9.77081068728E+000, -7.71144355800E+002
+6.64460000000E+005, -1.05941315656E+001, -7.67539584591E+002
+6.66455000000E+005, -8.79551214050E+000, -7.64901587667E+002
+6.68450000000E+005, -1.00077504987E+001, -7.62608914677E+002
+6.70445000000E+005, -9.84672687683E+000, -7.60767180398E+002
+6.72440000000E+005, -9.60169371045E+000, -7.57939804295E+002
+6.74435000000E+005, -9.44590673439E+000, -7.55614720364E+002
+6.76430000000E+005, -9.32068629261E+000, -7.53848806673E+002
+6.78425000000E+005, -9.72720292666E+000, -7.51964632402E+002
+6.80420000000E+005, -9.49009958366E+000, -7.49149920822E+002
+6.82415000000E+005, -9.14559649044E+000, -7.47505234493E+002
+6.84410000000E+005, -8.52004233940E+000, -7.45111064587E+002
+6.86405000000E+005, -9.04891971942E+000, -7.43750475859E+002
+6.88400000000E+005, -8.79117586655E+000, -7.40619523965E+002
