"# Channel 1"
"# Trace 1"
Frequency, Formatted Data, Formatted Data
+5.00000000000E+004, +5.19701132202E-001, +3.08474487290E-001
+5.19950000000E+004, +4.29179343298E-001, +3.06838292161E-001
+5.39900000000E+004, +4.07819589148E-001, +3.12318548865E-001
+5.59850000000E+004, +3.91144727677E-001, +3.14564443338E-001
+5.79800000000E+004, +3.79917906710E-001, +3.19152092611E-001
+5.99750000000E+004, +3.77069778746E-001, +3.26519876595E-001
+6.19700000000E+004, +3.73871723207E-001, +3.30681606767E-001
+6.39650000000E+004, +3.70788055901E-001, +3.36109038644E-001
+6.59600000000E+004, +3.70217958532E-001, +3.41985226092E-001
+6.79550000000E+004, +3.68352522999E-001, +3.47634244816E-001
+6.99500000000E+004, +3.67493886658E-001, +3.53668253540E-001
+7.19450000000E+004, +3.66409306109E-001, +3.60146899563E-001
+7.39400000000E+004, +3.64315401397E-001, +3.66593087042E-001
+7.59350000000E+004, +3.64088929225E-001, +3.72587127935E-001
+7.79300000000E+004, +3.62816760557E-001, +3.79346397629E-001
+7.99250000000E+004, +3.61428872392E-001, +3.84891795399E-001
+8.19200000000E+004, +3.61149245534E-001, +3.91177459324E-001
+8.39150000000E+004, +3.61027847840E-001, +3.97316786377E-001
+8.59100000000E+004, +3.60735528618E-001, +4.03274632141E-001
+8.79050000000E+004, +3.60614313471E-001, +4.10037470185E-001
+8.99000000000E+004, +3.60519642941E-001, +4.16354807953E-001
+9.18950000000E+004, +3.60678190952E-001, +4.23335292932E-001
+9.38900000000E+004, +3.60103896115E-001, +4.30187626121E-001
+9.58850000000E+004, +3.59374695324E-001, +4.36549852394E-001
+9.78800000000E+004, +3.59281508254E-001, +4.43140708487E-001
+9.98750000000E+004, +3.59325954783E-001, +4.49955750803E-001
+1.01870000000E+005, +3.58978507439E-001, +4.56999807492E-001
+1.03865000000E+005, +3.58780843263E-001, +4.63877688319E-001
+1.05860000000E+005, +3.58475415596E-001, +4.70443534126E-001
+1.07855000000E+005, +3.58257131368E-001, +4.77428954652E-001
+1.09850000000E+005, +3.57788634442E-001, +4.84722182318E-001
+1.11845000000E+005, +3.57364916350E-001, +4.91615353885E-001
+1.13840000000E+005, +3.57076720381E-001, +4.98438719231E-001
+1.15835000000E+005, +3.56685704267E-001, +5.05543677810E-001
+1.17830000000E+005, +3.56423687422E-001, +5.12627636647E-001
+1.19825000000E+005, +3.56422872630E-001, +5.19724022870E-001
+1.21820000000E+005, +3.56307843168E-001, +5.26989891755E-001
+1.23815000000E+005, +3.56081082849E-001, +5.34040434104E-001
+1.25810000000E+005, +3.56179540469E-001, +5.41120642887E-001
+1.27805000000E+005, +3.55965006558E-001, +5.48397223716E-001
+1.29800000000E+005, +3.55509700617E-001, +5.55738801759E-001
+1.31795000000E+005, +3.55507109968E-001, +5.63043021822E-001
+1.33790000000E+005, +3.55149778742E-001, +5.70139954290E-001
+1.35785000000E+005, +3.55202796070E-001, +5.77431840827E-001
+1.37780000000E+005, +3.55007182273E-001, +5.84612254491E-001
+1.39775000000E+005, +3.54969690658E-001, +5.91926462469E-001
+1.41770000000E+005, +3.54754004149E-001, +5.99420843402E-001
+1.43765000000E+005, +3.54512321691E-001, +6.06667395157E-001
+1.45760000000E+005, +3.54436008357E-001, +6.13887098342E-001
+1.47755000000E+005, +3.54382438629E-001, +6.21225688259E-001
+1.49750000000E+005, +3.54325260934E-001, +6.28414311569E-001
+1.51745000000E+005, +3.54158894124E-001, +6.35625510046E-001
+1.53740000000E+005, +3.53930946546E-001, +6.43065837158E-001
+1.55735000000E+005, +3.53805318770E-001, +6.50289817741E-001
+1.57730000000E+005, +3.53840966021E-001, +6.57599806624E-001
+1.59725000000E+005, +3.53789702697E-001, +6.64833046075E-001
+1.61720000000E+005, +3.53605391555E-001, +6.72372552194E-001
+1.63715000000E+005, +3.53594068307E-001, +6.79774877656E-001
+1.65710000000E+005, +3.53492469557E-001, +6.87052085944E-001
+1.67705000000E+005, +3.53489077032E-001, +6.94324670225E-001
+1.69700000000E+005, +3.53474040489E-001, +7.01626313058E-001
+1.71695000000E+005, +3.53427593063E-001, +7.09014375866E-001
+1.73690000000E+005, +3.53301530518E-001, +7.16429605131E-001
+1.75685000000E+005, +3.53307729902E-001, +7.23881078135E-001
+1.77680000000E+005, +3.53230691497E-001, +7.31195239396E-001
+1.79675000000E+005, +3.53180036126E-001, +7.38443758462E-001
+1.81670000000E+005, +3.53269262915E-001, +7.45748994305E-001
+1.83665000000E+005, +3.53185849641E-001, +7.53065420840E-001
+1.85660000000E+005, +3.53333668216E-001, +7.60551465788E-001
+1.87655000000E+005, +3.53374938220E-001, +7.67977789607E-001
+1.89650000000E+005, +3.53277102415E-001, +7.75420904394E-001
+1.91645000000E+005, +3.53355467384E-001, +7.82895621216E-001
+1.93640000000E+005, +3.53276425170E-001, +7.90250806109E-001
+1.95635000000E+005, +3.53311265731E-001, +7.97594251272E-001
+1.97630000000E+005, +3.53414503197E-001, +8.05026382498E-001
+1.99625000000E+005, +3.53351220800E-001, +8.12398962455E-001
+2.01620000000E+005, +3.52191329093E-001, +8.19424600703E-001
+2.03615000000E+005, +3.51795681844E-001, +8.26548705360E-001
+2.05610000000E+005, +3.51799503071E-001, +8.33642978109E-001
+2.07605000000E+005, +3.51681888311E-001, +8.40693768537E-001
+2.09600000000E+005, +3.51509473517E-001, +8.47892703399E-001
+2.11595000000E+005, +3.51376447665E-001, +8.55111800829E-001
+2.13590000000E+005, +3.51413020187E-001, +8.62266781233E-001
+2.15585000000E+005, +3.51370571390E-001, +8.69459340699E-001
+2.17580000000E+005, +3.51453149488E-001, +8.76741739117E-001
+2.19575000000E+005, +3.51503406224E-001, +8.83814547369E-001
+2.21570000000E+005, +3.51245768341E-001, +8.91134927187E-001
+2.23565000000E+005, +3.51197967461E-001, +8.98346803813E-001
+2.25560000000E+005, +3.51210527970E-001, +9.05841746695E-001
+2.27555000000E+005, +3.51125261366E-001, +9.13206769293E-001
+2.29550000000E+005, +3.51188433400E-001, +9.20550302980E-001
+2.31545000000E+005, +3.51053748010E-001, +9.27914057725E-001
+2.33540000000E+005, +3.50888389789E-001, +9.35251524531E-001
+2.35535000000E+005, +3.50957901018E-001, +9.42594108475E-001
+2.37530000000E+005, +3.50803118888E-001, +9.49941751605E-001
+2.39525000000E+005, +3.50692054245E-001, +9.57277361736E-001
+2.41520000000E+005, +3.50591574632E-001, +9.64592633827E-001
+2.43515000000E+005, +3.50560276798E-001, +9.71855762571E-001
+2.45510000000E+005, +3.50561390135E-001, +9.79082726003E-001
+2.47505000000E+005, +3.50624122343E-001, +9.86436932769E-001
+2.49500000000E+005, +3.50598410789E-001, +9.93740221541E-001
+2.51495000000E+005, +3.50525809764E-001, +1.00094431429E+000
+2.53490000000E+005, +3.50520358633E-001, +1.00840604382E+000
+2.55485000000E+005, +3.50566430695E-001, +1.01565314407E+000
+2.57480000000E+005, +3.50650750795E-001, +1.02304438503E+000
+2.59475000000E+005, +3.50652412471E-001, +1.03061828975E+000
+2.61470000000E+005, +3.50780952439E-001, +1.03793387278E+000
+2.63465000000E+005, +3.50650253754E-001, +1.04542576196E+000
+2.65460000000E+005, +3.50587544322E-001, +1.05281924585E+000
+2.67455000000E+005, +3.50489796903E-001, +1.06032385450E+000
+2.69450000000E+005, +3.50475452903E-001, +1.06765937105E+000
+2.71445000000E+005, +3.50427674590E-001, +1.07513607882E+000
+2.73440000000E+005, +3.50363004382E-001, +1.08251295409E+000
+2.75435000000E+005, +3.50362483732E-001, +1.08982407689E+000
+2.77430000000E+005, +3.50232107391E-001, +1.09717040638E+000
+2.79425000000E+005, +3.50180368723E-001, +1.10466052946E+000
+2.81420000000E+005, +3.50096281102E-001, +1.11208195810E+000
+2.83415000000E+005, +3.49916278573E-001, +1.11940574862E+000
+2.85410000000E+005, +3.49805351648E-001, +1.12686988687E+000
+2.87405000000E+005, +3.49683813515E-001, +1.13423205052E+000
+2.89400000000E+005, +3.49712254625E-001, +1.14164567929E+000
+2.91395000000E+005, +3.49666887437E-001, +1.14924150666E+000
+2.93390000000E+005, +3.49608201357E-001, +1.15672420716E+000
+2.95385000000E+005, +3.49519939467E-001, +1.16423491652E+000
+2.97380000000E+005, +3.49467250742E-001, +1.17161848541E+000
+2.99375000000E+005, +3.49454460393E-001, +1.17907410754E+000
+3.01370000000E+005, +3.49364618694E-001, +1.18654467383E+000
+3.03365000000E+005, +3.49302973414E-001, +1.19401257516E+000
+3.05360000000E+005, +3.49275885743E-001, +1.20135093508E+000
+3.07355000000E+005, +3.49181148050E-001, +1.20878164126E+000
+3.09350000000E+005, +3.49156928678E-001, +1.21619359362E+000
+3.11345000000E+005, +3.49176903895E-001, +1.22357932076E+000
+3.13340000000E+005, +3.49201208115E-001, +1.23119341824E+000
+3.15335000000E+005, +3.49191270696E-001, +1.23861511292E+000
+3.17330000000E+005, +3.49146383174E-001, +1.24606611580E+000
+3.19325000000E+005, +3.49172782819E-001, +1.25343099250E+000
+3.21320000000E+005, +3.49086717253E-001, +1.26092654164E+000
+3.23315000000E+005, +3.49194734682E-001, +1.26843209667E+000
+3.25310000000E+005, +3.49232469630E-001, +1.27583164831E+000
+3.27305000000E+005, +3.49213968375E-001, +1.28336580863E+000
+3.29300000000E+005, +3.49112765774E-001, +1.29079006836E+000
+3.31295000000E+005, +3.49163312224E-001, +1.29814754315E+000
+3.33290000000E+005, +3.49226145832E-001, +1.30561201382E+000
+3.35285000000E+005, +3.49177473960E-001, +1.31299887167E+000
+3.37280000000E+005, +3.49213405289E-001, +1.32045750018E+000
+3.39275000000E+005, +3.49053500664E-001, +1.32782782480E+000
+3.41270000000E+005, +3.49104904456E-001, +1.33538740700E+000
+3.43265000000E+005, +3.49087197490E-001, +1.34275985777E+000
+3.45260000000E+005, +3.49112826013E-001, +1.35019452705E+000
+3.47255000000E+005, +3.49059939979E-001, +1.35765853688E+000
+3.49250000000E+005, +3.49141693515E-001, +1.36519313997E+000
+3.51245000000E+005, +3.49075620815E-001, +1.37264874449E+000
+3.53240000000E+005, +3.48972392076E-001, +1.38014788666E+000
+3.55235000000E+005, +3.49025951542E-001, +1.38751584439E+000
+3.57230000000E+005, +3.48929016114E-001, +1.39492956363E+000
+3.59225000000E+005, +3.48997702109E-001, +1.40229066502E+000
+3.61220000000E+005, +3.49054046165E-001, +1.40970921152E+000
+3.63215000000E+005, +3.48923828175E-001, +1.41719631148E+000
+3.65210000000E+005, +3.48985562456E-001, +1.42451449891E+000
+3.67205000000E+005, +3.49074428400E-001, +1.43197647582E+000
+3.69200000000E+005, +3.49167058704E-001, +1.43943614588E+000
+3.71195000000E+005, +3.49094769116E-001, +1.44683400293E+000
+3.73190000000E+005, +3.49062760384E-001, +1.45420497844E+000
+3.75185000000E+005, +3.49067485771E-001, +1.46157676769E+000
+3.77180000000E+005, +3.49181067063E-001, +1.46908553643E+000
+3.79175000000E+005, +3.49211799766E-001, +1.47648627604E+000
+3.81170000000E+005, +3.49270128881E-001, +1.48375144842E+000
+3.83165000000E+005, +3.49341595161E-001, +1.49107479353E+000
+3.85160000000E+005, +3.49440956698E-001, +1.49845606437E+000
+3.87155000000E+005, +3.49591558567E-001, +1.50584420997E+000
+3.89150000000E+005, +3.49594436314E-001, +1.51325682839E+000
+3.91145000000E+005, +3.49720454283E-001, +1.52065318156E+000
+3.93140000000E+005, +3.49721069021E-001, +1.52807627858E+000
+3.95135000000E+005, +3.49716641770E-001, +1.53545796065E+000
+3.97130000000E+005, +3.49668842402E-001, +1.54295375520E+000
+3.99125000000E+005, +3.49575659785E-001, +1.55040923202E+000
+4.01120000000E+005, +3.49633066451E-001, +1.55777851011E+000
+4.03115000000E+005, +3.49564255982E-001, +1.56519106029E+000
+4.05110000000E+005, +3.49500322627E-001, +1.57265175084E+000
+4.07105000000E+005, +3.49505687928E-001, +1.58012018100E+000
+4.09100000000E+005, +3.49596343755E-001, +1.58734395193E+000
+4.11095000000E+005, +3.49622377356E-001, +1.59483018204E+000
+4.13090000000E+005, +3.49635653177E-001, +1.60228017815E+000
+4.15085000000E+005, +3.49645953131E-001, +1.60971469113E+000
+4.17080000000E+005, +3.49706411658E-001, +1.61711112915E+000
+4.19075000000E+005, +3.49690317032E-001, +1.62460064151E+000
+4.21070000000E+005, +3.49642799445E-001, +1.63198885179E+000
+4.23065000000E+005, +3.49658198743E-001, +1.63932102437E+000
+4.25060000000E+005, +3.49835591924E-001, +1.64667389449E+000
+4.27055000000E+005, +3.49820103677E-001, +1.65406636983E+000
+4.29050000000E+005, +3.49759195596E-001, +1.66140765357E+000
+4.31045000000E+005, +3.49742330244E-001, +1.66878472631E+000
+4.33040000000E+005, +3.49817866627E-001, +1.67623174729E+000
+4.35035000000E+005, +3.49853043659E-001, +1.68369293089E+000
+4.37030000000E+005, +3.49908304425E-001, +1.69102457593E+000
+4.39025000000E+005, +3.49790293755E-001, +1.69845451521E+000
+4.41020000000E+005, +3.49774216523E-001, +1.70578632447E+000
+4.43015000000E+005, +3.49757942962E-001, +1.71315700980E+000
+4.45010000000E+005, +3.49694479888E-001, +1.72047357625E+000
+4.47005000000E+005, +3.49737872012E-001, +1.72782974084E+000
+4.49000000000E+005, +3.49717937067E-001, +1.73526087773E+000
+4.50995000000E+005, +3.49752352376E-001, +1.74264085718E+000
+4.52990000000E+005, +3.49694014702E-001, +1.74997109861E+000
+4.54985000000E+005, +3.49694032337E-001, +1.75736197517E+000
+4.56980000000E+005, +3.49723686417E-001, +1.76474703238E+000
+4.58975000000E+005, +3.49774858371E-001, +1.77217345243E+000
+4.60970000000E+005, +3.49715974087E-001, +1.77961090592E+000
+4.62965000000E+005, +3.49719785626E-001, +1.78699936351E+000
+4.64960000000E+005, +3.49679437601E-001, +1.79437118069E+000
+4.66955000000E+005, +3.49662874780E-001, +1.80171911329E+000
+4.68950000000E+005, +3.49723560057E-001, +1.80921596531E+000
+4.70945000000E+005, +3.49630363375E-001, +1.81652308843E+000
+4.72940000000E+005, +3.49656196645E-001, +1.82383926380E+000
+4.74935000000E+005, +3.49642775235E-001, +1.83117117629E+000
+4.76930000000E+005, +3.49592761194E-001, +1.83850390081E+000
+4.78925000000E+005, +3.49656744103E-001, +1.84586986856E+000
+4.80920000000E+005, +3.49663937631E-001, +1.85311610206E+000
+4.82915000000E+005, +3.49693355205E-001, +1.86046520734E+000
+4.84910000000E+005, +3.49626932338E-001, +1.86780987821E+000
+4.86905000000E+005, +3.49705878465E-001, +1.87523540293E+000
+4.88900000000E+005, +3.49700392961E-001, +1.88268619106E+000
+4.90895000000E+005, +3.49731998967E-001, +1.88995378380E+000
+4.92890000000E+005, +3.49732439361E-001, +1.89738750876E+000
+4.94885000000E+005, +3.49668777461E-001, +1.90475073370E+000
+4.96880000000E+005, +3.49627719348E-001, +1.91212666520E+000
+4.98875000000E+005, +3.49717963655E-001, +1.91957230242E+000
+5.00870000000E+005, +3.49823621426E-001, +1.92688248366E+000
+5.02865000000E+005, +3.49780448196E-001, +1.93422647303E+000
+5.04860000000E+005, +3.49792682655E-001, +1.94160097483E+000
+5.06855000000E+005, +3.49751917958E-001, +1.94900881006E+000
+5.08850000000E+005, +3.49691267134E-001, +1.95640029236E+000
+5.10845000000E+005, +3.49583480205E-001, +1.96373997379E+000
+5.12840000000E+005, +3.49603469030E-001, +1.97112973120E+000
+5.14835000000E+005, +3.49643882214E-001, +1.97856426532E+000
+5.16830000000E+005, +3.49741541835E-001, +1.98597563666E+000
+5.18825000000E+005, +3.49730726664E-001, +1.99340858191E+000
+5.20820000000E+005, +3.49654952433E-001, +2.00075882263E+000
+5.22815000000E+005, +3.49686632520E-001, +2.00797007256E+000
+5.24810000000E+005, +3.49570759932E-001, +2.01534909961E+000
+5.26805000000E+005, +3.49548211073E-001, +2.02257155539E+000
+5.28800000000E+005, +3.49519116843E-001, +2.02992033794E+000
+5.30795000000E+005, +3.49476067037E-001, +2.03734109061E+000
+5.32790000000E+005, +3.49530380879E-001, +2.04460640878E+000
+5.34785000000E+005, +3.49560359105E-001, +2.05195622413E+000
+5.36780000000E+005, +3.49495366879E-001, +2.05922915119E+000
+5.38775000000E+005, +3.49533894757E-001, +2.06658193657E+000
+5.40770000000E+005, +3.49553099102E-001, +2.07400456192E+000
+5.42765000000E+005, +3.49555445474E-001, +2.08130932832E+000
+5.44760000000E+005, +3.49516055684E-001, +2.08874565038E+000
+5.46755000000E+005, +3.49416735736E-001, +2.09616975915E+000
+5.48750000000E+005, +3.49426054715E-001, +2.10340401761E+000
+5.50745000000E+005, +3.49504906440E-001, +2.11074443128E+000
+5.52740000000E+005, +3.49509706783E-001, +2.11820029828E+000
+5.54735000000E+005, +3.49436869888E-001, +2.12556596775E+000
+5.56730000000E+005, +3.49377288618E-001, +2.13293292492E+000
+5.58725000000E+005, +3.49421078695E-001, +2.14025578635E+000
+5.60720000000E+005, +3.49395027148E-001, +2.14757735701E+000
+5.62715000000E+005, +3.49392815369E-001, +2.15490060305E+000
+5.64710000000E+005, +3.49515630686E-001, +2.16227515131E+000
+5.66705000000E+005, +3.49529472269E-001, +2.16957346928E+000
+5.68700000000E+005, +3.49509676476E-001, +2.17693255084E+000
+5.70695000000E+005, +3.49507042802E-001, +2.18434717941E+000
+5.72690000000E+005, +3.49437453936E-001, +2.19176524304E+000
+5.74685000000E+005, +3.49428268852E-001, +2.19913696845E+000
+5.76680000000E+005, +3.49396511991E-001, +2.20654204017E+000
+5.78675000000E+005, +3.49399079780E-001, +2.21391539098E+000
+5.80670000000E+005, +3.49367531692E-001, +2.22127490608E+000
+5.82665000000E+005, +3.49435630542E-001, +2.22867912727E+000
+5.84660000000E+005, +3.49491929956E-001, +2.23607172566E+000
+5.86655000000E+005, +3.49543137509E-001, +2.24329700802E+000
+5.88650000000E+005, +3.49668539387E-001, +2.25066285993E+000
+5.90645000000E+005, +3.49600924667E-001, +2.25805639050E+000
+5.92640000000E+005, +3.49711109799E-001, +2.26526889872E+000
+5.94635000000E+005, +3.49780422565E-001, +2.27255620563E+000
+5.96630000000E+005, +3.49777642496E-001, +2.27989705485E+000
+5.98625000000E+005, +3.49784641351E-001, +2.28729302430E+000
+6.00620000000E+005, +3.49749050169E-001, +2.29464108647E+000
+6.02615000000E+005, +3.49878824706E-001, +2.30197161669E+000
+6.04610000000E+005, +3.49846351059E-001, +2.30934232854E+000
+6.06605000000E+005, +3.49855660491E-001, +2.31665185453E+000
+6.08600000000E+005, +3.49876826798E-001, +2.32405145347E+000
+6.10595000000E+005, +3.49939757067E-001, +2.33137461385E+000
+6.12590000000E+005, +3.49842854875E-001, +2.33870875905E+000
+6.14585000000E+005, +3.49785338346E-001, +2.34604522459E+000
+6.16580000000E+005, +3.49778042381E-001, +2.35331497490E+000
+6.18575000000E+005, +3.49696656589E-001, +2.36068379249E+000
+6.20570000000E+005, +3.49666285873E-001, +2.36806355657E+000
+6.22565000000E+005, +3.49763420970E-001, +2.37537270487E+000
+6.24560000000E+005, +3.49683162661E-001, +2.38265965096E+000
+6.26555000000E+005, +3.49722987086E-001, +2.38999795353E+000
+6.28550000000E+005, +3.49780115060E-001, +2.39735886331E+000
+6.30545000000E+005, +3.49885076638E-001, +2.40471191166E+000
+6.32540000000E+005, +3.49800377094E-001, +2.41205122997E+000
+6.34535000000E+005, +3.49808453692E-001, +2.41938508909E+000
+6.36530000000E+005, +3.49802420410E-001, +2.42672271746E+000
+6.38525000000E+005, +3.49804193969E-001, +2.43403113265E+000
+6.40520000000E+005, +3.49762148880E-001, +2.44128252170E+000
+6.42515000000E+005, +3.49794655255E-001, +2.44860249679E+000
+6.44510000000E+005, +3.49773873863E-001, +2.45593353235E+000
+6.46505000000E+005, +3.49702742266E-001, +2.46327462323E+000
+6.48500000000E+005, +3.49685405154E-001, +2.47062229887E+000
+6.50495000000E+005, +3.49707003658E-001, +2.47795899677E+000
+6.52490000000E+005, +3.49705696388E-001, +2.48524072295E+000
+6.54485000000E+005, +3.49635562921E-001, +2.49260714196E+000
+6.56480000000E+005, +3.49731520200E-001, +2.49993568558E+000
+6.58475000000E+005, +3.49762578890E-001, +2.50735507474E+000
+6.60470000000E+005, +3.49726066234E-001, +2.51467483168E+000
+6.62465000000E+005, +3.49767147290E-001, +2.52197722524E+000
+6.64460000000E+005, +3.49768202565E-001, +2.52933922477E+000
+6.66455000000E+005, +3.49636611143E-001, +2.53668521918E+000
+6.68450000000E+005, +3.49740115680E-001, +2.54397874469E+000
+6.70445000000E+005, +3.49640015656E-001, +2.55134906233E+000
+6.72440000000E+005, +3.49677254380E-001, +2.55867642482E+000
+6.74435000000E+005, +3.49567538780E-001, +2.56605784893E+000
+6.76430000000E+005, +3.49600747074E-001, +2.57341080995E+000
+6.78425000000E+005, +3.49478447726E-001, +2.58070350331E+000
+6.80420000000E+005, +3.49444281467E-001, +2.58811251429E+000
+6.82415000000E+005, +3.49322021817E-001, +2.59546798652E+000
+6.84410000000E+005, +3.49329447406E-001, +2.60288679621E+000
+6.86405000000E+005, +3.49100132665E-001, +2.61024064941E+000
+6.88400000000E+005, +3.49018218878E-001, +2.61765473194E+000
