!Keysight Technologies,E5063A,MY54100949,A.07.00
!Date: Tue Nov 25 22:23:22 2025
!Data & Calibration Information:
!Freq	S11:SOLT1(ON)
# Hz S RI R 50
50000.000	-9.793520e-001	1.208597e-002
51995.000	-9.836731e-001	1.165770e-002
53990.000	-9.856914e-001	1.245152e-002
55985.000	-9.852742e-001	1.296593e-002
57980.000	-9.847245e-001	1.229360e-002
59975.000	-9.856761e-001	1.250269e-002
61970.000	-9.863969e-001	1.275521e-002
63965.000	-9.859108e-001	1.328556e-002
65960.000	-9.868450e-001	1.316571e-002
67955.000	-9.860794e-001	1.463589e-002
69950.000	-9.847904e-001	1.372037e-002
71945.000	-9.854026e-001	1.426564e-002
73940.000	-9.861011e-001	1.361835e-002
75935.000	-9.856809e-001	1.461794e-002
77930.000	-9.862405e-001	1.467644e-002
79925.000	-9.855231e-001	1.507947e-002
81920.000	-9.851843e-001	1.535551e-002
83915.000	-9.861187e-001	1.549563e-002
85910.000	-9.856374e-001	1.571031e-002
87905.000	-9.855974e-001	1.571005e-002
89900.000	-9.856019e-001	1.669806e-002
91895.000	-9.857355e-001	1.664563e-002
93890.000	-9.857836e-001	1.712196e-002
95885.000	-9.863828e-001	1.715146e-002
97880.000	-9.862863e-001	1.762295e-002
99875.000	-9.851899e-001	1.817507e-002
101870.000	-9.858127e-001	1.711087e-002
103865.000	-9.855432e-001	1.860201e-002
105860.000	-9.866618e-001	1.852237e-002
107855.000	-9.857785e-001	1.778650e-002
109850.000	-9.867732e-001	1.892617e-002
111845.000	-9.856538e-001	1.860741e-002
113840.000	-9.856452e-001	1.992439e-002
115835.000	-9.853859e-001	1.932394e-002
117830.000	-9.857246e-001	1.999448e-002
119825.000	-9.855421e-001	1.987752e-002
121820.000	-9.858238e-001	2.014860e-002
123815.000	-9.857819e-001	2.115744e-002
125810.000	-9.853298e-001	2.104239e-002
127805.000	-9.854094e-001	2.114941e-002
129800.000	-9.856703e-001	2.139640e-002
131795.000	-9.850245e-001	2.221057e-002
133790.000	-9.856030e-001	2.244854e-002
135785.000	-9.860028e-001	2.266349e-002
137780.000	-9.858817e-001	2.289056e-002
139775.000	-9.860330e-001	2.267575e-002
141770.000	-9.862231e-001	2.305772e-002
143765.000	-9.854066e-001	2.305005e-002
145760.000	-9.857078e-001	2.410930e-002
147755.000	-9.853392e-001	2.434095e-002
149750.000	-9.854835e-001	2.430375e-002
151745.000	-9.856582e-001	2.470182e-002
153740.000	-9.859447e-001	2.551060e-002
155735.000	-9.853381e-001	2.510561e-002
157730.000	-9.859771e-001	2.585257e-002
159725.000	-9.856287e-001	2.598450e-002
161720.000	-9.859489e-001	2.536230e-002
163715.000	-9.859326e-001	2.681298e-002
165710.000	-9.854488e-001	2.654239e-002
167705.000	-9.859765e-001	2.758822e-002
169700.000	-9.860014e-001	2.762127e-002
171695.000	-9.859468e-001	2.736873e-002
173690.000	-9.859859e-001	2.799698e-002
175685.000	-9.859434e-001	2.771397e-002
177680.000	-9.856865e-001	2.855474e-002
179675.000	-9.857480e-001	2.903902e-002
181670.000	-9.861580e-001	2.905608e-002
183665.000	-9.854339e-001	2.958449e-002
185660.000	-9.861562e-001	2.956841e-002
187655.000	-9.847787e-001	3.049582e-002
189650.000	-9.860927e-001	2.979495e-002
191645.000	-9.856363e-001	3.111663e-002
193640.000	-9.855250e-001	3.078765e-002
195635.000	-9.853004e-001	3.139411e-002
197630.000	-9.861929e-001	3.102667e-002
199625.000	-9.852769e-001	3.176757e-002
201620.000	-9.852336e-001	3.183480e-002
203615.000	-9.863187e-001	3.275934e-002
205610.000	-9.851077e-001	3.259162e-002
207605.000	-9.861031e-001	3.326020e-002
209600.000	-9.860898e-001	3.346363e-002
211595.000	-9.851245e-001	3.339709e-002
213590.000	-9.856293e-001	3.433128e-002
215585.000	-9.860070e-001	3.417230e-002
217580.000	-9.859188e-001	3.403998e-002
219575.000	-9.851940e-001	3.482156e-002
221570.000	-9.853334e-001	3.514793e-002
223565.000	-9.856144e-001	3.544943e-002
225560.000	-9.857525e-001	3.529851e-002
227555.000	-9.855195e-001	3.565243e-002
229550.000	-9.852663e-001	3.669527e-002
231545.000	-9.860737e-001	3.707210e-002
233540.000	-9.853207e-001	3.710501e-002
235535.000	-9.860936e-001	3.729930e-002
237530.000	-9.854182e-001	3.713477e-002
239525.000	-9.857671e-001	3.794125e-002
241520.000	-9.851177e-001	3.751858e-002
243515.000	-9.856297e-001	3.858555e-002
245510.000	-9.851312e-001	3.847467e-002
247505.000	-9.853605e-001	3.853022e-002
249500.000	-9.854013e-001	3.909047e-002
251495.000	-9.856584e-001	3.945526e-002
253490.000	-9.855169e-001	3.940185e-002
255485.000	-9.856883e-001	4.007531e-002
257480.000	-9.857069e-001	4.087451e-002
259475.000	-9.853274e-001	4.048047e-002
261470.000	-9.856566e-001	4.071999e-002
263465.000	-9.850782e-001	4.106316e-002
265460.000	-9.851848e-001	4.162832e-002
267455.000	-9.853762e-001	4.141198e-002
269450.000	-9.852311e-001	4.210576e-002
271445.000	-9.853074e-001	4.275609e-002
273440.000	-9.858249e-001	4.328218e-002
275435.000	-9.851457e-001	4.319111e-002
277430.000	-9.852065e-001	4.339379e-002
279425.000	-9.850828e-001	4.343472e-002
281420.000	-9.856619e-001	4.375135e-002
283415.000	-9.851559e-001	4.375175e-002
285410.000	-9.851038e-001	4.454766e-002
287405.000	-9.848513e-001	4.463462e-002
289400.000	-9.854191e-001	4.495122e-002
291395.000	-9.853333e-001	4.551926e-002
293390.000	-9.850377e-001	4.564080e-002
295385.000	-9.853646e-001	4.616696e-002
297380.000	-9.853589e-001	4.630287e-002
299375.000	-9.853770e-001	4.694763e-002
301370.000	-9.846551e-001	4.685419e-002
303365.000	-9.850936e-001	4.680760e-002
305360.000	-9.853362e-001	4.748266e-002
307355.000	-9.855827e-001	4.747724e-002
309350.000	-9.846887e-001	4.762336e-002
311345.000	-9.845390e-001	4.785501e-002
313340.000	-9.849539e-001	4.866392e-002
315335.000	-9.847660e-001	4.892275e-002
317330.000	-9.855845e-001	4.883376e-002
319325.000	-9.842382e-001	4.989564e-002
321320.000	-9.848033e-001	4.989267e-002
323315.000	-9.847492e-001	5.054185e-002
325310.000	-9.848151e-001	5.011557e-002
327305.000	-9.853488e-001	5.039911e-002
329300.000	-9.849315e-001	5.154534e-002
331295.000	-9.848286e-001	5.137891e-002
333290.000	-9.844201e-001	5.188640e-002
335285.000	-9.851491e-001	5.180491e-002
337280.000	-9.849591e-001	5.198270e-002
339275.000	-9.847923e-001	5.277335e-002
341270.000	-9.846221e-001	5.208493e-002
343265.000	-9.844347e-001	5.319564e-002
345260.000	-9.845068e-001	5.332734e-002
347255.000	-9.850505e-001	5.334255e-002
349250.000	-9.848267e-001	5.402815e-002
351245.000	-9.848992e-001	5.411912e-002
353240.000	-9.846414e-001	5.413079e-002
355235.000	-9.842763e-001	5.466908e-002
357230.000	-9.845784e-001	5.494826e-002
359225.000	-9.843134e-001	5.516831e-002
361220.000	-9.850143e-001	5.548938e-002
363215.000	-9.847266e-001	5.532561e-002
365210.000	-9.846909e-001	5.609508e-002
367205.000	-9.848503e-001	5.648342e-002
369200.000	-9.843083e-001	5.671225e-002
371195.000	-9.847874e-001	5.733395e-002
373190.000	-9.841614e-001	5.718924e-002
375185.000	-9.844279e-001	5.821285e-002
377180.000	-9.846045e-001	5.845975e-002
379175.000	-9.842728e-001	5.835768e-002
381170.000	-9.847155e-001	5.892352e-002
383165.000	-9.845522e-001	5.904969e-002
385160.000	-9.840753e-001	5.916778e-002
387155.000	-9.849145e-001	5.946197e-002
389150.000	-9.846044e-001	5.938004e-002
391145.000	-9.845378e-001	6.024429e-002
393140.000	-9.842592e-001	5.986536e-002
395135.000	-9.841104e-001	6.011841e-002
397130.000	-9.843010e-001	6.088983e-002
399125.000	-9.847298e-001	6.107820e-002
401120.000	-9.839233e-001	6.105064e-002
403115.000	-9.840729e-001	6.150264e-002
405110.000	-9.835353e-001	6.170382e-002
407105.000	-9.843791e-001	6.247149e-002
409100.000	-9.839301e-001	6.284128e-002
411095.000	-9.842200e-001	6.241234e-002
413090.000	-9.845865e-001	6.320516e-002
415085.000	-9.841847e-001	6.391950e-002
417080.000	-9.840931e-001	6.398824e-002
419075.000	-9.839650e-001	6.363145e-002
421070.000	-9.839328e-001	6.436204e-002
423065.000	-9.843273e-001	6.404296e-002
425060.000	-9.839080e-001	6.464358e-002
427055.000	-9.842064e-001	6.477079e-002
429050.000	-9.837680e-001	6.571214e-002
431045.000	-9.842261e-001	6.555838e-002
433040.000	-9.841636e-001	6.581666e-002
435035.000	-9.842812e-001	6.687072e-002
437030.000	-9.847583e-001	6.648154e-002
439025.000	-9.837186e-001	6.697377e-002
441020.000	-9.842463e-001	6.786158e-002
443015.000	-9.845330e-001	6.757365e-002
445010.000	-9.838714e-001	6.773998e-002
447005.000	-9.839830e-001	6.803270e-002
449000.000	-9.833441e-001	6.868099e-002
450995.000	-9.839294e-001	6.875339e-002
452990.000	-9.839239e-001	6.912704e-002
454985.000	-9.840286e-001	6.915499e-002
456980.000	-9.837852e-001	6.931762e-002
458975.000	-9.839972e-001	6.993219e-002
460970.000	-9.833806e-001	6.989455e-002
462965.000	-9.835958e-001	7.062794e-002
464960.000	-9.838258e-001	7.094358e-002
466955.000	-9.835281e-001	7.085661e-002
468950.000	-9.836444e-001	7.136844e-002
470945.000	-9.842862e-001	7.221085e-002
472940.000	-9.830615e-001	7.195893e-002
474935.000	-9.835372e-001	7.197679e-002
476930.000	-9.837753e-001	7.250995e-002
478925.000	-9.840302e-001	7.272165e-002
480920.000	-9.831970e-001	7.276172e-002
482915.000	-9.834882e-001	7.340987e-002
484910.000	-9.834379e-001	7.351027e-002
486905.000	-9.836221e-001	7.389358e-002
488900.000	-9.834233e-001	7.435638e-002
490895.000	-9.834086e-001	7.471333e-002
492890.000	-9.834090e-001	7.494341e-002
494885.000	-9.830075e-001	7.496944e-002
496880.000	-9.832271e-001	7.577433e-002
498875.000	-9.832835e-001	7.578216e-002
500870.000	-9.832583e-001	7.610011e-002
502865.000	-9.834085e-001	7.643737e-002
504860.000	-9.835916e-001	7.653015e-002
506855.000	-9.832470e-001	7.668273e-002
508850.000	-9.832627e-001	7.698301e-002
510845.000	-9.832909e-001	7.753062e-002
512840.000	-9.833982e-001	7.793262e-002
514835.000	-9.828060e-001	7.779783e-002
516830.000	-9.829613e-001	7.848279e-002
518825.000	-9.828385e-001	7.833405e-002
520820.000	-9.831016e-001	7.880327e-002
522815.000	-9.829981e-001	7.895522e-002
524810.000	-9.830477e-001	7.924787e-002
526805.000	-9.824787e-001	7.987189e-002
528800.000	-9.827623e-001	7.961132e-002
530795.000	-9.823798e-001	7.983784e-002
532790.000	-9.830763e-001	8.055433e-002
534785.000	-9.821245e-001	8.092012e-002
536780.000	-9.825778e-001	8.113553e-002
538775.000	-9.827584e-001	8.116750e-002
540770.000	-9.823687e-001	8.183195e-002
542765.000	-9.824417e-001	8.161179e-002
544760.000	-9.829857e-001	8.243341e-002
546755.000	-9.826904e-001	8.301496e-002
548750.000	-9.831908e-001	8.284661e-002
550745.000	-9.823558e-001	8.283861e-002
552740.000	-9.833338e-001	8.350566e-002
554735.000	-9.831325e-001	8.373538e-002
556730.000	-9.828763e-001	8.442794e-002
558725.000	-9.824670e-001	8.374096e-002
560720.000	-9.823602e-001	8.492839e-002
562715.000	-9.827657e-001	8.495623e-002
564710.000	-9.821978e-001	8.520728e-002
566705.000	-9.820081e-001	8.552592e-002
568700.000	-9.826056e-001	8.589015e-002
570695.000	-9.826728e-001	8.599331e-002
572690.000	-9.823845e-001	8.628549e-002
574685.000	-9.819194e-001	8.687020e-002
576680.000	-9.823573e-001	8.708772e-002
578675.000	-9.826950e-001	8.700308e-002
580670.000	-9.822830e-001	8.723809e-002
582665.000	-9.822731e-001	8.793218e-002
584660.000	-9.819880e-001	8.803113e-002
586655.000	-9.818553e-001	8.804861e-002
588650.000	-9.825793e-001	8.878706e-002
590645.000	-9.825686e-001	8.847922e-002
592640.000	-9.824556e-001	8.927686e-002
594635.000	-9.824494e-001	8.909509e-002
596630.000	-9.821133e-001	8.981162e-002
598625.000	-9.824400e-001	9.041698e-002
600620.000	-9.821435e-001	9.073450e-002
602615.000	-9.819799e-001	9.038273e-002
604610.000	-9.820343e-001	9.067066e-002
606605.000	-9.820906e-001	9.129749e-002
608600.000	-9.821793e-001	9.152708e-002
610595.000	-9.819208e-001	9.178335e-002
612590.000	-9.814068e-001	9.169664e-002
614585.000	-9.820780e-001	9.242412e-002
616580.000	-9.817463e-001	9.252989e-002
618575.000	-9.820302e-001	9.329021e-002
620570.000	-9.816651e-001	9.329072e-002
622565.000	-9.815075e-001	9.328918e-002
624560.000	-9.816669e-001	9.404724e-002
626555.000	-9.819370e-001	9.364031e-002
628550.000	-9.817672e-001	9.407020e-002
630545.000	-9.817265e-001	9.452934e-002
632540.000	-9.814343e-001	9.496201e-002
634535.000	-9.815835e-001	9.548392e-002
636530.000	-9.814018e-001	9.581653e-002
638525.000	-9.816885e-001	9.617994e-002
640520.000	-9.813703e-001	9.586603e-002
642515.000	-9.812982e-001	9.617539e-002
644510.000	-9.815097e-001	9.689531e-002
646505.000	-9.814293e-001	9.709094e-002
648500.000	-9.811500e-001	9.745876e-002
650495.000	-9.808834e-001	9.733226e-002
652490.000	-9.818106e-001	9.768981e-002
654485.000	-9.811975e-001	9.785572e-002
656480.000	-9.811186e-001	9.861451e-002
658475.000	-9.815334e-001	9.880455e-002
660470.000	-9.815590e-001	9.873800e-002
662465.000	-9.814664e-001	9.929546e-002
664460.000	-9.810239e-001	9.938605e-002
666455.000	-9.806467e-001	9.998971e-002
668450.000	-9.814262e-001	1.005551e-001
670445.000	-9.812954e-001	1.003228e-001
672440.000	-9.811906e-001	1.000684e-001
674435.000	-9.813473e-001	1.009868e-001
676430.000	-9.811225e-001	1.010366e-001
678425.000	-9.812652e-001	1.020341e-001
680420.000	-9.809689e-001	1.023638e-001
682415.000	-9.808966e-001	1.019600e-001
684410.000	-9.808243e-001	1.025971e-001
686405.000	-9.809349e-001	1.023040e-001
688400.000	-9.811094e-001	1.030197e-001
690395.000	-9.808670e-001	1.033594e-001
692390.000	-9.809452e-001	1.035318e-001
694385.000	-9.808367e-001	1.039514e-001
696380.000	-9.810360e-001	1.041602e-001
698375.000	-9.806641e-001	1.037516e-001
700370.000	-9.806159e-001	1.045328e-001
702365.000	-9.801779e-001	1.052244e-001
704360.000	-9.808196e-001	1.051792e-001
706355.000	-9.801902e-001	1.053800e-001
708350.000	-9.804311e-001	1.058328e-001
710345.000	-9.803839e-001	1.062286e-001
712340.000	-9.805192e-001	1.057959e-001
714335.000	-9.801064e-001	1.068273e-001
716330.000	-9.803763e-001	1.071438e-001
718325.000	-9.804404e-001	1.075880e-001
720320.000	-9.801693e-001	1.075498e-001
722315.000	-9.805190e-001	1.083337e-001
724310.000	-9.805670e-001	1.077074e-001
726305.000	-9.802512e-001	1.085156e-001
728300.000	-9.803501e-001	1.084355e-001
730295.000	-9.801083e-001	1.093110e-001
732290.000	-9.799402e-001	1.093681e-001
734285.000	-9.799408e-001	1.095618e-001
736280.000	-9.801643e-001	1.096260e-001
738275.000	-9.801154e-001	1.100279e-001
740270.000	-9.801911e-001	1.107846e-001
742265.000	-9.797500e-001	1.105043e-001
744260.000	-9.802265e-001	1.106790e-001
746255.000	-9.799505e-001	1.111991e-001
748250.000	-9.799619e-001	1.118111e-001
750245.000	-9.795883e-001	1.121971e-001
752240.000	-9.791916e-001	1.120744e-001
754235.000	-9.801121e-001	1.127720e-001
756230.000	-9.799901e-001	1.124134e-001
758225.000	-9.796148e-001	1.131008e-001
760220.000	-9.796089e-001	1.132382e-001
762215.000	-9.799196e-001	1.133517e-001
764210.000	-9.798879e-001	1.140756e-001
766205.000	-9.798450e-001	1.139671e-001
768200.000	-9.799183e-001	1.145058e-001
770195.000	-9.797139e-001	1.150524e-001
772190.000	-9.796281e-001	1.154040e-001
774185.000	-9.794530e-001	1.151181e-001
776180.000	-9.791769e-001	1.153707e-001
778175.000	-9.792873e-001	1.160259e-001
780170.000	-9.792510e-001	1.161620e-001
782165.000	-9.795350e-001	1.162264e-001
784160.000	-9.792680e-001	1.167879e-001
786155.000	-9.792864e-001	1.169168e-001
788150.000	-9.794286e-001	1.171211e-001
790145.000	-9.795093e-001	1.172699e-001
792140.000	-9.790019e-001	1.179879e-001
794135.000	-9.792985e-001	1.183122e-001
796130.000	-9.791763e-001	1.184252e-001
798125.000	-9.790614e-001	1.192361e-001
800120.000	-9.788814e-001	1.191545e-001
802115.000	-9.790113e-001	1.191589e-001
804110.000	-9.795063e-001	1.200354e-001
806105.000	-9.787170e-001	1.198049e-001
808100.000	-9.786901e-001	1.205307e-001
810095.000	-9.791514e-001	1.202799e-001
812090.000	-9.787187e-001	1.206770e-001
814085.000	-9.790147e-001	1.214532e-001
816080.000	-9.792036e-001	1.213011e-001
818075.000	-9.779880e-001	1.215336e-001
820070.000	-9.790102e-001	1.219588e-001
822065.000	-9.784747e-001	1.220899e-001
824060.000	-9.791945e-001	1.226480e-001
826055.000	-9.784040e-001	1.226843e-001
828050.000	-9.787780e-001	1.230446e-001
830045.000	-9.784575e-001	1.234162e-001
832040.000	-9.786155e-001	1.233783e-001
834035.000	-9.784942e-001	1.243881e-001
836030.000	-9.789684e-001	1.245134e-001
838025.000	-9.785009e-001	1.249927e-001
840020.000	-9.782366e-001	1.249065e-001
842015.000	-9.783406e-001	1.248283e-001
844010.000	-9.783378e-001	1.252659e-001
846005.000	-9.780598e-001	1.259730e-001
848000.000	-9.784371e-001	1.262621e-001
849995.000	-9.785467e-001	1.260581e-001
851990.000	-9.779693e-001	1.263403e-001
853985.000	-9.776733e-001	1.267441e-001
855980.000	-9.782286e-001	1.274653e-001
857975.000	-9.780426e-001	1.274200e-001
859970.000	-9.783164e-001	1.279215e-001
861965.000	-9.775958e-001	1.282432e-001
863960.000	-9.781325e-001	1.281777e-001
865955.000	-9.774914e-001	1.283976e-001
867950.000	-9.782223e-001	1.282935e-001
869945.000	-9.773691e-001	1.289703e-001
871940.000	-9.776975e-001	1.296997e-001
873935.000	-9.780139e-001	1.294169e-001
875930.000	-9.779699e-001	1.296356e-001
877925.000	-9.775730e-001	1.301328e-001
879920.000	-9.775988e-001	1.305639e-001
881915.000	-9.775071e-001	1.306995e-001
883910.000	-9.770240e-001	1.309704e-001
885905.000	-9.776785e-001	1.313496e-001
887900.000	-9.772616e-001	1.312840e-001
889895.000	-9.773948e-001	1.318863e-001
891890.000	-9.775631e-001	1.323928e-001
893885.000	-9.775625e-001	1.325423e-001
895880.000	-9.771530e-001	1.331381e-001
897875.000	-9.771072e-001	1.331419e-001
899870.000	-9.774338e-001	1.336466e-001
901865.000	-9.774928e-001	1.338656e-001
903860.000	-9.774512e-001	1.337584e-001
905855.000	-9.770413e-001	1.343421e-001
907850.000	-9.768564e-001	1.344636e-001
909845.000	-9.768835e-001	1.350672e-001
911840.000	-9.769640e-001	1.349272e-001
913835.000	-9.766934e-001	1.355865e-001
915830.000	-9.771356e-001	1.357536e-001
917825.000	-9.769871e-001	1.363402e-001
919820.000	-9.769821e-001	1.362296e-001
921815.000	-9.764952e-001	1.360866e-001
923810.000	-9.767618e-001	1.370011e-001
925805.000	-9.766047e-001	1.368867e-001
927800.000	-9.767734e-001	1.373589e-001
929795.000	-9.769466e-001	1.377655e-001
931790.000	-9.766803e-001	1.379537e-001
933785.000	-9.764781e-001	1.381738e-001
935780.000	-9.764168e-001	1.383316e-001
937775.000	-9.766598e-001	1.386895e-001
939770.000	-9.761827e-001	1.392123e-001
941765.000	-9.761555e-001	1.394760e-001
943760.000	-9.758989e-001	1.397215e-001
945755.000	-9.762820e-001	1.397436e-001
947750.000	-9.763063e-001	1.403848e-001
949745.000	-9.763523e-001	1.403427e-001
951740.000	-9.761535e-001	1.407418e-001
953735.000	-9.761499e-001	1.407436e-001
955730.000	-9.764634e-001	1.412962e-001
957725.000	-9.756235e-001	1.414178e-001
959720.000	-9.757266e-001	1.418323e-001
961715.000	-9.763673e-001	1.421196e-001
963710.000	-9.762058e-001	1.423823e-001
965705.000	-9.762556e-001	1.425207e-001
967700.000	-9.760428e-001	1.429988e-001
969695.000	-9.758296e-001	1.435274e-001
971690.000	-9.757977e-001	1.438380e-001
973685.000	-9.754378e-001	1.440069e-001
975680.000	-9.755631e-001	1.444532e-001
977675.000	-9.756180e-001	1.450585e-001
979670.000	-9.762001e-001	1.445715e-001
981665.000	-9.753326e-001	1.446319e-001
983660.000	-9.757803e-001	1.448532e-001
985655.000	-9.757848e-001	1.452395e-001
987650.000	-9.752985e-001	1.458739e-001
989645.000	-9.757798e-001	1.457288e-001
991640.000	-9.753435e-001	1.458336e-001
993635.000	-9.756516e-001	1.464301e-001
995630.000	-9.754359e-001	1.467522e-001
997625.000	-9.753451e-001	1.472856e-001
999620.000	-9.751685e-001	1.473915e-001
1001615.000	-9.754799e-001	1.480427e-001
1003610.000	-9.756172e-001	1.482548e-001
1005605.000	-9.755013e-001	1.481621e-001
1007600.000	-9.753046e-001	1.486532e-001
1009595.000	-9.750920e-001	1.489513e-001
1011590.000	-9.753491e-001	1.493561e-001
1013585.000	-9.746418e-001	1.495947e-001
1015580.000	-9.749070e-001	1.497060e-001
1017575.000	-9.751326e-001	1.499695e-001
1019570.000	-9.747270e-001	1.500833e-001
1021565.000	-9.745564e-001	1.507142e-001
1023560.000	-9.746203e-001	1.511069e-001
1025555.000	-9.745811e-001	1.510694e-001
1027550.000	-9.751972e-001	1.514919e-001
1029545.000	-9.746087e-001	1.516832e-001
1031540.000	-9.745755e-001	1.525287e-001
1033535.000	-9.743138e-001	1.522704e-001
1035530.000	-9.746884e-001	1.527515e-001
1037525.000	-9.744020e-001	1.528002e-001
