"# Channel 1"
"# Trace 1"
Frequency, Formatted Data, Formatted Data
+5.00000000000E+004, +5.25543615829E+000, +8.25226889065E-002
+5.19950000000E+004, +5.19850658408E+000, +7.40156370331E-002
+5.39900000000E+004, +5.18172459362E+000, +7.26972007619E-002
+5.59850000000E+004, +5.16897267844E+000, +6.79369162774E-002
+5.79800000000E+004, +5.16105695608E+000, +6.60757042149E-002
+5.99750000000E+004, +5.15930834088E+000, +6.58349935583E-002
+6.19700000000E+004, +5.15693319861E+000, +6.40548026247E-002
+6.39650000000E+004, +5.15389517829E+000, +6.24654605768E-002
+6.59600000000E+004, +5.15388974385E+000, +6.17803743081E-002
+6.79550000000E+004, +5.15271786387E+000, +6.06749471628E-002
+6.99500000000E+004, +5.15235580022E+000, +5.98809276993E-002
+7.19450000000E+004, +5.15155513455E+000, +5.96027499355E-002
+7.39400000000E+004, +5.15046732354E+000, +5.90386978432E-002
+7.59350000000E+004, +5.15048206403E+000, +5.84852266286E-002
+7.79300000000E+004, +5.14959462820E+000, +5.82841414247E-002
+7.99250000000E+004, +5.14878412923E+000, +5.71746231519E-002
+8.19200000000E+004, +5.14913015435E+000, +5.67405920492E-002
+8.39150000000E+004, +5.14905558571E+000, +5.60170781877E-002
+8.59100000000E+004, +5.14886629951E+000, +5.52451356210E-002
+8.79050000000E+004, +5.14872749510E+000, +5.49620351982E-002
+8.99000000000E+004, +5.14880688738E+000, +5.43353427489E-002
+9.18950000000E+004, +5.14893557552E+000, +5.42809101944E-002
+9.38900000000E+004, +5.14842372933E+000, +5.40037568307E-002
+9.58850000000E+004, +5.14792794012E+000, +5.35325098361E-002
+9.78800000000E+004, +5.14792974829E+000, +5.32871431828E-002
+9.98750000000E+004, +5.14811724658E+000, +5.30232592529E-002
+1.01870000000E+005, +5.14798156700E+000, +5.29144223308E-002
+1.03865000000E+005, +5.14786139778E+000, +5.28459960115E-002
+1.05860000000E+005, +5.14774510435E+000, +5.24401776536E-002
+1.07855000000E+005, +5.14762505332E+000, +5.23725502506E-002
+1.09850000000E+005, +5.14740935569E+000, +5.26021241040E-002
+1.11845000000E+005, +5.14724293465E+000, +5.24952293023E-002
+1.13840000000E+005, +5.14708814321E+000, +5.23028237884E-002
+1.15835000000E+005, +5.14671628903E+000, +5.23487102310E-002
+1.17830000000E+005, +5.14659660349E+000, +5.23607212411E-002
+1.19825000000E+005, +5.14668669849E+000, +5.24531105054E-002
+1.21820000000E+005, +5.14667512810E+000, +5.26387895549E-002
+1.23815000000E+005, +5.14656242144E+000, +5.25863215083E-002
+1.25810000000E+005, +5.14674317668E+000, +5.26334949157E-002
+1.27805000000E+005, +5.14671418432E+000, +5.27519580526E-002
+1.29800000000E+005, +5.14643742394E+000, +5.29657534229E-002
+1.31795000000E+005, +5.14653106403E+000, +5.31351131518E-002
+1.33790000000E+005, +5.14630294229E+000, +5.31243981456E-002
+1.35785000000E+005, +5.14637469530E+000, +5.32593848402E-002
+1.37780000000E+005, +5.14632787554E+000, +5.32797321307E-002
+1.39775000000E+005, +5.14626085025E+000, +5.33734189911E-002
+1.41770000000E+005, +5.14611385597E+000, +5.36979460228E-002
+1.43765000000E+005, +5.14603058808E+000, +5.37972539109E-002
+1.45760000000E+005, +5.14598127108E+000, +5.38266720302E-002
+1.47755000000E+005, +5.14598154494E+000, +5.40313775760E-002
+1.49750000000E+005, +5.14598000580E+000, +5.40756273825E-002
+1.51745000000E+005, +5.14591190512E+000, +5.41702447469E-002
+1.53740000000E+005, +5.14573900735E+000, +5.43987445941E-002
+1.55735000000E+005, +5.14567289910E+000, +5.44551999582E-002
+1.57730000000E+005, +5.14572609329E+000, +5.46245711276E-002
+1.59725000000E+005, +5.14572991400E+000, +5.46595181930E-002
+1.61720000000E+005, +5.14555744818E+000, +5.50219874439E-002
+1.63715000000E+005, +5.14560612449E+000, +5.52139777892E-002
+1.65710000000E+005, +5.14554383489E+000, +5.53128950245E-002
+1.67705000000E+005, +5.14552979045E+000, +5.54634524444E-002
+1.69700000000E+005, +5.14553909645E+000, +5.56018649213E-002
+1.71695000000E+005, +5.14554566437E+000, +5.57894167421E-002
+1.73690000000E+005, +5.14544503739E+000, +5.60254275291E-002
+1.75685000000E+005, +5.14548478352E+000, +5.62664028421E-002
+1.77680000000E+005, +5.14540623549E+000, +5.64086161598E-002
+1.79675000000E+005, +5.14536471991E+000, +5.65036979744E-002
+1.81670000000E+005, +5.14546796201E+000, +5.66468221088E-002
+1.83665000000E+005, +5.14542868433E+000, +5.67955540195E-002
+1.85660000000E+005, +5.14555669743E+000, +5.71027308088E-002
+1.87655000000E+005, +5.14557014997E+000, +5.73207466985E-002
+1.89650000000E+005, +5.14546774058E+000, +5.75277162425E-002
+1.91645000000E+005, +5.14557266714E+000, +5.77780496688E-002
+1.93640000000E+005, +5.14549491775E+000, +5.79521899946E-002
+1.95635000000E+005, +5.14553449647E+000, +5.81402924681E-002
+1.97630000000E+005, +5.14554665334E+000, +5.83662502648E-002
+1.99625000000E+005, +5.14549346972E+000, +5.85656879991E-002
+2.01620000000E+005, +5.14472090928E+000, +5.85039136418E-002
+2.03615000000E+005, +5.14443173482E+000, +5.85882230590E-002
+2.05610000000E+005, +5.14444886449E+000, +5.85325427753E-002
+2.07605000000E+005, +5.14445090313E+000, +5.84614251778E-002
+2.09600000000E+005, +5.14435018680E+000, +5.85468545616E-002
+2.11595000000E+005, +5.14432541311E+000, +5.85995585574E-002
+2.13590000000E+005, +5.14442580819E+000, +5.87225913974E-002
+2.15585000000E+005, +5.14443564596E+000, +5.87978323521E-002
+2.17580000000E+005, +5.14455533709E+000, +5.89127709744E-002
+2.19575000000E+005, +5.14465220154E+000, +5.88898146033E-002
+2.21570000000E+005, +5.14447839435E+000, +5.90739848339E-002
+2.23565000000E+005, +5.14452228425E+000, +5.91747124978E-002
+2.25560000000E+005, +5.14459466151E+000, +5.94261813501E-002
+2.27555000000E+005, +5.14465401680E+000, +5.96646958608E-002
+2.29550000000E+005, +5.14478028257E+000, +5.98511265072E-002
+2.31545000000E+005, +5.14469484319E+000, +6.00403028260E-002
+2.33540000000E+005, +5.14458798039E+000, +6.01734259805E-002
+2.35535000000E+005, +5.14465231056E+000, +6.03550885093E-002
+2.37530000000E+005, +5.14459893205E+000, +6.04972180158E-002
+2.39525000000E+005, +5.14456708470E+000, +6.06501332179E-002
+2.41520000000E+005, +5.14454105325E+000, +6.07865785797E-002
+2.43515000000E+005, +5.14458224621E+000, +6.08888124430E-002
+2.45510000000E+005, +5.14464622332E+000, +6.09425607916E-002
+2.47505000000E+005, +5.14471074424E+000, +6.11519622199E-002
+2.49500000000E+005, +5.14471714617E+000, +6.12714473998E-002
+2.51495000000E+005, +5.14471322214E+000, +6.13338061375E-002
+2.53490000000E+005, +5.14471325639E+000, +6.15637144779E-002
+2.55485000000E+005, +5.14480178959E+000, +6.16363162423E-002
+2.57480000000E+005, +5.14491913412E+000, +6.18471164618E-002
+2.59475000000E+005, +5.14493769565E+000, +6.21670420835E-002
+2.61470000000E+005, +5.14508635633E+000, +6.23244152766E-002
+2.63465000000E+005, +5.14496404829E+000, +6.25975311654E-002
+2.65460000000E+005, +5.14490873769E+000, +6.27797900410E-002
+2.67455000000E+005, +5.14491769542E+000, +6.30591895347E-002
+2.69450000000E+005, +5.14494699490E+000, +6.32440960103E-002
+2.71445000000E+005, +5.14496073294E+000, +6.35334937239E-002
+2.73440000000E+005, +5.14495298720E+000, +6.36633612996E-002
+2.75435000000E+005, +5.14501245834E+000, +6.38506999250E-002
+2.77430000000E+005, +5.14497379441E+000, +6.40107190973E-002
+2.79425000000E+005, +5.14489940997E+000, +6.43029440401E-002
+2.81420000000E+005, +5.14491459467E+000, +6.45074463218E-002
+2.83415000000E+005, +5.14482157899E+000, +6.46450270004E-002
+2.85410000000E+005, +5.14477392781E+000, +6.49010835516E-002
+2.87405000000E+005, +5.14475279060E+000, +6.50751289273E-002
+2.89400000000E+005, +5.14480794359E+000, +6.53289849701E-002
+2.91395000000E+005, +5.14479806191E+000, +6.56717120229E-002
+2.93390000000E+005, +5.14478296844E+000, +6.59431866016E-002
+2.95385000000E+005, +5.14473523576E+000, +6.62033419241E-002
+2.97380000000E+005, +5.14472552602E+000, +6.63573393336E-002
+2.99375000000E+005, +5.14474233619E+000, +6.66069974256E-002
+3.01370000000E+005, +5.14467345511E+000, +6.68674041490E-002
+3.03365000000E+005, +5.14464021203E+000, +6.71624690901E-002
+3.05360000000E+005, +5.14466084701E+000, +6.73408132624E-002
+3.07355000000E+005, +5.14463088700E+000, +6.75730219744E-002
+3.09350000000E+005, +5.14464077139E+000, +6.77631817506E-002
+3.11345000000E+005, +5.14469100156E+000, +6.79448928165E-002
+3.13340000000E+005, +5.14475254226E+000, +6.83352163123E-002
+3.15335000000E+005, +5.14476998358E+000, +6.85272463894E-002
+3.17330000000E+005, +5.14478639758E+000, +6.87655534876E-002
+3.19325000000E+005, +5.14482524075E+000, +6.89467850700E-002
+3.21320000000E+005, +5.14477805701E+000, +6.92001076282E-002
+3.23315000000E+005, +5.14485146259E+000, +6.94907002184E-002
+3.25310000000E+005, +5.14490141199E+000, +6.96862715389E-002
+3.27305000000E+005, +5.14490296802E+000, +6.99890775917E-002
+3.29300000000E+005, +5.14482650521E+000, +7.01794459743E-002
+3.31295000000E+005, +5.14491411008E+000, +7.03591513495E-002
+3.33290000000E+005, +5.14504415158E+000, +7.05779204026E-002
+3.35285000000E+005, +5.14504798745E+000, +7.07596131408E-002
+3.37280000000E+005, +5.14509959047E+000, +7.10237004182E-002
+3.39275000000E+005, +5.14499157744E+000, +7.12019172296E-002
+3.41270000000E+005, +5.14504659716E+000, +7.14981108860E-002
+3.43265000000E+005, +5.14507176434E+000, +7.16645343025E-002
+3.45260000000E+005, +5.14511329735E+000, +7.18712072116E-002
+3.47255000000E+005, +5.14507745031E+000, +7.21432920313E-002
+3.49250000000E+005, +5.14515779423E+000, +7.24402598972E-002
+3.51245000000E+005, +5.14509001727E+000, +7.26567718419E-002
+3.53240000000E+005, +5.14500932388E+000, +7.29191263921E-002
+3.55235000000E+005, +5.14505078210E+000, +7.30827372672E-002
+3.57230000000E+005, +5.14496637484E+000, +7.33191153746E-002
+3.59225000000E+005, +5.14503017497E+000, +7.34983725475E-002
+3.61220000000E+005, +5.14510919336E+000, +7.36622179889E-002
+3.63215000000E+005, +5.14498068385E+000, +7.39314796874E-002
+3.65210000000E+005, +5.14505494733E+000, +7.40790642897E-002
+3.67205000000E+005, +5.14512901469E+000, +7.43400188505E-002
+3.69200000000E+005, +5.14524882484E+000, +7.45744517328E-002
+3.71195000000E+005, +5.14520951412E+000, +7.47597330152E-002
+3.73190000000E+005, +5.14518644445E+000, +7.49535102331E-002
+3.75185000000E+005, +5.14518591341E+000, +7.51284290987E-002
+3.77180000000E+005, +5.14531317879E+000, +7.54329818522E-002
+3.79175000000E+005, +5.14538155858E+000, +7.56226796522E-002
+3.81170000000E+005, +5.14548249681E+000, +7.57870185556E-002
+3.83165000000E+005, +5.14555831994E+000, +7.59349622422E-002
+3.85160000000E+005, +5.14566219186E+000, +7.61307752782E-002
+3.87155000000E+005, +5.14578708068E+000, +7.63068177896E-002
+3.89150000000E+005, +5.14580620716E+000, +7.65185816513E-002
+3.91145000000E+005, +5.14589823413E+000, +7.67344069321E-002
+3.93140000000E+005, +5.14593469213E+000, +7.69896845715E-002
+3.95135000000E+005, +5.14594001951E+000, +7.71776870312E-002
+3.97130000000E+005, +5.14590517463E+000, +7.74458975110E-002
+3.99125000000E+005, +5.14583299381E+000, +7.77006904450E-002
+4.01120000000E+005, +5.14587988913E+000, +7.78764304047E-002
+4.03115000000E+005, +5.14580580065E+000, +7.80723739825E-002
+4.05110000000E+005, +5.14578780306E+000, +7.83055738111E-002
+4.07105000000E+005, +5.14583162682E+000, +7.85694329741E-002
+4.09100000000E+005, +5.14593258876E+000, +7.86434048617E-002
+4.11095000000E+005, +5.14594276672E+000, +7.88845990587E-002
+4.13090000000E+005, +5.14596593069E+000, +7.91392733001E-002
+4.15085000000E+005, +5.14599828951E+000, +7.93737555736E-002
+4.17080000000E+005, +5.14605246907E+000, +7.95476639974E-002
+4.19075000000E+005, +5.14600507548E+000, +7.98578637688E-002
+4.21070000000E+005, +5.14596654666E+000, +8.00710066637E-002
+4.23065000000E+005, +5.14600093936E+000, +8.01760474543E-002
+4.25060000000E+005, +5.14617756883E+000, +8.03113176550E-002
+4.27055000000E+005, +5.14615175653E+000, +8.05105121972E-002
+4.29050000000E+005, +5.14609592277E+000, +8.06599644817E-002
+4.31045000000E+005, +5.14610291383E+000, +8.08148076852E-002
+4.33040000000E+005, +5.14614993947E+000, +8.10621234759E-002
+4.35035000000E+005, +5.14618802234E+000, +8.12880231990E-002
+4.37030000000E+005, +5.14626481161E+000, +8.14265470748E-002
+4.39025000000E+005, +5.14615418211E+000, +8.16601329141E-002
+4.41020000000E+005, +5.14620964924E+000, +8.18061396289E-002
+4.43015000000E+005, +5.14618263937E+000, +8.20121910180E-002
+4.45010000000E+005, +5.14613842047E+000, +8.21261888996E-002
+4.47005000000E+005, +5.14616199417E+000, +8.22745344683E-002
+4.49000000000E+005, +5.14617138891E+000, +8.24635729038E-002
+4.50995000000E+005, +5.14619019714E+000, +8.26277301337E-002
+4.52990000000E+005, +5.14615247045E+000, +8.27704923124E-002
+4.54985000000E+005, +5.14616403132E+000, +8.29562152328E-002
+4.56980000000E+005, +5.14620911621E+000, +8.31314311291E-002
+4.58975000000E+005, +5.14625442558E+000, +8.33656116627E-002
+4.60970000000E+005, +5.14626701510E+000, +8.35677598471E-002
+4.62965000000E+005, +5.14629437375E+000, +8.37773032424E-002
+4.64960000000E+005, +5.14624507558E+000, +8.39430725885E-002
+4.66955000000E+005, +5.14621428986E+000, +8.40925027847E-002
+4.68950000000E+005, +5.14625640824E+000, +8.43553098419E-002
+4.70945000000E+005, +5.14617613087E+000, +8.44489313079E-002
+4.72940000000E+005, +5.14621512236E+000, +8.45818635087E-002
+4.74935000000E+005, +5.14620454228E+000, +8.47210789841E-002
+4.76930000000E+005, +5.14618584183E+000, +8.48718094575E-002
+4.78925000000E+005, +5.14626186314E+000, +8.50711522588E-002
+4.80920000000E+005, +5.14627962929E+000, +8.51730320393E-002
+4.82915000000E+005, +5.14629952534E+000, +8.53445624362E-002
+4.84910000000E+005, +5.14621546568E+000, +8.55422480148E-002
+4.86905000000E+005, +5.14626820021E+000, +8.57766128866E-002
+4.88900000000E+005, +5.14629950490E+000, +8.60181676127E-002
+4.90895000000E+005, +5.14633388848E+000, +8.61116317046E-002
+4.92890000000E+005, +5.14633926059E+000, +8.63631764379E-002
+4.94885000000E+005, +5.14629008862E+000, +8.65632266838E-002
+4.96880000000E+005, +5.14632092202E+000, +8.67507813756E-002
+4.98875000000E+005, +5.14638369925E+000, +8.70011168738E-002
+5.00870000000E+005, +5.14649635063E+000, +8.71100405017E-002
+5.02865000000E+005, +5.14649234122E+000, +8.72567776937E-002
+5.04860000000E+005, +5.14649954883E+000, +8.74058075859E-002
+5.06855000000E+005, +5.14645829463E+000, +8.76113512397E-002
+5.08850000000E+005, +5.14640455431E+000, +8.78281377094E-002
+5.10845000000E+005, +5.14634332622E+000, +8.79687186709E-002
+5.12840000000E+005, +5.14635208591E+000, +8.81464474587E-002
+5.14835000000E+005, +5.14636763587E+000, +8.83353904450E-002
+5.16830000000E+005, +5.14641712689E+000, +8.85273114008E-002
+5.18825000000E+005, +5.14639905573E+000, +8.87557693544E-002
+5.20820000000E+005, +5.14631094004E+000, +8.88969988568E-002
+5.22815000000E+005, +5.14633935787E+000, +8.89488986482E-002
+5.24810000000E+005, +5.14621836752E+000, +8.91181577277E-002
+5.26805000000E+005, +5.14618575087E+000, +8.91691953778E-002
+5.28800000000E+005, +5.14615322558E+000, +8.92984222512E-002
+5.30795000000E+005, +5.14612185540E+000, +8.95122767748E-002
+5.32790000000E+005, +5.14617695784E+000, +8.96103532012E-002
+5.34785000000E+005, +5.14623226870E+000, +8.97885410639E-002
+5.36780000000E+005, +5.14622773357E+000, +8.99073403894E-002
+5.38775000000E+005, +5.14625022894E+000, +9.00912052344E-002
+5.40770000000E+005, +5.14626204620E+000, +9.03195779374E-002
+5.42765000000E+005, +5.14626803175E+000, +9.04621607731E-002
+5.44760000000E+005, +5.14621477547E+000, +9.06854902609E-002
+5.46755000000E+005, +5.14612163124E+000, +9.09037597734E-002
+5.48750000000E+005, +5.14615154306E+000, +9.09642814370E-002
+5.50745000000E+005, +5.14622389400E+000, +9.11078561029E-002
+5.52740000000E+005, +5.14622848630E+000, +9.13463492735E-002
+5.54735000000E+005, +5.14619896093E+000, +9.15191046850E-002
+5.56730000000E+005, +5.14613211210E+000, +9.17270263899E-002
+5.58725000000E+005, +5.14617563325E+000, +9.18457549887E-002
+5.60720000000E+005, +5.14614030928E+000, +9.19662049441E-002
+5.62715000000E+005, +5.14613207022E+000, +9.21394607644E-002
+5.64710000000E+005, +5.14623404067E+000, +9.23024338666E-002
+5.66705000000E+005, +5.14623477717E+000, +9.24385603516E-002
+5.68700000000E+005, +5.14620154305E+000, +9.26235306309E-002
+5.70695000000E+005, +5.14620933053E+000, +9.28290221312E-002
+5.72690000000E+005, +5.14615503718E+000, +9.30156655143E-002
+5.74685000000E+005, +5.14617471770E+000, +9.32275478475E-002
+5.76680000000E+005, +5.14615204420E+000, +9.33962204979E-002
+5.78675000000E+005, +5.14614420088E+000, +9.36055937605E-002
+5.80670000000E+005, +5.14615041794E+000, +9.37616236382E-002
+5.82665000000E+005, +5.14619682742E+000, +9.40070641981E-002
+5.84660000000E+005, +5.14624772351E+000, +9.42239161376E-002
+5.86655000000E+005, +5.14629626979E+000, +9.43015781988E-002
+5.88650000000E+005, +5.14638267434E+000, +9.44778758569E-002
+5.90645000000E+005, +5.14635906076E+000, +9.46703246034E-002
+5.92640000000E+005, +5.14645222613E+000, +9.47230201662E-002
+5.94635000000E+005, +5.14652200430E+000, +9.48193855557E-002
+5.96630000000E+005, +5.14653432747E+000, +9.50192122778E-002
+5.98625000000E+005, +5.14651798620E+000, +9.52122859492E-002
+6.00620000000E+005, +5.14646291620E+000, +9.53920305579E-002
+6.02615000000E+005, +5.14659512859E+000, +9.55477962048E-002
+6.04610000000E+005, +5.14654944178E+000, +9.57229274162E-002
+6.06605000000E+005, +5.14653366849E+000, +9.58365215285E-002
+6.08600000000E+005, +5.14655141203E+000, +9.60131556796E-002
+6.10595000000E+005, +5.14660190448E+000, +9.61616339476E-002
+6.12590000000E+005, +5.14648180783E+000, +9.63460034317E-002
+6.14585000000E+005, +5.14641517457E+000, +9.64508385698E-002
+6.16580000000E+005, +5.14643004590E+000, +9.65619461168E-002
+6.18575000000E+005, +5.14633994655E+000, +9.67464373512E-002
+6.20570000000E+005, +5.14630464930E+000, +9.69360559645E-002
+6.22565000000E+005, +5.14637750296E+000, +9.70745537869E-002
+6.24560000000E+005, +5.14632527228E+000, +9.71722193057E-002
+6.26555000000E+005, +5.14633797044E+000, +9.73280409094E-002
+6.28550000000E+005, +5.14637349438E+000, +9.75251975833E-002
+6.30545000000E+005, +5.14647352345E+000, +9.77204049324E-002
+6.32540000000E+005, +5.14638350266E+000, +9.78410398010E-002
+6.34535000000E+005, +5.14637130947E+000, +9.80336217112E-002
+6.36530000000E+005, +5.14635729806E+000, +9.82040911800E-002
+6.38525000000E+005, +5.14634812362E+000, +9.83312777853E-002
+6.40520000000E+005, +5.14630862343E+000, +9.84124875608E-002
+6.42515000000E+005, +5.14632583766E+000, +9.85529852436E-002
+6.44510000000E+005, +5.14628115380E+000, +9.87028830866E-002
+6.46505000000E+005, +5.14620796098E+000, +9.88654245577E-002
+6.48500000000E+005, +5.14622527179E+000, +9.90183009738E-002
+6.50495000000E+005, +5.14621626974E+000, +9.91755755610E-002
+6.52490000000E+005, +5.14624558271E+000, +9.92728863558E-002
+6.54485000000E+005, +5.14621711631E+000, +9.94460326107E-002
+6.56480000000E+005, +5.14629423138E+000, +9.95901908242E-002
+6.58475000000E+005, +5.14629812935E+000, +9.98282065675E-002
+6.60470000000E+005, +5.14625512356E+000, +9.99478493961E-002
+6.62465000000E+005, +5.14625717224E+000, +1.00113374311E-001
+6.64460000000E+005, +5.14627126220E+000, +1.00279122788E-001
+6.66455000000E+005, +5.14615856978E+000, +1.00410933715E-001
+6.68450000000E+005, +5.14624925608E+000, +1.00521727693E-001
+6.70445000000E+005, +5.14614561331E+000, +1.00712940387E-001
+6.72440000000E+005, +5.14618327714E+000, +1.00875273516E-001
+6.74435000000E+005, +5.14609433433E+000, +1.01043627543E-001
+6.76430000000E+005, +5.14614883657E+000, +1.01216734270E-001
+6.78425000000E+005, +5.14603221734E+000, +1.01317800119E-001
+6.80420000000E+005, +5.14599991841E+000, +1.01544770658E-001
+6.82415000000E+005, +5.14589663996E+000, +1.01691176577E-001
+6.84410000000E+005, +5.14589710564E+000, +1.01924713876E-001
+6.86405000000E+005, +5.14569230581E+000, +1.02043140083E-001
+6.88400000000E+005, +5.14557356776E+000, +1.02272907466E-001
