!Keysight Technologies,E5063A,MY54100949,A.07.00
!Date: Tue Nov 25 21:31:23 2025
!Data & Calibration Information:
!Freq	S11:SOLT1(ON)
# Hz S RI R 50
50000.000	-8.097726e-001	2.702853e-003
51995.000	-8.119066e-001	1.890682e-003
53990.000	-8.132406e-001	2.694145e-003
55985.000	-8.132434e-001	2.620787e-003
57980.000	-8.127919e-001	2.028566e-003
59975.000	-8.134461e-001	2.038090e-003
61970.000	-8.138709e-001	1.649639e-003
63965.000	-8.134676e-001	2.037682e-003
65960.000	-8.140954e-001	1.881784e-003
67955.000	-8.136697e-001	2.614004e-003
69950.000	-8.127038e-001	1.643646e-003
71945.000	-8.132298e-001	1.953605e-003
73940.000	-8.136429e-001	1.615742e-003
75935.000	-8.137090e-001	1.732603e-003
77930.000	-8.138033e-001	1.698126e-003
79925.000	-8.131593e-001	1.858251e-003
81920.000	-8.130571e-001	1.865822e-003
83915.000	-8.135700e-001	1.667854e-003
85910.000	-8.133765e-001	1.705196e-003
87905.000	-8.132771e-001	1.479000e-003
89900.000	-8.132642e-001	1.962750e-003
91895.000	-8.134907e-001	1.741454e-003
93890.000	-8.134293e-001	1.986737e-003
95885.000	-8.136075e-001	1.552324e-003
97880.000	-8.136544e-001	1.905037e-003
99875.000	-8.131380e-001	2.138287e-003
101870.000	-8.132883e-001	1.252482e-003
103865.000	-8.132303e-001	1.973512e-003
105860.000	-8.140537e-001	1.682267e-003
107855.000	-8.133140e-001	1.227667e-003
109850.000	-8.140103e-001	1.475798e-003
111845.000	-8.130269e-001	1.341269e-003
113840.000	-8.131479e-001	1.946790e-003
115835.000	-8.132815e-001	1.364949e-003
117830.000	-8.133326e-001	1.533804e-003
119825.000	-8.132872e-001	1.258371e-003
121820.000	-8.134766e-001	1.486608e-003
123815.000	-8.134495e-001	1.726672e-003
125810.000	-8.132734e-001	1.543537e-003
127805.000	-8.130014e-001	1.406595e-003
129800.000	-8.134466e-001	1.362647e-003
131795.000	-8.130246e-001	1.750296e-003
133790.000	-8.133418e-001	1.745444e-003
135785.000	-8.137032e-001	1.636767e-003
137780.000	-8.135947e-001	1.524106e-003
139775.000	-8.136016e-001	1.445112e-003
141770.000	-8.137395e-001	1.379428e-003
143765.000	-8.131723e-001	1.228240e-003
145760.000	-8.134317e-001	1.896806e-003
147755.000	-8.130608e-001	1.580216e-003
149750.000	-8.132316e-001	1.480907e-003
151745.000	-8.132295e-001	1.491817e-003
153740.000	-8.136010e-001	1.805832e-003
155735.000	-8.131403e-001	1.510389e-003
157730.000	-8.136799e-001	1.846004e-003
159725.000	-8.133069e-001	1.637273e-003
161720.000	-8.135231e-001	1.077792e-003
163715.000	-8.136149e-001	1.908820e-003
165710.000	-8.132365e-001	1.408991e-003
167705.000	-8.135016e-001	1.997127e-003
169700.000	-8.135564e-001	1.908296e-003
171695.000	-8.133853e-001	1.484433e-003
173690.000	-8.136001e-001	1.754044e-003
175685.000	-8.135940e-001	1.272080e-003
177680.000	-8.133889e-001	1.769567e-003
179675.000	-8.135443e-001	1.831539e-003
181670.000	-8.139362e-001	1.710720e-003
183665.000	-8.132810e-001	1.887454e-003
185660.000	-8.136764e-001	1.582990e-003
187655.000	-8.128025e-001	2.109846e-003
189650.000	-8.136805e-001	1.548931e-003
191645.000	-8.133890e-001	2.120774e-003
193640.000	-8.133257e-001	1.774528e-003
195635.000	-8.132269e-001	1.850076e-003
197630.000	-8.137399e-001	1.482819e-003
199625.000	-8.131175e-001	1.863580e-003
201620.000	-8.131206e-001	1.713309e-003
203615.000	-8.137823e-001	2.087714e-003
205610.000	-8.129766e-001	1.681562e-003
207605.000	-8.137380e-001	2.026023e-003
209600.000	-8.136840e-001	2.014022e-003
211595.000	-8.129925e-001	1.805662e-003
213590.000	-8.134552e-001	2.139361e-003
215585.000	-8.137128e-001	1.833139e-003
217580.000	-8.136229e-001	1.632559e-003
219575.000	-8.131924e-001	1.977285e-003
221570.000	-8.133146e-001	1.902228e-003
223565.000	-8.133652e-001	1.930839e-003
225560.000	-8.134799e-001	1.631583e-003
227555.000	-8.134697e-001	1.745145e-003
229550.000	-8.134417e-001	2.039538e-003
231545.000	-8.138989e-001	2.261258e-003
233540.000	-8.132644e-001	2.242173e-003
235535.000	-8.135868e-001	2.039182e-003
237530.000	-8.133980e-001	1.803036e-003
239525.000	-8.136658e-001	2.027045e-003
241520.000	-8.132221e-001	1.605123e-003
243515.000	-8.135682e-001	2.176194e-003
245510.000	-8.131637e-001	2.030174e-003
247505.000	-8.134320e-001	1.720630e-003
249500.000	-8.133069e-001	1.979773e-003
251495.000	-8.135167e-001	2.069483e-003
253490.000	-8.134475e-001	1.807775e-003
255485.000	-8.136522e-001	1.991679e-003
257480.000	-8.136818e-001	2.361017e-003
259475.000	-8.133641e-001	1.944623e-003
261470.000	-8.136181e-001	1.832098e-003
263465.000	-8.132022e-001	1.933304e-003
265460.000	-8.133602e-001	2.254737e-003
267455.000	-8.133605e-001	1.625591e-003
269450.000	-8.133760e-001	2.094416e-003
271445.000	-8.134896e-001	2.401599e-003
273440.000	-8.138991e-001	2.541320e-003
275435.000	-8.132827e-001	2.199613e-003
277430.000	-8.132935e-001	2.144684e-003
279425.000	-8.133970e-001	2.065056e-003
281420.000	-8.136005e-001	1.947250e-003
283415.000	-8.134094e-001	1.936847e-003
285410.000	-8.134070e-001	2.290184e-003
287405.000	-8.130738e-001	2.106825e-003
289400.000	-8.136516e-001	2.091502e-003
291395.000	-8.133777e-001	2.137872e-003
293390.000	-8.133572e-001	2.277434e-003
295385.000	-8.135881e-001	2.369609e-003
297380.000	-8.135860e-001	2.270446e-003
299375.000	-8.135660e-001	2.428977e-003
301370.000	-8.130351e-001	2.261693e-003
303365.000	-8.134494e-001	2.045323e-003
305360.000	-8.136490e-001	2.259111e-003
307355.000	-8.136904e-001	2.041791e-003
309350.000	-8.132591e-001	2.078014e-003
311345.000	-8.130371e-001	1.983376e-003
313340.000	-8.132844e-001	2.357763e-003
315335.000	-8.131596e-001	2.368351e-003
317330.000	-8.137809e-001	2.017779e-003
319325.000	-8.129293e-001	2.744008e-003
321320.000	-8.132612e-001	2.373941e-003
323315.000	-8.132744e-001	2.589623e-003
325310.000	-8.134236e-001	2.162236e-003
327305.000	-8.137206e-001	2.068247e-003
329300.000	-8.135128e-001	2.662187e-003
331295.000	-8.132771e-001	2.418924e-003
333290.000	-8.129944e-001	2.540639e-003
335285.000	-8.135110e-001	2.290679e-003
337280.000	-8.136184e-001	2.340309e-003
339275.000	-8.133882e-001	2.754119e-003
341270.000	-8.131841e-001	1.966096e-003
343265.000	-8.132134e-001	2.484759e-003
345260.000	-8.134876e-001	2.445947e-003
347255.000	-8.135272e-001	2.254131e-003
349250.000	-8.134968e-001	2.575297e-003
351245.000	-8.136094e-001	2.404257e-003
353240.000	-8.133417e-001	2.312376e-003
355235.000	-8.131561e-001	2.417478e-003
357230.000	-8.132340e-001	2.267624e-003
359225.000	-8.132911e-001	2.453836e-003
361220.000	-8.135685e-001	2.300060e-003
363215.000	-8.133711e-001	2.259512e-003
365210.000	-8.134179e-001	2.411195e-003
367205.000	-8.134998e-001	2.451254e-003
369200.000	-8.131890e-001	2.498985e-003
371195.000	-8.135649e-001	2.560005e-003
373190.000	-8.130108e-001	2.453310e-003
375185.000	-8.132809e-001	2.863658e-003
377180.000	-8.134117e-001	2.916327e-003
379175.000	-8.131743e-001	2.622498e-003
381170.000	-8.135815e-001	2.798538e-003
383165.000	-8.135863e-001	2.528011e-003
385160.000	-8.132486e-001	2.569214e-003
387155.000	-8.136400e-001	2.411530e-003
389150.000	-8.134335e-001	2.238659e-003
391145.000	-8.133920e-001	2.640565e-003
393140.000	-8.132850e-001	2.248653e-003
395135.000	-8.131110e-001	2.252926e-003
397130.000	-8.132848e-001	2.591410e-003
399125.000	-8.136213e-001	2.498276e-003
401120.000	-8.131568e-001	2.447976e-003
403115.000	-8.132856e-001	2.394103e-003
405110.000	-8.127899e-001	2.333037e-003
407105.000	-8.134687e-001	2.727696e-003
409100.000	-8.132183e-001	2.816055e-003
411095.000	-8.132704e-001	2.255568e-003
413090.000	-8.136312e-001	2.698800e-003
415085.000	-8.134205e-001	2.852423e-003
417080.000	-8.132339e-001	2.752210e-003
419075.000	-8.131850e-001	2.451626e-003
421070.000	-8.132157e-001	2.695220e-003
423065.000	-8.135136e-001	2.131555e-003
425060.000	-8.131520e-001	2.656220e-003
427055.000	-8.134636e-001	2.338557e-003
429050.000	-8.133674e-001	2.858500e-003
431045.000	-8.133688e-001	2.377930e-003
433040.000	-8.134849e-001	2.434537e-003
435035.000	-8.135754e-001	3.017457e-003
437030.000	-8.138061e-001	2.501244e-003
439025.000	-8.133178e-001	2.783990e-003
441020.000	-8.136466e-001	3.147052e-003
443015.000	-8.138112e-001	2.727623e-003
445010.000	-8.134062e-001	2.520620e-003
447005.000	-8.134781e-001	2.661603e-003
449000.000	-8.129743e-001	2.819703e-003
450995.000	-8.135705e-001	2.774798e-003
452990.000	-8.133910e-001	2.957381e-003
454985.000	-8.134964e-001	2.691160e-003
456980.000	-8.132863e-001	2.663799e-003
458975.000	-8.136285e-001	2.790134e-003
460970.000	-8.130553e-001	2.538956e-003
462965.000	-8.132127e-001	3.015206e-003
464960.000	-8.135260e-001	2.862138e-003
466955.000	-8.131520e-001	2.592111e-003
468950.000	-8.133064e-001	2.896556e-003
470945.000	-8.137875e-001	3.166764e-003
472940.000	-8.130172e-001	2.926463e-003
474935.000	-8.133497e-001	2.724531e-003
476930.000	-8.135824e-001	2.775648e-003
478925.000	-8.137662e-001	2.715810e-003
480920.000	-8.131070e-001	2.722761e-003
482915.000	-8.132877e-001	2.795367e-003
484910.000	-8.132596e-001	2.789598e-003
486905.000	-8.134168e-001	2.893652e-003
488900.000	-8.133366e-001	2.996163e-003
490895.000	-8.134035e-001	3.018971e-003
492890.000	-8.132619e-001	2.946823e-003
494885.000	-8.131168e-001	2.800221e-003
496880.000	-8.134014e-001	3.201571e-003
498875.000	-8.133371e-001	2.956359e-003
500870.000	-8.134512e-001	2.939550e-003
502865.000	-8.135178e-001	3.017084e-003
504860.000	-8.135743e-001	2.899577e-003
506855.000	-8.133926e-001	2.856408e-003
508850.000	-8.134189e-001	2.915280e-003
510845.000	-8.132895e-001	2.826547e-003
512840.000	-8.136271e-001	3.144384e-003
514835.000	-8.130845e-001	2.871201e-003
516830.000	-8.133415e-001	3.127913e-003
518825.000	-8.130249e-001	2.795019e-003
520820.000	-8.133851e-001	2.897819e-003
522815.000	-8.134265e-001	2.864731e-003
524810.000	-8.133655e-001	2.799398e-003
526805.000	-8.128439e-001	3.142098e-003
528800.000	-8.131276e-001	2.686146e-003
530795.000	-8.129382e-001	2.854172e-003
532790.000	-8.135204e-001	2.994821e-003
534785.000	-8.127460e-001	3.213037e-003
536780.000	-8.129643e-001	2.911582e-003
538775.000	-8.133002e-001	2.854254e-003
540770.000	-8.132059e-001	3.097420e-003
542765.000	-8.130376e-001	2.872155e-003
544760.000	-8.135391e-001	3.109612e-003
546755.000	-8.133330e-001	3.362411e-003
548750.000	-8.137868e-001	2.986770e-003
550745.000	-8.130715e-001	2.851723e-003
552740.000	-8.138818e-001	3.043450e-003
554735.000	-8.135336e-001	2.965946e-003
556730.000	-8.134308e-001	3.301212e-003
558725.000	-8.131795e-001	2.726883e-003
560720.000	-8.133101e-001	3.142085e-003
562715.000	-8.134994e-001	3.096306e-003
564710.000	-8.130382e-001	3.097120e-003
566705.000	-8.130887e-001	3.117470e-003
568700.000	-8.135914e-001	3.166507e-003
570695.000	-8.135643e-001	3.153291e-003
572690.000	-8.133173e-001	2.922663e-003
574685.000	-8.130201e-001	3.210424e-003
576680.000	-8.134080e-001	3.189043e-003
578675.000	-8.135686e-001	2.887567e-003
580670.000	-8.133600e-001	2.833796e-003
582665.000	-8.133634e-001	3.174558e-003
584660.000	-8.132171e-001	3.057945e-003
586655.000	-8.130237e-001	2.976866e-003
588650.000	-8.136197e-001	3.268266e-003
590645.000	-8.133740e-001	2.815649e-003
592640.000	-8.135087e-001	3.161371e-003
594635.000	-8.135750e-001	2.844118e-003
596630.000	-8.134689e-001	3.105837e-003
598625.000	-8.135365e-001	3.208935e-003
600620.000	-8.134701e-001	3.243783e-003
602615.000	-8.132203e-001	2.971108e-003
604610.000	-8.133892e-001	2.967316e-003
606605.000	-8.134225e-001	3.128431e-003
608600.000	-8.134619e-001	3.203880e-003
610595.000	-8.131936e-001	3.081543e-003
612590.000	-8.128981e-001	3.023400e-003
614585.000	-8.135267e-001	3.181595e-003
616580.000	-8.133102e-001	3.110777e-003
618575.000	-8.135678e-001	3.322046e-003
620570.000	-8.133264e-001	3.210084e-003
622565.000	-8.130656e-001	3.033391e-003
624560.000	-8.133248e-001	3.281026e-003
626555.000	-8.135142e-001	2.910939e-003
628550.000	-8.133401e-001	3.056873e-003
630545.000	-8.134231e-001	3.167774e-003
632540.000	-8.131757e-001	3.270310e-003
634535.000	-8.134087e-001	3.523492e-003
636530.000	-8.132456e-001	3.453548e-003
638525.000	-8.134592e-001	3.539205e-003
640520.000	-8.132160e-001	3.217659e-003
642515.000	-8.131535e-001	3.214993e-003
644510.000	-8.134545e-001	3.478823e-003
646505.000	-8.133315e-001	3.376721e-003
648500.000	-8.132116e-001	3.496125e-003
650495.000	-8.129358e-001	3.114361e-003
652490.000	-8.136270e-001	3.132901e-003
654485.000	-8.133035e-001	3.052228e-003
656480.000	-8.133577e-001	3.438697e-003
658475.000	-8.134974e-001	3.344866e-003
660470.000	-8.135929e-001	3.152823e-003
662465.000	-8.135222e-001	3.182386e-003
664460.000	-8.132909e-001	3.197411e-003
666455.000	-8.131691e-001	3.363338e-003
668450.000	-8.135859e-001	3.585888e-003
670445.000	-8.136242e-001	3.201632e-003
672440.000	-8.134230e-001	2.817245e-003
674435.000	-8.136088e-001	3.295663e-003
676430.000	-8.134420e-001	3.117597e-003
678425.000	-8.135711e-001	3.558496e-003
680420.000	-8.133266e-001	3.684850e-003
682415.000	-8.133063e-001	3.284626e-003
684410.000	-8.133088e-001	3.411867e-003
686405.000	-8.132692e-001	3.159157e-003
688400.000	-8.135253e-001	3.324102e-003
690395.000	-8.133712e-001	3.372395e-003
692390.000	-8.133600e-001	3.348427e-003
694385.000	-8.135458e-001	3.358410e-003
696380.000	-8.135699e-001	3.338215e-003
698375.000	-8.131353e-001	2.891427e-003
700370.000	-8.132597e-001	3.209976e-003
702365.000	-8.131301e-001	3.632081e-003
704360.000	-8.134294e-001	3.252365e-003
706355.000	-8.131184e-001	3.366527e-003
708350.000	-8.132507e-001	3.316496e-003
710345.000	-8.133917e-001	3.414706e-003
712340.000	-8.133084e-001	3.115967e-003
714335.000	-8.131222e-001	3.506312e-003
716330.000	-8.134146e-001	3.528314e-003
718325.000	-8.133958e-001	3.671189e-003
720320.000	-8.131429e-001	3.471815e-003
722315.000	-8.134821e-001	3.622863e-003
724310.000	-8.134123e-001	3.183277e-003
726305.000	-8.132617e-001	3.494106e-003
728300.000	-8.134990e-001	3.378284e-003
730295.000	-8.133339e-001	3.633126e-003
732290.000	-8.131342e-001	3.595823e-003
734285.000	-8.132285e-001	3.510400e-003
736280.000	-8.133331e-001	3.402244e-003
738275.000	-8.133741e-001	3.375135e-003
740270.000	-8.134318e-001	3.739944e-003
742265.000	-8.131831e-001	3.407108e-003
744260.000	-8.134631e-001	3.204906e-003
746255.000	-8.133416e-001	3.512588e-003
748250.000	-8.135559e-001	3.620532e-003
750245.000	-8.132447e-001	3.713117e-003
752240.000	-8.129114e-001	3.545932e-003
754235.000	-8.136148e-001	3.827727e-003
756230.000	-8.135728e-001	3.255449e-003
758225.000	-8.131951e-001	3.540516e-003
760220.000	-8.133752e-001	3.526483e-003
762215.000	-8.136484e-001	3.456468e-003
764210.000	-8.135417e-001	3.536892e-003
766205.000	-8.134502e-001	3.413552e-003
768200.000	-8.135962e-001	3.509719e-003
770195.000	-8.134784e-001	3.838673e-003
772190.000	-8.134233e-001	3.853165e-003
774185.000	-8.132748e-001	3.412308e-003
776180.000	-8.132839e-001	3.497999e-003
778175.000	-8.134026e-001	3.753952e-003
780170.000	-8.132661e-001	3.683298e-003
782165.000	-8.135519e-001	3.323324e-003
784160.000	-8.133449e-001	3.751795e-003
786155.000	-8.133262e-001	3.636265e-003
788150.000	-8.134601e-001	3.525325e-003
790145.000	-8.135312e-001	3.400088e-003
792140.000	-8.133156e-001	3.716270e-003
794135.000	-8.134811e-001	3.691895e-003
796130.000	-8.134774e-001	3.608582e-003
798125.000	-8.133127e-001	3.960333e-003
800120.000	-8.133790e-001	3.737427e-003
802115.000	-8.133040e-001	3.422198e-003
804110.000	-8.136561e-001	3.877308e-003
806105.000	-8.131888e-001	3.613976e-003
808100.000	-8.133690e-001	4.038142e-003
810095.000	-8.136303e-001	3.510109e-003
812090.000	-8.132763e-001	3.648381e-003
814085.000	-8.135541e-001	3.967111e-003
816080.000	-8.136417e-001	3.527712e-003
818075.000	-8.128892e-001	3.676392e-003
820070.000	-8.135360e-001	3.746316e-003
822065.000	-8.131952e-001	3.703162e-003
824060.000	-8.138651e-001	3.702270e-003
826055.000	-8.130917e-001	3.657927e-003
828050.000	-8.134211e-001	3.646044e-003
830045.000	-8.132838e-001	3.813709e-003
832040.000	-8.134484e-001	3.583011e-003
834035.000	-8.135138e-001	4.154397e-003
836030.000	-8.137607e-001	3.804823e-003
838025.000	-8.135497e-001	4.054643e-003
840020.000	-8.133852e-001	3.835057e-003
842015.000	-8.133495e-001	3.593911e-003
844010.000	-8.134180e-001	3.629489e-003
846005.000	-8.133449e-001	4.032242e-003
848000.000	-8.136093e-001	3.955869e-003
849995.000	-8.136232e-001	3.631131e-003
851990.000	-8.133074e-001	3.678549e-003
853985.000	-8.132527e-001	3.793481e-003
855980.000	-8.135407e-001	3.994347e-003
857975.000	-8.133762e-001	3.802246e-003
859970.000	-8.135121e-001	3.912908e-003
861965.000	-8.132301e-001	4.105726e-003
863960.000	-8.134185e-001	3.769373e-003
865955.000	-8.132802e-001	3.825043e-003
867950.000	-8.135081e-001	3.493079e-003
869945.000	-8.130980e-001	3.817279e-003
871940.000	-8.133333e-001	4.022076e-003
873935.000	-8.136393e-001	3.663742e-003
875930.000	-8.136035e-001	3.673043e-003
877925.000	-8.133898e-001	3.852981e-003
879920.000	-8.133620e-001	3.942404e-003
881915.000	-8.133088e-001	3.860963e-003
883910.000	-8.130665e-001	3.966067e-003
885905.000	-8.135102e-001	3.868221e-003
887900.000	-8.132761e-001	3.755426e-003
889895.000	-8.132877e-001	3.860979e-003
891890.000	-8.134881e-001	3.917302e-003
893885.000	-8.135106e-001	3.903745e-003
895880.000	-8.134093e-001	4.105188e-003
897875.000	-8.134439e-001	3.985456e-003
899870.000	-8.135469e-001	3.937956e-003
901865.000	-8.137165e-001	3.974278e-003
903860.000	-8.135884e-001	3.757907e-003
905855.000	-8.134365e-001	4.109131e-003
907850.000	-8.133189e-001	3.892834e-003
909845.000	-8.135249e-001	4.173287e-003
911840.000	-8.133706e-001	3.864165e-003
913835.000	-8.132462e-001	4.078106e-003
915830.000	-8.135765e-001	3.988115e-003
917825.000	-8.136517e-001	4.170041e-003
919820.000	-8.135154e-001	4.032684e-003
921815.000	-8.132481e-001	3.728936e-003
923810.000	-8.133852e-001	4.121580e-003
925805.000	-8.133381e-001	3.889562e-003
927800.000	-8.134781e-001	4.047757e-003
929795.000	-8.136340e-001	4.048657e-003
931790.000	-8.134629e-001	4.036491e-003
933785.000	-8.133874e-001	3.974191e-003
935780.000	-8.134067e-001	3.900945e-003
937775.000	-8.134760e-001	4.012188e-003
939770.000	-8.132899e-001	4.146103e-003
941765.000	-8.133054e-001	4.061140e-003
943760.000	-8.131316e-001	4.107884e-003
945755.000	-8.134410e-001	3.943176e-003
947750.000	-8.135104e-001	4.214691e-003
949745.000	-8.135685e-001	3.900521e-003
951740.000	-8.133277e-001	4.083469e-003
953735.000	-8.134863e-001	3.914893e-003
955730.000	-8.136480e-001	3.893321e-003
957725.000	-8.130646e-001	4.043885e-003
959720.000	-8.132297e-001	4.196133e-003
961715.000	-8.136540e-001	3.948079e-003
963710.000	-8.136053e-001	3.996171e-003
965705.000	-8.136121e-001	3.983545e-003
967700.000	-8.135250e-001	4.042845e-003
969695.000	-8.133768e-001	4.209886e-003
971690.000	-8.133792e-001	4.220428e-003
973685.000	-8.132917e-001	4.189314e-003
975680.000	-8.133272e-001	4.404668e-003
977675.000	-8.135411e-001	4.458785e-003
979670.000	-8.137531e-001	3.963588e-003
981665.000	-8.132191e-001	4.003381e-003
983660.000	-8.135381e-001	3.775765e-003
985655.000	-8.136136e-001	3.852489e-003
987650.000	-8.134059e-001	4.151359e-003
989645.000	-8.134451e-001	3.782862e-003
991640.000	-8.133902e-001	3.954828e-003
993635.000	-8.136286e-001	3.841591e-003
995630.000	-8.133915e-001	4.007961e-003
997625.000	-8.135263e-001	3.986670e-003
999620.000	-8.135021e-001	4.101252e-003
1001615.000	-8.138317e-001	4.365884e-003
1003610.000	-8.138102e-001	4.116069e-003
1005605.000	-8.136399e-001	3.930828e-003
1007600.000	-8.136050e-001	4.097489e-003
1009595.000	-8.136209e-001	4.159070e-003
1011590.000	-8.135862e-001	4.224004e-003
1013585.000	-8.133275e-001	4.226507e-003
1015580.000	-8.135670e-001	4.253461e-003
1017575.000	-8.135898e-001	4.096177e-003
1019570.000	-8.133811e-001	4.054315e-003
1021565.000	-8.134183e-001	4.298431e-003
1023560.000	-8.135697e-001	4.282286e-003
1025555.000	-8.133782e-001	4.130489e-003
1027550.000	-8.137745e-001	4.162119e-003
1029545.000	-8.134385e-001	4.083606e-003
1031540.000	-8.135321e-001	4.487589e-003
1033535.000	-8.133608e-001	4.234919e-003
1035530.000	-8.136408e-001	4.226998e-003
1037525.000	-8.135097e-001	4.134950e-003
