!Keysight Technologies,E5063A,MY54100949,A.07.30
!Date: Thu Dec 18 19:25:24 2025
!Data & Calibration Information:
!Freq	S22:SOLT1(ON)
# Hz S RI R 50
50000.000	-9.907785e-001	5.390629e-002
51995.000	-9.913400e-001	5.598780e-002
53990.000	-9.914670e-001	5.792590e-002
55985.000	-9.913670e-001	5.932972e-002
57980.000	-9.913141e-001	6.150731e-002
59975.000	-9.914695e-001	6.348404e-002
61970.000	-9.908875e-001	6.518362e-002
63965.000	-9.903837e-001	6.766624e-002
65960.000	-9.909765e-001	6.925511e-002
67955.000	-9.905572e-001	7.084678e-002
69950.000	-9.898704e-001	7.303131e-002
71945.000	-9.898942e-001	7.480124e-002
73940.000	-9.898687e-001	7.607974e-002
75935.000	-9.895521e-001	7.809444e-002
77930.000	-9.895869e-001	8.009553e-002
79925.000	-9.893828e-001	8.269119e-002
81920.000	-9.893451e-001	8.429209e-002
83915.000	-9.890898e-001	8.617351e-002
85910.000	-9.881719e-001	8.788173e-002
87905.000	-9.883276e-001	8.978073e-002
89900.000	-9.875325e-001	9.128368e-002
91895.000	-9.882436e-001	9.366933e-002
93890.000	-9.874615e-001	9.511114e-002
95885.000	-9.881455e-001	9.730969e-002
97880.000	-9.869542e-001	9.861354e-002
99875.000	-9.870067e-001	9.971473e-002
101870.000	-9.868228e-001	1.029017e-001
103865.000	-9.867128e-001	1.049286e-001
105860.000	-9.861670e-001	1.062294e-001
107855.000	-9.858303e-001	1.087880e-001
109850.000	-9.861320e-001	1.102347e-001
111845.000	-9.854064e-001	1.122421e-001
113840.000	-9.853118e-001	1.141584e-001
115835.000	-9.849624e-001	1.161683e-001
117830.000	-9.847752e-001	1.182988e-001
119825.000	-9.846440e-001	1.200924e-001
121820.000	-9.849850e-001	1.217360e-001
123815.000	-9.839839e-001	1.234902e-001
125810.000	-9.835927e-001	1.256038e-001
127805.000	-9.839887e-001	1.275540e-001
129800.000	-9.835992e-001	1.289986e-001
131795.000	-9.833387e-001	1.315785e-001
133790.000	-9.830189e-001	1.331147e-001
135785.000	-9.823745e-001	1.353870e-001
137780.000	-9.825482e-001	1.370292e-001
139775.000	-9.818730e-001	1.389759e-001
141770.000	-9.822005e-001	1.408730e-001
143765.000	-9.816705e-001	1.425111e-001
145760.000	-9.814404e-001	1.447146e-001
147755.000	-9.809532e-001	1.470719e-001
149750.000	-9.803058e-001	1.487197e-001
151745.000	-9.802852e-001	1.509995e-001
153740.000	-9.801042e-001	1.522736e-001
155735.000	-9.799025e-001	1.541621e-001
157730.000	-9.791781e-001	1.560272e-001
159725.000	-9.789317e-001	1.579953e-001
161720.000	-9.788125e-001	1.599538e-001
163715.000	-9.785855e-001	1.619803e-001
165710.000	-9.779498e-001	1.642278e-001
167705.000	-9.777321e-001	1.659990e-001
169700.000	-9.773419e-001	1.679086e-001
171695.000	-9.769732e-001	1.696333e-001
173690.000	-9.770592e-001	1.716407e-001
175685.000	-9.765575e-001	1.736537e-001
177680.000	-9.761535e-001	1.755327e-001
179675.000	-9.755719e-001	1.774052e-001
181670.000	-9.755635e-001	1.791315e-001
183665.000	-9.751728e-001	1.807524e-001
185660.000	-9.744239e-001	1.827009e-001
187655.000	-9.742306e-001	1.848453e-001
189650.000	-9.736361e-001	1.868610e-001
191645.000	-9.733568e-001	1.887166e-001
193640.000	-9.728679e-001	1.900448e-001
195635.000	-9.725379e-001	1.923034e-001
197630.000	-9.723717e-001	1.943666e-001
199625.000	-9.716924e-001	1.962588e-001
201620.000	-9.715888e-001	1.980664e-001
203615.000	-9.710066e-001	1.995706e-001
205610.000	-9.707456e-001	2.019754e-001
207605.000	-9.699992e-001	2.038792e-001
209600.000	-9.699248e-001	2.055028e-001
211595.000	-9.697059e-001	2.075268e-001
213590.000	-9.690065e-001	2.095005e-001
215585.000	-9.685672e-001	2.114096e-001
217580.000	-9.682653e-001	2.133512e-001
219575.000	-9.677527e-001	2.151967e-001
221570.000	-9.674023e-001	2.168173e-001
223565.000	-9.669394e-001	2.187184e-001
225560.000	-9.663967e-001	2.211328e-001
227555.000	-9.662542e-001	2.229416e-001
229550.000	-9.656311e-001	2.245748e-001
231545.000	-9.652557e-001	2.264525e-001
233540.000	-9.647393e-001	2.283059e-001
235535.000	-9.641049e-001	2.301330e-001
237530.000	-9.638092e-001	2.320903e-001
239525.000	-9.631034e-001	2.344134e-001
241520.000	-9.630081e-001	2.360426e-001
243515.000	-9.620030e-001	2.380357e-001
245510.000	-9.619915e-001	2.394195e-001
247505.000	-9.615042e-001	2.413378e-001
249500.000	-9.609749e-001	2.433819e-001
251495.000	-9.602180e-001	2.457135e-001
253490.000	-9.599575e-001	2.467787e-001
255485.000	-9.594773e-001	2.486285e-001
257480.000	-9.587505e-001	2.504272e-001
259475.000	-9.581569e-001	2.525390e-001
261470.000	-9.582135e-001	2.546372e-001
263465.000	-9.573422e-001	2.563218e-001
265460.000	-9.569052e-001	2.582090e-001
267455.000	-9.560917e-001	2.598092e-001
269450.000	-9.555905e-001	2.616709e-001
271445.000	-9.550237e-001	2.639812e-001
273440.000	-9.548681e-001	2.659188e-001
275435.000	-9.545864e-001	2.674018e-001
277430.000	-9.535945e-001	2.693621e-001
279425.000	-9.530510e-001	2.715099e-001
281420.000	-9.526967e-001	2.726160e-001
283415.000	-9.524876e-001	2.749789e-001
285410.000	-9.516313e-001	2.769505e-001
287405.000	-9.507863e-001	2.782416e-001
289400.000	-9.504781e-001	2.803304e-001
291395.000	-9.496722e-001	2.823775e-001
293390.000	-9.492621e-001	2.840566e-001
295385.000	-9.488639e-001	2.855749e-001
297380.000	-9.482404e-001	2.877166e-001
299375.000	-9.477638e-001	2.896547e-001
301370.000	-9.471505e-001	2.911024e-001
303365.000	-9.464204e-001	2.930827e-001
305360.000	-9.456363e-001	2.947904e-001
307355.000	-9.457104e-001	2.966219e-001
309350.000	-9.448619e-001	2.986180e-001
311345.000	-9.439311e-001	3.004277e-001
313340.000	-9.437247e-001	3.024529e-001
315335.000	-9.429150e-001	3.043625e-001
317330.000	-9.423916e-001	3.059316e-001
319325.000	-9.417689e-001	3.077889e-001
321320.000	-9.412638e-001	3.094622e-001
323315.000	-9.405161e-001	3.113362e-001
325310.000	-9.401386e-001	3.135992e-001
327305.000	-9.396621e-001	3.149920e-001
329300.000	-9.386718e-001	3.166194e-001
331295.000	-9.383050e-001	3.186203e-001
333290.000	-9.371845e-001	3.204281e-001
335285.000	-9.368956e-001	3.220937e-001
337280.000	-9.364709e-001	3.240780e-001
339275.000	-9.354117e-001	3.257910e-001
341270.000	-9.347088e-001	3.273661e-001
343265.000	-9.342795e-001	3.292939e-001
345260.000	-9.339290e-001	3.309961e-001
347255.000	-9.332355e-001	3.330626e-001
349250.000	-9.323098e-001	3.348601e-001
351245.000	-9.317421e-001	3.364359e-001
353240.000	-9.307339e-001	3.381775e-001
355235.000	-9.306189e-001	3.399571e-001
357230.000	-9.298301e-001	3.417303e-001
359225.000	-9.289763e-001	3.436475e-001
361220.000	-9.285637e-001	3.455457e-001
363215.000	-9.275139e-001	3.468762e-001
365210.000	-9.273988e-001	3.490679e-001
367205.000	-9.267574e-001	3.506610e-001
369200.000	-9.257671e-001	3.527686e-001
371195.000	-9.252481e-001	3.545895e-001
373190.000	-9.245562e-001	3.560524e-001
375185.000	-9.236210e-001	3.578702e-001
377180.000	-9.230744e-001	3.597873e-001
379175.000	-9.224201e-001	3.612686e-001
381170.000	-9.217338e-001	3.631065e-001
383165.000	-9.207284e-001	3.649811e-001
385160.000	-9.206416e-001	3.668442e-001
387155.000	-9.195307e-001	3.684188e-001
389150.000	-9.189726e-001	3.702217e-001
391145.000	-9.181428e-001	3.717554e-001
393140.000	-9.173577e-001	3.739101e-001
395135.000	-9.164504e-001	3.752614e-001
397130.000	-9.158331e-001	3.772896e-001
399125.000	-9.153751e-001	3.787167e-001
401120.000	-9.141833e-001	3.802934e-001
403115.000	-9.138595e-001	3.824807e-001
405110.000	-9.131438e-001	3.837088e-001
407105.000	-9.127093e-001	3.857389e-001
409100.000	-9.119052e-001	3.878155e-001
411095.000	-9.108980e-001	3.894598e-001
413090.000	-9.102149e-001	3.908509e-001
415085.000	-9.094237e-001	3.928627e-001
417080.000	-9.087778e-001	3.945784e-001
419075.000	-9.077259e-001	3.961543e-001
421070.000	-9.074415e-001	3.978256e-001
423065.000	-9.063593e-001	3.993942e-001
425060.000	-9.054752e-001	4.013120e-001
427055.000	-9.049890e-001	4.027898e-001
429050.000	-9.040765e-001	4.046283e-001
431045.000	-9.032187e-001	4.063935e-001
433040.000	-9.023280e-001	4.079342e-001
435035.000	-9.015920e-001	4.098847e-001
437030.000	-9.009893e-001	4.116205e-001
439025.000	-9.002132e-001	4.131755e-001
441020.000	-8.996220e-001	4.147838e-001
443015.000	-8.986839e-001	4.166447e-001
445010.000	-8.979977e-001	4.181412e-001
447005.000	-8.973605e-001	4.197063e-001
449000.000	-8.960016e-001	4.211801e-001
450995.000	-8.957588e-001	4.232003e-001
452990.000	-8.944754e-001	4.249989e-001
454985.000	-8.935092e-001	4.264794e-001
456980.000	-8.928767e-001	4.281699e-001
458975.000	-8.919279e-001	4.301496e-001
460970.000	-8.913810e-001	4.317789e-001
462965.000	-8.908124e-001	4.334605e-001
464960.000	-8.897616e-001	4.345845e-001
466955.000	-8.886324e-001	4.368585e-001
468950.000	-8.882410e-001	4.382279e-001
470945.000	-8.871225e-001	4.398805e-001
472940.000	-8.864869e-001	4.414698e-001
474935.000	-8.856719e-001	4.431548e-001
476930.000	-8.849713e-001	4.448718e-001
478925.000	-8.846386e-001	4.465572e-001
480920.000	-8.830792e-001	4.483744e-001
482915.000	-8.823609e-001	4.497846e-001
484910.000	-8.814698e-001	4.514427e-001
486905.000	-8.805111e-001	4.533345e-001
488900.000	-8.798579e-001	4.547765e-001
490895.000	-8.788948e-001	4.565393e-001
492890.000	-8.779687e-001	4.580279e-001
494885.000	-8.774472e-001	4.598333e-001
496880.000	-8.761922e-001	4.613792e-001
498875.000	-8.755404e-001	4.629839e-001
500870.000	-8.745843e-001	4.646100e-001
502865.000	-8.739300e-001	4.660697e-001
504860.000	-8.728643e-001	4.679818e-001
506855.000	-8.719214e-001	4.693731e-001
508850.000	-8.710522e-001	4.709123e-001
510845.000	-8.705359e-001	4.725120e-001
512840.000	-8.693988e-001	4.744980e-001
514835.000	-8.684837e-001	4.755670e-001
516830.000	-8.671001e-001	4.774040e-001
518825.000	-8.669649e-001	4.790933e-001
520820.000	-8.659474e-001	4.806717e-001
522815.000	-8.648597e-001	4.824485e-001
524810.000	-8.642692e-001	4.837129e-001
526805.000	-8.632539e-001	4.854047e-001
528800.000	-8.623067e-001	4.872824e-001
530795.000	-8.609748e-001	4.893189e-001
532790.000	-8.603681e-001	4.900335e-001
534785.000	-8.592158e-001	4.917616e-001
536780.000	-8.588753e-001	4.934048e-001
538775.000	-8.579502e-001	4.951823e-001
540770.000	-8.569520e-001	4.963891e-001
542765.000	-8.556748e-001	4.985469e-001
544760.000	-8.547916e-001	5.000454e-001
546755.000	-8.538851e-001	5.013151e-001
548750.000	-8.528307e-001	5.028589e-001
550745.000	-8.521028e-001	5.041955e-001
552740.000	-8.514128e-001	5.059845e-001
554735.000	-8.501546e-001	5.072897e-001
556730.000	-8.496510e-001	5.092616e-001
558725.000	-8.482037e-001	5.106161e-001
560720.000	-8.473516e-001	5.123976e-001
562715.000	-8.465535e-001	5.141976e-001
564710.000	-8.457862e-001	5.157133e-001
566705.000	-8.445839e-001	5.167258e-001
568700.000	-8.436171e-001	5.185734e-001
570695.000	-8.428655e-001	5.197422e-001
572690.000	-8.417905e-001	5.216263e-001
574685.000	-8.407388e-001	5.230438e-001
576680.000	-8.398898e-001	5.243928e-001
578675.000	-8.387493e-001	5.260574e-001
580670.000	-8.379296e-001	5.277421e-001
582665.000	-8.368732e-001	5.292594e-001
584660.000	-8.358984e-001	5.307046e-001
586655.000	-8.352152e-001	5.322395e-001
588650.000	-8.339147e-001	5.337866e-001
590645.000	-8.330728e-001	5.352111e-001
592640.000	-8.324449e-001	5.366477e-001
594635.000	-8.311017e-001	5.384764e-001
596630.000	-8.300703e-001	5.400442e-001
598625.000	-8.287920e-001	5.411770e-001
600620.000	-8.282149e-001	5.428132e-001
602615.000	-8.270706e-001	5.442950e-001
604610.000	-8.261566e-001	5.458835e-001
606605.000	-8.252716e-001	5.473835e-001
608600.000	-8.237816e-001	5.487434e-001
610595.000	-8.231212e-001	5.505878e-001
612590.000	-8.220352e-001	5.521042e-001
614585.000	-8.213973e-001	5.533342e-001
616580.000	-8.202921e-001	5.549328e-001
618575.000	-8.191792e-001	5.559129e-001
620570.000	-8.181917e-001	5.575002e-001
622565.000	-8.172972e-001	5.593869e-001
624560.000	-8.158501e-001	5.608653e-001
626555.000	-8.153627e-001	5.622060e-001
628550.000	-8.138445e-001	5.639028e-001
630545.000	-8.133520e-001	5.650997e-001
632540.000	-8.119361e-001	5.666368e-001
634535.000	-8.108983e-001	5.680476e-001
636530.000	-8.097026e-001	5.694607e-001
638525.000	-8.090143e-001	5.707706e-001
640520.000	-8.079572e-001	5.723573e-001
642515.000	-8.067757e-001	5.739241e-001
644510.000	-8.055197e-001	5.754028e-001
646505.000	-8.051071e-001	5.766932e-001
648500.000	-8.041161e-001	5.783781e-001
650495.000	-8.027654e-001	5.794947e-001
652490.000	-8.021708e-001	5.810723e-001
654485.000	-8.008341e-001	5.826388e-001
656480.000	-7.999895e-001	5.840900e-001
658475.000	-7.989645e-001	5.855842e-001
660470.000	-7.977991e-001	5.868864e-001
662465.000	-7.968274e-001	5.881664e-001
664460.000	-7.953032e-001	5.896616e-001
666455.000	-7.947535e-001	5.907295e-001
668450.000	-7.933865e-001	5.927145e-001
670445.000	-7.923506e-001	5.938587e-001
672440.000	-7.913301e-001	5.954219e-001
674435.000	-7.902028e-001	5.966211e-001
676430.000	-7.895091e-001	5.981980e-001
678425.000	-7.880704e-001	5.996916e-001
680420.000	-7.871808e-001	6.010819e-001
682415.000	-7.860387e-001	6.023429e-001
684410.000	-7.849014e-001	6.039496e-001
686405.000	-7.835255e-001	6.051699e-001
688400.000	-7.828267e-001	6.064281e-001
690395.000	-7.815475e-001	6.079927e-001
692390.000	-7.808047e-001	6.093297e-001
694385.000	-7.792885e-001	6.106967e-001
696380.000	-7.782726e-001	6.117598e-001
698375.000	-7.773255e-001	6.132999e-001
700370.000	-7.762491e-001	6.146356e-001
702365.000	-7.751460e-001	6.163798e-001
704360.000	-7.742233e-001	6.175725e-001
706355.000	-7.727474e-001	6.188019e-001
708350.000	-7.718729e-001	6.202449e-001
710345.000	-7.705777e-001	6.215180e-001
712340.000	-7.698920e-001	6.228872e-001
714335.000	-7.689037e-001	6.240297e-001
716330.000	-7.672675e-001	6.255801e-001
718325.000	-7.666116e-001	6.270212e-001
720320.000	-7.652460e-001	6.281364e-001
722315.000	-7.646441e-001	6.293509e-001
724310.000	-7.630105e-001	6.310542e-001
726305.000	-7.620965e-001	6.320716e-001
728300.000	-7.608537e-001	6.335601e-001
730295.000	-7.598205e-001	6.348722e-001
732290.000	-7.584064e-001	6.360612e-001
734285.000	-7.573130e-001	6.375318e-001
736280.000	-7.564321e-001	6.388566e-001
738275.000	-7.554806e-001	6.403636e-001
740270.000	-7.542437e-001	6.413982e-001
742265.000	-7.533380e-001	6.430024e-001
744260.000	-7.522124e-001	6.443150e-001
746255.000	-7.508794e-001	6.454990e-001
748250.000	-7.497396e-001	6.468694e-001
750245.000	-7.486064e-001	6.483073e-001
752240.000	-7.475903e-001	6.495588e-001
754235.000	-7.466861e-001	6.507841e-001
756230.000	-7.454732e-001	6.519557e-001
758225.000	-7.443973e-001	6.536027e-001
760220.000	-7.429803e-001	6.544998e-001
762215.000	-7.417988e-001	6.562119e-001
764210.000	-7.409119e-001	6.574323e-001
766205.000	-7.394483e-001	6.584908e-001
768200.000	-7.384207e-001	6.598928e-001
770195.000	-7.372616e-001	6.611715e-001
772190.000	-7.361467e-001	6.621975e-001
774185.000	-7.349525e-001	6.632393e-001
776180.000	-7.337604e-001	6.648069e-001
778175.000	-7.326765e-001	6.660433e-001
780170.000	-7.316259e-001	6.671270e-001
782165.000	-7.304508e-001	6.687398e-001
784160.000	-7.290815e-001	6.701852e-001
786155.000	-7.282547e-001	6.712134e-001
788150.000	-7.269842e-001	6.722613e-001
790145.000	-7.260056e-001	6.733929e-001
792140.000	-7.248164e-001	6.750722e-001
794135.000	-7.232615e-001	6.761124e-001
796130.000	-7.225238e-001	6.773980e-001
798125.000	-7.212337e-001	6.786736e-001
800120.000	-7.198762e-001	6.799106e-001
802115.000	-7.190876e-001	6.810872e-001
804110.000	-7.178351e-001	6.822211e-001
806105.000	-7.164480e-001	6.836044e-001
808100.000	-7.154989e-001	6.845136e-001
810095.000	-7.143641e-001	6.860527e-001
812090.000	-7.131186e-001	6.871418e-001
814085.000	-7.117705e-001	6.883149e-001
816080.000	-7.106174e-001	6.893159e-001
818075.000	-7.094964e-001	6.909132e-001
820070.000	-7.080389e-001	6.919459e-001
822065.000	-7.070223e-001	6.931547e-001
824060.000	-7.063136e-001	6.942335e-001
826055.000	-7.046265e-001	6.953814e-001
828050.000	-7.033715e-001	6.967379e-001
830045.000	-7.022763e-001	6.977021e-001
832040.000	-7.010074e-001	6.994191e-001
834035.000	-6.998151e-001	6.999989e-001
836030.000	-6.988737e-001	7.014382e-001
838025.000	-6.977461e-001	7.026989e-001
840020.000	-6.965723e-001	7.038963e-001
842015.000	-6.950717e-001	7.048852e-001
844010.000	-6.941550e-001	7.063016e-001
846005.000	-6.928763e-001	7.074348e-001
848000.000	-6.919644e-001	7.086888e-001
849995.000	-6.905201e-001	7.097425e-001
851990.000	-6.895450e-001	7.108343e-001
853985.000	-6.881918e-001	7.116015e-001
855980.000	-6.872361e-001	7.134666e-001
857975.000	-6.857479e-001	7.142144e-001
859970.000	-6.843420e-001	7.154397e-001
861965.000	-6.831742e-001	7.163845e-001
863960.000	-6.819983e-001	7.177818e-001
865955.000	-6.809028e-001	7.189231e-001
867950.000	-6.795588e-001	7.199001e-001
869945.000	-6.785600e-001	7.211435e-001
871940.000	-6.774650e-001	7.223299e-001
873935.000	-6.760895e-001	7.231506e-001
875930.000	-6.751367e-001	7.242986e-001
877925.000	-6.734079e-001	7.256229e-001
879920.000	-6.725161e-001	7.268414e-001
881915.000	-6.714713e-001	7.275584e-001
883910.000	-6.699934e-001	7.288844e-001
885905.000	-6.689623e-001	7.299716e-001
887900.000	-6.674691e-001	7.311682e-001
889895.000	-6.663329e-001	7.323583e-001
891890.000	-6.651892e-001	7.330945e-001
893885.000	-6.640040e-001	7.345809e-001
895880.000	-6.627400e-001	7.355681e-001
897875.000	-6.615478e-001	7.368200e-001
899870.000	-6.603444e-001	7.377191e-001
901865.000	-6.586058e-001	7.387187e-001
903860.000	-6.575493e-001	7.393289e-001
905855.000	-6.563118e-001	7.410059e-001
907850.000	-6.555082e-001	7.419943e-001
909845.000	-6.544511e-001	7.431361e-001
911840.000	-6.530354e-001	7.440839e-001
913835.000	-6.519281e-001	7.451722e-001
915830.000	-6.504041e-001	7.460780e-001
917825.000	-6.495863e-001	7.471831e-001
919820.000	-6.483728e-001	7.485128e-001
921815.000	-6.469742e-001	7.495555e-001
923810.000	-6.456405e-001	7.504790e-001
925805.000	-6.447120e-001	7.516131e-001
927800.000	-6.432367e-001	7.527632e-001
929795.000	-6.423906e-001	7.537536e-001
931790.000	-6.410973e-001	7.546400e-001
933785.000	-6.394645e-001	7.558577e-001
935780.000	-6.386254e-001	7.565616e-001
937775.000	-6.373462e-001	7.578374e-001
939770.000	-6.358804e-001	7.586587e-001
941765.000	-6.344519e-001	7.600103e-001
943760.000	-6.334642e-001	7.609504e-001
945755.000	-6.320879e-001	7.621117e-001
947750.000	-6.307983e-001	7.634158e-001
949745.000	-6.298195e-001	7.641010e-001
951740.000	-6.285878e-001	7.652233e-001
953735.000	-6.270793e-001	7.665353e-001
955730.000	-6.256993e-001	7.670592e-001
957725.000	-6.250737e-001	7.683838e-001
959720.000	-6.235279e-001	7.692374e-001
961715.000	-6.221676e-001	7.701374e-001
963710.000	-6.206394e-001	7.713465e-001
965705.000	-6.197085e-001	7.723149e-001
967700.000	-6.187917e-001	7.731667e-001
969695.000	-6.173205e-001	7.739997e-001
971690.000	-6.161169e-001	7.754942e-001
973685.000	-6.149826e-001	7.760162e-001
975680.000	-6.135538e-001	7.773794e-001
977675.000	-6.121950e-001	7.782173e-001
979670.000	-6.111485e-001	7.788740e-001
981665.000	-6.098267e-001	7.804931e-001
983660.000	-6.087623e-001	7.808193e-001
985655.000	-6.073310e-001	7.821310e-001
987650.000	-6.061290e-001	7.831935e-001
989645.000	-6.050019e-001	7.840914e-001
991640.000	-6.034282e-001	7.847968e-001
993635.000	-6.023509e-001	7.860731e-001
995630.000	-6.009236e-001	7.867507e-001
997625.000	-5.997826e-001	7.880392e-001
999620.000	-5.981824e-001	7.887823e-001
1001615.000	-5.973996e-001	7.897280e-001
1003610.000	-5.963194e-001	7.907373e-001
1005605.000	-5.946946e-001	7.917144e-001
1007600.000	-5.934198e-001	7.923117e-001
1009595.000	-5.921568e-001	7.935511e-001
1011590.000	-5.907751e-001	7.945606e-001
1013585.000	-5.898036e-001	7.953974e-001
1015580.000	-5.883623e-001	7.962167e-001
1017575.000	-5.873447e-001	7.975665e-001
1019570.000	-5.861073e-001	7.982865e-001
1021565.000	-5.848085e-001	7.992668e-001
1023560.000	-5.835179e-001	8.000418e-001
1025555.000	-5.821659e-001	8.009768e-001
1027550.000	-5.808944e-001	8.018922e-001
1029545.000	-5.798237e-001	8.029848e-001
1031540.000	-5.785045e-001	8.034448e-001
1033535.000	-5.772493e-001	8.045363e-001
1035530.000	-5.759459e-001	8.056333e-001
1037525.000	-5.746526e-001	8.061539e-001
