!Keysight Technologies,E5063A,MY54100949,A.07.30
!Date: Thu Dec 18 19:27:28 2025
!Data & Calibration Information:
!Freq	S22:SOLT1(ON)
# Hz S RI R 50
50000.000	-9.910030e-001	4.807735e-002
51995.000	-9.911532e-001	5.025504e-002
53990.000	-9.918526e-001	5.234092e-002
55985.000	-9.916822e-001	5.353478e-002
57980.000	-9.914627e-001	5.526497e-002
59975.000	-9.917064e-001	5.687714e-002
61970.000	-9.913720e-001	5.881059e-002
63965.000	-9.907067e-001	6.050666e-002
65960.000	-9.913823e-001	6.212256e-002
67955.000	-9.909304e-001	6.355972e-002
69950.000	-9.904572e-001	6.558798e-002
71945.000	-9.902362e-001	6.721166e-002
73940.000	-9.903271e-001	6.821461e-002
75935.000	-9.899945e-001	7.015410e-002
77930.000	-9.902666e-001	7.209954e-002
79925.000	-9.898353e-001	7.409743e-002
81920.000	-9.900778e-001	7.540398e-002
83915.000	-9.895706e-001	7.731771e-002
85910.000	-9.889691e-001	7.873296e-002
87905.000	-9.891045e-001	8.032890e-002
89900.000	-9.882400e-001	8.181357e-002
91895.000	-9.887840e-001	8.404018e-002
93890.000	-9.882605e-001	8.521047e-002
95885.000	-9.887768e-001	8.717031e-002
97880.000	-9.878962e-001	8.823427e-002
99875.000	-9.880272e-001	8.929730e-002
101870.000	-9.876334e-001	9.188896e-002
103865.000	-9.877334e-001	9.390474e-002
105860.000	-9.871553e-001	9.496111e-002
107855.000	-9.868707e-001	9.725143e-002
109850.000	-9.872031e-001	9.846634e-002
111845.000	-9.865463e-001	1.003550e-001
113840.000	-9.864928e-001	1.022016e-001
115835.000	-9.862466e-001	1.037414e-001
117830.000	-9.859364e-001	1.058592e-001
119825.000	-9.859342e-001	1.072699e-001
121820.000	-9.861670e-001	1.088178e-001
123815.000	-9.853088e-001	1.102860e-001
125810.000	-9.850565e-001	1.123909e-001
127805.000	-9.854118e-001	1.140602e-001
129800.000	-9.850851e-001	1.153416e-001
131795.000	-9.848993e-001	1.175328e-001
133790.000	-9.846965e-001	1.189757e-001
135785.000	-9.842631e-001	1.210032e-001
137780.000	-9.841383e-001	1.223234e-001
139775.000	-9.836970e-001	1.241931e-001
141770.000	-9.839726e-001	1.259064e-001
143765.000	-9.834080e-001	1.273856e-001
145760.000	-9.834844e-001	1.292738e-001
147755.000	-9.829260e-001	1.314430e-001
149750.000	-9.824851e-001	1.329254e-001
151745.000	-9.823581e-001	1.349706e-001
153740.000	-9.822046e-001	1.361225e-001
155735.000	-9.823017e-001	1.376412e-001
157730.000	-9.817446e-001	1.394868e-001
159725.000	-9.812588e-001	1.413054e-001
161720.000	-9.812902e-001	1.428042e-001
163715.000	-9.812598e-001	1.447011e-001
165710.000	-9.805284e-001	1.467509e-001
167705.000	-9.802723e-001	1.484511e-001
169700.000	-9.801625e-001	1.500215e-001
171695.000	-9.798059e-001	1.516043e-001
173690.000	-9.798797e-001	1.532507e-001
175685.000	-9.793182e-001	1.552084e-001
177680.000	-9.791389e-001	1.568360e-001
179675.000	-9.788400e-001	1.584480e-001
181670.000	-9.786850e-001	1.599831e-001
183665.000	-9.783047e-001	1.614620e-001
185660.000	-9.775480e-001	1.632765e-001
187655.000	-9.774867e-001	1.652001e-001
189650.000	-9.771092e-001	1.671031e-001
191645.000	-9.767984e-001	1.685773e-001
193640.000	-9.763363e-001	1.697795e-001
195635.000	-9.762294e-001	1.719744e-001
197630.000	-9.760529e-001	1.737320e-001
199625.000	-9.754130e-001	1.754884e-001
201620.000	-9.753819e-001	1.770209e-001
203615.000	-9.750096e-001	1.783582e-001
205610.000	-9.747772e-001	1.805240e-001
207605.000	-9.741673e-001	1.823341e-001
209600.000	-9.740609e-001	1.835783e-001
211595.000	-9.740488e-001	1.854386e-001
213590.000	-9.733485e-001	1.872368e-001
215585.000	-9.728752e-001	1.890513e-001
217580.000	-9.727947e-001	1.907833e-001
219575.000	-9.723647e-001	1.924561e-001
221570.000	-9.720708e-001	1.937276e-001
223565.000	-9.716175e-001	1.956242e-001
225560.000	-9.712468e-001	1.976354e-001
227555.000	-9.712111e-001	1.992667e-001
229550.000	-9.707121e-001	2.008114e-001
231545.000	-9.703643e-001	2.024341e-001
233540.000	-9.698477e-001	2.042217e-001
235535.000	-9.693346e-001	2.059094e-001
237530.000	-9.692925e-001	2.075927e-001
239525.000	-9.686318e-001	2.097371e-001
241520.000	-9.685568e-001	2.111065e-001
243515.000	-9.676962e-001	2.129981e-001
245510.000	-9.676767e-001	2.141895e-001
247505.000	-9.672986e-001	2.157571e-001
249500.000	-9.669753e-001	2.177269e-001
251495.000	-9.661917e-001	2.198633e-001
253490.000	-9.660747e-001	2.207377e-001
255485.000	-9.656999e-001	2.224780e-001
257480.000	-9.650683e-001	2.241009e-001
259475.000	-9.644983e-001	2.258963e-001
261470.000	-9.646721e-001	2.277775e-001
263465.000	-9.640615e-001	2.294879e-001
265460.000	-9.635917e-001	2.309903e-001
267455.000	-9.629477e-001	2.323950e-001
269450.000	-9.625508e-001	2.342166e-001
271445.000	-9.621774e-001	2.362280e-001
273440.000	-9.620331e-001	2.380940e-001
275435.000	-9.618209e-001	2.393340e-001
277430.000	-9.608415e-001	2.410266e-001
279425.000	-9.604645e-001	2.430815e-001
281420.000	-9.602365e-001	2.439979e-001
283415.000	-9.600027e-001	2.461901e-001
285410.000	-9.594074e-001	2.479785e-001
287405.000	-9.586294e-001	2.491479e-001
289400.000	-9.585329e-001	2.508492e-001
291395.000	-9.577096e-001	2.528476e-001
293390.000	-9.574105e-001	2.544350e-001
295385.000	-9.571502e-001	2.556570e-001
297380.000	-9.564853e-001	2.575482e-001
299375.000	-9.561868e-001	2.593661e-001
301370.000	-9.557869e-001	2.606620e-001
303365.000	-9.552467e-001	2.624594e-001
305360.000	-9.545285e-001	2.640097e-001
307355.000	-9.546237e-001	2.657340e-001
309350.000	-9.539077e-001	2.674484e-001
311345.000	-9.531165e-001	2.690186e-001
313340.000	-9.530008e-001	2.709088e-001
315335.000	-9.522693e-001	2.726266e-001
317330.000	-9.518589e-001	2.740481e-001
319325.000	-9.513661e-001	2.756916e-001
321320.000	-9.509842e-001	2.772755e-001
323315.000	-9.503990e-001	2.789372e-001
325310.000	-9.500888e-001	2.809833e-001
327305.000	-9.497374e-001	2.822519e-001
329300.000	-9.488727e-001	2.837741e-001
331295.000	-9.486307e-001	2.854802e-001
333290.000	-9.476087e-001	2.871661e-001
335285.000	-9.474802e-001	2.886411e-001
337280.000	-9.471971e-001	2.904854e-001
339275.000	-9.461425e-001	2.921952e-001
341270.000	-9.455568e-001	2.933341e-001
343265.000	-9.453776e-001	2.952031e-001
345260.000	-9.450176e-001	2.967825e-001
347255.000	-9.445752e-001	2.986438e-001
349250.000	-9.436358e-001	3.001590e-001
351245.000	-9.433281e-001	3.017286e-001
353240.000	-9.422655e-001	3.031784e-001
355235.000	-9.423209e-001	3.050274e-001
357230.000	-9.417584e-001	3.064692e-001
359225.000	-9.409633e-001	3.081211e-001
361220.000	-9.407715e-001	3.099371e-001
363215.000	-9.398559e-001	3.110450e-001
365210.000	-9.399230e-001	3.132273e-001
367205.000	-9.392798e-001	3.145516e-001
369200.000	-9.384764e-001	3.164234e-001
371195.000	-9.382702e-001	3.181295e-001
373190.000	-9.376140e-001	3.194676e-001
375185.000	-9.366691e-001	3.210210e-001
377180.000	-9.362754e-001	3.229770e-001
379175.000	-9.358373e-001	3.241721e-001
381170.000	-9.352542e-001	3.258852e-001
383165.000	-9.343633e-001	3.275827e-001
385160.000	-9.346001e-001	3.292021e-001
387155.000	-9.334879e-001	3.307450e-001
389150.000	-9.329469e-001	3.323933e-001
391145.000	-9.323750e-001	3.337587e-001
393140.000	-9.317188e-001	3.356844e-001
395135.000	-9.309910e-001	3.369682e-001
397130.000	-9.304153e-001	3.389917e-001
399125.000	-9.301380e-001	3.401382e-001
401120.000	-9.289845e-001	3.415999e-001
403115.000	-9.287830e-001	3.435545e-001
405110.000	-9.282986e-001	3.447426e-001
407105.000	-9.280294e-001	3.465579e-001
409100.000	-9.273121e-001	3.484344e-001
411095.000	-9.264589e-001	3.501470e-001
413090.000	-9.259938e-001	3.511491e-001
415085.000	-9.253028e-001	3.530658e-001
417080.000	-9.248115e-001	3.545772e-001
419075.000	-9.239436e-001	3.559906e-001
421070.000	-9.237755e-001	3.575799e-001
423065.000	-9.227632e-001	3.589829e-001
425060.000	-9.221267e-001	3.607032e-001
427055.000	-9.217311e-001	3.620606e-001
429050.000	-9.208996e-001	3.637884e-001
431045.000	-9.203123e-001	3.651984e-001
433040.000	-9.195373e-001	3.667927e-001
435035.000	-9.188996e-001	3.686306e-001
437030.000	-9.184990e-001	3.701059e-001
439025.000	-9.177532e-001	3.717345e-001
441020.000	-9.173275e-001	3.730729e-001
443015.000	-9.165949e-001	3.747602e-001
445010.000	-9.160269e-001	3.761737e-001
447005.000	-9.155413e-001	3.775966e-001
449000.000	-9.141960e-001	3.788005e-001
450995.000	-9.141726e-001	3.807989e-001
452990.000	-9.130872e-001	3.823966e-001
454985.000	-9.123261e-001	3.838488e-001
456980.000	-9.118486e-001	3.853643e-001
458975.000	-9.110428e-001	3.871703e-001
460970.000	-9.106065e-001	3.887131e-001
462965.000	-9.101940e-001	3.901321e-001
464960.000	-9.092803e-001	3.912697e-001
466955.000	-9.084931e-001	3.933002e-001
468950.000	-9.082010e-001	3.946646e-001
470945.000	-9.071474e-001	3.961297e-001
472940.000	-9.066016e-001	3.976616e-001
474935.000	-9.059923e-001	3.989829e-001
476930.000	-9.053590e-001	4.007935e-001
478925.000	-9.052592e-001	4.022096e-001
480920.000	-9.039414e-001	4.039452e-001
482915.000	-9.033390e-001	4.051781e-001
484910.000	-9.025410e-001	4.066093e-001
486905.000	-9.017996e-001	4.082394e-001
488900.000	-9.012493e-001	4.098514e-001
490895.000	-9.005041e-001	4.114062e-001
492890.000	-8.997973e-001	4.128517e-001
494885.000	-8.992424e-001	4.144324e-001
496880.000	-8.983146e-001	4.159369e-001
498875.000	-8.977620e-001	4.173674e-001
500870.000	-8.970340e-001	4.187989e-001
502865.000	-8.964530e-001	4.201813e-001
504860.000	-8.956009e-001	4.220162e-001
506855.000	-8.947542e-001	4.233504e-001
508850.000	-8.940356e-001	4.247388e-001
510845.000	-8.937753e-001	4.261452e-001
512840.000	-8.928609e-001	4.280467e-001
514835.000	-8.919855e-001	4.289804e-001
516830.000	-8.908278e-001	4.308690e-001
518825.000	-8.907709e-001	4.322363e-001
520820.000	-8.899260e-001	4.336925e-001
522815.000	-8.890664e-001	4.354300e-001
524810.000	-8.885777e-001	4.364966e-001
526805.000	-8.878762e-001	4.380363e-001
528800.000	-8.870834e-001	4.399237e-001
530795.000	-8.859393e-001	4.417292e-001
532790.000	-8.854506e-001	4.424368e-001
534785.000	-8.845026e-001	4.440335e-001
536780.000	-8.841152e-001	4.455706e-001
538775.000	-8.835007e-001	4.471893e-001
540770.000	-8.825574e-001	4.482399e-001
542765.000	-8.816087e-001	4.503869e-001
544760.000	-8.809012e-001	4.518437e-001
546755.000	-8.800994e-001	4.527470e-001
548750.000	-8.793171e-001	4.544427e-001
550745.000	-8.786494e-001	4.557487e-001
552740.000	-8.781899e-001	4.571632e-001
554735.000	-8.768995e-001	4.585153e-001
556730.000	-8.767257e-001	4.601349e-001
558725.000	-8.754843e-001	4.616377e-001
560720.000	-8.748036e-001	4.633741e-001
562715.000	-8.741950e-001	4.650327e-001
564710.000	-8.735732e-001	4.663206e-001
566705.000	-8.724909e-001	4.672769e-001
568700.000	-8.717414e-001	4.690291e-001
570695.000	-8.710537e-001	4.700373e-001
572690.000	-8.702256e-001	4.719147e-001
574685.000	-8.693813e-001	4.730790e-001
576680.000	-8.686567e-001	4.745139e-001
578675.000	-8.676978e-001	4.760173e-001
580670.000	-8.670657e-001	4.775057e-001
582665.000	-8.661670e-001	4.790235e-001
584660.000	-8.653164e-001	4.803357e-001
586655.000	-8.648321e-001	4.816642e-001
588650.000	-8.637260e-001	4.831675e-001
590645.000	-8.631117e-001	4.846058e-001
592640.000	-8.626247e-001	4.859416e-001
594635.000	-8.614444e-001	4.876502e-001
596630.000	-8.604563e-001	4.891351e-001
598625.000	-8.594999e-001	4.901789e-001
600620.000	-8.590644e-001	4.918317e-001
602615.000	-8.582011e-001	4.930623e-001
604610.000	-8.573654e-001	4.945921e-001
606605.000	-8.566163e-001	4.959790e-001
608600.000	-8.552420e-001	4.973188e-001
610595.000	-8.548662e-001	4.990135e-001
612590.000	-8.541476e-001	5.004096e-001
614585.000	-8.534668e-001	5.016440e-001
616580.000	-8.525060e-001	5.030924e-001
618575.000	-8.515831e-001	5.039677e-001
620570.000	-8.508461e-001	5.055657e-001
622565.000	-8.501641e-001	5.072415e-001
624560.000	-8.489238e-001	5.086869e-001
626555.000	-8.486053e-001	5.099332e-001
628550.000	-8.471928e-001	5.115355e-001
630545.000	-8.468529e-001	5.126909e-001
632540.000	-8.457661e-001	5.141356e-001
634535.000	-8.447848e-001	5.153930e-001
636530.000	-8.438872e-001	5.167701e-001
638525.000	-8.432587e-001	5.180543e-001
640520.000	-8.424402e-001	5.194796e-001
642515.000	-8.414088e-001	5.211793e-001
644510.000	-8.402639e-001	5.224720e-001
646505.000	-8.401211e-001	5.237607e-001
648500.000	-8.393561e-001	5.252190e-001
650495.000	-8.380746e-001	5.262541e-001
652490.000	-8.376139e-001	5.277608e-001
654485.000	-8.366573e-001	5.292800e-001
656480.000	-8.358061e-001	5.305985e-001
658475.000	-8.351495e-001	5.320811e-001
660470.000	-8.340548e-001	5.334571e-001
662465.000	-8.332683e-001	5.344380e-001
664460.000	-8.319560e-001	5.358765e-001
666455.000	-8.314986e-001	5.368457e-001
668450.000	-8.304018e-001	5.387764e-001
670445.000	-8.295620e-001	5.399029e-001
672440.000	-8.286125e-001	5.413406e-001
674435.000	-8.277568e-001	5.425363e-001
676430.000	-8.271365e-001	5.439809e-001
678425.000	-8.259743e-001	5.454135e-001
680420.000	-8.251738e-001	5.468192e-001
682415.000	-8.242038e-001	5.479911e-001
684410.000	-8.233522e-001	5.496237e-001
686405.000	-8.222015e-001	5.507159e-001
688400.000	-8.215885e-001	5.518039e-001
690395.000	-8.205326e-001	5.533359e-001
692390.000	-8.199660e-001	5.546257e-001
694385.000	-8.186837e-001	5.559749e-001
696380.000	-8.178319e-001	5.569500e-001
698375.000	-8.171061e-001	5.582631e-001
700370.000	-8.160892e-001	5.597676e-001
702365.000	-8.153377e-001	5.613234e-001
704360.000	-8.145023e-001	5.626371e-001
706355.000	-8.132680e-001	5.637256e-001
708350.000	-8.125038e-001	5.650155e-001
710345.000	-8.115016e-001	5.662765e-001
712340.000	-8.107671e-001	5.675840e-001
714335.000	-8.100773e-001	5.687503e-001
716330.000	-8.086317e-001	5.701165e-001
718325.000	-8.081777e-001	5.714590e-001
720320.000	-8.070868e-001	5.727306e-001
722315.000	-8.065004e-001	5.737132e-001
724310.000	-8.052245e-001	5.753239e-001
726305.000	-8.043847e-001	5.764645e-001
728300.000	-8.035403e-001	5.779500e-001
730295.000	-8.025551e-001	5.791088e-001
732290.000	-8.013042e-001	5.803596e-001
734285.000	-8.002937e-001	5.817413e-001
736280.000	-7.997296e-001	5.830767e-001
738275.000	-7.988610e-001	5.843789e-001
740270.000	-7.978651e-001	5.853499e-001
742265.000	-7.972240e-001	5.870061e-001
744260.000	-7.962315e-001	5.882372e-001
746255.000	-7.950654e-001	5.893558e-001
748250.000	-7.941449e-001	5.907201e-001
750245.000	-7.932686e-001	5.920615e-001
752240.000	-7.922850e-001	5.932991e-001
754235.000	-7.916777e-001	5.944634e-001
756230.000	-7.904953e-001	5.956109e-001
758225.000	-7.897082e-001	5.970320e-001
760220.000	-7.885594e-001	5.981620e-001
762215.000	-7.874771e-001	5.996989e-001
764210.000	-7.868836e-001	6.007355e-001
766205.000	-7.853383e-001	6.020323e-001
768200.000	-7.847696e-001	6.033186e-001
770195.000	-7.836099e-001	6.044963e-001
772190.000	-7.827911e-001	6.055390e-001
774185.000	-7.816964e-001	6.066509e-001
776180.000	-7.807544e-001	6.080591e-001
778175.000	-7.798922e-001	6.094158e-001
780170.000	-7.790168e-001	6.102982e-001
782165.000	-7.780675e-001	6.119786e-001
784160.000	-7.768488e-001	6.133136e-001
786155.000	-7.762815e-001	6.143873e-001
788150.000	-7.750201e-001	6.153434e-001
790145.000	-7.743026e-001	6.164808e-001
792140.000	-7.731711e-001	6.180384e-001
794135.000	-7.718560e-001	6.192243e-001
796130.000	-7.713503e-001	6.203018e-001
798125.000	-7.701748e-001	6.214897e-001
800120.000	-7.691269e-001	6.228278e-001
802115.000	-7.685353e-001	6.239007e-001
804110.000	-7.673628e-001	6.250566e-001
806105.000	-7.662500e-001	6.265052e-001
808100.000	-7.654438e-001	6.273081e-001
810095.000	-7.644927e-001	6.287260e-001
812090.000	-7.634312e-001	6.298027e-001
814085.000	-7.624125e-001	6.311396e-001
816080.000	-7.613000e-001	6.320964e-001
818075.000	-7.604213e-001	6.336403e-001
820070.000	-7.590648e-001	6.346032e-001
822065.000	-7.584110e-001	6.357551e-001
824060.000	-7.577773e-001	6.368746e-001
826055.000	-7.561876e-001	6.380461e-001
828050.000	-7.553099e-001	6.392980e-001
830045.000	-7.543604e-001	6.402688e-001
832040.000	-7.532479e-001	6.419686e-001
834035.000	-7.521254e-001	6.426115e-001
836030.000	-7.514438e-001	6.439439e-001
838025.000	-7.503843e-001	6.451981e-001
840020.000	-7.496663e-001	6.462192e-001
842015.000	-7.481903e-001	6.473164e-001
844010.000	-7.475822e-001	6.487699e-001
846005.000	-7.462840e-001	6.498414e-001
848000.000	-7.455522e-001	6.509633e-001
849995.000	-7.444591e-001	6.521712e-001
851990.000	-7.436657e-001	6.532426e-001
853985.000	-7.424442e-001	6.540273e-001
855980.000	-7.417747e-001	6.557203e-001
857975.000	-7.402228e-001	6.565431e-001
859970.000	-7.392291e-001	6.577855e-001
861965.000	-7.381175e-001	6.588468e-001
863960.000	-7.373219e-001	6.601555e-001
865955.000	-7.363290e-001	6.612869e-001
867950.000	-7.350668e-001	6.623716e-001
869945.000	-7.342346e-001	6.633833e-001
871940.000	-7.333463e-001	6.646157e-001
873935.000	-7.322333e-001	6.654807e-001
875930.000	-7.313933e-001	6.665889e-001
877925.000	-7.299512e-001	6.680329e-001
879920.000	-7.291516e-001	6.690392e-001
881915.000	-7.283387e-001	6.697994e-001
883910.000	-7.271157e-001	6.711936e-001
885905.000	-7.261547e-001	6.721761e-001
887900.000	-7.249195e-001	6.734164e-001
889895.000	-7.239578e-001	6.746090e-001
891890.000	-7.228472e-001	6.754179e-001
893885.000	-7.220156e-001	6.768287e-001
895880.000	-7.207508e-001	6.777849e-001
897875.000	-7.198544e-001	6.791142e-001
899870.000	-7.188892e-001	6.799604e-001
901865.000	-7.171977e-001	6.812004e-001
903860.000	-7.162929e-001	6.816882e-001
905855.000	-7.153715e-001	6.833567e-001
907850.000	-7.146959e-001	6.842865e-001
909845.000	-7.137697e-001	6.853572e-001
911840.000	-7.124586e-001	6.863317e-001
913835.000	-7.117443e-001	6.875100e-001
915830.000	-7.104102e-001	6.884210e-001
917825.000	-7.096582e-001	6.894691e-001
919820.000	-7.087015e-001	6.907735e-001
921815.000	-7.075808e-001	6.919420e-001
923810.000	-7.063065e-001	6.929225e-001
925805.000	-7.055392e-001	6.940176e-001
927800.000	-7.042232e-001	6.950303e-001
929795.000	-7.035477e-001	6.961195e-001
931790.000	-7.024623e-001	6.969746e-001
933785.000	-7.010387e-001	6.983530e-001
935780.000	-7.003621e-001	6.990908e-001
937775.000	-6.992773e-001	7.003279e-001
939770.000	-6.978275e-001	7.012174e-001
941765.000	-6.966855e-001	7.025045e-001
943760.000	-6.957817e-001	7.035442e-001
945755.000	-6.946763e-001	7.045893e-001
947750.000	-6.936558e-001	7.058187e-001
949745.000	-6.928033e-001	7.067512e-001
951740.000	-6.916988e-001	7.077316e-001
953735.000	-6.904627e-001	7.091138e-001
955730.000	-6.893281e-001	7.096602e-001
957725.000	-6.888554e-001	7.109658e-001
959720.000	-6.873079e-001	7.119631e-001
961715.000	-6.862537e-001	7.128369e-001
963710.000	-6.848843e-001	7.139109e-001
965705.000	-6.841011e-001	7.149820e-001
967700.000	-6.833533e-001	7.157094e-001
969695.000	-6.820281e-001	7.168302e-001
971690.000	-6.812011e-001	7.181353e-001
973685.000	-6.799907e-001	7.187209e-001
975680.000	-6.789238e-001	7.201355e-001
977675.000	-6.776130e-001	7.209359e-001
979670.000	-6.767593e-001	7.216310e-001
981665.000	-6.758357e-001	7.232839e-001
983660.000	-6.747406e-001	7.236610e-001
985655.000	-6.734439e-001	7.251083e-001
987650.000	-6.726090e-001	7.261461e-001
989645.000	-6.715549e-001	7.269994e-001
991640.000	-6.701328e-001	7.277850e-001
993635.000	-6.692095e-001	7.290814e-001
995630.000	-6.678527e-001	7.297992e-001
997625.000	-6.670062e-001	7.311790e-001
999620.000	-6.655937e-001	7.319600e-001
1001615.000	-6.648795e-001	7.327719e-001
1003610.000	-6.640388e-001	7.339270e-001
1005605.000	-6.626704e-001	7.349767e-001
1007600.000	-6.614569e-001	7.356213e-001
1009595.000	-6.604123e-001	7.367063e-001
1011590.000	-6.593491e-001	7.379213e-001
1013585.000	-6.583778e-001	7.386202e-001
1015580.000	-6.571003e-001	7.396157e-001
1017575.000	-6.563087e-001	7.408778e-001
1019570.000	-6.552454e-001	7.416318e-001
1021565.000	-6.541244e-001	7.427804e-001
1023560.000	-6.530527e-001	7.434991e-001
1025555.000	-6.518794e-001	7.445246e-001
1027550.000	-6.506989e-001	7.454379e-001
1029545.000	-6.497013e-001	7.465970e-001
1031540.000	-6.486340e-001	7.471735e-001
1033535.000	-6.475464e-001	7.481574e-001
1035530.000	-6.464895e-001	7.494140e-001
1037525.000	-6.453934e-001	7.500273e-001
