!Keysight Technologies,E5063A,MY54100949,A.07.30
!Date: Thu Dec 18 19:16:26 2025
!Data & Calibration Information:
!Freq	S11:SOLT1(ON)
# Hz S RI R 50
50000.000	-9.891749e-001	5.405000e-002
51995.000	-9.908463e-001	5.626848e-002
53990.000	-9.911351e-001	5.884033e-002
55985.000	-9.902848e-001	6.034263e-002
57980.000	-9.904195e-001	6.282689e-002
59975.000	-9.902754e-001	6.371813e-002
61970.000	-9.906038e-001	6.577273e-002
63965.000	-9.899670e-001	6.817142e-002
65960.000	-9.900604e-001	6.943393e-002
67955.000	-9.898045e-001	7.143321e-002
69950.000	-9.889455e-001	7.324889e-002
71945.000	-9.894396e-001	7.438137e-002
73940.000	-9.894227e-001	7.660608e-002
75935.000	-9.891096e-001	7.883862e-002
77930.000	-9.887523e-001	8.086886e-002
79925.000	-9.885182e-001	8.310239e-002
81920.000	-9.880401e-001	8.426274e-002
83915.000	-9.879552e-001	8.653146e-002
85910.000	-9.879134e-001	8.779326e-002
87905.000	-9.874733e-001	9.017894e-002
89900.000	-9.872383e-001	9.195756e-002
91895.000	-9.872672e-001	9.346641e-002
93890.000	-9.867925e-001	9.583949e-002
95885.000	-9.865635e-001	9.842843e-002
97880.000	-9.864502e-001	9.974338e-002
99875.000	-9.858203e-001	1.018175e-001
101870.000	-9.862352e-001	1.038404e-001
103865.000	-9.860146e-001	1.050653e-001
105860.000	-9.855988e-001	1.069112e-001
107855.000	-9.843829e-001	1.094454e-001
109850.000	-9.855428e-001	1.116022e-001
111845.000	-9.846964e-001	1.128141e-001
113840.000	-9.846853e-001	1.150158e-001
115835.000	-9.843451e-001	1.166091e-001
117830.000	-9.843600e-001	1.195290e-001
119825.000	-9.835871e-001	1.206254e-001
121820.000	-9.835029e-001	1.229440e-001
123815.000	-9.836559e-001	1.247810e-001
125810.000	-9.827180e-001	1.266415e-001
127805.000	-9.824718e-001	1.287178e-001
129800.000	-9.827127e-001	1.308496e-001
131795.000	-9.823204e-001	1.323260e-001
133790.000	-9.818911e-001	1.339611e-001
135785.000	-9.816377e-001	1.364810e-001
137780.000	-9.813533e-001	1.384840e-001
139775.000	-9.808499e-001	1.401576e-001
141770.000	-9.812338e-001	1.421817e-001
143765.000	-9.801386e-001	1.440578e-001
145760.000	-9.800565e-001	1.464784e-001
147755.000	-9.801141e-001	1.479997e-001
149750.000	-9.797731e-001	1.500755e-001
151745.000	-9.791965e-001	1.516868e-001
153740.000	-9.787316e-001	1.537935e-001
155735.000	-9.785499e-001	1.557087e-001
157730.000	-9.782811e-001	1.577719e-001
159725.000	-9.777430e-001	1.601353e-001
161720.000	-9.778464e-001	1.614494e-001
163715.000	-9.774132e-001	1.633321e-001
165710.000	-9.766844e-001	1.652718e-001
167705.000	-9.763211e-001	1.671379e-001
169700.000	-9.762456e-001	1.694284e-001
171695.000	-9.761371e-001	1.713742e-001
173690.000	-9.757691e-001	1.734614e-001
175685.000	-9.746740e-001	1.751976e-001
177680.000	-9.746315e-001	1.769983e-001
179675.000	-9.747683e-001	1.790842e-001
181670.000	-9.744529e-001	1.810535e-001
183665.000	-9.736052e-001	1.826001e-001
185660.000	-9.731235e-001	1.848221e-001
187655.000	-9.731460e-001	1.863390e-001
189650.000	-9.725941e-001	1.885492e-001
191645.000	-9.718885e-001	1.906263e-001
193640.000	-9.718416e-001	1.922243e-001
195635.000	-9.713056e-001	1.943695e-001
197630.000	-9.709371e-001	1.963745e-001
199625.000	-9.702297e-001	1.984057e-001
201620.000	-9.705166e-001	2.003071e-001
203615.000	-9.697191e-001	2.020601e-001
205610.000	-9.689963e-001	2.038655e-001
207605.000	-9.691403e-001	2.059816e-001
209600.000	-9.681285e-001	2.078134e-001
211595.000	-9.676592e-001	2.095258e-001
213590.000	-9.672666e-001	2.108638e-001
215585.000	-9.667792e-001	2.134001e-001
217580.000	-9.666167e-001	2.152369e-001
219575.000	-9.660000e-001	2.171178e-001
221570.000	-9.659627e-001	2.193619e-001
223565.000	-9.652532e-001	2.211071e-001
225560.000	-9.650743e-001	2.228184e-001
227555.000	-9.646702e-001	2.249425e-001
229550.000	-9.639066e-001	2.265943e-001
231545.000	-9.634989e-001	2.287934e-001
233540.000	-9.633712e-001	2.307745e-001
235535.000	-9.623792e-001	2.324188e-001
237530.000	-9.619381e-001	2.339898e-001
239525.000	-9.617712e-001	2.364495e-001
241520.000	-9.611372e-001	2.377976e-001
243515.000	-9.605067e-001	2.399517e-001
245510.000	-9.598939e-001	2.418334e-001
247505.000	-9.598309e-001	2.434568e-001
249500.000	-9.592953e-001	2.458807e-001
251495.000	-9.585106e-001	2.477945e-001
253490.000	-9.580824e-001	2.487867e-001
255485.000	-9.578052e-001	2.515249e-001
257480.000	-9.567611e-001	2.530875e-001
259475.000	-9.567633e-001	2.548505e-001
261470.000	-9.560521e-001	2.565538e-001
263465.000	-9.558272e-001	2.586286e-001
265460.000	-9.552022e-001	2.609219e-001
267455.000	-9.544507e-001	2.619856e-001
269450.000	-9.537872e-001	2.640549e-001
271445.000	-9.531723e-001	2.660865e-001
273440.000	-9.531206e-001	2.676743e-001
275435.000	-9.522658e-001	2.700142e-001
277430.000	-9.518181e-001	2.715570e-001
279425.000	-9.517136e-001	2.736173e-001
281420.000	-9.503468e-001	2.755103e-001
283415.000	-9.501819e-001	2.770976e-001
285410.000	-9.496923e-001	2.792038e-001
287405.000	-9.491137e-001	2.807889e-001
289400.000	-9.486360e-001	2.826666e-001
291395.000	-9.477204e-001	2.844707e-001
293390.000	-9.472046e-001	2.862813e-001
295385.000	-9.466985e-001	2.880623e-001
297380.000	-9.465475e-001	2.897349e-001
299375.000	-9.457232e-001	2.921726e-001
301370.000	-9.453477e-001	2.938912e-001
303365.000	-9.446259e-001	2.959594e-001
305360.000	-9.437553e-001	2.977078e-001
307355.000	-9.435559e-001	2.993524e-001
309350.000	-9.424700e-001	3.010674e-001
311345.000	-9.417158e-001	3.028701e-001
313340.000	-9.413171e-001	3.046565e-001
315335.000	-9.406208e-001	3.063699e-001
317330.000	-9.402148e-001	3.084526e-001
319325.000	-9.396941e-001	3.105671e-001
321320.000	-9.392004e-001	3.118085e-001
323315.000	-9.385253e-001	3.136996e-001
325310.000	-9.380867e-001	3.158198e-001
327305.000	-9.372386e-001	3.176344e-001
329300.000	-9.365122e-001	3.195510e-001
331295.000	-9.359744e-001	3.212573e-001
333290.000	-9.356850e-001	3.231251e-001
335285.000	-9.346472e-001	3.246403e-001
337280.000	-9.339956e-001	3.266715e-001
339275.000	-9.334500e-001	3.283519e-001
341270.000	-9.323849e-001	3.300622e-001
343265.000	-9.320756e-001	3.318919e-001
345260.000	-9.316202e-001	3.338484e-001
347255.000	-9.306094e-001	3.354418e-001
349250.000	-9.301743e-001	3.373377e-001
351245.000	-9.295678e-001	3.392754e-001
353240.000	-9.284966e-001	3.410834e-001
355235.000	-9.283304e-001	3.426963e-001
357230.000	-9.275936e-001	3.443688e-001
359225.000	-9.270424e-001	3.461591e-001
361220.000	-9.260853e-001	3.479451e-001
363215.000	-9.255509e-001	3.498491e-001
365210.000	-9.248387e-001	3.515174e-001
367205.000	-9.239975e-001	3.532846e-001
369200.000	-9.230530e-001	3.547857e-001
371195.000	-9.228764e-001	3.569346e-001
373190.000	-9.221169e-001	3.584293e-001
375185.000	-9.212301e-001	3.603550e-001
377180.000	-9.209233e-001	3.619576e-001
379175.000	-9.198409e-001	3.639166e-001
381170.000	-9.192999e-001	3.656088e-001
383165.000	-9.186649e-001	3.674637e-001
385160.000	-9.171777e-001	3.692484e-001
387155.000	-9.170213e-001	3.712717e-001
389150.000	-9.163853e-001	3.726866e-001
391145.000	-9.158010e-001	3.745055e-001
393140.000	-9.148100e-001	3.759323e-001
395135.000	-9.139829e-001	3.779573e-001
397130.000	-9.132274e-001	3.797437e-001
399125.000	-9.124971e-001	3.812345e-001
401120.000	-9.120582e-001	3.831336e-001
403115.000	-9.110812e-001	3.848288e-001
405110.000	-9.107861e-001	3.864673e-001
407105.000	-9.093063e-001	3.883933e-001
409100.000	-9.088498e-001	3.903095e-001
411095.000	-9.083860e-001	3.919699e-001
413090.000	-9.074019e-001	3.936938e-001
415085.000	-9.068181e-001	3.956480e-001
417080.000	-9.061752e-001	3.971526e-001
419075.000	-9.052830e-001	3.989251e-001
421070.000	-9.046869e-001	4.004448e-001
423065.000	-9.036241e-001	4.022195e-001
425060.000	-9.029461e-001	4.040240e-001
427055.000	-9.018105e-001	4.058964e-001
429050.000	-9.013870e-001	4.071767e-001
431045.000	-9.005710e-001	4.090382e-001
433040.000	-8.997203e-001	4.109330e-001
435035.000	-8.990449e-001	4.122195e-001
437030.000	-8.980737e-001	4.142393e-001
439025.000	-8.973144e-001	4.161608e-001
441020.000	-8.964341e-001	4.174483e-001
443015.000	-8.958309e-001	4.191832e-001
445010.000	-8.947219e-001	4.210889e-001
447005.000	-8.941883e-001	4.227368e-001
449000.000	-8.935819e-001	4.245968e-001
450995.000	-8.931529e-001	4.259767e-001
452990.000	-8.916307e-001	4.280034e-001
454985.000	-8.908051e-001	4.294751e-001
456980.000	-8.901949e-001	4.311788e-001
458975.000	-8.895868e-001	4.329329e-001
460970.000	-8.887800e-001	4.346251e-001
462965.000	-8.876006e-001	4.360763e-001
464960.000	-8.864617e-001	4.380075e-001
466955.000	-8.862260e-001	4.396766e-001
468950.000	-8.849149e-001	4.410213e-001
470945.000	-8.841483e-001	4.429574e-001
472940.000	-8.833961e-001	4.442576e-001
474935.000	-8.826145e-001	4.459633e-001
476930.000	-8.818048e-001	4.476627e-001
478925.000	-8.804688e-001	4.494484e-001
480920.000	-8.801365e-001	4.511557e-001
482915.000	-8.789625e-001	4.530343e-001
484910.000	-8.783545e-001	4.543678e-001
486905.000	-8.780352e-001	4.560410e-001
488900.000	-8.768983e-001	4.574214e-001
490895.000	-8.757629e-001	4.594525e-001
492890.000	-8.748647e-001	4.608022e-001
494885.000	-8.741107e-001	4.624277e-001
496880.000	-8.729341e-001	4.641930e-001
498875.000	-8.724439e-001	4.659054e-001
500870.000	-8.714638e-001	4.672820e-001
502865.000	-8.703895e-001	4.691510e-001
504860.000	-8.694141e-001	4.707769e-001
506855.000	-8.688425e-001	4.722900e-001
508850.000	-8.677790e-001	4.739667e-001
510845.000	-8.667755e-001	4.754956e-001
512840.000	-8.665146e-001	4.768991e-001
514835.000	-8.652393e-001	4.788790e-001
516830.000	-8.640006e-001	4.803918e-001
518825.000	-8.631736e-001	4.820755e-001
520820.000	-8.622229e-001	4.834046e-001
522815.000	-8.614984e-001	4.852087e-001
524810.000	-8.608056e-001	4.866727e-001
526805.000	-8.597258e-001	4.883800e-001
528800.000	-8.588802e-001	4.900362e-001
530795.000	-8.574233e-001	4.913598e-001
532790.000	-8.566917e-001	4.937361e-001
534785.000	-8.558674e-001	4.947302e-001
536780.000	-8.554009e-001	4.964806e-001
538775.000	-8.542008e-001	4.978703e-001
540770.000	-8.532004e-001	4.995714e-001
542765.000	-8.524948e-001	5.010181e-001
544760.000	-8.514154e-001	5.024383e-001
546755.000	-8.504476e-001	5.043357e-001
548750.000	-8.493000e-001	5.063291e-001
550745.000	-8.483734e-001	5.074976e-001
552740.000	-8.480363e-001	5.090778e-001
554735.000	-8.464557e-001	5.106900e-001
556730.000	-8.460824e-001	5.120963e-001
558725.000	-8.449882e-001	5.137525e-001
560720.000	-8.439031e-001	5.153806e-001
562715.000	-8.432225e-001	5.168549e-001
564710.000	-8.420714e-001	5.182784e-001
566705.000	-8.411262e-001	5.196049e-001
568700.000	-8.399764e-001	5.214426e-001
570695.000	-8.391735e-001	5.228624e-001
572690.000	-8.377430e-001	5.245934e-001
574685.000	-8.373914e-001	5.259371e-001
576680.000	-8.363425e-001	5.280131e-001
578675.000	-8.349965e-001	5.288177e-001
580670.000	-8.342509e-001	5.309038e-001
582665.000	-8.333352e-001	5.318962e-001
584660.000	-8.320001e-001	5.336570e-001
586655.000	-8.311340e-001	5.349469e-001
588650.000	-8.302354e-001	5.367924e-001
590645.000	-8.296219e-001	5.382594e-001
592640.000	-8.281342e-001	5.400154e-001
594635.000	-8.272013e-001	5.411195e-001
596630.000	-8.261361e-001	5.424643e-001
598625.000	-8.255474e-001	5.441934e-001
600620.000	-8.241590e-001	5.459416e-001
602615.000	-8.235348e-001	5.469996e-001
604610.000	-8.221561e-001	5.488395e-001
606605.000	-8.210866e-001	5.501969e-001
608600.000	-8.201627e-001	5.513291e-001
610595.000	-8.193286e-001	5.531966e-001
612590.000	-8.182938e-001	5.546252e-001
614585.000	-8.173221e-001	5.562104e-001
616580.000	-8.162022e-001	5.574841e-001
618575.000	-8.153835e-001	5.592822e-001
620570.000	-8.142160e-001	5.606878e-001
622565.000	-8.132951e-001	5.619988e-001
624560.000	-8.119174e-001	5.634160e-001
626555.000	-8.110503e-001	5.648788e-001
628550.000	-8.100584e-001	5.665692e-001
630545.000	-8.088990e-001	5.681310e-001
632540.000	-8.077994e-001	5.691653e-001
634535.000	-8.071304e-001	5.711340e-001
636530.000	-8.058894e-001	5.724033e-001
638525.000	-8.050287e-001	5.737141e-001
640520.000	-8.039067e-001	5.751656e-001
642515.000	-8.029342e-001	5.764783e-001
644510.000	-8.017804e-001	5.782724e-001
646505.000	-8.006131e-001	5.794190e-001
648500.000	-7.996566e-001	5.810055e-001
650495.000	-7.984511e-001	5.820649e-001
652490.000	-7.976371e-001	5.839381e-001
654485.000	-7.965298e-001	5.853251e-001
656480.000	-7.954628e-001	5.867084e-001
658475.000	-7.945715e-001	5.879166e-001
660470.000	-7.932610e-001	5.892650e-001
662465.000	-7.924172e-001	5.912731e-001
664460.000	-7.911890e-001	5.926467e-001
666455.000	-7.903059e-001	5.937195e-001
668450.000	-7.890090e-001	5.950858e-001
670445.000	-7.877741e-001	5.969116e-001
672440.000	-7.873006e-001	5.982043e-001
674435.000	-7.860985e-001	5.993169e-001
676430.000	-7.849161e-001	6.006496e-001
678425.000	-7.837580e-001	6.023585e-001
680420.000	-7.826601e-001	6.037081e-001
682415.000	-7.814629e-001	6.050790e-001
684410.000	-7.807299e-001	6.064025e-001
686405.000	-7.794363e-001	6.074684e-001
688400.000	-7.781799e-001	6.088818e-001
690395.000	-7.771030e-001	6.106615e-001
692390.000	-7.762605e-001	6.118696e-001
694385.000	-7.753580e-001	6.132473e-001
696380.000	-7.741661e-001	6.145615e-001
698375.000	-7.730496e-001	6.160740e-001
700370.000	-7.720723e-001	6.173999e-001
702365.000	-7.708152e-001	6.187738e-001
704360.000	-7.698106e-001	6.203042e-001
706355.000	-7.683497e-001	6.215329e-001
708350.000	-7.673745e-001	6.225895e-001
710345.000	-7.663823e-001	6.239857e-001
712340.000	-7.651628e-001	6.255446e-001
714335.000	-7.636848e-001	6.268640e-001
716330.000	-7.631492e-001	6.279381e-001
718325.000	-7.621927e-001	6.296172e-001
720320.000	-7.606806e-001	6.309594e-001
722315.000	-7.597994e-001	6.325125e-001
724310.000	-7.587501e-001	6.334531e-001
726305.000	-7.574434e-001	6.349175e-001
728300.000	-7.562712e-001	6.365428e-001
730295.000	-7.549766e-001	6.375698e-001
732290.000	-7.541374e-001	6.390913e-001
734285.000	-7.533252e-001	6.400739e-001
736280.000	-7.516105e-001	6.413267e-001
738275.000	-7.509717e-001	6.428787e-001
740270.000	-7.496577e-001	6.441318e-001
742265.000	-7.487615e-001	6.455769e-001
744260.000	-7.474212e-001	6.467376e-001
746255.000	-7.459216e-001	6.480068e-001
748250.000	-7.451124e-001	6.495942e-001
750245.000	-7.440452e-001	6.507236e-001
752240.000	-7.427184e-001	6.520178e-001
754235.000	-7.416420e-001	6.533117e-001
756230.000	-7.405477e-001	6.548156e-001
758225.000	-7.391259e-001	6.559227e-001
760220.000	-7.385284e-001	6.572689e-001
762215.000	-7.370642e-001	6.582670e-001
764210.000	-7.357717e-001	6.594623e-001
766205.000	-7.350551e-001	6.609253e-001
768200.000	-7.336599e-001	6.621996e-001
770195.000	-7.323201e-001	6.634970e-001
772190.000	-7.312898e-001	6.647691e-001
774185.000	-7.299438e-001	6.658700e-001
776180.000	-7.287307e-001	6.674691e-001
778175.000	-7.277700e-001	6.688125e-001
780170.000	-7.268087e-001	6.696473e-001
782165.000	-7.258899e-001	6.706590e-001
784160.000	-7.241871e-001	6.724262e-001
786155.000	-7.234328e-001	6.734863e-001
788150.000	-7.219933e-001	6.749762e-001
790145.000	-7.206966e-001	6.760100e-001
792140.000	-7.199267e-001	6.770059e-001
794135.000	-7.187309e-001	6.784358e-001
796130.000	-7.173493e-001	6.798015e-001
798125.000	-7.164935e-001	6.811773e-001
800120.000	-7.153158e-001	6.822474e-001
802115.000	-7.138519e-001	6.835828e-001
804110.000	-7.126711e-001	6.845069e-001
806105.000	-7.114807e-001	6.857598e-001
808100.000	-7.103629e-001	6.872732e-001
810095.000	-7.092295e-001	6.883357e-001
812090.000	-7.080023e-001	6.896577e-001
814085.000	-7.069657e-001	6.906628e-001
816080.000	-7.060750e-001	6.918591e-001
818075.000	-7.045305e-001	6.934783e-001
820070.000	-7.034513e-001	6.946986e-001
822065.000	-7.019698e-001	6.955352e-001
824060.000	-7.009420e-001	6.968196e-001
826055.000	-6.999123e-001	6.977294e-001
828050.000	-6.985414e-001	6.989216e-001
830045.000	-6.973398e-001	7.000136e-001
832040.000	-6.966029e-001	7.014337e-001
834035.000	-6.952463e-001	7.024881e-001
836030.000	-6.940958e-001	7.038949e-001
838025.000	-6.925429e-001	7.048973e-001
840020.000	-6.911812e-001	7.059386e-001
842015.000	-6.900869e-001	7.071197e-001
844010.000	-6.889203e-001	7.083956e-001
846005.000	-6.876739e-001	7.097802e-001
848000.000	-6.864141e-001	7.107424e-001
849995.000	-6.853563e-001	7.118945e-001
851990.000	-6.841305e-001	7.129086e-001
853985.000	-6.831617e-001	7.143182e-001
855980.000	-6.816118e-001	7.152511e-001
857975.000	-6.801963e-001	7.161649e-001
859970.000	-6.795246e-001	7.173148e-001
861965.000	-6.782208e-001	7.187948e-001
863960.000	-6.767197e-001	7.199335e-001
865955.000	-6.755236e-001	7.210091e-001
867950.000	-6.743397e-001	7.222858e-001
869945.000	-6.733672e-001	7.233006e-001
871940.000	-6.723109e-001	7.244990e-001
873935.000	-6.710450e-001	7.254544e-001
875930.000	-6.701489e-001	7.267625e-001
877925.000	-6.683860e-001	7.278198e-001
879920.000	-6.670800e-001	7.285648e-001
881915.000	-6.659795e-001	7.298468e-001
883910.000	-6.649999e-001	7.315723e-001
885905.000	-6.636500e-001	7.323513e-001
887900.000	-6.625307e-001	7.331643e-001
889895.000	-6.610245e-001	7.343951e-001
891890.000	-6.599456e-001	7.355620e-001
893885.000	-6.587782e-001	7.366244e-001
895880.000	-6.574896e-001	7.376855e-001
897875.000	-6.563442e-001	7.386647e-001
899870.000	-6.550175e-001	7.400157e-001
901865.000	-6.537945e-001	7.409348e-001
903860.000	-6.528374e-001	7.418998e-001
905855.000	-6.515606e-001	7.433499e-001
907850.000	-6.499811e-001	7.442087e-001
909845.000	-6.489183e-001	7.452320e-001
911840.000	-6.478939e-001	7.463386e-001
913835.000	-6.461717e-001	7.475417e-001
915830.000	-6.450159e-001	7.486340e-001
917825.000	-6.441962e-001	7.493924e-001
919820.000	-6.429186e-001	7.508170e-001
921815.000	-6.416316e-001	7.515940e-001
923810.000	-6.403108e-001	7.527621e-001
925805.000	-6.394083e-001	7.540550e-001
927800.000	-6.374227e-001	7.549661e-001
929795.000	-6.367753e-001	7.560619e-001
931790.000	-6.354373e-001	7.569255e-001
933785.000	-6.340384e-001	7.581500e-001
935780.000	-6.325536e-001	7.591282e-001
937775.000	-6.315959e-001	7.601374e-001
939770.000	-6.305201e-001	7.607476e-001
941765.000	-6.293582e-001	7.621697e-001
943760.000	-6.276266e-001	7.629906e-001
945755.000	-6.266195e-001	7.641170e-001
947750.000	-6.256932e-001	7.651009e-001
949745.000	-6.238857e-001	7.663909e-001
951740.000	-6.227864e-001	7.672354e-001
953735.000	-6.215939e-001	7.685226e-001
955730.000	-6.203751e-001	7.695226e-001
957725.000	-6.190590e-001	7.703637e-001
959720.000	-6.178144e-001	7.714528e-001
961715.000	-6.166582e-001	7.721103e-001
963710.000	-6.153036e-001	7.733286e-001
965705.000	-6.144917e-001	7.742738e-001
967700.000	-6.130604e-001	7.751551e-001
969695.000	-6.119562e-001	7.762334e-001
971690.000	-6.104593e-001	7.768778e-001
973685.000	-6.094906e-001	7.781627e-001
975680.000	-6.074435e-001	7.794227e-001
977675.000	-6.065268e-001	7.804771e-001
979670.000	-6.055211e-001	7.809795e-001
981665.000	-6.043512e-001	7.821315e-001
983660.000	-6.026952e-001	7.828473e-001
985655.000	-6.013002e-001	7.842585e-001
987650.000	-6.004460e-001	7.850927e-001
989645.000	-5.990291e-001	7.860203e-001
991640.000	-5.979683e-001	7.866212e-001
993635.000	-5.968345e-001	7.878948e-001
995630.000	-5.951636e-001	7.886898e-001
997625.000	-5.944484e-001	7.897959e-001
999620.000	-5.927735e-001	7.903660e-001
1001615.000	-5.911966e-001	7.917284e-001
1003610.000	-5.905764e-001	7.927499e-001
1005605.000	-5.893523e-001	7.933418e-001
1007600.000	-5.880637e-001	7.944781e-001
1009595.000	-5.866795e-001	7.952742e-001
1011590.000	-5.852264e-001	7.963289e-001
1013585.000	-5.840052e-001	7.971354e-001
1015580.000	-5.824070e-001	7.983165e-001
1017575.000	-5.818101e-001	7.989915e-001
1019570.000	-5.800908e-001	7.998689e-001
1021565.000	-5.788787e-001	8.007678e-001
1023560.000	-5.778684e-001	8.018324e-001
1025555.000	-5.765642e-001	8.025697e-001
1027550.000	-5.754519e-001	8.037182e-001
1029545.000	-5.737935e-001	8.043247e-001
1031540.000	-5.723137e-001	8.053922e-001
1033535.000	-5.713320e-001	8.065857e-001
1035530.000	-5.701750e-001	8.073469e-001
1037525.000	-5.690147e-001	8.082337e-001
