!Keysight Technologies,E5063A,MY54100949,A.07.30
!Date: Thu Dec 18 19:18:37 2025
!Data & Calibration Information:
!Freq	S11:SOLT1(ON)
# Hz S RI R 50
50000.000	-9.905857e-001	4.865876e-002
51995.000	-9.923370e-001	5.028758e-002
53990.000	-9.926571e-001	5.269988e-002
55985.000	-9.918041e-001	5.429567e-002
57980.000	-9.919283e-001	5.652558e-002
59975.000	-9.922969e-001	5.703596e-002
61970.000	-9.921711e-001	5.875689e-002
63965.000	-9.916087e-001	6.133068e-002
65960.000	-9.914802e-001	6.193546e-002
67955.000	-9.913900e-001	6.382097e-002
69950.000	-9.907185e-001	6.549123e-002
71945.000	-9.913273e-001	6.648811e-002
73940.000	-9.912352e-001	6.834539e-002
75935.000	-9.909363e-001	7.019100e-002
77930.000	-9.908956e-001	7.236500e-002
79925.000	-9.905392e-001	7.427334e-002
81920.000	-9.898679e-001	7.514499e-002
83915.000	-9.900115e-001	7.712519e-002
85910.000	-9.898415e-001	7.819819e-002
87905.000	-9.896673e-001	8.053272e-002
89900.000	-9.892315e-001	8.191314e-002
91895.000	-9.895794e-001	8.345328e-002
93890.000	-9.890827e-001	8.530745e-002
95885.000	-9.886837e-001	8.776323e-002
97880.000	-9.885206e-001	8.876166e-002
99875.000	-9.882590e-001	9.076929e-002
101870.000	-9.884244e-001	9.238716e-002
103865.000	-9.882875e-001	9.372721e-002
105860.000	-9.879904e-001	9.497011e-002
107855.000	-9.868145e-001	9.744687e-002
109850.000	-9.881044e-001	9.927788e-002
111845.000	-9.873200e-001	1.005812e-001
113840.000	-9.873316e-001	1.023036e-001
115835.000	-9.870256e-001	1.037942e-001
117830.000	-9.873184e-001	1.063922e-001
119825.000	-9.863866e-001	1.071950e-001
121820.000	-9.863959e-001	1.093849e-001
123815.000	-9.863545e-001	1.111205e-001
125810.000	-9.855865e-001	1.125963e-001
127805.000	-9.853448e-001	1.145166e-001
129800.000	-9.855914e-001	1.163896e-001
131795.000	-9.853642e-001	1.176897e-001
133790.000	-9.849647e-001	1.191828e-001
135785.000	-9.848049e-001	1.214521e-001
137780.000	-9.845205e-001	1.229722e-001
139775.000	-9.841313e-001	1.245691e-001
141770.000	-9.845645e-001	1.262837e-001
143765.000	-9.835833e-001	1.279720e-001
145760.000	-9.834485e-001	1.303211e-001
147755.000	-9.835421e-001	1.316668e-001
149750.000	-9.835250e-001	1.332658e-001
151745.000	-9.827763e-001	1.347424e-001
153740.000	-9.822333e-001	1.366874e-001
155735.000	-9.823625e-001	1.385143e-001
157730.000	-9.820299e-001	1.402607e-001
159725.000	-9.815252e-001	1.424830e-001
161720.000	-9.816488e-001	1.434305e-001
163715.000	-9.813085e-001	1.450663e-001
165710.000	-9.807914e-001	1.468499e-001
167705.000	-9.804436e-001	1.484413e-001
169700.000	-9.805149e-001	1.505862e-001
171695.000	-9.804356e-001	1.523315e-001
173690.000	-9.802359e-001	1.542047e-001
175685.000	-9.791114e-001	1.556668e-001
177680.000	-9.792155e-001	1.573511e-001
179675.000	-9.792155e-001	1.591754e-001
181670.000	-9.791741e-001	1.608590e-001
183665.000	-9.783139e-001	1.623864e-001
185660.000	-9.779103e-001	1.643847e-001
187655.000	-9.780175e-001	1.657615e-001
189650.000	-9.776467e-001	1.675156e-001
191645.000	-9.770495e-001	1.695241e-001
193640.000	-9.769883e-001	1.708959e-001
195635.000	-9.765641e-001	1.728363e-001
197630.000	-9.762958e-001	1.747593e-001
199625.000	-9.756917e-001	1.763640e-001
201620.000	-9.758737e-001	1.780599e-001
203615.000	-9.752874e-001	1.796225e-001
205610.000	-9.746342e-001	1.813049e-001
207605.000	-9.748797e-001	1.832704e-001
209600.000	-9.739611e-001	1.846776e-001
211595.000	-9.735757e-001	1.863487e-001
213590.000	-9.733439e-001	1.874718e-001
215585.000	-9.727161e-001	1.896368e-001
217580.000	-9.727962e-001	1.913516e-001
219575.000	-9.721554e-001	1.930981e-001
221570.000	-9.723600e-001	1.951079e-001
223565.000	-9.717003e-001	1.966198e-001
225560.000	-9.715369e-001	1.982048e-001
227555.000	-9.713832e-001	2.000307e-001
229550.000	-9.704668e-001	2.014019e-001
231545.000	-9.703129e-001	2.034585e-001
233540.000	-9.701165e-001	2.052926e-001
235535.000	-9.693610e-001	2.066929e-001
237530.000	-9.689910e-001	2.081851e-001
239525.000	-9.689880e-001	2.103362e-001
241520.000	-9.683763e-001	2.115847e-001
243515.000	-9.678774e-001	2.133980e-001
245510.000	-9.674364e-001	2.151022e-001
247505.000	-9.674150e-001	2.166129e-001
249500.000	-9.668360e-001	2.187737e-001
251495.000	-9.663027e-001	2.205261e-001
253490.000	-9.658409e-001	2.213532e-001
255485.000	-9.657864e-001	2.237918e-001
257480.000	-9.648352e-001	2.251866e-001
259475.000	-9.648700e-001	2.266874e-001
261470.000	-9.642897e-001	2.283586e-001
263465.000	-9.641347e-001	2.301716e-001
265460.000	-9.636458e-001	2.322424e-001
267455.000	-9.631071e-001	2.330537e-001
269450.000	-9.624946e-001	2.350707e-001
271445.000	-9.619661e-001	2.369087e-001
273440.000	-9.619269e-001	2.381862e-001
275435.000	-9.613267e-001	2.403207e-001
277430.000	-9.609794e-001	2.417639e-001
279425.000	-9.609337e-001	2.436207e-001
281420.000	-9.595800e-001	2.452589e-001
283415.000	-9.595965e-001	2.467645e-001
285410.000	-9.592038e-001	2.486232e-001
287405.000	-9.588486e-001	2.499788e-001
289400.000	-9.583355e-001	2.517724e-001
291395.000	-9.576907e-001	2.533341e-001
293390.000	-9.572377e-001	2.549982e-001
295385.000	-9.567144e-001	2.566386e-001
297380.000	-9.568062e-001	2.579431e-001
299375.000	-9.561539e-001	2.602375e-001
301370.000	-9.557254e-001	2.617441e-001
303365.000	-9.553180e-001	2.636618e-001
305360.000	-9.544587e-001	2.652172e-001
307355.000	-9.544357e-001	2.666976e-001
309350.000	-9.534024e-001	2.682500e-001
311345.000	-9.527709e-001	2.698911e-001
313340.000	-9.525842e-001	2.713941e-001
315335.000	-9.519707e-001	2.729736e-001
317330.000	-9.516179e-001	2.748555e-001
319325.000	-9.513898e-001	2.767475e-001
321320.000	-9.508775e-001	2.779310e-001
323315.000	-9.503333e-001	2.795172e-001
325310.000	-9.500121e-001	2.814776e-001
327305.000	-9.493061e-001	2.831103e-001
329300.000	-9.488013e-001	2.848694e-001
331295.000	-9.482831e-001	2.864354e-001
333290.000	-9.480860e-001	2.881065e-001
335285.000	-9.472913e-001	2.895136e-001
337280.000	-9.467307e-001	2.913454e-001
339275.000	-9.463883e-001	2.928193e-001
341270.000	-9.452432e-001	2.943141e-001
343265.000	-9.450921e-001	2.961279e-001
345260.000	-9.449713e-001	2.976464e-001
347255.000	-9.439662e-001	2.990818e-001
349250.000	-9.437204e-001	3.009488e-001
351245.000	-9.432528e-001	3.026927e-001
353240.000	-9.421709e-001	3.042589e-001
355235.000	-9.423267e-001	3.057041e-001
357230.000	-9.415865e-001	3.071555e-001
359225.000	-9.412209e-001	3.087835e-001
361220.000	-9.405013e-001	3.103132e-001
363215.000	-9.399690e-001	3.121583e-001
365210.000	-9.394772e-001	3.136739e-001
367205.000	-9.388160e-001	3.153155e-001
369200.000	-9.378716e-001	3.165585e-001
371195.000	-9.378974e-001	3.185073e-001
373190.000	-9.372135e-001	3.198803e-001
375185.000	-9.365873e-001	3.216862e-001
377180.000	-9.363816e-001	3.230805e-001
379175.000	-9.355287e-001	3.249084e-001
381170.000	-9.350783e-001	3.264099e-001
383165.000	-9.344954e-001	3.280428e-001
385160.000	-9.332132e-001	3.297963e-001
387155.000	-9.331718e-001	3.316028e-001
389150.000	-9.327939e-001	3.327649e-001
391145.000	-9.322618e-001	3.343404e-001
393140.000	-9.313465e-001	3.356488e-001
395135.000	-9.305606e-001	3.376558e-001
397130.000	-9.301145e-001	3.391146e-001
399125.000	-9.295183e-001	3.404508e-001
401120.000	-9.292233e-001	3.423037e-001
403115.000	-9.283372e-001	3.438221e-001
405110.000	-9.281823e-001	3.453024e-001
407105.000	-9.269514e-001	3.472120e-001
409100.000	-9.266535e-001	3.488277e-001
411095.000	-9.262898e-001	3.502515e-001
413090.000	-9.255409e-001	3.518299e-001
415085.000	-9.251266e-001	3.537117e-001
417080.000	-9.245979e-001	3.550086e-001
419075.000	-9.239842e-001	3.565930e-001
421070.000	-9.232981e-001	3.579279e-001
423065.000	-9.223918e-001	3.596658e-001
425060.000	-9.220176e-001	3.612899e-001
427055.000	-9.209687e-001	3.629203e-001
429050.000	-9.206810e-001	3.640348e-001
431045.000	-9.200210e-001	3.658165e-001
433040.000	-9.192821e-001	3.675117e-001
435035.000	-9.188844e-001	3.686909e-001
437030.000	-9.180367e-001	3.706008e-001
439025.000	-9.174566e-001	3.723096e-001
441020.000	-9.166972e-001	3.734881e-001
443015.000	-9.163208e-001	3.751884e-001
445010.000	-9.153526e-001	3.769478e-001
447005.000	-9.150319e-001	3.784744e-001
449000.000	-9.144921e-001	3.800822e-001
450995.000	-9.140048e-001	3.811898e-001
452990.000	-9.127983e-001	3.831256e-001
454985.000	-9.122481e-001	3.845949e-001
456980.000	-9.117189e-001	3.859994e-001
458975.000	-9.114044e-001	3.877229e-001
460970.000	-9.108019e-001	3.892211e-001
462965.000	-9.095523e-001	3.905691e-001
464960.000	-9.087632e-001	3.923654e-001
466955.000	-9.084363e-001	3.938892e-001
468950.000	-9.074012e-001	3.950913e-001
470945.000	-9.069138e-001	3.968940e-001
472940.000	-9.062524e-001	3.981300e-001
474935.000	-9.055865e-001	3.996899e-001
476930.000	-9.050197e-001	4.011419e-001
478925.000	-9.038648e-001	4.029047e-001
480920.000	-9.037187e-001	4.042506e-001
482915.000	-9.026492e-001	4.060239e-001
484910.000	-9.023118e-001	4.074345e-001
486905.000	-9.019652e-001	4.088659e-001
488900.000	-9.009281e-001	4.099761e-001
490895.000	-9.002015e-001	4.120186e-001
492890.000	-8.993422e-001	4.132452e-001
494885.000	-8.988077e-001	4.146796e-001
496880.000	-8.978497e-001	4.164050e-001
498875.000	-8.974694e-001	4.178093e-001
500870.000	-8.966199e-001	4.190889e-001
502865.000	-8.958642e-001	4.208907e-001
504860.000	-8.949859e-001	4.224010e-001
506855.000	-8.946218e-001	4.238448e-001
508850.000	-8.935330e-001	4.252458e-001
510845.000	-8.929132e-001	4.267650e-001
512840.000	-8.927276e-001	4.278541e-001
514835.000	-8.917497e-001	4.298197e-001
516830.000	-8.907252e-001	4.313272e-001
518825.000	-8.901008e-001	4.328614e-001
520820.000	-8.891838e-001	4.341620e-001
522815.000	-8.885515e-001	4.357467e-001
524810.000	-8.880878e-001	4.370431e-001
526805.000	-8.871542e-001	4.386101e-001
528800.000	-8.866034e-001	4.401135e-001
530795.000	-8.853226e-001	4.414119e-001
532790.000	-8.847817e-001	4.436214e-001
534785.000	-8.840763e-001	4.445331e-001
536780.000	-8.837782e-001	4.461205e-001
538775.000	-8.827526e-001	4.473492e-001
540770.000	-8.820321e-001	4.489642e-001
542765.000	-8.814127e-001	4.503142e-001
544760.000	-8.804332e-001	4.517911e-001
546755.000	-8.797432e-001	4.534198e-001
548750.000	-8.787957e-001	4.553004e-001
550745.000	-8.780551e-001	4.562958e-001
552740.000	-8.777072e-001	4.579209e-001
554735.000	-8.765277e-001	4.593416e-001
556730.000	-8.762580e-001	4.605803e-001
558725.000	-8.753589e-001	4.621497e-001
560720.000	-8.744100e-001	4.636767e-001
562715.000	-8.740114e-001	4.650872e-001
564710.000	-8.730006e-001	4.663928e-001
566705.000	-8.721437e-001	4.675740e-001
568700.000	-8.712613e-001	4.692327e-001
570695.000	-8.706434e-001	4.705719e-001
572690.000	-8.693575e-001	4.723428e-001
574685.000	-8.691098e-001	4.735523e-001
576680.000	-8.682779e-001	4.753565e-001
578675.000	-8.672006e-001	4.761410e-001
580670.000	-8.666420e-001	4.782469e-001
582665.000	-8.657091e-001	4.791308e-001
584660.000	-8.646840e-001	4.808112e-001
586655.000	-8.639805e-001	4.819193e-001
588650.000	-8.633969e-001	4.836810e-001
590645.000	-8.630176e-001	4.849508e-001
592640.000	-8.615884e-001	4.867077e-001
594635.000	-8.608781e-001	4.877603e-001
596630.000	-8.601184e-001	4.889146e-001
598625.000	-8.595000e-001	4.904588e-001
600620.000	-8.584003e-001	4.922990e-001
602615.000	-8.578716e-001	4.932334e-001
604610.000	-8.566159e-001	4.950213e-001
606605.000	-8.557669e-001	4.962082e-001
608600.000	-8.551474e-001	4.973036e-001
610595.000	-8.545397e-001	4.990462e-001
612590.000	-8.535786e-001	5.003139e-001
614585.000	-8.528871e-001	5.017499e-001
616580.000	-8.518692e-001	5.030877e-001
618575.000	-8.511840e-001	5.047357e-001
620570.000	-8.503298e-001	5.060677e-001
622565.000	-8.494769e-001	5.072705e-001
624560.000	-8.484505e-001	5.085147e-001
626555.000	-8.475687e-001	5.100713e-001
628550.000	-8.469187e-001	5.115000e-001
630545.000	-8.460037e-001	5.131295e-001
632540.000	-8.450541e-001	5.139681e-001
634535.000	-8.445524e-001	5.159226e-001
636530.000	-8.435175e-001	5.170927e-001
638525.000	-8.428042e-001	5.182648e-001
640520.000	-8.418745e-001	5.197063e-001
642515.000	-8.411458e-001	5.209651e-001
644510.000	-8.402637e-001	5.225151e-001
646505.000	-8.391884e-001	5.238024e-001
648500.000	-8.384917e-001	5.252717e-001
650495.000	-8.374812e-001	5.263088e-001
652490.000	-8.368840e-001	5.279935e-001
654485.000	-8.359679e-001	5.292994e-001
656480.000	-8.350453e-001	5.307042e-001
658475.000	-8.342773e-001	5.318405e-001
660470.000	-8.331405e-001	5.329875e-001
662465.000	-8.326409e-001	5.348985e-001
664460.000	-8.316457e-001	5.362050e-001
666455.000	-8.308225e-001	5.371687e-001
668450.000	-8.296521e-001	5.385003e-001
670445.000	-8.287768e-001	5.403292e-001
672440.000	-8.282801e-001	5.414399e-001
674435.000	-8.273627e-001	5.426901e-001
676430.000	-8.263767e-001	5.438210e-001
678425.000	-8.253952e-001	5.453865e-001
680420.000	-8.245962e-001	5.466163e-001
682415.000	-8.235802e-001	5.480702e-001
684410.000	-8.229466e-001	5.493095e-001
686405.000	-8.217227e-001	5.504385e-001
688400.000	-8.207389e-001	5.517581e-001
690395.000	-8.199284e-001	5.534684e-001
692390.000	-8.193029e-001	5.546153e-001
694385.000	-8.186350e-001	5.558111e-001
696380.000	-8.175985e-001	5.569816e-001
698375.000	-8.167550e-001	5.586145e-001
700370.000	-8.158685e-001	5.597752e-001
702365.000	-8.148722e-001	5.610807e-001
704360.000	-8.140717e-001	5.624725e-001
706355.000	-8.127723e-001	5.637560e-001
708350.000	-8.117878e-001	5.647633e-001
710345.000	-8.112146e-001	5.661594e-001
712340.000	-8.101748e-001	5.676035e-001
714335.000	-8.089344e-001	5.690266e-001
716330.000	-8.085614e-001	5.699723e-001
718325.000	-8.076636e-001	5.714624e-001
720320.000	-8.064792e-001	5.727731e-001
722315.000	-8.057934e-001	5.742414e-001
724310.000	-8.048569e-001	5.751240e-001
726305.000	-8.039024e-001	5.765926e-001
728300.000	-8.029002e-001	5.782040e-001
730295.000	-8.016378e-001	5.792267e-001
732290.000	-8.012694e-001	5.806113e-001
734285.000	-8.005078e-001	5.815726e-001
736280.000	-7.987785e-001	5.826822e-001
738275.000	-7.984962e-001	5.841838e-001
740270.000	-7.972641e-001	5.854670e-001
742265.000	-7.966827e-001	5.868255e-001
744260.000	-7.955614e-001	5.879546e-001
746255.000	-7.942251e-001	5.893080e-001
748250.000	-7.938150e-001	5.908079e-001
750245.000	-7.927725e-001	5.918651e-001
752240.000	-7.916334e-001	5.931786e-001
754235.000	-7.907135e-001	5.943450e-001
756230.000	-7.898649e-001	5.958970e-001
758225.000	-7.886648e-001	5.969361e-001
760220.000	-7.881672e-001	5.981245e-001
762215.000	-7.868204e-001	5.991808e-001
764210.000	-7.858441e-001	6.003272e-001
766205.000	-7.852832e-001	6.017455e-001
768200.000	-7.842901e-001	6.030102e-001
770195.000	-7.830256e-001	6.042603e-001
772190.000	-7.821752e-001	6.055303e-001
774185.000	-7.809556e-001	6.066237e-001
776180.000	-7.800353e-001	6.080947e-001
778175.000	-7.792160e-001	6.093490e-001
780170.000	-7.785206e-001	6.102355e-001
782165.000	-7.776221e-001	6.110733e-001
784160.000	-7.761764e-001	6.129787e-001
786155.000	-7.757925e-001	6.139288e-001
788150.000	-7.744504e-001	6.153838e-001
790145.000	-7.733614e-001	6.165516e-001
792140.000	-7.726829e-001	6.174512e-001
794135.000	-7.717644e-001	6.187871e-001
796130.000	-7.706054e-001	6.200802e-001
798125.000	-7.699272e-001	6.214650e-001
800120.000	-7.689329e-001	6.224836e-001
802115.000	-7.677724e-001	6.238540e-001
804110.000	-7.666774e-001	6.247888e-001
806105.000	-7.657294e-001	6.259940e-001
808100.000	-7.648232e-001	6.275090e-001
810095.000	-7.637928e-001	6.285778e-001
812090.000	-7.629467e-001	6.296619e-001
814085.000	-7.618994e-001	6.307471e-001
816080.000	-7.612678e-001	6.318733e-001
818075.000	-7.600292e-001	6.334947e-001
820070.000	-7.590216e-001	6.345691e-001
822065.000	-7.578170e-001	6.356763e-001
824060.000	-7.569511e-001	6.368306e-001
826055.000	-7.559460e-001	6.377388e-001
828050.000	-7.548516e-001	6.390275e-001
830045.000	-7.538853e-001	6.399404e-001
832040.000	-7.534153e-001	6.413062e-001
834035.000	-7.520935e-001	6.423842e-001
836030.000	-7.512704e-001	6.437926e-001
838025.000	-7.499441e-001	6.447950e-001
840020.000	-7.488917e-001	6.458815e-001
842015.000	-7.478664e-001	6.468692e-001
844010.000	-7.469509e-001	6.481614e-001
846005.000	-7.458492e-001	6.495130e-001
848000.000	-7.447202e-001	6.505704e-001
849995.000	-7.439621e-001	6.515715e-001
851990.000	-7.428905e-001	6.526076e-001
853985.000	-7.420824e-001	6.540838e-001
855980.000	-7.407098e-001	6.550750e-001
857975.000	-7.396075e-001	6.560723e-001
859970.000	-7.390529e-001	6.570034e-001
861965.000	-7.379245e-001	6.584598e-001
863960.000	-7.366936e-001	6.597460e-001
865955.000	-7.355745e-001	6.607852e-001
867950.000	-7.346524e-001	6.620583e-001
869945.000	-7.339775e-001	6.630713e-001
871940.000	-7.330354e-001	6.642039e-001
873935.000	-7.318880e-001	6.651023e-001
875930.000	-7.311460e-001	6.664598e-001
877925.000	-7.295867e-001	6.674374e-001
879920.000	-7.285056e-001	6.683612e-001
881915.000	-7.275324e-001	6.695803e-001
883910.000	-7.268877e-001	6.711963e-001
885905.000	-7.257154e-001	6.720995e-001
887900.000	-7.247336e-001	6.729545e-001
889895.000	-7.234647e-001	6.741841e-001
891890.000	-7.225802e-001	6.752354e-001
893885.000	-7.215938e-001	6.763905e-001
895880.000	-7.205370e-001	6.774992e-001
897875.000	-7.193953e-001	6.784092e-001
899870.000	-7.185363e-001	6.798732e-001
901865.000	-7.173529e-001	6.807657e-001
903860.000	-7.166167e-001	6.815950e-001
905855.000	-7.155921e-001	6.830664e-001
907850.000	-7.141609e-001	6.840893e-001
909845.000	-7.132476e-001	6.849896e-001
911840.000	-7.122886e-001	6.861659e-001
913835.000	-7.109807e-001	6.872405e-001
915830.000	-7.098476e-001	6.884488e-001
917825.000	-7.093668e-001	6.892458e-001
919820.000	-7.081484e-001	6.906187e-001
921815.000	-7.071288e-001	6.914613e-001
923810.000	-7.060313e-001	6.925268e-001
925805.000	-7.052662e-001	6.939330e-001
927800.000	-7.035568e-001	6.948796e-001
929795.000	-7.031475e-001	6.958543e-001
931790.000	-7.018763e-001	6.968003e-001
933785.000	-7.007478e-001	6.980302e-001
935780.000	-6.994924e-001	6.991025e-001
937775.000	-6.985847e-001	7.000937e-001
939770.000	-6.976946e-001	7.006401e-001
941765.000	-6.967586e-001	7.021329e-001
943760.000	-6.950743e-001	7.030602e-001
945755.000	-6.943957e-001	7.040392e-001
947750.000	-6.937635e-001	7.050278e-001
949745.000	-6.920324e-001	7.064372e-001
951740.000	-6.911159e-001	7.072794e-001
953735.000	-6.902234e-001	7.084985e-001
955730.000	-6.891305e-001	7.095127e-001
957725.000	-6.879205e-001	7.105345e-001
959720.000	-6.870104e-001	7.116297e-001
961715.000	-6.859472e-001	7.122484e-001
963710.000	-6.848568e-001	7.135241e-001
965705.000	-6.841664e-001	7.144870e-001
967700.000	-6.828701e-001	7.153593e-001
969695.000	-6.820300e-001	7.166037e-001
971690.000	-6.806620e-001	7.172748e-001
973685.000	-6.797613e-001	7.183504e-001
975680.000	-6.780984e-001	7.197423e-001
977675.000	-6.774128e-001	7.208527e-001
979670.000	-6.763856e-001	7.213032e-001
981665.000	-6.755255e-001	7.225370e-001
983660.000	-6.739456e-001	7.232996e-001
985655.000	-6.729287e-001	7.248581e-001
987650.000	-6.721829e-001	7.258132e-001
989645.000	-6.709593e-001	7.266041e-001
991640.000	-6.700244e-001	7.272682e-001
993635.000	-6.690344e-001	7.285164e-001
995630.000	-6.675507e-001	7.293025e-001
997625.000	-6.670692e-001	7.304870e-001
999620.000	-6.654427e-001	7.310594e-001
1001615.000	-6.642501e-001	7.325388e-001
1003610.000	-6.636831e-001	7.333754e-001
1005605.000	-6.626771e-001	7.342679e-001
1007600.000	-6.615701e-001	7.353441e-001
1009595.000	-6.602727e-001	7.361556e-001
1011590.000	-6.591642e-001	7.373902e-001
1013585.000	-6.580351e-001	7.380896e-001
1015580.000	-6.567518e-001	7.392572e-001
1017575.000	-6.561975e-001	7.399512e-001
1019570.000	-6.547492e-001	7.408571e-001
1021565.000	-6.537456e-001	7.419453e-001
1023560.000	-6.527607e-001	7.429648e-001
1025555.000	-6.515768e-001	7.439183e-001
1027550.000	-6.507041e-001	7.448754e-001
1029545.000	-6.491514e-001	7.456325e-001
1031540.000	-6.480878e-001	7.467947e-001
1033535.000	-6.472245e-001	7.479536e-001
1035530.000	-6.461485e-001	7.486487e-001
1037525.000	-6.450833e-001	7.496036e-001
