Time (s),VIN,IIN,VOUT
0.0,24.42162500096,1.618950002304,48.54912500672
5e-10,24.34349999616,1.618950002304,48.58037500864
1e-09,24.187249986559998,1.618950002304,48.56475000768
1.5000000000000002e-09,24.062249978879997,1.615825002112,48.50225000384
2e-09,24.04662497792,1.617387502208,48.47100000192
2.5e-09,24.109124981759997,1.617387502208,48.42412499904
3.0000000000000004e-09,24.234124989439998,1.614262502016,48.47100000192
3.5000000000000003e-09,24.265374991359998,1.611137501824,48.54912500672
4e-09,24.202874987519998,1.611137501824,48.5960000096
4.500000000000001e-09,24.265374991359998,1.609575001728,48.56475000768
5e-09,24.35912499712,1.611137501824,48.56475000768
5.5000000000000004e-09,24.45287500288,1.611137501824,48.58037500864
6.000000000000001e-09,24.43725000192,1.609575001728,48.64287501248
6.5e-09,24.35912499712,1.611137501824,48.68975001536
7.000000000000001e-09,24.280999992319998,1.614262502016,48.6741250144
7.500000000000001e-09,24.249749990399998,1.615825002112,48.5960000096
8e-09,24.265374991359998,1.618950002304,48.53350000576
8.5e-09,24.202874987519998,1.617387502208,48.50225000384
9.000000000000001e-09,24.124749982719997,1.614262502016,48.48662500288
9.5e-09,24.077874979839997,1.609575001728,48.45537500096
1e-08,24.062249978879997,1.609575001728,48.43975
1.0500000000000001e-08,24.140374983679997,1.608012501632,48.392874997119996
1.1000000000000001e-08,24.265374991359998,1.606450001536,48.377249996159996
1.15e-08,24.29662499328,1.606450001536,48.45537500096
1.2000000000000002e-08,24.3278749952,1.606450001536,48.53350000576
1.2500000000000001e-08,24.37474999808,1.608012501632,48.58037500864
1.3e-08,24.42162500096,1.606450001536,48.56475000768
1.35e-08,24.4841250048,1.606450001536,48.54912500672
1.4000000000000001e-08,24.45287500288,1.606450001536,48.61162501056
1.45e-08,24.34349999616,1.609575001728,48.64287501248
1.5000000000000002e-08,24.171624985599998,1.611137501824,48.65850001344
1.55e-08,24.109124981759997,1.61270000192,48.61162501056
1.6e-08,24.171624985599998,1.61270000192,48.5178750048
1.6500000000000002e-08,24.218499988479998,1.61270000192,48.42412499904
1.7e-08,24.234124989439998,1.609575001728,48.377249996159996
1.75e-08,24.187249986559998,1.606450001536,48.392874997119996
1.8000000000000002e-08,24.249749990399998,1.608012501632,48.408499998079996
1.85e-08,24.34349999616,1.608012501632,48.377249996159996
1.9e-08,24.406,1.606450001536,48.361624995199996
1.9500000000000003e-08,24.406,1.60488750144,48.392874997119996
2e-08,24.3278749952,1.60488750144,48.47100000192
2.05e-08,24.3278749952,1.60488750144,48.56475000768
2.1000000000000003e-08,24.31224999424,1.60488750144,48.62725001152
2.15e-08,24.3278749952,1.608012501632,48.5960000096
2.2000000000000002e-08,24.280999992319998,1.608012501632,48.56475000768
2.2500000000000003e-08,24.249749990399998,1.60488750144,48.50225000384
2.3e-08,24.202874987519998,1.606450001536,48.50225000384
2.3500000000000002e-08,24.218499988479998,1.606450001536,48.45537500096
2.4000000000000003e-08,24.265374991359998,1.608012501632,48.392874997119996
2.45e-08,24.234124989439998,1.608012501632,48.314749992319996
2.5000000000000002e-08,24.234124989439998,1.606450001536,48.314749992319996
2.55e-08,24.218499988479998,1.606450001536,48.361624995199996
2.6e-08,24.265374991359998,1.608012501632,48.47100000192
2.6500000000000002e-08,24.35912499712,1.608012501632,48.48662500288
2.7e-08,24.4841250048,1.60488750144,48.48662500288
2.75e-08,24.53100000768,1.603325001344,48.50225000384
2.8000000000000003e-08,24.42162500096,1.60488750144,48.56475000768
2.85e-08,24.280999992319998,1.60488750144,48.61162501056
2.9e-08,24.265374991359998,1.60488750144,48.62725001152
2.9500000000000003e-08,24.3278749952,1.609575001728,48.56475000768
3.0000000000000004e-08,24.29662499328,1.611137501824,48.5178750048
3.05e-08,24.187249986559998,1.611137501824,48.47100000192
3.1e-08,24.109124981759997,1.611137501824,48.45537500096
3.1500000000000004e-08,24.155999984639998,1.611137501824,48.392874997119996
3.2e-08,24.249749990399998,1.609575001728,48.345999994239996
3.25e-08,24.34349999616,1.606450001536,48.299124991359996
3.3000000000000004e-08,24.42162500096,1.6017625012480001,48.299124991359996
3.35e-08,24.45287500288,1.598637501056,48.345999994239996
3.4e-08,24.42162500096,1.6017625012480001,48.48662500288
3.4500000000000005e-08,24.39037499904,1.60488750144,48.53350000576
3.5e-08,24.3278749952,1.606450001536,48.5960000096
3.55e-08,24.218499988479998,1.60488750144,48.5960000096
3.6000000000000005e-08,24.109124981759997,1.603325001344,48.61162501056
3.65e-08,24.124749982719997,1.6017625012480001,48.58037500864
3.7e-08,24.187249986559998,1.6017625012480001,48.54912500672
3.7500000000000005e-08,24.29662499328,1.608012501632,48.48662500288
3.8e-08,24.31224999424,1.611137501824,48.42412499904
3.85e-08,24.280999992319998,1.611137501824,48.330374993279996
3.9000000000000005e-08,24.265374991359998,1.614262502016,48.299124991359996
3.95e-08,24.29662499328,1.611137501824,48.283499990399996
4e-08,24.39037499904,1.609575001728,48.283499990399996
4.0500000000000005e-08,24.46850000384,1.606450001536,48.283499990399996
4.1e-08,24.49975000576,1.606450001536,48.361624995199996
4.15e-08,24.39037499904,1.60488750144,48.45537500096
4.2000000000000006e-08,24.202874987519998,1.609575001728,48.56475000768
4.2500000000000003e-08,24.093499980799997,1.608012501632,48.61162501056
4.3e-08,24.140374983679997,1.606450001536,48.5960000096
4.3500000000000006e-08,24.171624985599998,1.60488750144,48.54912500672
4.4000000000000004e-08,24.234124989439998,1.606450001536,48.54912500672
4.45e-08,24.3278749952,1.614262502016,48.5178750048
4.5000000000000006e-08,24.31224999424,1.615825002112,48.47100000192
4.5500000000000004e-08,24.31224999424,1.618950002304,48.377249996159996
4.6e-08,24.29662499328,1.615825002112,48.330374993279996
4.6500000000000006e-08,24.31224999424,1.614262502016,48.283499990399996
4.7000000000000004e-08,24.42162500096,1.611137501824,48.299124991359996
4.75e-08,24.53100000768,1.611137501824,48.330374993279996
4.8000000000000006e-08,24.46850000384,1.609575001728,48.345999994239996
4.8500000000000004e-08,24.218499988479998,1.609575001728,48.408499998079996
4.9e-08,24.062249978879997,1.608012501632,48.43975
4.95e-08,23.96849997312,1.609575001728,48.50225000384
5.0000000000000004e-08,24.015374976,1.61270000192,48.5960000096
5.05e-08,24.109124981759997,1.609575001728,48.58037500864
5.1e-08,24.171624985599998,1.611137501824,48.50225000384
5.1500000000000005e-08,24.187249986559998,1.61270000192,48.43975
5.2e-08,24.218499988479998,1.615825002112,48.408499998079996
5.25e-08,24.34349999616,1.615825002112,48.408499998079996
5.3000000000000005e-08,24.42162500096,1.611137501824,48.392874997119996
5.35e-08,24.43725000192,1.61270000192,48.330374993279996
5.4e-08,24.406,1.61270000192,48.330374993279996
5.4500000000000005e-08,24.37474999808,1.614262502016,48.361624995199996
5.5e-08,24.37474999808,1.615825002112,48.45537500096
5.55e-08,24.31224999424,1.615825002112,48.48662500288
5.6000000000000005e-08,24.202874987519998,1.611137501824,48.48662500288
5.65e-08,24.015374976,1.611137501824,48.43975
5.7e-08,23.95287497216,1.61270000192,48.45537500096
5.7500000000000005e-08,23.96849997312,1.614262502016,48.47100000192
5.8e-08,24.04662497792,1.6205125024,48.53350000576
5.85e-08,24.140374983679997,1.625200002688,48.45537500096
5.9000000000000006e-08,24.218499988479998,1.625200002688,48.377249996159996
5.9500000000000003e-08,24.234124989439998,1.623637502592,48.361624995199996
6.000000000000001e-08,24.280999992319998,1.622075002496,48.361624995199996
6.05e-08,24.37474999808,1.615825002112,48.392874997119996
6.1e-08,24.46850000384,1.61270000192,48.408499998079996
6.15e-08,24.49975000576,1.611137501824,48.392874997119996
6.2e-08,24.406,1.614262502016,48.42412499904
6.250000000000001e-08,24.249749990399998,1.617387502208,48.45537500096
6.300000000000001e-08,24.093499980799997,1.622075002496,48.48662500288
6.35e-08,24.015374976,1.618950002304,48.48662500288
6.4e-08,23.98412497408,1.617387502208,48.48662500288
6.45e-08,23.95287497216,1.617387502208,48.50225000384
6.5e-08,23.99974997504,1.618950002304,48.50225000384
6.55e-08,24.04662497792,1.618950002304,48.45537500096
6.600000000000001e-08,24.155999984639998,1.6205125024,48.45537500096
6.65e-08,24.249749990399998,1.6205125024,48.392874997119996
6.7e-08,24.3278749952,1.622075002496,48.345999994239996
6.75e-08,24.42162500096,1.6205125024,48.345999994239996
6.8e-08,24.45287500288,1.618950002304,48.361624995199996
6.85e-08,24.39037499904,1.618950002304,48.392874997119996
6.900000000000001e-08,24.265374991359998,1.615825002112,48.45537500096
6.950000000000001e-08,24.140374983679997,1.614262502016,48.45537500096
7e-08,24.03099997696,1.617387502208,48.47100000192
7.05e-08,24.03099997696,1.617387502208,48.48662500288
7.1e-08,24.077874979839997,1.618950002304,48.53350000576
7.15e-08,24.077874979839997,1.622075002496,48.50225000384
7.200000000000001e-08,24.062249978879997,1.623637502592,48.45537500096
7.250000000000001e-08,24.04662497792,1.625200002688,48.42412499904
7.3e-08,24.155999984639998,1.625200002688,48.408499998079996
7.35e-08,24.280999992319998,1.626762502784,48.392874997119996
7.4e-08,24.35912499712,1.626762502784,48.408499998079996
7.45e-08,24.35912499712,1.622075002496,48.377249996159996
7.500000000000001e-08,24.37474999808,1.6205125024,48.330374993279996
7.550000000000001e-08,24.31224999424,1.618950002304,48.377249996159996
7.6e-08,24.218499988479998,1.622075002496,48.42412499904
7.65e-08,24.171624985599998,1.625200002688,48.45537500096
7.7e-08,24.124749982719997,1.623637502592,48.47100000192
7.75e-08,24.077874979839997,1.618950002304,48.47100000192
7.800000000000001e-08,24.077874979839997,1.6205125024,48.50225000384
7.850000000000001e-08,24.109124981759997,1.62832500288,48.48662500288
7.9e-08,24.124749982719997,1.633012503168,48.50225000384
7.95e-08,24.140374983679997,1.633012503168,48.47100000192
8e-08,24.155999984639998,1.629887502976,48.408499998079996
8.05e-08,24.140374983679997,1.626762502784,48.408499998079996
8.100000000000001e-08,24.202874987519998,1.625200002688,48.361624995199996
8.150000000000001e-08,24.31224999424,1.623637502592,48.392874997119996
8.2e-08,24.34349999616,1.623637502592,48.45537500096
8.25e-08,24.29662499328,1.622075002496,48.48662500288
8.3e-08,24.234124989439998,1.6205125024,48.47100000192
8.35e-08,24.202874987519998,1.6205125024,48.50225000384
8.400000000000001e-08,24.218499988479998,1.623637502592,48.54912500672
8.450000000000001e-08,24.218499988479998,1.626762502784,48.56475000768
8.500000000000001e-08,24.155999984639998,1.626762502784,48.58037500864
8.55e-08,24.077874979839997,1.62832500288,48.56475000768
8.6e-08,24.062249978879997,1.629887502976,48.54912500672
8.65e-08,24.124749982719997,1.634575003264,48.48662500288
8.700000000000001e-08,24.187249986559998,1.639262503552,48.48662500288
8.750000000000001e-08,24.202874987519998,1.637700003456,48.47100000192
8.800000000000001e-08,24.218499988479998,1.634575003264,48.47100000192
8.85e-08,24.218499988479998,1.633012503168,48.47100000192
8.9e-08,24.265374991359998,1.633012503168,48.45537500096
8.95e-08,24.31224999424,1.631450003072,48.47100000192
9.000000000000001e-08,24.280999992319998,1.631450003072,48.54912500672
9.050000000000001e-08,24.171624985599998,1.62832500288,48.58037500864
9.100000000000001e-08,24.109124981759997,1.62832500288,48.58037500864
9.15e-08,24.109124981759997,1.633012503168,48.58037500864
9.2e-08,24.124749982719997,1.637700003456,48.56475000768
9.25e-08,24.109124981759997,1.640825003648,48.54912500672
9.300000000000001e-08,24.03099997696,1.63613750336,48.56475000768
9.350000000000001e-08,24.015374976,1.634575003264,48.56475000768
9.400000000000001e-08,24.093499980799997,1.633012503168,48.56475000768
9.45e-08,24.202874987519998,1.637700003456,48.48662500288
9.5e-08,24.280999992319998,1.639262503552,48.47100000192
9.55e-08,24.249749990399998,1.634575003264,48.47100000192
9.600000000000001e-08,24.218499988479998,1.629887502976,48.50225000384
9.650000000000001e-08,24.187249986559998,1.62832500288,48.54912500672
9.700000000000001e-08,24.218499988479998,1.62832500288,48.56475000768
9.75e-08,24.218499988479998,1.626762502784,48.56475000768
9.8e-08,24.187249986559998,1.62832500288,48.64287501248
9.85e-08,24.140374983679997,1.62832500288,48.65850001344
9.9e-08,24.140374983679997,1.626762502784,48.64287501248
9.950000000000001e-08,24.155999984639998,1.62832500288,48.5960000096
1.0000000000000001e-07,24.171624985599998,1.633012503168,48.56475000768
1.005e-07,24.234124989439998,1.634575003264,48.54912500672
1.01e-07,24.218499988479998,1.631450003072,48.54912500672
1.015e-07,24.218499988479998,1.631450003072,48.58037500864
1.02e-07,24.218499988479998,1.633012503168,48.58037500864
1.0250000000000001e-07,24.202874987519998,1.634575003264,48.50225000384
1.0300000000000001e-07,24.187249986559998,1.63613750336,48.50225000384
1.0350000000000001e-07,24.155999984639998,1.633012503168,48.50225000384
1.04e-07,24.109124981759997,1.62832500288,48.54912500672
1.045e-07,24.077874979839997,1.62832500288,48.5960000096
1.05e-07,24.140374983679997,1.62832500288,48.61162501056
1.0550000000000001e-07,24.140374983679997,1.633012503168,48.58037500864
1.0600000000000001e-07,24.140374983679997,1.63613750336,48.61162501056
1.0650000000000001e-07,24.124749982719997,1.63613750336,48.64287501248
1.07e-07,24.155999984639998,1.634575003264,48.64287501248
1.075e-07,24.202874987519998,1.63613750336,48.62725001152
1.08e-07,24.249749990399998,1.634575003264,48.58037500864
1.0850000000000001e-07,24.280999992319998,1.634575003264,48.56475000768
1.0900000000000001e-07,24.234124989439998,1.631450003072,48.5960000096
1.0950000000000001e-07,24.140374983679997,1.629887502976,48.61162501056
1.1e-07,24.093499980799997,1.62832500288,48.62725001152
1.105e-07,24.093499980799997,1.62832500288,48.58037500864
1.11e-07,24.171624985599998,1.629887502976,48.53350000576
1.1150000000000001e-07,24.249749990399998,1.629887502976,48.50225000384
1.1200000000000001e-07,24.29662499328,1.629887502976,48.5178750048
1.1250000000000001e-07,24.218499988479998,1.629887502976,48.53350000576
1.13e-07,24.140374983679997,1.62832500288,48.54912500672
1.135e-07,24.124749982719997,1.62832500288,48.54912500672
1.14e-07,24.218499988479998,1.631450003072,48.58037500864
1.1450000000000001e-07,24.34349999616,1.633012503168,48.61162501056
1.1500000000000001e-07,24.35912499712,1.631450003072,48.61162501056
1.1550000000000001e-07,24.234124989439998,1.633012503168,48.64287501248
1.16e-07,24.140374983679997,1.631450003072,48.65850001344
1.165e-07,24.155999984639998,1.633012503168,48.65850001344
1.17e-07,24.218499988479998,1.633012503168,48.65850001344
1.1750000000000001e-07,24.265374991359998,1.633012503168,48.62725001152
1.1800000000000001e-07,24.202874987519998,1.633012503168,48.64287501248
1.1850000000000001e-07,24.109124981759997,1.631450003072,48.5960000096
1.1900000000000001e-07,24.093499980799997,1.629887502976,48.54912500672
1.195e-07,24.155999984639998,1.629887502976,48.48662500288
1.2000000000000002e-07,24.265374991359998,1.629887502976,48.47100000192
1.205e-07,24.280999992319998,1.631450003072,48.50225000384
1.21e-07,24.218499988479998,1.631450003072,48.56475000768
1.215e-07,24.109124981759997,1.629887502976,48.61162501056
1.22e-07,24.124749982719997,1.62832500288,48.61162501056
1.2250000000000002e-07,24.218499988479998,1.626762502784,48.5960000096
1.23e-07,24.34349999616,1.623637502592,48.5960000096
1.2350000000000001e-07,24.3278749952,1.623637502592,48.64287501248
1.24e-07,24.218499988479998,1.6205125024,48.68975001536
1.245e-07,24.140374983679997,1.618950002304,48.68975001536
1.2500000000000002e-07,24.140374983679997,1.6205125024,48.64287501248
1.255e-07,24.218499988479998,1.622075002496,48.61162501056
1.2600000000000002e-07,24.265374991359998,1.62832500288,48.62725001152
1.265e-07,24.265374991359998,1.631450003072,48.64287501248
1.27e-07,24.249749990399998,1.629887502976,48.64287501248
1.275e-07,24.218499988479998,1.625200002688,48.56475000768
1.28e-07,24.218499988479998,1.623637502592,48.54912500672
1.2850000000000002e-07,24.202874987519998,1.625200002688,48.54912500672
1.29e-07,24.202874987519998,1.625200002688,48.58037500864
1.2950000000000001e-07,24.140374983679997,1.622075002496,48.62725001152
1.3e-07,24.140374983679997,1.623637502592,48.64287501248
1.305e-07,24.171624985599998,1.626762502784,48.5960000096
1.31e-07,24.234124989439998,1.62832500288,48.56475000768
1.315e-07,24.234124989439998,1.62832500288,48.61162501056
1.3200000000000002e-07,24.202874987519998,1.625200002688,48.6741250144
1.325e-07,24.171624985599998,1.623637502592,48.70537501632
1.33e-07,24.187249986559998,1.622075002496,48.62725001152
1.335e-07,24.265374991359998,1.622075002496,48.54912500672
1.34e-07,24.29662499328,1.623637502592,48.56475000768
1.3450000000000002e-07,24.280999992319998,1.623637502592,48.5960000096
1.35e-07,24.234124989439998,1.623637502592,48.64287501248
1.3550000000000002e-07,24.140374983679997,1.617387502208,48.61162501056
1.36e-07,24.124749982719997,1.617387502208,48.56475000768
1.365e-07,24.140374983679997,1.618950002304,48.56475000768
1.37e-07,24.187249986559998,1.6205125024,48.61162501056
1.375e-07,24.171624985599998,1.617387502208,48.6741250144
1.3800000000000002e-07,24.187249986559998,1.615825002112,48.72100001728
1.385e-07,24.249749990399998,1.615825002112,48.68975001536
1.3900000000000001e-07,24.34349999616,1.6205125024,48.61162501056
1.395e-07,24.406,1.623637502592,48.5960000096
1.4e-07,24.35912499712,1.6205125024,48.62725001152
1.4050000000000002e-07,24.280999992319998,1.615825002112,48.64287501248
1.41e-07,24.234124989439998,1.614262502016,48.5960000096
1.4150000000000002e-07,24.265374991359998,1.614262502016,48.53350000576
1.42e-07,24.265374991359998,1.614262502016,48.54912500672
1.425e-07,24.187249986559998,1.615825002112,48.56475000768
1.43e-07,24.062249978879997,1.614262502016,48.61162501056
1.435e-07,23.95287497216,1.611137501824,48.58037500864
1.4400000000000002e-07,24.03099997696,1.614262502016,48.54912500672
1.445e-07,24.218499988479998,1.618950002304,48.58037500864
1.4500000000000001e-07,24.34349999616,1.617387502208,48.62725001152
1.455e-07,24.37474999808,1.614262502016,48.6741250144
1.46e-07,24.3278749952,1.61270000192,48.70537501632
1.4650000000000002e-07,24.29662499328,1.611137501824,48.62725001152
1.47e-07,24.37474999808,1.611137501824,48.56475000768
1.4750000000000002e-07,24.406,1.611137501824,48.56475000768
1.48e-07,24.3278749952,1.61270000192,48.5960000096
1.485e-07,24.171624985599998,1.615825002112,48.5960000096
1.49e-07,24.062249978879997,1.615825002112,48.54912500672
1.495e-07,24.04662497792,1.614262502016,48.45537500096
1.5000000000000002e-07,24.124749982719997,1.617387502208,48.42412499904
1.505e-07,24.234124989439998,1.617387502208,48.45537500096
1.5100000000000002e-07,24.265374991359998,1.614262502016,48.56475000768
1.515e-07,24.234124989439998,1.609575001728,48.58037500864
1.52e-07,24.280999992319998,1.608012501632,48.54912500672
1.5250000000000002e-07,24.37474999808,1.611137501824,48.54912500672
1.53e-07,24.45287500288,1.611137501824,48.58037500864
1.5350000000000002e-07,24.45287500288,1.611137501824,48.64287501248
1.54e-07,24.39037499904,1.61270000192,48.68975001536
1.5450000000000001e-07,24.280999992319998,1.614262502016,48.65850001344
1.55e-07,24.265374991359998,1.614262502016,48.58037500864
1.555e-07,24.249749990399998,1.615825002112,48.5178750048
1.5600000000000002e-07,24.202874987519998,1.615825002112,48.50225000384
1.565e-07,24.140374983679997,1.615825002112,48.47100000192
1.5700000000000002e-07,24.062249978879997,1.611137501824,48.47100000192
1.575e-07,24.077874979839997,1.611137501824,48.408499998079996
1.58e-07,24.155999984639998,1.609575001728,48.392874997119996
1.5850000000000002e-07,24.265374991359998,1.609575001728,48.392874997119996
1.59e-07,24.3278749952,1.609575001728,48.45537500096
1.5950000000000002e-07,24.34349999616,1.608012501632,48.48662500288
1.6e-07,24.37474999808,1.608012501632,48.54912500672
