Time (s),VIN,IIN,VOUT
0.0,24.36849999616,1.622300002304,48.764000013440004
5e-10,24.41537499904,1.625425002496,48.701500009600004
1e-09,24.38412499712,1.630112502784,48.717125010560004
1.5000000000000002e-09,24.32162499328,1.626987502592,48.748375012480004
2e-09,24.30599999232,1.6238625024,48.748375012480004
2.5e-09,24.32162499328,1.622300002304,48.732750011520004
3.0000000000000004e-09,24.33724999424,1.6238625024,48.67025000768
3.5000000000000003e-09,24.24349998848,1.6238625024,48.6233750048
4e-09,24.087249978880003,1.622300002304,48.67025000768
4.500000000000001e-09,23.977874972160002,1.620737502208,48.701500009600004
5e-09,24.009124974080002,1.617612502016,48.701500009600004
5.5000000000000004e-09,24.18099998464,1.619175002112,48.63900000576
6.000000000000001e-09,24.3528749952,1.619175002112,48.65462500672
6.5e-09,24.431,1.620737502208,48.701500009600004
7.000000000000001e-09,24.38412499712,1.622300002304,48.779625014400004
7.500000000000001e-09,24.3528749952,1.619175002112,48.810875016320004
8e-09,24.39974999808,1.617612502016,48.732750011520004
8.5e-09,24.49350000384,1.619175002112,48.67025000768
9.000000000000001e-09,24.41537499904,1.619175002112,48.67025000768
9.5e-09,24.25912498944,1.620737502208,48.701500009600004
1e-08,24.1184999808,1.620737502208,48.717125010560004
1.0500000000000001e-08,24.071624977920003,1.620737502208,48.63900000576
1.1000000000000001e-08,24.1184999808,1.619175002112,48.57650000192
1.15e-08,24.1966249856,1.61605000192,48.51399999808
1.2000000000000002e-08,24.2747499904,1.61605000192,48.56087500096
1.2500000000000001e-08,24.24349998848,1.612925001728,48.60775000384
1.3e-08,24.30599999232,1.612925001728,48.67025000768
1.35e-08,24.39974999808,1.614487501824,48.63900000576
1.4000000000000001e-08,24.5091250048,1.61605000192,48.65462500672
1.45e-08,24.5091250048,1.617612502016,48.67025000768
1.5000000000000002e-08,24.44662500096,1.617612502016,48.717125010560004
1.55e-08,24.36849999616,1.619175002112,48.779625014400004
1.6e-08,24.30599999232,1.619175002112,48.779625014400004
1.6500000000000002e-08,24.30599999232,1.620737502208,48.701500009600004
1.7e-08,24.22787498752,1.622300002304,48.65462500672
1.75e-08,24.14974998272,1.620737502208,48.60775000384
1.8000000000000002e-08,24.087249978880003,1.619175002112,48.59212500288
1.85e-08,24.071624977920003,1.617612502016,48.57650000192
1.9e-08,24.14974998272,1.61605000192,48.54525
1.9500000000000003e-08,24.25912498944,1.61605000192,48.48274999616
2e-08,24.3528749952,1.612925001728,48.49837499712
2.05e-08,24.36849999616,1.611362501632,48.54525
2.1000000000000003e-08,24.41537499904,1.614487501824,48.63900000576
2.15e-08,24.5091250048,1.614487501824,48.65462500672
2.2000000000000002e-08,24.55600000768,1.611362501632,48.65462500672
2.2500000000000003e-08,24.54037500672,1.611362501632,48.65462500672
2.3e-08,24.431,1.611362501632,48.685875008640004
2.3500000000000002e-08,24.29037499136,1.609800001536,48.732750011520004
2.4000000000000003e-08,24.18099998464,1.611362501632,48.748375012480004
2.45e-08,24.13412498176,1.61605000192,48.685875008640004
2.5000000000000002e-08,24.18099998464,1.619175002112,48.63900000576
2.55e-08,24.22787498752,1.617612502016,48.54525
2.6e-08,24.21224998656,1.612925001728,48.51399999808
2.6500000000000002e-08,24.22787498752,1.609800001536,48.52962499904
2.7e-08,24.36849999616,1.609800001536,48.52962499904
2.75e-08,24.44662500096,1.609800001536,48.4671249952
2.8000000000000003e-08,24.46225000192,1.609800001536,48.45149999424
2.85e-08,24.39974999808,1.609800001536,48.4671249952
2.9e-08,24.38412499712,1.611362501632,48.57650000192
2.9500000000000003e-08,24.38412499712,1.614487501824,48.63900000576
3.0000000000000004e-08,24.38412499712,1.614487501824,48.717125010560004
3.05e-08,24.38412499712,1.612925001728,48.685875008640004
3.1e-08,24.32162499328,1.612925001728,48.67025000768
3.1500000000000004e-08,24.2747499904,1.611362501632,48.65462500672
3.2e-08,24.25912498944,1.609800001536,48.6233750048
3.25e-08,24.2747499904,1.612925001728,48.57650000192
3.3000000000000004e-08,24.24349998848,1.612925001728,48.52962499904
3.35e-08,24.25912498944,1.612925001728,48.43587499328
3.4e-08,24.24349998848,1.614487501824,48.37337498944
3.4500000000000005e-08,24.2747499904,1.614487501824,48.43587499328
3.5e-08,24.38412499712,1.612925001728,48.52962499904
3.55e-08,24.5091250048,1.6082375014399999,48.54525
3.6000000000000005e-08,24.57162500864,1.6082375014399999,48.56087500096
3.65e-08,24.5091250048,1.611362501632,48.59212500288
3.7e-08,24.39974999808,1.611362501632,48.65462500672
3.7500000000000005e-08,24.3528749952,1.611362501632,48.685875008640004
3.8e-08,24.3528749952,1.611362501632,48.732750011520004
3.85e-08,24.38412499712,1.611362501632,48.685875008640004
3.9000000000000005e-08,24.22787498752,1.612925001728,48.60775000384
3.95e-08,24.1184999808,1.614487501824,48.59212500288
4e-08,24.10287497984,1.617612502016,48.56087500096
4.0500000000000005e-08,24.21224998656,1.617612502016,48.51399999808
4.1e-08,24.33724999424,1.612925001728,48.4671249952
4.15e-08,24.46225000192,1.6082375014399999,48.3889999904
4.2000000000000006e-08,24.5091250048,1.6082375014399999,48.37337498944
4.2500000000000003e-08,24.46225000192,1.611362501632,48.45149999424
4.3e-08,24.44662500096,1.611362501632,48.54525
4.3500000000000006e-08,24.39974999808,1.611362501632,48.60775000384
4.4000000000000004e-08,24.32162499328,1.611362501632,48.67025000768
4.45e-08,24.21224998656,1.6082375014399999,48.685875008640004
4.5000000000000006e-08,24.18099998464,1.606675001344,48.717125010560004
4.5500000000000004e-08,24.16537498368,1.609800001536,48.701500009600004
4.6e-08,24.22787498752,1.611362501632,48.67025000768
4.6500000000000006e-08,24.32162499328,1.614487501824,48.60775000384
4.7000000000000004e-08,24.32162499328,1.617612502016,48.52962499904
4.75e-08,24.30599999232,1.617612502016,48.45149999424
4.8000000000000006e-08,24.30599999232,1.61605000192,48.40462499136
4.8500000000000004e-08,24.39974999808,1.614487501824,48.37337498944
4.9e-08,24.49350000384,1.609800001536,48.3889999904
4.95e-08,24.54037500672,1.609800001536,48.37337498944
5.0000000000000004e-08,24.49350000384,1.609800001536,48.42024999232
5.05e-08,24.32162499328,1.612925001728,48.54525
5.1e-08,24.16537498368,1.614487501824,48.65462500672
5.1500000000000005e-08,24.14974998272,1.611362501632,48.701500009600004
5.2e-08,24.1966249856,1.612925001728,48.701500009600004
5.25e-08,24.22787498752,1.612925001728,48.67025000768
5.3000000000000005e-08,24.30599999232,1.61605000192,48.67025000768
5.35e-08,24.32162499328,1.620737502208,48.63900000576
5.4e-08,24.30599999232,1.622300002304,48.60775000384
5.4500000000000005e-08,24.32162499328,1.622300002304,48.51399999808
5.5e-08,24.32162499328,1.620737502208,48.43587499328
5.55e-08,24.38412499712,1.617612502016,48.37337498944
5.6000000000000005e-08,24.47787500288,1.614487501824,48.37337498944
5.65e-08,24.49350000384,1.61605000192,48.42024999232
5.7e-08,24.33724999424,1.612925001728,48.4671249952
5.7500000000000005e-08,24.18099998464,1.611362501632,48.51399999808
5.8e-08,24.055999976960003,1.611362501632,48.52962499904
5.85e-08,24.055999976960003,1.61605000192,48.60775000384
5.9000000000000006e-08,24.10287497984,1.61605000192,48.685875008640004
5.9500000000000003e-08,24.18099998464,1.617612502016,48.685875008640004
6.000000000000001e-08,24.22787498752,1.617612502016,48.63900000576
6.05e-08,24.25912498944,1.622300002304,48.54525
6.1e-08,24.30599999232,1.6238625024,48.51399999808
6.15e-08,24.38412499712,1.619175002112,48.48274999616
6.2e-08,24.39974999808,1.612925001728,48.48274999616
6.250000000000001e-08,24.41537499904,1.614487501824,48.45149999424
6.300000000000001e-08,24.41537499904,1.619175002112,48.40462499136
6.35e-08,24.38412499712,1.620737502208,48.42024999232
6.4e-08,24.3528749952,1.620737502208,48.49837499712
6.45e-08,24.2747499904,1.622300002304,48.54525
6.5e-08,24.14974998272,1.620737502208,48.60775000384
6.55e-08,24.055999976960003,1.617612502016,48.59212500288
6.600000000000001e-08,24.040374976000003,1.619175002112,48.54525
6.65e-08,24.087249978880003,1.626987502592,48.56087500096
6.7e-08,24.13412498176,1.63167500288,48.59212500288
6.75e-08,24.1966249856,1.633237502976,48.54525
6.8e-08,24.22787498752,1.63167500288,48.4671249952
6.85e-08,24.24349998848,1.625425002496,48.40462499136
6.900000000000001e-08,24.32162499328,1.6238625024,48.40462499136
6.950000000000001e-08,24.38412499712,1.622300002304,48.43587499328
7e-08,24.41537499904,1.619175002112,48.49837499712
7.05e-08,24.431,1.620737502208,48.49837499712
7.1e-08,24.3528749952,1.622300002304,48.49837499712
7.15e-08,24.22787498752,1.6238625024,48.51399999808
7.200000000000001e-08,24.10287497984,1.625425002496,48.57650000192
7.250000000000001e-08,24.040374976000003,1.626987502592,48.60775000384
7.3e-08,24.009124974080002,1.625425002496,48.6233750048
7.35e-08,24.040374976000003,1.625425002496,48.57650000192
7.4e-08,24.10287497984,1.6238625024,48.54525
7.45e-08,24.14974998272,1.625425002496,48.56087500096
7.500000000000001e-08,24.22787498752,1.626987502592,48.56087500096
7.550000000000001e-08,24.30599999232,1.628550002688,48.49837499712
7.6e-08,24.41537499904,1.630112502784,48.42024999232
7.65e-08,24.46225000192,1.628550002688,48.40462499136
7.7e-08,24.44662500096,1.625425002496,48.43587499328
7.75e-08,24.3528749952,1.622300002304,48.4671249952
7.800000000000001e-08,24.21224998656,1.619175002112,48.54525
7.850000000000001e-08,24.1184999808,1.622300002304,48.56087500096
7.9e-08,24.071624977920003,1.6238625024,48.56087500096
7.95e-08,24.1184999808,1.630112502784,48.59212500288
8e-08,24.1184999808,1.630112502784,48.6233750048
8.05e-08,24.087249978880003,1.630112502784,48.60775000384
8.100000000000001e-08,24.071624977920003,1.628550002688,48.57650000192
8.150000000000001e-08,24.14974998272,1.628550002688,48.52962499904
8.2e-08,24.2747499904,1.630112502784,48.4671249952
8.25e-08,24.33724999424,1.633237502976,48.48274999616
8.3e-08,24.36849999616,1.633237502976,48.49837499712
8.35e-08,24.36849999616,1.633237502976,48.45149999424
8.400000000000001e-08,24.32162499328,1.630112502784,48.42024999232
8.450000000000001e-08,24.24349998848,1.628550002688,48.42024999232
8.500000000000001e-08,24.18099998464,1.626987502592,48.48274999616
8.55e-08,24.13412498176,1.626987502592,48.51399999808
8.6e-08,24.10287497984,1.6238625024,48.56087500096
8.65e-08,24.10287497984,1.628550002688,48.57650000192
8.700000000000001e-08,24.1184999808,1.633237502976,48.57650000192
8.750000000000001e-08,24.16537498368,1.63948750336,48.57650000192
8.800000000000001e-08,24.16537498368,1.636362503168,48.57650000192
8.85e-08,24.18099998464,1.636362503168,48.56087500096
8.9e-08,24.18099998464,1.633237502976,48.56087500096
8.95e-08,24.24349998848,1.630112502784,48.49837499712
9.000000000000001e-08,24.32162499328,1.628550002688,48.4671249952
9.050000000000001e-08,24.33724999424,1.630112502784,48.49837499712
9.100000000000001e-08,24.32162499328,1.630112502784,48.54525
9.15e-08,24.22787498752,1.630112502784,48.54525
9.2e-08,24.18099998464,1.628550002688,48.56087500096
9.25e-08,24.18099998464,1.628550002688,48.56087500096
9.300000000000001e-08,24.1966249856,1.630112502784,48.60775000384
9.350000000000001e-08,24.16537498368,1.63167500288,48.60775000384
9.400000000000001e-08,24.13412498176,1.633237502976,48.63900000576
9.45e-08,24.14974998272,1.637925003264,48.67025000768
9.5e-08,24.18099998464,1.642612503552,48.63900000576
9.55e-08,24.24349998848,1.644175003648,48.59212500288
9.600000000000001e-08,24.24349998848,1.642612503552,48.56087500096
9.650000000000001e-08,24.22787498752,1.641050003456,48.52962499904
9.700000000000001e-08,24.22787498752,1.636362503168,48.56087500096
9.75e-08,24.2747499904,1.634800003072,48.56087500096
9.8e-08,24.30599999232,1.63167500288,48.56087500096
9.85e-08,24.2747499904,1.630112502784,48.59212500288
9.9e-08,24.22787498752,1.63167500288,48.6233750048
9.950000000000001e-08,24.14974998272,1.630112502784,48.63900000576
1.0000000000000001e-07,24.1184999808,1.633237502976,48.65462500672
1.005e-07,24.14974998272,1.636362503168,48.6233750048
1.01e-07,24.18099998464,1.63948750336,48.6233750048
1.015e-07,24.14974998272,1.641050003456,48.60775000384
1.02e-07,24.10287497984,1.63948750336,48.65462500672
1.0250000000000001e-07,24.13412498176,1.637925003264,48.67025000768
1.0300000000000001e-07,24.22787498752,1.641050003456,48.65462500672
1.0350000000000001e-07,24.30599999232,1.641050003456,48.60775000384
1.04e-07,24.30599999232,1.642612503552,48.56087500096
1.045e-07,24.24349998848,1.641050003456,48.52962499904
1.05e-07,24.1966249856,1.63948750336,48.59212500288
1.0550000000000001e-07,24.22787498752,1.636362503168,48.60775000384
1.0600000000000001e-07,24.22787498752,1.633237502976,48.6233750048
1.0650000000000001e-07,24.18099998464,1.633237502976,48.65462500672
1.07e-07,24.16537498368,1.636362503168,48.717125010560004
1.075e-07,24.18099998464,1.636362503168,48.732750011520004
1.08e-07,24.18099998464,1.641050003456,48.732750011520004
1.0850000000000001e-07,24.18099998464,1.63948750336,48.701500009600004
1.0900000000000001e-07,24.24349998848,1.637925003264,48.701500009600004
1.0950000000000001e-07,24.2747499904,1.637925003264,48.63900000576
1.1e-07,24.25912498944,1.634800003072,48.67025000768
1.105e-07,24.25912498944,1.634800003072,48.685875008640004
1.11e-07,24.24349998848,1.637925003264,48.701500009600004
1.1150000000000001e-07,24.22787498752,1.636362503168,48.65462500672
1.1200000000000001e-07,24.18099998464,1.634800003072,48.59212500288
1.1250000000000001e-07,24.14974998272,1.633237502976,48.57650000192
1.13e-07,24.1184999808,1.630112502784,48.63900000576
1.135e-07,24.1184999808,1.63167500288,48.701500009600004
1.14e-07,24.13412498176,1.633237502976,48.685875008640004
1.1450000000000001e-07,24.14974998272,1.634800003072,48.685875008640004
1.1500000000000001e-07,24.16537498368,1.637925003264,48.701500009600004
1.1550000000000001e-07,24.14974998272,1.637925003264,48.732750011520004
1.16e-07,24.22787498752,1.63948750336,48.732750011520004
1.165e-07,24.29037499136,1.642612503552,48.701500009600004
1.17e-07,24.33724999424,1.644175003648,48.701500009600004
1.1750000000000001e-07,24.2747499904,1.641050003456,48.67025000768
1.1800000000000001e-07,24.21224998656,1.633237502976,48.701500009600004
1.1850000000000001e-07,24.16537498368,1.633237502976,48.701500009600004
1.1900000000000001e-07,24.1184999808,1.634800003072,48.717125010560004
1.195e-07,24.16537498368,1.634800003072,48.685875008640004
1.2000000000000002e-07,24.25912498944,1.634800003072,48.6233750048
1.205e-07,24.30599999232,1.634800003072,48.59212500288
1.21e-07,24.1966249856,1.633237502976,48.60775000384
1.215e-07,24.087249978880003,1.630112502784,48.6233750048
1.22e-07,24.087249978880003,1.628550002688,48.65462500672
1.2250000000000002e-07,24.18099998464,1.628550002688,48.685875008640004
1.23e-07,24.33724999424,1.630112502784,48.685875008640004
1.2350000000000001e-07,24.38412499712,1.633237502976,48.65462500672
1.24e-07,24.30599999232,1.636362503168,48.685875008640004
1.245e-07,24.18099998464,1.636362503168,48.717125010560004
1.2500000000000002e-07,24.18099998464,1.636362503168,48.732750011520004
1.255e-07,24.24349998848,1.636362503168,48.701500009600004
1.2600000000000002e-07,24.30599999232,1.634800003072,48.732750011520004
1.265e-07,24.25912498944,1.637925003264,48.748375012480004
1.27e-07,24.13412498176,1.637925003264,48.764000013440004
1.275e-07,24.10287497984,1.63948750336,48.732750011520004
1.28e-07,24.16537498368,1.63948750336,48.65462500672
1.2850000000000002e-07,24.25912498944,1.63948750336,48.59212500288
1.29e-07,24.25912498944,1.637925003264,48.59212500288
1.2950000000000001e-07,24.21224998656,1.636362503168,48.59212500288
1.3e-07,24.14974998272,1.633237502976,48.6233750048
1.305e-07,24.14974998272,1.63167500288,48.732750011520004
1.31e-07,24.2747499904,1.633237502976,48.732750011520004
1.315e-07,24.38412499712,1.634800003072,48.701500009600004
1.3200000000000002e-07,24.39974999808,1.633237502976,48.701500009600004
1.325e-07,24.25912498944,1.633237502976,48.717125010560004
1.33e-07,24.14974998272,1.630112502784,48.810875016320004
1.335e-07,24.14974998272,1.630112502784,48.795250015360004
1.34e-07,24.22787498752,1.628550002688,48.779625014400004
1.3450000000000002e-07,24.29037499136,1.628550002688,48.732750011520004
1.35e-07,24.2747499904,1.63167500288,48.732750011520004
1.3550000000000002e-07,24.24349998848,1.634800003072,48.732750011520004
1.36e-07,24.22787498752,1.633237502976,48.717125010560004
1.365e-07,24.22787498752,1.633237502976,48.67025000768
1.37e-07,24.21224998656,1.63167500288,48.65462500672
1.375e-07,24.18099998464,1.63167500288,48.63900000576
1.3800000000000002e-07,24.13412498176,1.630112502784,48.67025000768
1.385e-07,24.14974998272,1.630112502784,48.748375012480004
1.3900000000000001e-07,24.21224998656,1.628550002688,48.764000013440004
1.395e-07,24.24349998848,1.626987502592,48.685875008640004
1.4e-07,24.24349998848,1.628550002688,48.65462500672
1.4050000000000002e-07,24.21224998656,1.628550002688,48.65462500672
1.41e-07,24.1966249856,1.628550002688,48.748375012480004
1.4150000000000002e-07,24.1966249856,1.625425002496,48.764000013440004
1.42e-07,24.24349998848,1.625425002496,48.732750011520004
1.425e-07,24.33724999424,1.626987502592,48.67025000768
1.43e-07,24.30599999232,1.625425002496,48.65462500672
1.435e-07,24.25912498944,1.628550002688,48.717125010560004
1.4400000000000002e-07,24.18099998464,1.626987502592,48.748375012480004
1.445e-07,24.13412498176,1.626987502592,48.732750011520004
1.4500000000000001e-07,24.14974998272,1.626987502592,48.701500009600004
1.455e-07,24.16537498368,1.625425002496,48.67025000768
1.46e-07,24.16537498368,1.622300002304,48.67025000768
1.4650000000000002e-07,24.1966249856,1.619175002112,48.764000013440004
1.47e-07,24.2747499904,1.622300002304,48.795250015360004
1.4750000000000002e-07,24.33724999424,1.6238625024,48.764000013440004
1.48e-07,24.38412499712,1.626987502592,48.685875008640004
1.485e-07,24.36849999616,1.628550002688,48.67025000768
1.49e-07,24.30599999232,1.625425002496,48.748375012480004
1.495e-07,24.29037499136,1.6238625024,48.732750011520004
1.5000000000000002e-07,24.30599999232,1.620737502208,48.717125010560004
1.505e-07,24.32162499328,1.620737502208,48.63900000576
1.5100000000000002e-07,24.21224998656,1.6238625024,48.6233750048
1.515e-07,24.087249978880003,1.622300002304,48.67025000768
1.52e-07,23.962249971200002,1.619175002112,48.701500009600004
1.5250000000000002e-07,23.993499973120002,1.619175002112,48.67025000768
1.53e-07,24.16537498368,1.622300002304,48.63900000576
1.5350000000000002e-07,24.3528749952,1.622300002304,48.6233750048
1.54e-07,24.38412499712,1.620737502208,48.685875008640004
1.5450000000000001e-07,24.3528749952,1.617612502016,48.764000013440004
1.55e-07,24.33724999424,1.620737502208,48.810875016320004
1.555e-07,24.38412499712,1.620737502208,48.748375012480004
1.5600000000000002e-07,24.46225000192,1.620737502208,48.67025000768
1.565e-07,24.38412499712,1.617612502016,48.65462500672
1.5700000000000002e-07,24.22787498752,1.622300002304,48.717125010560004
1.575e-07,24.10287497984,1.625425002496,48.701500009600004
1.58e-07,24.055999976960003,1.622300002304,48.63900000576
1.5850000000000002e-07,24.1184999808,1.620737502208,48.51399999808
1.59e-07,24.18099998464,1.619175002112,48.49837499712
1.5950000000000002e-07,24.25912498944,1.61605000192,48.52962499904
1.6e-07,24.24349998848,1.612925001728,48.60775000384
1.6050000000000001e-07,24.29037499136,1.614487501824,48.6233750048
1.61e-07,24.41537499904,1.614487501824,48.63900000576
1.615e-07,24.5091250048,1.614487501824,48.63900000576
1.6200000000000002e-07,24.52475000576,1.611362501632,48.65462500672
1.625e-07,24.44662500096,1.612925001728,48.732750011520004
1.6300000000000002e-07,24.36849999616,1.61605000192,48.779625014400004
1.635e-07,24.29037499136,1.61605000192,48.748375012480004
1.64e-07,24.2747499904,1.619175002112,48.67025000768
1.645e-07,24.1966249856,1.620737502208,48.60775000384
1.65e-07,24.13412498176,1.619175002112,48.59212500288
