Time (s),VIN,IIN,VOUT,IOUT,"[""CRTL_A"", ""IN_A"", ""CRTL_B"", ""IN_B"", ""nEN"", ""GATE_1"", ""GATE_2""]"
0.0,24.878375022079997,1.5996875070079999,46.96449999424,0.7436374927999999,8960
5e-10,24.894000023039997,1.604375007296,46.9801249952,0.740512492608,8960
1e-09,24.894000023039997,1.605937507392,47.01137499712,0.737387492416,8960
1.5000000000000002e-09,24.909625023999997,1.607500007488,46.9801249952,0.737387492416,8960
2e-09,24.925250024959997,1.605937507392,46.93324999232,0.73582499232,8960
2.5e-09,24.940875025919997,1.601250007104,46.91762499136,0.738949992512,8960
3.0000000000000004e-09,24.894000023039997,1.5965625068159999,46.93324999232,0.742074992704,8960
3.5000000000000003e-09,24.86275002112,1.5996875070079999,46.9801249952,0.742074992704,8960
4e-09,24.878375022079997,1.604375007296,47.02699999808,0.740512492608,8960
4.500000000000001e-09,24.940875025919997,1.6028125072,46.96449999424,0.740512492608,8960
5e-09,25.019000030719997,1.601250007104,46.9019999904,0.738949992512,8960
5.5000000000000004e-09,25.050250032639997,1.601250007104,46.9019999904,0.738949992512,8960
6.000000000000001e-09,25.019000030719997,1.6028125072,46.94887499328,0.7436374927999999,8960
6.5e-09,24.909625023999997,1.601250007104,46.99574999616,0.7436374927999999,8960
7.000000000000001e-09,24.86275002112,1.6028125072,46.9801249952,0.740512492608,8960
7.500000000000001e-09,24.878375022079997,1.604375007296,46.93324999232,0.737387492416,8960
8e-09,24.987750028799997,1.605937507392,46.91762499136,0.740512492608,8960
8.5e-09,25.050250032639997,1.605937507392,46.91762499136,0.742074992704,8960
9.000000000000001e-09,25.034625031679997,1.605937507392,46.94887499328,0.738949992512,8960
9.5e-09,24.987750028799997,1.607500007488,46.94887499328,0.734262492224,8960
1e-08,24.956500026879997,1.609062507584,46.94887499328,0.732699992128,8960
1.0500000000000001e-08,24.972125027839997,1.609062507584,46.91762499136,0.73582499232,8960
1.1000000000000001e-08,25.003375029759997,1.609062507584,46.9019999904,0.738949992512,8960
1.15e-08,25.065875033599998,1.609062507584,46.94887499328,0.742074992704,8960
1.2000000000000002e-08,25.019000030719997,1.607500007488,46.99574999616,0.740512492608,8960
1.2500000000000001e-08,24.972125027839997,1.605937507392,47.01137499712,0.738949992512,8960
1.3e-08,24.925250024959997,1.604375007296,46.94887499328,0.738949992512,8960
1.35e-08,24.925250024959997,1.605937507392,46.9019999904,0.737387492416,8704
1.4000000000000001e-08,24.972125027839997,1.605937507392,46.87074998848,0.73582499232,8704
1.45e-08,24.972125027839997,1.607500007488,46.85512498752,0.73582499232,8704
1.5000000000000002e-08,25.019000030719997,1.609062507584,46.85512498752,0.73582499232,8192
1.55e-08,25.050250032639997,1.605937507392,46.8238749856,0.734262492224,8192
1.6e-08,25.112750036479998,1.609062507584,46.85512498752,0.734262492224,8192
1.6500000000000002e-08,25.175250040319998,1.609062507584,46.87074998848,0.73582499232,8192
1.7e-08,25.175250040319998,1.609062507584,46.96449999424,0.737387492416,8192
1.75e-08,25.159625039359998,1.609062507584,47.01137499712,0.737387492416,8192
1.8000000000000002e-08,25.128375037439998,1.61062500768,47.04262499904,0.73582499232,8192
1.85e-08,25.112750036479998,1.609062507584,47.01137499712,0.737387492416,8192
1.9e-08,25.097125035519998,1.607500007488,46.94887499328,0.737387492416,8192
1.9500000000000003e-08,25.081500034559998,1.607500007488,46.88637498944,0.737387492416,8192
2e-08,25.019000030719997,1.61062500768,46.9019999904,0.737387492416,8192
2.05e-08,24.972125027839997,1.61062500768,46.9019999904,0.737387492416,8192
2.1000000000000003e-08,25.003375029759997,1.61062500768,46.88637498944,0.740512492608,8192
2.15e-08,25.097125035519998,1.61062500768,46.87074998848,0.740512492608,8192
2.2000000000000002e-08,25.175250040319998,1.609062507584,46.83949998656,0.737387492416,8192
2.2500000000000003e-08,25.190875041279998,1.607500007488,46.83949998656,0.73582499232,8192
2.3e-08,25.159625039359998,1.605937507392,46.85512498752,0.737387492416,8192
2.3500000000000002e-08,25.175250040319998,1.605937507392,46.87074998848,0.732699992128,8192
2.4000000000000003e-08,25.25337504512,1.61062500768,46.91762499136,0.731137492032,8192
2.45e-08,25.300250048,1.615312507968,46.91762499136,0.731137492032,8192
2.5000000000000002e-08,25.33150004992,1.612187507776,46.96449999424,0.731137492032,8192
2.55e-08,25.300250048,1.61062500768,47.01137499712,0.734262492224,8192
2.6e-08,25.175250040319998,1.612187507776,47.04262499904,0.737387492416,8192
2.6500000000000002e-08,25.097125035519998,1.609062507584,47.05825,0.738949992512,8192
2.7e-08,25.050250032639997,1.607500007488,47.01137499712,0.740512492608,8192
2.75e-08,25.050250032639997,1.604375007296,46.94887499328,0.742074992704,8192
2.8000000000000003e-08,25.034625031679997,1.604375007296,46.9019999904,0.742074992704,8192
2.85e-08,25.065875033599998,1.605937507392,46.83949998656,0.740512492608,8192
2.9e-08,25.112750036479998,1.604375007296,46.79262498368,0.73582499232,9216
2.9500000000000003e-08,25.190875041279998,1.605937507392,46.76137498176,0.732699992128,9216
3.0000000000000004e-08,25.300250048,1.605937507392,46.79262498368,0.7280124918399999,9216
3.05e-08,25.34712505088,1.607500007488,46.83949998656,0.7264499917439999,11264
3.1e-08,25.33150004992,1.609062507584,46.93324999232,0.7264499917439999,11264
3.1500000000000004e-08,25.31587504896,1.607500007488,46.99574999616,0.7280124918399999,11264
3.2e-08,25.300250048,1.605937507392,47.02699999808,0.729574991936,11264
3.25e-08,25.26900004608,1.607500007488,47.01137499712,0.734262492224,11264
3.3000000000000004e-08,25.2221250432,1.605937507392,46.9801249952,0.740512492608,11264
3.35e-08,25.159625039359998,1.607500007488,46.94887499328,0.742074992704,11264
3.4e-08,25.050250032639997,1.609062507584,46.9019999904,0.7467624929919999,11264
3.4500000000000005e-08,25.019000030719997,1.61062500768,46.87074998848,0.7467624929919999,11264
3.5e-08,25.065875033599998,1.612187507776,46.8238749856,0.7451999928959999,3072
3.55e-08,25.175250040319998,1.613750007872,46.8238749856,0.742074992704,3072
3.6000000000000005e-08,25.25337504512,1.612187507776,46.88637498944,0.7436374927999999,3072
3.65e-08,25.31587504896,1.61062500768,46.88637498944,0.740512492608,3072
3.7e-08,25.31587504896,1.609062507584,46.9019999904,0.737387492416,3072
3.7500000000000005e-08,25.26900004608,1.609062507584,46.93324999232,0.732699992128,3072
3.8e-08,25.300250048,1.61062500768,46.91762499136,0.7264499917439999,3072
3.85e-08,25.300250048,1.61062500768,46.9019999904,0.7248874916479999,3072
3.9000000000000005e-08,25.31587504896,1.609062507584,46.88637498944,0.729574991936,3072
3.95e-08,25.26900004608,1.609062507584,46.87074998848,0.731137492032,3072
4e-08,25.159625039359998,1.61062500768,46.91762499136,0.737387492416,3072
4.0500000000000005e-08,25.112750036479998,1.613750007872,46.93324999232,0.740512492608,3072
4.1e-08,25.081500034559998,1.61062500768,46.9801249952,0.7436374927999999,3072
4.15e-08,25.112750036479998,1.609062507584,46.99574999616,0.7436374927999999,3072
4.2000000000000006e-08,25.159625039359998,1.605937507392,46.9801249952,0.7436374927999999,3072
4.2500000000000003e-08,25.20650004224,1.604375007296,46.91762499136,0.740512492608,3072
4.3e-08,25.2221250432,1.605937507392,46.83949998656,0.734262492224,3072
4.3500000000000006e-08,25.25337504512,1.609062507584,46.79262498368,0.7280124918399999,3072
4.4000000000000004e-08,25.28462504704,1.607500007488,46.83949998656,0.7280124918399999,3072
4.45e-08,25.300250048,1.604375007296,46.87074998848,0.7248874916479999,3072
4.5000000000000006e-08,25.39400005376,1.6028125072,46.88637498944,0.7280124918399999,3072
4.5500000000000004e-08,25.42525005568,1.604375007296,46.9019999904,0.731137492032,3072
4.6e-08,25.40962505472,1.607500007488,46.93324999232,0.731137492032,3072
4.6500000000000006e-08,25.31587504896,1.609062507584,46.96449999424,0.732699992128,3072
4.7000000000000004e-08,25.23775004416,1.609062507584,47.01137499712,0.737387492416,3072
4.75e-08,25.144000038399998,1.609062507584,47.01137499712,0.740512492608,3072
4.8000000000000006e-08,25.097125035519998,1.605937507392,46.96449999424,0.7436374927999999,3072
4.8500000000000004e-08,25.128375037439998,1.605937507392,46.88637498944,0.7436374927999999,3072
4.9e-08,25.112750036479998,1.607500007488,46.80824998464,0.7467624929919999,3072
4.95e-08,25.159625039359998,1.61062500768,46.79262498368,0.742074992704,3072
5.0000000000000004e-08,25.190875041279998,1.61062500768,46.79262498368,0.738949992512,3072
5.05e-08,25.25337504512,1.609062507584,46.85512498752,0.737387492416,3072
5.1e-08,25.33150004992,1.61062500768,46.88637498944,0.734262492224,3072
5.1500000000000005e-08,25.4565000576,1.612187507776,46.85512498752,0.731137492032,3072
5.2e-08,25.51900006144,1.612187507776,46.88637498944,0.7264499917439999,3072
5.25e-08,25.5346250624,1.612187507776,46.9019999904,0.7264499917439999,3072
5.3000000000000005e-08,25.4565000576,1.609062507584,46.93324999232,0.729574991936,3072
5.35e-08,25.36275005184,1.61062500768,46.96449999424,0.731137492032,19456
5.4e-08,25.31587504896,1.612187507776,46.93324999232,0.731137492032,19456
5.4500000000000005e-08,25.28462504704,1.61062500768,46.88637498944,0.734262492224,19456
5.5e-08,25.300250048,1.609062507584,46.88637498944,0.738949992512,19456
5.55e-08,25.28462504704,1.609062507584,46.93324999232,0.740512492608,19456
5.6000000000000005e-08,25.25337504512,1.609062507584,47.01137499712,0.742074992704,19456
5.65e-08,25.2221250432,1.61062500768,47.01137499712,0.742074992704,19456
5.7e-08,25.26900004608,1.609062507584,46.91762499136,0.738949992512,19456
5.7500000000000005e-08,25.40962505472,1.605937507392,46.8238749856,0.734262492224,19456
5.8e-08,25.51900006144,1.604375007296,46.8238749856,0.732699992128,19456
5.85e-08,25.597125066239997,1.605937507392,46.91762499136,0.732699992128,19456
5.9000000000000006e-08,25.565875064319997,1.605937507392,46.96449999424,0.729574991936,19456
5.9500000000000003e-08,25.48775005952,1.609062507584,46.91762499136,0.7248874916479999,19456
6.000000000000001e-08,25.42525005568,1.609062507584,46.88637498944,0.7248874916479999,19456
6.05e-08,25.44087505664,1.607500007488,46.85512498752,0.7280124918399999,19456
6.1e-08,25.4565000576,1.605937507392,46.91762499136,0.73582499232,19456
6.15e-08,25.40962505472,1.604375007296,47.01137499712,0.740512492608,19456
6.2e-08,25.31587504896,1.6028125072,46.99574999616,0.738949992512,19456
6.250000000000001e-08,25.23775004416,1.604375007296,46.88637498944,0.7436374927999999,19456
6.300000000000001e-08,25.20650004224,1.609062507584,46.80824998464,0.7451999928959999,19456
6.35e-08,25.25337504512,1.61062500768,46.85512498752,0.742074992704,19456
6.4e-08,25.33150004992,1.612187507776,46.96449999424,0.737387492416,19456
6.45e-08,25.42525005568,1.612187507776,46.9801249952,0.732699992128,19456
6.5e-08,25.47212505856,1.607500007488,46.93324999232,0.7280124918399999,19456
6.55e-08,25.50337506048,1.601250007104,46.83949998656,0.7248874916479999,19456
6.600000000000001e-08,25.50337506048,1.601250007104,46.80824998464,0.7264499917439999,19456
6.65e-08,25.44087505664,1.6028125072,46.83949998656,0.731137492032,19456
6.7e-08,25.39400005376,1.604375007296,46.88637498944,0.734262492224,19456
6.75e-08,25.42525005568,1.609062507584,46.85512498752,0.734262492224,19456
6.8e-08,25.47212505856,1.61062500768,46.83949998656,0.737387492416,19456
6.85e-08,25.47212505856,1.604375007296,46.85512498752,0.740512492608,19456
6.900000000000001e-08,25.44087505664,1.5981250069119999,46.9019999904,0.7436374927999999,19456
6.950000000000001e-08,25.300250048,1.5965625068159999,46.96449999424,0.7451999928959999,19456
7e-08,25.20650004224,1.5996875070079999,46.9801249952,0.742074992704,19456
7.05e-08,25.20650004224,1.604375007296,46.91762499136,0.738949992512,19456
7.1e-08,25.26900004608,1.605937507392,46.9019999904,0.737387492416,19456
7.15e-08,25.36275005184,1.607500007488,46.91762499136,0.73582499232,19456
7.200000000000001e-08,25.40962505472,1.6028125072,46.9801249952,0.732699992128,19456
7.250000000000001e-08,25.40962505472,1.6028125072,46.94887499328,0.729574991936,19456
7.3e-08,25.40962505472,1.601250007104,46.9019999904,0.7280124918399999,19456
7.35e-08,25.42525005568,1.601250007104,46.83949998656,0.7248874916479999,19456
7.4e-08,25.40962505472,1.6028125072,46.85512498752,0.7248874916479999,19456
7.45e-08,25.40962505472,1.6028125072,46.9019999904,0.7264499917439999,19456
7.500000000000001e-08,25.36275005184,1.5996875070079999,46.91762499136,0.729574991936,19456
7.550000000000001e-08,25.33150004992,1.6028125072,46.93324999232,0.732699992128,19456
7.6e-08,25.300250048,1.6028125072,46.93324999232,0.732699992128,19456
7.65e-08,25.25337504512,1.6028125072,46.93324999232,0.734262492224,19456
7.7e-08,25.2221250432,1.601250007104,46.93324999232,0.737387492416,19456
7.75e-08,25.20650004224,1.5996875070079999,46.91762499136,0.738949992512,19456
7.800000000000001e-08,25.25337504512,1.5981250069119999,46.88637498944,0.737387492416,19456
7.850000000000001e-08,25.300250048,1.6028125072,46.85512498752,0.734262492224,19456
7.9e-08,25.36275005184,1.604375007296,46.83949998656,0.729574991936,19456
7.95e-08,25.36275005184,1.601250007104,46.85512498752,0.7264499917439999,19456
8e-08,25.33150004992,1.601250007104,46.93324999232,0.729574991936,19456
8.05e-08,25.31587504896,1.6028125072,46.91762499136,0.732699992128,19456
8.100000000000001e-08,25.300250048,1.601250007104,46.88637498944,0.731137492032,19456
8.150000000000001e-08,25.36275005184,1.601250007104,46.8238749856,0.731137492032,19456
8.2e-08,25.36275005184,1.601250007104,46.8238749856,0.732699992128,19456
8.25e-08,25.31587504896,1.5965625068159999,46.83949998656,0.738949992512,19456
8.3e-08,25.2221250432,1.5965625068159999,46.83949998656,0.7436374927999999,19456
8.35e-08,25.144000038399998,1.6028125072,46.8238749856,0.7436374927999999,19456
8.400000000000001e-08,25.128375037439998,1.6028125072,46.87074998848,0.742074992704,19456
8.450000000000001e-08,25.190875041279998,1.6028125072,46.87074998848,0.738949992512,19456
8.500000000000001e-08,25.28462504704,1.5996875070079999,46.88637498944,0.73582499232,19456
8.55e-08,25.36275005184,1.5996875070079999,46.93324999232,0.73582499232,19456
8.6e-08,25.36275005184,1.5965625068159999,46.94887499328,0.731137492032,18432
8.65e-08,25.28462504704,1.5981250069119999,46.91762499136,0.729574991936,18432
8.700000000000001e-08,25.175250040319998,1.5981250069119999,46.9019999904,0.731137492032,18432
8.750000000000001e-08,25.128375037439998,1.5996875070079999,46.9019999904,0.731137492032,18432
8.800000000000001e-08,25.190875041279998,1.5996875070079999,46.91762499136,0.73582499232,16384
8.85e-08,25.28462504704,1.601250007104,46.88637498944,0.738949992512,16384
8.9e-08,25.28462504704,1.5981250069119999,46.88637498944,0.742074992704,16384
8.95e-08,25.25337504512,1.5950000067199999,46.85512498752,0.740512492608,16384
9.000000000000001e-08,25.175250040319998,1.591875006528,46.85512498752,0.740512492608,16384
9.050000000000001e-08,25.128375037439998,1.590312506432,46.85512498752,0.740512492608,16384
9.100000000000001e-08,25.128375037439998,1.5934375066239999,46.87074998848,0.740512492608,16384
9.15e-08,25.190875041279998,1.5981250069119999,46.88637498944,0.738949992512,16384
9.2e-08,25.25337504512,1.5996875070079999,46.93324999232,0.738949992512,16384
9.25e-08,25.28462504704,1.5996875070079999,46.93324999232,0.734262492224,16384
9.300000000000001e-08,25.23775004416,1.5965625068159999,46.93324999232,0.732699992128,16384
9.350000000000001e-08,25.175250040319998,1.591875006528,46.93324999232,0.731137492032,16384
9.400000000000001e-08,25.128375037439998,1.590312506432,46.91762499136,0.729574991936,16384
9.45e-08,25.112750036479998,1.590312506432,46.9019999904,0.729574991936,16384
9.5e-08,25.128375037439998,1.5934375066239999,46.85512498752,0.731137492032,16384
9.55e-08,25.144000038399998,1.5981250069119999,46.8238749856,0.73582499232,16384
9.600000000000001e-08,25.20650004224,1.5996875070079999,46.83949998656,0.740512492608,16384
9.650000000000001e-08,25.23775004416,1.5981250069119999,46.85512498752,0.740512492608,16384
9.700000000000001e-08,25.190875041279998,1.5965625068159999,46.93324999232,0.740512492608,16384
9.75e-08,25.159625039359998,1.5950000067199999,46.9801249952,0.738949992512,16384
9.8e-08,25.097125035519998,1.5965625068159999,46.9801249952,0.73582499232,16384
9.85e-08,25.097125035519998,1.5950000067199999,46.96449999424,0.734262492224,16384
9.9e-08,25.097125035519998,1.5934375066239999,46.93324999232,0.732699992128,16384
9.950000000000001e-08,25.112750036479998,1.5950000067199999,46.93324999232,0.731137492032,16384
1.0000000000000001e-07,25.065875033599998,1.5965625068159999,46.96449999424,0.729574991936,16384
1.005e-07,25.034625031679997,1.5981250069119999,46.94887499328,0.729574991936,16384
1.01e-07,25.050250032639997,1.5965625068159999,46.91762499136,0.731137492032,16384
1.015e-07,25.097125035519998,1.5950000067199999,46.9019999904,0.732699992128,16384
1.02e-07,25.144000038399998,1.5950000067199999,46.93324999232,0.731137492032,16384
1.0250000000000001e-07,25.175250040319998,1.5950000067199999,46.93324999232,0.732699992128,16640
1.0300000000000001e-07,25.20650004224,1.5981250069119999,46.93324999232,0.734262492224,16640
1.0350000000000001e-07,25.20650004224,1.5965625068159999,46.91762499136,0.732699992128,16640
1.04e-07,25.159625039359998,1.5950000067199999,46.94887499328,0.734262492224,17152
1.045e-07,25.112750036479998,1.5965625068159999,46.96449999424,0.73582499232,17152
1.05e-07,25.065875033599998,1.5981250069119999,46.9801249952,0.738949992512,17152
1.0550000000000001e-07,25.034625031679997,1.5996875070079999,46.94887499328,0.738949992512,17152
1.0600000000000001e-07,25.034625031679997,1.5996875070079999,46.91762499136,0.740512492608,17152
1.0650000000000001e-07,25.065875033599998,1.5981250069119999,46.87074998848,0.742074992704,17152
1.07e-07,25.003375029759997,1.5965625068159999,46.88637498944,0.7436374927999999,768
1.075e-07,24.940875025919997,1.5981250069119999,46.91762499136,0.7436374927999999,768
1.08e-07,24.894000023039997,1.5981250069119999,46.93324999232,0.742074992704,768
1.0850000000000001e-07,24.909625023999997,1.5934375066239999,46.9019999904,0.742074992704,768
1.0900000000000001e-07,25.003375029759997,1.5934375066239999,46.85512498752,0.742074992704,768
1.0950000000000001e-07,25.097125035519998,1.591875006528,46.87074998848,0.740512492608,768
1.1e-07,25.112750036479998,1.588750006336,46.88637498944,0.738949992512,768
1.105e-07,25.034625031679997,1.588750006336,46.9019999904,0.738949992512,768
1.11e-07,24.987750028799997,1.58718750624,46.91762499136,0.737387492416,768
1.1150000000000001e-07,24.972125027839997,1.590312506432,46.93324999232,0.737387492416,768
1.1200000000000001e-07,24.987750028799997,1.591875006528,46.96449999424,0.738949992512,768
1.1250000000000001e-07,25.034625031679997,1.590312506432,47.01137499712,0.740512492608,768
1.13e-07,25.019000030719997,1.590312506432,47.02699999808,0.742074992704,768
1.135e-07,25.003375029759997,1.590312506432,46.99574999616,0.738949992512,768
1.14e-07,25.003375029759997,1.5950000067199999,46.9801249952,0.73582499232,768
1.1450000000000001e-07,25.019000030719997,1.5950000067199999,46.96449999424,0.73582499232,768
1.1500000000000001e-07,24.987750028799997,1.5934375066239999,46.9801249952,0.73582499232,768
1.1550000000000001e-07,24.987750028799997,1.591875006528,46.9801249952,0.734262492224,768
1.16e-07,24.972125027839997,1.588750006336,46.99574999616,0.732699992128,768
1.165e-07,25.019000030719997,1.591875006528,46.94887499328,0.731137492032,768
1.17e-07,25.081500034559998,1.5934375066239999,46.9019999904,0.732699992128,768
1.1750000000000001e-07,25.097125035519998,1.5965625068159999,46.9019999904,0.73582499232,768
1.1800000000000001e-07,25.034625031679997,1.5981250069119999,46.96449999424,0.73582499232,768
1.1850000000000001e-07,24.987750028799997,1.5950000067199999,46.9801249952,0.737387492416,768
1.1900000000000001e-07,24.972125027839997,1.591875006528,46.94887499328,0.73582499232,768
