Time (s),V_PRI,V_SEC,V_IN,V_OUT
0.0,137.12510079999993,-76.2499712,25.09799996544,44.775750000639995
5e-10,137.12510079999993,-76.2499712,25.06674996352,44.782
1e-09,137.12510079999993,-76.2499712,25.06674996352,44.782
1.5000000000000002e-09,121.50009983999985,-60.62497024000004,25.09799996544,44.785124999679994
2e-09,137.12510079999993,-60.62497024000004,25.06674996352,44.77887500032
2.5e-09,137.12510079999993,-60.62497024000004,25.08237496448,44.7663750016
3.0000000000000004e-09,137.12510079999993,-60.62497024000004,25.08237496448,44.76325000192
3.5000000000000003e-09,152.75010176,-29.374968319999994,25.06674996352,44.74762500352
4e-09,168.37510271999986,-44.999969280000016,25.1136249664,44.7351250048
4.500000000000001e-09,152.75010176,-29.374968319999994,25.1136249664,44.728875005439996
5e-09,152.75010176,-29.374968319999994,25.08237496448,44.7195000064
5.5000000000000004e-09,137.12510079999993,-29.374968319999994,25.09799996544,44.71637500672
6.000000000000001e-09,168.37510271999986,1.875033599999938,25.08237496448,44.71637500672
6.5e-09,152.75010176,-29.374968319999994,25.09799996544,44.7195000064
7.000000000000001e-09,184.00010367999994,-29.374968319999994,25.09799996544,44.713250007039996
7.500000000000001e-09,152.75010176,-44.999969280000016,25.09799996544,44.7195000064
8e-09,168.37510271999986,-29.374968319999994,25.12924996736,44.728875005439996
8.5e-09,168.37510271999986,-13.749967360000028,25.16049996928,44.7351250048
9.000000000000001e-09,168.37510271999986,-29.374968319999994,25.17612497024,44.738250004479994
9.5e-09,152.75010176,-13.749967360000028,25.20737497216,44.738250004479994
1e-08,168.37510271999986,-13.749967360000028,25.22299997312,44.7351250048
1.0500000000000001e-08,184.00010367999994,-13.749967360000028,25.22299997312,44.728875005439996
1.1000000000000001e-08,168.37510271999986,1.875033599999938,25.22299997312,44.738250004479994
1.15e-08,184.00010367999994,1.875033599999938,25.17612497024,44.73200000512
1.2000000000000002e-08,199.62510464000002,1.875033599999938,25.1917499712,44.73200000512
1.2500000000000001e-08,184.00010367999994,17.500034560000017,25.16049996928,44.738250004479994
1.3e-08,184.00010367999994,33.12503551999998,25.12924996736,44.7351250048
1.35e-08,184.00010367999994,17.500034560000017,25.16049996928,44.738250004479994
1.4000000000000001e-08,184.00010367999994,64.37503744000003,25.14487496832,44.74762500352
1.45e-08,215.25010559999987,33.12503551999998,25.12924996736,44.76325000192
1.5000000000000002e-08,215.25010559999987,17.500034560000017,25.1136249664,44.769500001279994
1.55e-08,199.62510464000002,17.500034560000017,25.09799996544,44.782
1.6e-08,199.62510464000002,33.12503551999998,25.08237496448,44.785124999679994
1.6500000000000002e-08,215.25010559999987,48.75003647999995,25.06674996352,44.775750000639995
1.7e-08,215.25010559999987,48.75003647999995,25.05112496256,44.76325000192
1.75e-08,199.62510464000002,80.0000384,25.08237496448,44.75700000256
1.8000000000000002e-08,230.87510655999995,64.37503744000003,25.0354999616,44.760125002239995
1.85e-08,215.25010559999987,80.0000384,25.0354999616,44.76325000192
1.9e-08,215.25010559999987,80.0000384,25.01987496064,44.7663750016
1.9500000000000003e-08,215.25010559999987,95.62503935999996,25.01987496064,44.75700000256
2e-08,215.25010559999987,95.62503935999996,25.05112496256,44.744500003839995
2.05e-08,230.87510655999995,111.25004031999993,25.06674996352,44.74762500352
2.1000000000000003e-08,215.25010559999987,111.25004031999993,25.05112496256,44.74137500416
2.15e-08,215.25010559999987,126.87504128,25.08237496448,44.73200000512
2.2000000000000002e-08,215.25010559999987,142.50004223999997,25.08237496448,44.7195000064
2.2500000000000003e-08,215.25010559999987,111.25004031999993,25.09799996544,44.713250007039996
2.3e-08,230.87510655999995,111.25004031999993,25.08237496448,44.70075000832
2.3500000000000002e-08,215.25010559999987,126.87504128,25.06674996352,44.697625008639996
2.4000000000000003e-08,215.25010559999987,126.87504128,25.05112496256,44.691375009279994
2.45e-08,230.87510655999995,142.50004223999997,25.05112496256,44.67887501056
2.5000000000000002e-08,215.25010559999987,126.87504128,25.0354999616,44.6726250112
2.55e-08,215.25010559999987,142.50004223999997,25.06674996352,44.6726250112
2.6e-08,230.87510655999995,142.50004223999997,25.06674996352,44.682000010239996
2.6500000000000002e-08,215.25010559999987,142.50004223999997,25.08237496448,44.691375009279994
2.7e-08,215.25010559999987,126.87504128,25.06674996352,44.70075000832
2.75e-08,215.25010559999987,142.50004223999997,25.05112496256,44.707000007679994
2.8000000000000003e-08,230.87510655999995,142.50004223999997,25.08237496448,44.713250007039996
2.85e-08,215.25010559999987,158.12504319999994,25.06674996352,44.73200000512
2.9e-08,199.62510464000002,173.75004416000002,25.0354999616,44.744500003839995
2.9500000000000003e-08,184.00010367999994,142.50004223999997,25.0354999616,44.75700000256
3.0000000000000004e-08,199.62510464000002,173.75004416000002,25.0354999616,44.760125002239995
3.05e-08,184.00010367999994,142.50004223999997,25.01987496064,44.76325000192
3.1e-08,215.25010559999987,158.12504319999994,25.00424995968,44.75700000256
3.1500000000000004e-08,184.00010367999994,158.12504319999994,24.97299995776,44.760125002239995
3.2e-08,199.62510464000002,173.75004416000002,24.9573749568,44.75700000256
3.25e-08,184.00010367999994,189.37504511999998,24.97299995776,44.753875002879994
3.3000000000000004e-08,184.00010367999994,173.75004416000002,24.97299995776,44.753875002879994
3.35e-08,168.37510271999986,189.37504511999998,25.00424995968,44.76325000192
3.4e-08,184.00010367999994,189.37504511999998,24.98862495872,44.77887500032
3.4500000000000005e-08,168.37510271999986,189.37504511999998,24.98862495872,44.782
3.5e-08,168.37510271999986,173.75004416000002,24.98862495872,44.79449999872
3.55e-08,152.75010176,189.37504511999998,24.97299995776,44.79449999872
3.6000000000000005e-08,168.37510271999986,189.37504511999998,24.98862495872,44.78824999936
3.65e-08,152.75010176,205.00004607999995,25.00424995968,44.785124999679994
3.7e-08,152.75010176,205.00004607999995,24.98862495872,44.769500001279994
3.7500000000000005e-08,152.75010176,189.37504511999998,25.00424995968,44.74762500352
3.8e-08,152.75010176,236.250048,25.01987496064,44.7351250048
3.85e-08,152.75010176,205.00004607999995,25.01987496064,44.73200000512
3.9000000000000005e-08,168.37510271999986,205.00004607999995,25.01987496064,44.7195000064
3.95e-08,137.12510079999993,220.62504704000003,24.98862495872,44.71637500672
4e-08,152.75010176,220.62504704000003,24.98862495872,44.71012500736
4.0500000000000005e-08,137.12510079999993,236.250048,24.98862495872,44.707000007679994
4.1e-08,137.12510079999993,220.62504704000003,24.98862495872,44.71012500736
4.15e-08,121.50009983999985,236.250048,25.00424995968,44.71637500672
4.2000000000000006e-08,121.50009983999985,251.87504895999996,24.98862495872,44.73200000512
4.2500000000000003e-08,121.50009983999985,236.250048,25.01987496064,44.74137500416
4.3e-08,121.50009983999985,220.62504704000003,25.01987496064,44.753875002879994
4.3500000000000006e-08,121.50009983999985,220.62504704000003,25.0354999616,44.7507500032
4.4000000000000004e-08,137.12510079999993,236.250048,25.08237496448,44.7507500032
4.45e-08,121.50009983999985,236.250048,25.08237496448,44.753875002879994
4.5000000000000006e-08,105.87509888,251.87504895999996,25.08237496448,44.7507500032
4.5500000000000004e-08,90.25009791999992,236.250048,25.1136249664,44.744500003839995
4.6e-08,90.25009791999992,267.5000499199999,25.12924996736,44.74137500416
4.6500000000000006e-08,90.25009791999992,236.250048,25.1136249664,44.74762500352
4.7000000000000004e-08,121.50009983999985,220.62504704000003,25.12924996736,44.744500003839995
4.75e-08,74.62509695999984,220.62504704000003,25.1136249664,44.753875002879994
4.8000000000000006e-08,74.62509695999984,236.250048,25.1136249664,44.769500001279994
4.8500000000000004e-08,74.62509695999984,236.250048,25.14487496832,44.775750000639995
4.9e-08,74.62509695999984,220.62504704000003,25.16049996928,44.782
4.95e-08,43.375095039999906,220.62504704000003,25.1917499712,44.79449999872
5.0000000000000004e-08,59.000095999999985,236.250048,25.17612497024,44.80387499776
5.05e-08,59.000095999999985,236.250048,25.14487496832,44.80074999807999
5.1e-08,43.375095039999906,220.62504704000003,25.14487496832,44.80074999807999
5.1500000000000005e-08,27.750094080000054,220.62504704000003,25.12924996736,44.785124999679994
5.2e-08,59.000095999999985,220.62504704000003,25.14487496832,44.775750000639995
5.25e-08,43.375095039999906,220.62504704000003,25.14487496832,44.775750000639995
5.3000000000000005e-08,27.750094080000054,236.250048,25.09799996544,44.775750000639995
5.35e-08,12.125093119999974,205.00004607999995,25.09799996544,44.775750000639995
5.4e-08,27.750094080000054,236.250048,25.09799996544,44.775750000639995
5.4500000000000005e-08,27.750094080000054,205.00004607999995,25.09799996544,44.791374999039995
5.5e-08,43.375095039999906,189.37504511999998,25.09799996544,44.797624998399996
5.55e-08,12.125093119999974,173.75004416000002,25.09799996544,44.81012499712
5.6000000000000005e-08,12.125093119999974,205.00004607999995,25.09799996544,44.822624995839995
5.65e-08,12.125093119999974,189.37504511999998,25.1136249664,44.822624995839995
5.7e-08,-3.4999078400001054,173.75004416000002,25.1136249664,44.82574999552
5.7500000000000005e-08,-3.4999078400001054,173.75004416000002,25.12924996736,44.822624995839995
5.8e-08,12.125093119999974,189.37504511999998,25.1136249664,44.81012499712
5.85e-08,-3.4999078400001054,173.75004416000002,25.09799996544,44.791374999039995
5.9000000000000006e-08,-19.124908799999957,158.12504319999994,25.09799996544,44.775750000639995
5.9500000000000003e-08,-34.74990976000004,173.75004416000002,25.1136249664,44.74762500352
6.000000000000001e-08,-3.4999078400001054,158.12504319999994,25.12924996736,44.722625006079994
6.05e-08,-19.124908799999957,158.12504319999994,25.14487496832,44.713250007039996
6.1e-08,-34.74990976000004,158.12504319999994,25.12924996736,44.703875008
6.15e-08,-34.74990976000004,142.50004223999997,25.16049996928,44.70075000832
6.2e-08,-34.74990976000004,158.12504319999994,25.16049996928,44.70075000832
6.250000000000001e-08,-50.374910720000116,126.87504128,25.16049996928,44.70075000832
6.300000000000001e-08,-3.4999078400001054,126.87504128,25.12924996736,44.703875008
6.35e-08,-50.374910720000116,126.87504128,25.1136249664,44.713250007039996
6.4e-08,-50.374910720000116,126.87504128,25.08237496448,44.722625006079994
6.45e-08,-50.374910720000116,126.87504128,25.08237496448,44.73200000512
6.5e-08,-65.99991167999997,111.25004031999993,25.06674996352,44.738250004479994
6.55e-08,-65.99991167999997,126.87504128,25.06674996352,44.74762500352
6.600000000000001e-08,-50.374910720000116,95.62503935999996,25.0354999616,44.76325000192
6.65e-08,-65.99991167999997,95.62503935999996,25.0354999616,44.7663750016
6.7e-08,-65.99991167999997,95.62503935999996,25.01987496064,44.775750000639995
6.75e-08,-65.99991167999997,111.25004031999993,25.0354999616,44.77262500096
6.8e-08,-65.99991167999997,111.25004031999993,25.08237496448,44.77262500096
6.85e-08,-65.99991167999997,111.25004031999993,25.06674996352,44.77262500096
6.900000000000001e-08,-81.62491264000005,126.87504128,25.06674996352,44.76325000192
6.950000000000001e-08,-81.62491264000005,111.25004031999993,25.05112496256,44.74762500352
7e-08,-81.62491264000005,126.87504128,25.05112496256,44.738250004479994
7.05e-08,-97.24991360000013,111.25004031999993,25.01987496064,44.7351250048
7.1e-08,-81.62491264000005,95.62503935999996,25.01987496064,44.73200000512
7.15e-08,-97.24991360000013,95.62503935999996,25.00424995968,44.744500003839995
7.200000000000001e-08,-97.24991360000013,80.0000384,25.00424995968,44.760125002239995
7.250000000000001e-08,-97.24991360000013,95.62503935999996,25.01987496064,44.775750000639995
7.3e-08,-112.87491455999998,80.0000384,25.0354999616,44.78824999936
7.35e-08,-128.49991552000006,95.62503935999996,25.06674996352,44.806999997439995
7.4e-08,-128.49991552000006,95.62503935999996,25.06674996352,44.822624995839995
7.45e-08,-128.49991552000006,95.62503935999996,25.08237496448,44.81949999616
7.500000000000001e-08,-128.49991552000006,80.0000384,25.09799996544,44.813249996799996
7.550000000000001e-08,-128.49991552000006,80.0000384,25.09799996544,44.78824999936
7.6e-08,-128.49991552000006,80.0000384,25.1136249664,44.769500001279994
7.65e-08,-144.12491648000014,80.0000384,25.1136249664,44.7507500032
7.7e-08,-144.12491648000014,64.37503744000003,25.06674996352,44.728875005439996
7.75e-08,-144.12491648000014,48.75003647999995,25.05112496256,44.713250007039996
7.800000000000001e-08,-144.12491648000014,80.0000384,25.0354999616,44.697625008639996
7.850000000000001e-08,-144.12491648000014,48.75003647999995,25.0354999616,44.69450000896
7.9e-08,-128.49991552000006,33.12503551999998,25.0354999616,44.697625008639996
7.95e-08,-159.74991744,17.500034560000017,25.01987496064,44.71012500736
8e-08,-144.12491648000014,17.500034560000017,25.0354999616,44.72575000576
8.05e-08,-144.12491648000014,17.500034560000017,25.06674996352,44.738250004479994
8.100000000000001e-08,-159.74991744,1.875033599999938,25.08237496448,44.753875002879994
8.150000000000001e-08,-175.37491840000007,17.500034560000017,25.12924996736,44.77262500096
8.2e-08,-159.74991744,-13.749967360000028,25.09799996544,44.785124999679994
8.25e-08,-159.74991744,-13.749967360000028,25.09799996544,44.78824999936
8.3e-08,-175.37491840000007,-13.749967360000028,25.09799996544,44.79449999872
8.35e-08,-175.37491840000007,-13.749967360000028,25.08237496448,44.791374999039995
8.400000000000001e-08,-159.74991744,-13.749967360000028,25.09799996544,44.78824999936
8.450000000000001e-08,-175.37491840000007,1.875033599999938,25.1136249664,44.79449999872
8.500000000000001e-08,-175.37491840000007,1.875033599999938,25.08237496448,44.782
8.55e-08,-175.37491840000007,-29.374968319999994,25.1136249664,44.769500001279994
8.6e-08,-159.74991744,1.875033599999938,25.12924996736,44.74762500352
8.65e-08,-190.99991936000015,-29.374968319999994,25.14487496832,44.722625006079994
8.700000000000001e-08,-159.74991744,-29.374968319999994,25.16049996928,44.703875008
8.750000000000001e-08,-175.37491840000007,-60.62497024000004,25.17612497024,44.70075000832
8.800000000000001e-08,-190.99991936000015,-44.999969280000016,25.20737497216,44.697625008639996
8.85e-08,-190.99991936000015,-29.374968319999994,25.1917499712,44.70075000832
8.9e-08,-190.99991936000015,-44.999969280000016,25.20737497216,44.71012500736
8.95e-08,-206.62492032,-44.999969280000016,25.23862497408,44.73200000512
9.000000000000001e-08,-190.99991936000015,-44.999969280000016,25.22299997312,44.7507500032
9.050000000000001e-08,-206.62492032,-60.62497024000004,25.20737497216,44.769500001279994
9.100000000000001e-08,-222.24992128000008,-60.62497024000004,25.20737497216,44.782
9.15e-08,-222.24992128000008,-60.62497024000004,25.20737497216,44.782
9.2e-08,-190.99991936000015,-60.62497024000004,25.22299997312,44.77262500096
9.25e-08,-206.62492032,-60.62497024000004,25.23862497408,44.7663750016
9.300000000000001e-08,-222.24992128000008,-60.62497024000004,25.22299997312,44.74762500352
9.350000000000001e-08,-222.24992128000008,-91.87497216000003,25.22299997312,44.728875005439996
9.400000000000001e-08,-222.24992128000008,-60.62497024000004,25.20737497216,44.71012500736
9.45e-08,-206.62492032,-76.2499712,25.17612497024,44.69450000896
9.5e-08,-206.62492032,-107.49997311999999,25.1917499712,44.67887501056
9.55e-08,-222.24992128000008,-123.12497408000002,25.17612497024,44.682000010239996
9.600000000000001e-08,-222.24992128000008,-107.49997311999999,25.17612497024,44.69450000896
9.650000000000001e-08,-222.24992128000008,-107.49997311999999,25.16049996928,44.70075000832
9.700000000000001e-08,-237.87492223999993,-123.12497408000002,25.14487496832,44.71637500672
9.75e-08,-237.87492223999993,-123.12497408000002,25.16049996928,44.738250004479994
9.8e-08,-222.24992128000008,-123.12497408000002,25.14487496832,44.753875002879994
9.85e-08,-237.87492223999993,-138.74997504000004,25.17612497024,44.769500001279994
9.9e-08,-237.87492223999993,-154.374976,25.20737497216,44.782
9.950000000000001e-08,-237.87492223999993,-138.74997504000004,25.20737497216,44.78824999936
1.0000000000000001e-07,-237.87492223999993,-154.374976,25.22299997312,44.78824999936
1.005e-07,-222.24992128000008,-138.74997504000004,25.1917499712,44.791374999039995
1.01e-07,-237.87492223999993,-138.74997504000004,25.17612497024,44.782
1.015e-07,-253.4999232,-169.99997696000003,25.16049996928,44.775750000639995
1.02e-07,-237.87492223999993,-154.374976,25.16049996928,44.760125002239995
1.0250000000000001e-07,-237.87492223999993,-185.62497792,25.14487496832,44.753875002879994
1.0300000000000001e-07,-222.24992128000008,-185.62497792,25.12924996736,44.738250004479994
1.0350000000000001e-07,-237.87492223999993,-201.24997888000001,25.09799996544,44.72575000576
1.04e-07,-237.87492223999993,-185.62497792,25.09799996544,44.71012500736
1.045e-07,-237.87492223999993,-201.24997888000001,25.09799996544,44.6882500096
1.05e-07,-237.87492223999993,-185.62497792,25.09799996544,44.6726250112
1.0550000000000001e-07,-237.87492223999993,-185.62497792,25.1136249664,44.6726250112
1.0600000000000001e-07,-237.87492223999993,-185.62497792,25.09799996544,44.67887501056
1.0650000000000001e-07,-237.87492223999993,-201.24997888000001,25.1136249664,44.6882500096
1.07e-07,-237.87492223999993,-216.87497984000004,25.14487496832,44.71012500736
1.075e-07,-237.87492223999993,-201.24997888000001,25.12924996736,44.71637500672
1.08e-07,-222.24992128000008,-201.24997888000001,25.16049996928,44.73200000512
1.0850000000000001e-07,-206.62492032,-201.24997888000001,25.16049996928,44.7507500032
1.0900000000000001e-07,-222.24992128000008,-201.24997888000001,25.1136249664,44.760125002239995
1.0950000000000001e-07,-237.87492223999993,-232.4999808,25.1136249664,44.76325000192
1.1e-07,-222.24992128000008,-201.24997888000001,25.09799996544,44.760125002239995
1.105e-07,-190.99991936000015,-216.87497984000004,25.09799996544,44.7507500032
1.11e-07,-190.99991936000015,-232.4999808,25.1136249664,44.73200000512
1.1150000000000001e-07,-206.62492032,-248.12498176000003,25.09799996544,44.72575000576
1.1200000000000001e-07,-190.99991936000015,-232.4999808,25.1136249664,44.72575000576
1.1250000000000001e-07,-190.99991936000015,-232.4999808,25.1136249664,44.72575000576
1.13e-07,-190.99991936000015,-248.12498176000003,25.12924996736,44.728875005439996
1.135e-07,-206.62492032,-232.4999808,25.16049996928,44.73200000512
1.14e-07,-175.37491840000007,-232.4999808,25.16049996928,44.738250004479994
1.1450000000000001e-07,-175.37491840000007,-248.12498176000003,25.16049996928,44.7507500032
1.1500000000000001e-07,-190.99991936000015,-263.74998272,25.1917499712,44.769500001279994
1.1550000000000001e-07,-190.99991936000015,-248.12498176000003,25.1917499712,44.782
1.16e-07,-159.74991744,-263.74998272,25.22299997312,44.78824999936
1.165e-07,-175.37491840000007,-248.12498176000003,25.20737497216,44.79449999872
1.17e-07,-175.37491840000007,-263.74998272,25.17612497024,44.78824999936
1.1750000000000001e-07,-159.74991744,-263.74998272,25.16049996928,44.782
1.1800000000000001e-07,-175.37491840000007,-263.74998272,25.16049996928,44.775750000639995
1.1850000000000001e-07,-159.74991744,-279.37498368,25.16049996928,44.77887500032
1.1900000000000001e-07,-144.12491648000014,-294.99998464,25.14487496832,44.760125002239995
1.195e-07,-159.74991744,-294.99998464,25.14487496832,44.74762500352
1.2000000000000002e-07,-144.12491648000014,-294.99998464,25.14487496832,44.738250004479994
1.205e-07,-144.12491648000014,-294.99998464,25.16049996928,44.72575000576
1.21e-07,-128.49991552000006,-310.6249856,25.17612497024,44.7195000064
1.215e-07,-144.12491648000014,-294.99998464,25.23862497408,44.722625006079994
1.22e-07,-128.49991552000006,-294.99998464,25.23862497408,44.722625006079994
