Time (s),V_PRI,V_SEC,V_IN,V_OUT
0.0,-19.124908799999957,-248.12498176000003,24.72812497408,42.120625000320004
5e-10,-34.74990976000004,-248.12498176000003,24.72812497408,42.13312499904
1e-09,-19.124908799999957,-263.74998272,24.74374997504,42.14874999744
1.5000000000000002e-09,-19.124908799999957,-248.12498176000003,24.71249997312,42.14874999744
2e-09,-3.4999078400001054,-248.12498176000003,24.74374997504,42.12999999936
2.5e-09,-3.4999078400001054,-248.12498176000003,24.759374976,42.11750000064
3.0000000000000004e-09,-3.4999078400001054,-248.12498176000003,24.759374976,42.089375003520004
3.5000000000000003e-09,12.125093119999974,-263.74998272,24.79062497792,42.06437500608
4e-09,12.125093119999974,-232.4999808,24.79062497792,42.045625008
4.500000000000001e-09,-3.4999078400001054,-263.74998272,24.806249978879997,42.0300000096
5e-09,27.750094080000054,-263.74998272,24.77499997696,42.02062501056
5.5000000000000004e-09,12.125093119999974,-279.37498368,24.759374976,42.03625000896
6.000000000000001e-09,12.125093119999974,-263.74998272,24.74374997504,42.0612500064
6.5e-09,27.750094080000054,-263.74998272,24.72812497408,42.089375003520004
7.000000000000001e-09,43.375095039999906,-263.74998272,24.69687497216,42.1081250016
7.500000000000001e-09,12.125093119999974,-263.74998272,24.71249997312,42.120625000320004
8e-09,43.375095039999906,-263.74998272,24.6812499712,42.12687499968
8.5e-09,27.750094080000054,-279.37498368,24.6812499712,42.12687499968
9.000000000000001e-09,27.750094080000054,-263.74998272,24.69687497216,42.12687499968
9.5e-09,43.375095039999906,-248.12498176000003,24.66562497024,42.11125000128
1e-08,59.000095999999985,-263.74998272,24.71249997312,42.089375003520004
1.0500000000000001e-08,43.375095039999906,-248.12498176000003,24.69687497216,42.0768750048
1.1000000000000001e-08,59.000095999999985,-248.12498176000003,24.66562497024,42.06750000576
1.15e-08,43.375095039999906,-248.12498176000003,24.69687497216,42.0612500064
1.2000000000000002e-08,74.62509695999984,-216.87497984000004,24.6812499712,42.07062500544
1.2500000000000001e-08,59.000095999999985,-248.12498176000003,24.66562497024,42.08000000448
1.3e-08,74.62509695999984,-263.74998272,24.64999996928,42.089375003520004
1.35e-08,59.000095999999985,-263.74998272,24.64999996928,42.11125000128
1.4000000000000001e-08,74.62509695999984,-248.12498176000003,24.64999996928,42.13312499904
1.45e-08,74.62509695999984,-232.4999808,24.64999996928,42.151874997120004
1.5000000000000002e-08,74.62509695999984,-232.4999808,24.66562497024,42.167499995520004
1.55e-08,59.000095999999985,-232.4999808,24.71249997312,42.18312499392
1.6e-08,90.25009791999992,-201.24997888000001,24.69687497216,42.18312499392
1.6500000000000002e-08,74.62509695999984,-216.87497984000004,24.71249997312,42.17687499456
1.7e-08,74.62509695999984,-232.4999808,24.74374997504,42.1706249952
1.75e-08,90.25009791999992,-185.62497792,24.72812497408,42.14249999808
1.8000000000000002e-08,90.25009791999992,-201.24997888000001,24.759374976,42.120625000320004
1.85e-08,105.87509888,-201.24997888000001,24.759374976,42.10187500224
1.9e-08,90.25009791999992,-185.62497792,24.74374997504,42.08312500416
1.9500000000000003e-08,90.25009791999992,-201.24997888000001,24.74374997504,42.0768750048
2e-08,105.87509888,-169.99997696000003,24.74374997504,42.0768750048
2.05e-08,105.87509888,-185.62497792,24.72812497408,42.089375003520004
2.1000000000000003e-08,121.50009983999985,-185.62497792,24.72812497408,42.089375003520004
2.15e-08,105.87509888,-185.62497792,24.72812497408,42.09875000256
2.2000000000000002e-08,105.87509888,-154.374976,24.72812497408,42.1081250016
2.2500000000000003e-08,121.50009983999985,-169.99997696000003,24.71249997312,42.120625000320004
2.3e-08,105.87509888,-169.99997696000003,24.72812497408,42.12375
2.3500000000000002e-08,121.50009983999985,-138.74997504000004,24.77499997696,42.12375
2.4000000000000003e-08,121.50009983999985,-154.374976,24.77499997696,42.12375
2.45e-08,121.50009983999985,-169.99997696000003,24.77499997696,42.11125000128
2.5000000000000002e-08,121.50009983999985,-169.99997696000003,24.759374976,42.105000001920004
2.55e-08,121.50009983999985,-154.374976,24.759374976,42.08312500416
2.6e-08,137.12510079999993,-123.12497408000002,24.759374976,42.05500000704
2.6500000000000002e-08,121.50009983999985,-138.74997504000004,24.77499997696,42.0300000096
2.7e-08,137.12510079999993,-123.12497408000002,24.74374997504,42.00187501248
2.75e-08,137.12510079999993,-138.74997504000004,24.759374976,41.98625001408
2.8000000000000003e-08,137.12510079999993,-123.12497408000002,24.759374976,41.98625001408
2.85e-08,152.75010176,-138.74997504000004,24.77499997696,41.99562501312
2.9e-08,168.37510271999986,-138.74997504000004,24.77499997696,42.01125001152
2.9500000000000003e-08,137.12510079999993,-138.74997504000004,24.77499997696,42.03625000896
3.0000000000000004e-08,152.75010176,-123.12497408000002,24.79062497792,42.073750005120004
3.05e-08,168.37510271999986,-107.49997311999999,24.79062497792,42.11125000128
3.1e-08,152.75010176,-123.12497408000002,24.79062497792,42.136249998720004
3.1500000000000004e-08,152.75010176,-107.49997311999999,24.79062497792,42.16124999616
3.2e-08,168.37510271999986,-123.12497408000002,24.77499997696,42.15812499648
3.25e-08,152.75010176,-123.12497408000002,24.74374997504,42.14562499776
3.3000000000000004e-08,168.37510271999986,-107.49997311999999,24.74374997504,42.13312499904
3.35e-08,152.75010176,-123.12497408000002,24.69687497216,42.12375
3.4e-08,184.00010367999994,-107.49997311999999,24.71249997312,42.1081250016
3.4500000000000005e-08,168.37510271999986,-91.87497216000003,24.6812499712,42.10187500224
3.5e-08,184.00010367999994,-91.87497216000003,24.63437496832,42.08625000384
3.55e-08,184.00010367999994,-107.49997311999999,24.63437496832,42.06750000576
3.6000000000000005e-08,184.00010367999994,-76.2499712,24.63437496832,42.04875000768
3.65e-08,184.00010367999994,-107.49997311999999,24.64999996928,42.03312500928
3.7e-08,199.62510464000002,-107.49997311999999,24.6812499712,42.02687500992
3.7500000000000005e-08,199.62510464000002,-107.49997311999999,24.69687497216,42.045625008
3.8e-08,199.62510464000002,-60.62497024000004,24.72812497408,42.07062500544
3.85e-08,199.62510464000002,-60.62497024000004,24.71249997312,42.089375003520004
3.9000000000000005e-08,199.62510464000002,-76.2499712,24.69687497216,42.11125000128
3.95e-08,184.00010367999994,-60.62497024000004,24.71249997312,42.120625000320004
4e-08,215.25010559999987,-60.62497024000004,24.69687497216,42.12687499968
4.0500000000000005e-08,199.62510464000002,-44.999969280000016,24.66562497024,42.11750000064
4.1e-08,199.62510464000002,-60.62497024000004,24.69687497216,42.11750000064
4.15e-08,199.62510464000002,-13.749967360000028,24.66562497024,42.10187500224
4.2000000000000006e-08,215.25010559999987,-29.374968319999994,24.69687497216,42.08312500416
4.2500000000000003e-08,215.25010559999987,-13.749967360000028,24.69687497216,42.07062500544
4.3e-08,215.25010559999987,-13.749967360000028,24.66562497024,42.058125006720005
4.3500000000000006e-08,199.62510464000002,-29.374968319999994,24.66562497024,42.04875000768
4.4000000000000004e-08,215.25010559999987,1.875033599999938,24.64999996928,42.03937500864
4.45e-08,199.62510464000002,-13.749967360000028,24.6031249664,42.03312500928
4.5000000000000006e-08,215.25010559999987,-13.749967360000028,24.6031249664,42.02375001024
4.5500000000000004e-08,199.62510464000002,-29.374968319999994,24.58749996544,42.02687500992
4.6e-08,215.25010559999987,1.875033599999938,24.58749996544,42.042500008320005
4.6500000000000006e-08,199.62510464000002,17.500034560000017,24.57187496448,42.05500000704
4.7000000000000004e-08,199.62510464000002,17.500034560000017,24.55624996352,42.0612500064
4.75e-08,184.00010367999994,17.500034560000017,24.57187496448,42.0768750048
4.8000000000000006e-08,215.25010559999987,17.500034560000017,24.54062496256,42.0925000032
4.8500000000000004e-08,199.62510464000002,17.500034560000017,24.55624996352,42.1081250016
4.9e-08,184.00010367999994,17.500034560000017,24.58749996544,42.12375
4.95e-08,184.00010367999994,33.12503551999998,24.57187496448,42.12999999936
5.0000000000000004e-08,199.62510464000002,33.12503551999998,24.6031249664,42.120625000320004
5.05e-08,184.00010367999994,33.12503551999998,24.6031249664,42.10187500224
5.1e-08,184.00010367999994,48.75003647999995,24.57187496448,42.073750005120004
5.1500000000000005e-08,184.00010367999994,33.12503551999998,24.58749996544,42.05187500736
5.2e-08,184.00010367999994,64.37503744000003,24.6031249664,42.03937500864
5.25e-08,184.00010367999994,33.12503551999998,24.58749996544,42.03312500928
5.3000000000000005e-08,199.62510464000002,33.12503551999998,24.58749996544,42.02687500992
5.35e-08,168.37510271999986,33.12503551999998,24.57187496448,42.03625000896
5.4e-08,168.37510271999986,48.75003647999995,24.58749996544,42.05187500736
5.4500000000000005e-08,168.37510271999986,64.37503744000003,24.57187496448,42.073750005120004
5.5e-08,168.37510271999986,64.37503744000003,24.55624996352,42.0925000032
5.55e-08,137.12510079999993,80.0000384,24.58749996544,42.105000001920004
5.6000000000000005e-08,152.75010176,64.37503744000003,24.55624996352,42.11437500096
5.65e-08,152.75010176,80.0000384,24.54062496256,42.11750000064
5.7e-08,152.75010176,80.0000384,24.55624996352,42.12375
5.7500000000000005e-08,152.75010176,95.62503935999996,24.5249999616,42.12687499968
5.8e-08,152.75010176,95.62503935999996,24.55624996352,42.12375
5.85e-08,152.75010176,111.25004031999993,24.54062496256,42.120625000320004
5.9000000000000006e-08,137.12510079999993,126.87504128,24.50937496064,42.09875000256
5.9500000000000003e-08,121.50009983999985,111.25004031999993,24.5249999616,42.0768750048
6.000000000000001e-08,137.12510079999993,142.50004223999997,24.50937496064,42.05500000704
6.05e-08,121.50009983999985,111.25004031999993,24.54062496256,42.03937500864
6.1e-08,152.75010176,111.25004031999993,24.55624996352,42.02375001024
6.15e-08,121.50009983999985,111.25004031999993,24.55624996352,42.02375001024
6.2e-08,121.50009983999985,126.87504128,24.58749996544,42.03625000896
6.250000000000001e-08,121.50009983999985,142.50004223999997,24.6031249664,42.05187500736
6.300000000000001e-08,105.87509888,142.50004223999997,24.6031249664,42.06750000576
6.35e-08,105.87509888,142.50004223999997,24.64999996928,42.073750005120004
6.4e-08,105.87509888,142.50004223999997,24.63437496832,42.0768750048
6.45e-08,90.25009791999992,142.50004223999997,24.64999996928,42.08000000448
6.5e-08,90.25009791999992,142.50004223999997,24.66562497024,42.08625000384
6.55e-08,90.25009791999992,158.12504319999994,24.66562497024,42.08625000384
6.600000000000001e-08,90.25009791999992,158.12504319999994,24.69687497216,42.07062500544
6.65e-08,90.25009791999992,158.12504319999994,24.69687497216,42.058125006720005
6.7e-08,74.62509695999984,173.75004416000002,24.6812499712,42.042500008320005
6.75e-08,74.62509695999984,158.12504319999994,24.64999996928,42.02687500992
6.8e-08,74.62509695999984,189.37504511999998,24.64999996928,42.02062501056
6.85e-08,74.62509695999984,158.12504319999994,24.63437496832,42.01750001088
6.900000000000001e-08,74.62509695999984,158.12504319999994,24.63437496832,42.01125001152
6.950000000000001e-08,74.62509695999984,158.12504319999994,24.6031249664,42.01750001088
7e-08,59.000095999999985,189.37504511999998,24.6031249664,42.02687500992
7.05e-08,59.000095999999985,173.75004416000002,24.6031249664,42.045625008
7.1e-08,43.375095039999906,173.75004416000002,24.6031249664,42.06750000576
7.15e-08,27.750094080000054,158.12504319999994,24.63437496832,42.089375003520004
7.200000000000001e-08,27.750094080000054,189.37504511999998,24.66562497024,42.11125000128
7.250000000000001e-08,27.750094080000054,173.75004416000002,24.66562497024,42.12687499968
7.3e-08,12.125093119999974,189.37504511999998,24.69687497216,42.151874997120004
7.35e-08,27.750094080000054,189.37504511999998,24.66562497024,42.16437499584
7.4e-08,27.750094080000054,173.75004416000002,24.69687497216,42.1549999968
7.45e-08,27.750094080000054,205.00004607999995,24.6812499712,42.136249998720004
7.500000000000001e-08,12.125093119999974,205.00004607999995,24.61874996736,42.105000001920004
7.550000000000001e-08,-3.4999078400001054,189.37504511999998,24.61874996736,42.07062500544
7.6e-08,12.125093119999974,220.62504704000003,24.58749996544,42.04875000768
7.65e-08,-3.4999078400001054,189.37504511999998,24.6031249664,42.03312500928
7.7e-08,27.750094080000054,189.37504511999998,24.6031249664,42.02375001024
7.75e-08,12.125093119999974,189.37504511999998,24.61874996736,42.0300000096
7.800000000000001e-08,-3.4999078400001054,205.00004607999995,24.63437496832,42.05187500736
7.850000000000001e-08,-3.4999078400001054,205.00004607999995,24.64999996928,42.073750005120004
7.9e-08,-19.124908799999957,205.00004607999995,24.66562497024,42.09562500288
7.95e-08,-34.74990976000004,205.00004607999995,24.69687497216,42.11125000128
8e-08,-19.124908799999957,205.00004607999995,24.66562497024,42.11750000064
8.05e-08,-34.74990976000004,220.62504704000003,24.63437496832,42.11437500096
8.100000000000001e-08,-34.74990976000004,220.62504704000003,24.61874996736,42.11750000064
8.150000000000001e-08,-34.74990976000004,205.00004607999995,24.55624996352,42.1081250016
8.2e-08,-34.74990976000004,205.00004607999995,24.57187496448,42.08625000384
8.25e-08,-19.124908799999957,205.00004607999995,24.55624996352,42.06750000576
8.3e-08,-50.374910720000116,236.250048,24.5249999616,42.04875000768
8.35e-08,-50.374910720000116,189.37504511999998,24.54062496256,42.03625000896
8.400000000000001e-08,-50.374910720000116,220.62504704000003,24.55624996352,42.042500008320005
8.450000000000001e-08,-65.99991167999997,189.37504511999998,24.58749996544,42.058125006720005
8.500000000000001e-08,-34.74990976000004,173.75004416000002,24.6031249664,42.073750005120004
8.55e-08,-65.99991167999997,173.75004416000002,24.6031249664,42.09562500288
8.6e-08,-65.99991167999997,189.37504511999998,24.61874996736,42.12375
8.65e-08,-65.99991167999997,189.37504511999998,24.6031249664,42.1393749984
8.700000000000001e-08,-81.62491264000005,173.75004416000002,24.58749996544,42.151874997120004
8.750000000000001e-08,-81.62491264000005,173.75004416000002,24.58749996544,42.151874997120004
8.800000000000001e-08,-65.99991167999997,173.75004416000002,24.58749996544,42.14874999744
8.85e-08,-97.24991360000013,173.75004416000002,24.57187496448,42.13312499904
8.9e-08,-97.24991360000013,173.75004416000002,24.58749996544,42.12999999936
8.95e-08,-81.62491264000005,173.75004416000002,24.57187496448,42.12687499968
9.000000000000001e-08,-81.62491264000005,158.12504319999994,24.6031249664,42.12375
9.050000000000001e-08,-97.24991360000013,173.75004416000002,24.6031249664,42.12375
9.100000000000001e-08,-97.24991360000013,173.75004416000002,24.58749996544,42.11125000128
9.15e-08,-97.24991360000013,142.50004223999997,24.61874996736,42.09875000256
9.2e-08,-97.24991360000013,173.75004416000002,24.61874996736,42.09875000256
9.25e-08,-112.87491455999998,142.50004223999997,24.6031249664,42.10187500224
9.300000000000001e-08,-81.62491264000005,126.87504128,24.57187496448,42.09875000256
9.350000000000001e-08,-112.87491455999998,126.87504128,24.55624996352,42.1081250016
9.400000000000001e-08,-112.87491455999998,142.50004223999997,24.54062496256,42.11750000064
9.45e-08,-112.87491455999998,126.87504128,24.5249999616,42.12375
9.5e-08,-112.87491455999998,126.87504128,24.5249999616,42.12999999936
9.55e-08,-128.49991552000006,126.87504128,24.54062496256,42.12375
9.600000000000001e-08,-112.87491455999998,111.25004031999993,24.5249999616,42.12375
9.650000000000001e-08,-128.49991552000006,95.62503935999996,24.55624996352,42.11125000128
9.700000000000001e-08,-144.12491648000014,95.62503935999996,24.58749996544,42.11125000128
9.75e-08,-128.49991552000006,111.25004031999993,24.58749996544,42.10187500224
9.8e-08,-112.87491455999998,95.62503935999996,24.64999996928,42.089375003520004
9.85e-08,-112.87491455999998,95.62503935999996,24.66562497024,42.08312500416
9.9e-08,-128.49991552000006,111.25004031999993,24.64999996928,42.06437500608
9.950000000000001e-08,-128.49991552000006,95.62503935999996,24.66562497024,42.05187500736
1.0000000000000001e-07,-144.12491648000014,111.25004031999993,24.64999996928,42.045625008
1.005e-07,-144.12491648000014,95.62503935999996,24.64999996928,42.045625008
1.01e-07,-128.49991552000006,80.0000384,24.63437496832,42.03312500928
1.015e-07,-159.74991744,80.0000384,24.64999996928,42.03625000896
1.02e-07,-159.74991744,95.62503935999996,24.66562497024,42.03937500864
1.0250000000000001e-07,-159.74991744,80.0000384,24.66562497024,42.042500008320005
1.0300000000000001e-07,-159.74991744,80.0000384,24.6812499712,42.05500000704
1.0350000000000001e-07,-175.37491840000007,80.0000384,24.71249997312,42.06437500608
1.04e-07,-159.74991744,64.37503744000003,24.69687497216,42.073750005120004
1.045e-07,-175.37491840000007,80.0000384,24.6812499712,42.08000000448
1.05e-07,-190.99991936000015,64.37503744000003,24.69687497216,42.09562500288
1.0550000000000001e-07,-190.99991936000015,80.0000384,24.6812499712,42.105000001920004
1.0600000000000001e-07,-175.37491840000007,64.37503744000003,24.69687497216,42.11437500096
1.0650000000000001e-07,-190.99991936000015,64.37503744000003,24.6812499712,42.12999999936
1.07e-07,-206.62492032,80.0000384,24.63437496832,42.136249998720004
1.075e-07,-190.99991936000015,48.75003647999995,24.61874996736,42.1393749984
1.08e-07,-190.99991936000015,80.0000384,24.61874996736,42.136249998720004
1.0850000000000001e-07,-190.99991936000015,33.12503551999998,24.6031249664,42.12999999936
1.0900000000000001e-07,-190.99991936000015,33.12503551999998,24.6031249664,42.1081250016
1.0950000000000001e-07,-175.37491840000007,17.500034560000017,24.6031249664,42.0925000032
1.1e-07,-206.62492032,33.12503551999998,24.6031249664,42.073750005120004
1.105e-07,-190.99991936000015,33.12503551999998,24.61874996736,42.058125006720005
1.11e-07,-206.62492032,33.12503551999998,24.64999996928,42.05500000704
1.1150000000000001e-07,-222.24992128000008,33.12503551999998,24.69687497216,42.058125006720005
1.1200000000000001e-07,-206.62492032,17.500034560000017,24.71249997312,42.06437500608
1.1250000000000001e-07,-222.24992128000008,1.875033599999938,24.71249997312,42.08312500416
1.13e-07,-237.87492223999993,1.875033599999938,24.72812497408,42.105000001920004
1.135e-07,-222.24992128000008,1.875033599999938,24.69687497216,42.11750000064
1.14e-07,-206.62492032,17.500034560000017,24.72812497408,42.12687499968
1.1450000000000001e-07,-222.24992128000008,1.875033599999938,24.74374997504,42.136249998720004
1.1500000000000001e-07,-222.24992128000008,1.875033599999938,24.74374997504,42.12375
1.1550000000000001e-07,-237.87492223999993,-13.749967360000028,24.74374997504,42.1081250016
1.16e-07,-222.24992128000008,1.875033599999938,24.72812497408,42.08312500416
1.165e-07,-206.62492032,-29.374968319999994,24.72812497408,42.058125006720005
1.17e-07,-222.24992128000008,-44.999969280000016,24.72812497408,42.02687500992
1.1750000000000001e-07,-222.24992128000008,-44.999969280000016,24.71249997312,42.01125001152
1.1800000000000001e-07,-222.24992128000008,-29.374968319999994,24.72812497408,42.00812501184
1.1850000000000001e-07,-206.62492032,-29.374968319999994,24.72812497408,42.01750001088
1.1900000000000001e-07,-222.24992128000008,-44.999969280000016,24.71249997312,42.03937500864
1.195e-07,-237.87492223999993,-60.62497024000004,24.72812497408,42.058125006720005
1.2000000000000002e-07,-206.62492032,-44.999969280000016,24.71249997312,42.073750005120004
1.205e-07,-222.24992128000008,-60.62497024000004,24.72812497408,42.08312500416
1.21e-07,-222.24992128000008,-76.2499712,24.74374997504,42.09875000256
1.215e-07,-222.24992128000008,-60.62497024000004,24.69687497216,42.09875000256
1.22e-07,-222.24992128000008,-60.62497024000004,24.72812497408,42.09875000256
1.2250000000000002e-07,-206.62492032,-60.62497024000004,24.72812497408,42.09875000256
1.23e-07,-206.62492032,-60.62497024000004,24.69687497216,42.09562500288
