Time (s),V_PRI,V_SEC,V_IN,V_OUT
0.0,-189.49991936000015,-47.999969280000016,24.6627499712,41.26212500288
5e-10,-189.49991936000015,-63.62497024000004,24.6627499712,41.2433750048
1e-09,-205.12492032,-79.2499712,24.69399997312,41.224625006720004
1.5000000000000002e-09,-173.87491840000007,-63.62497024000004,24.75649997696,41.20275000896
2e-09,-173.87491840000007,-79.2499712,24.75649997696,41.17775001152
2.5e-09,-189.49991936000015,-79.2499712,24.78774997888,41.16212501312
3.0000000000000004e-09,-173.87491840000007,-79.2499712,24.78774997888,41.1496250144
3.5000000000000003e-09,-142.62491648000014,-94.87497216000003,24.78774997888,41.15900001344
4e-09,-142.62491648000014,-79.2499712,24.834624981759998,41.1808750112
4.500000000000001e-09,-158.24991744,-63.62497024000004,24.834624981759998,41.20275000896
5e-09,-158.24991744,-110.49997311999999,24.818999980799997,41.2277500064
5.5000000000000004e-09,-158.24991744,-63.62497024000004,24.803374979839997,41.24650000448
6.000000000000001e-09,-142.62491648000014,-94.87497216000003,24.78774997888,41.27150000192
6.5e-09,-111.37491455999998,-110.49997311999999,24.78774997888,41.27775000128
7.000000000000001e-09,-142.62491648000014,-126.12497408000002,24.78774997888,41.28400000064
7.500000000000001e-09,-142.62491648000014,-110.49997311999999,24.78774997888,41.2746250016
8e-09,-111.37491455999998,-110.49997311999999,24.77212497792,41.25587500352
8.5e-09,-142.62491648000014,-110.49997311999999,24.78774997888,41.23400000576
9.000000000000001e-09,-126.99991552000006,-126.12497408000002,24.75649997696,41.21525000768
9.5e-09,-111.37491455999998,-126.12497408000002,24.77212497792,41.20587500864
1e-08,-111.37491455999998,-141.74997504000004,24.75649997696,41.1965000096
1.0500000000000001e-08,-126.99991552000006,-141.74997504000004,24.740874976,41.1965000096
1.1000000000000001e-08,-95.74991360000013,-141.74997504000004,24.72524997504,41.19337500992
1.15e-08,-80.12491264000005,-157.374976,24.67837497216,41.19962500928
1.2000000000000002e-08,-95.74991360000013,-141.74997504000004,24.69399997312,41.212125008
1.2500000000000001e-08,-95.74991360000013,-141.74997504000004,24.64712497024,41.224625006720004
1.3e-08,-95.74991360000013,-172.99997696000003,24.63149996928,41.23400000576
1.35e-08,-80.12491264000005,-141.74997504000004,24.63149996928,41.24962500416
1.4000000000000001e-08,-80.12491264000005,-172.99997696000003,24.61587496832,41.2590000032
1.45e-08,-64.49991167999997,-188.62497792,24.61587496832,41.2746250016
1.5000000000000002e-08,-80.12491264000005,-204.24997888000001,24.63149996928,41.29337499968
1.55e-08,-80.12491264000005,-188.62497792,24.63149996928,41.29962499904
1.6e-08,-64.49991167999997,-188.62497792,24.6627499712,41.29337499968
1.6500000000000002e-08,-80.12491264000005,-188.62497792,24.69399997312,41.27775000128
1.7e-08,-64.49991167999997,-188.62497792,24.69399997312,41.26212500288
1.75e-08,-48.874910720000116,-188.62497792,24.740874976,41.24962500416
1.8000000000000002e-08,-48.874910720000116,-204.24997888000001,24.69399997312,41.240250005120004
1.85e-08,-48.874910720000116,-204.24997888000001,24.67837497216,41.23087500608
1.9e-08,-33.24990976000004,-188.62497792,24.67837497216,41.21525000768
1.9500000000000003e-08,-17.624908799999957,-204.24997888000001,24.64712497024,41.19962500928
2e-08,-33.24990976000004,-204.24997888000001,24.64712497024,41.1965000096
2.05e-08,-33.24990976000004,-204.24997888000001,24.61587496832,41.1965000096
2.1000000000000003e-08,-33.24990976000004,-219.87497984000004,24.5846249664,41.19337500992
2.15e-08,-17.624908799999957,-204.24997888000001,24.60024996736,41.1965000096
2.2000000000000002e-08,-17.624908799999957,-219.87497984000004,24.61587496832,41.1965000096
2.2500000000000003e-08,-1.9999078400001054,-235.4999808,24.63149996928,41.19337500992
2.3e-08,-17.624908799999957,-251.12498176000003,24.63149996928,41.212125008
2.3500000000000002e-08,-1.9999078400001054,-235.4999808,24.63149996928,41.2277500064
2.4000000000000003e-08,-1.9999078400001054,-235.4999808,24.61587496832,41.23712500544
2.45e-08,-1.9999078400001054,-219.87497984000004,24.61587496832,41.24650000448
2.5000000000000002e-08,-1.9999078400001054,-219.87497984000004,24.61587496832,41.24962500416
2.55e-08,13.625093119999974,-235.4999808,24.61587496832,41.25275000384
2.6e-08,13.625093119999974,-235.4999808,24.56899996544,41.25587500352
2.6500000000000002e-08,13.625093119999974,-235.4999808,24.52212496256,41.2590000032
2.7e-08,13.625093119999974,-235.4999808,24.53774996352,41.24962500416
2.75e-08,29.250094080000054,-235.4999808,24.53774996352,41.23712500544
2.8000000000000003e-08,44.875095039999906,-219.87497984000004,24.60024996736,41.2277500064
2.85e-08,29.250094080000054,-235.4999808,24.61587496832,41.21837500736
2.9e-08,29.250094080000054,-251.12498176000003,24.63149996928,41.212125008
2.9500000000000003e-08,44.875095039999906,-219.87497984000004,24.67837497216,41.21525000768
3.0000000000000004e-08,44.875095039999906,-251.12498176000003,24.69399997312,41.23087500608
3.05e-08,76.12509695999984,-266.74998272,24.72524997504,41.24650000448
3.1e-08,44.875095039999906,-266.74998272,24.72524997504,41.2746250016
3.1500000000000004e-08,44.875095039999906,-251.12498176000003,24.70962497408,41.29962499904
3.2e-08,76.12509695999984,-251.12498176000003,24.69399997312,41.31837499712
3.25e-08,60.500095999999985,-251.12498176000003,24.67837497216,41.32774999616
3.3000000000000004e-08,44.875095039999906,-251.12498176000003,24.6627499712,41.32462499648
3.35e-08,76.12509695999984,-251.12498176000003,24.6627499712,41.30899999808
3.4e-08,60.500095999999985,-266.74998272,24.64712497024,41.28400000064
3.4500000000000005e-08,60.500095999999985,-266.74998272,24.6627499712,41.26212500288
3.5e-08,76.12509695999984,-251.12498176000003,24.67837497216,41.23087500608
3.55e-08,91.75009791999992,-251.12498176000003,24.69399997312,41.212125008
3.6000000000000005e-08,91.75009791999992,-235.4999808,24.740874976,41.209000008320004
3.65e-08,76.12509695999984,-235.4999808,24.75649997696,41.21525000768
3.7e-08,76.12509695999984,-251.12498176000003,24.740874976,41.2277500064
3.7500000000000005e-08,91.75009791999992,-219.87497984000004,24.75649997696,41.25275000384
3.8e-08,91.75009791999992,-235.4999808,24.77212497792,41.28400000064
3.85e-08,123.00009983999985,-251.12498176000003,24.77212497792,41.29649999936
3.9000000000000005e-08,107.37509888,-266.74998272,24.78774997888,41.31212499776
3.95e-08,107.37509888,-235.4999808,24.78774997888,41.31524999744
4e-08,123.00009983999985,-235.4999808,24.818999980799997,41.3058749984
4.0500000000000005e-08,123.00009983999985,-219.87497984000004,24.850249982719998,41.29649999936
4.1e-08,107.37509888,-219.87497984000004,24.850249982719998,41.29337499968
4.15e-08,138.62510079999993,-204.24997888000001,24.881499984639998,41.29649999936
4.2000000000000006e-08,123.00009983999985,-219.87497984000004,24.865874983679998,41.29962499904
4.2500000000000003e-08,123.00009983999985,-219.87497984000004,24.834624981759998,41.29962499904
4.3e-08,138.62510079999993,-188.62497792,24.803374979839997,41.29025
4.3500000000000006e-08,154.25010176,-188.62497792,24.75649997696,41.27775000128
4.4000000000000004e-08,154.25010176,-188.62497792,24.75649997696,41.2746250016
4.45e-08,154.25010176,-172.99997696000003,24.740874976,41.27150000192
4.5000000000000006e-08,154.25010176,-188.62497792,24.70962497408,41.26837500224
4.5500000000000004e-08,169.87510271999986,-157.374976,24.70962497408,41.26837500224
4.6e-08,169.87510271999986,-172.99997696000003,24.72524997504,41.2590000032
4.6500000000000006e-08,185.50010367999994,-188.62497792,24.72524997504,41.24962500416
4.7000000000000004e-08,169.87510271999986,-172.99997696000003,24.740874976,41.2590000032
4.75e-08,185.50010367999994,-157.374976,24.75649997696,41.26837500224
4.8000000000000006e-08,201.12510464000002,-157.374976,24.75649997696,41.27775000128
4.8500000000000004e-08,201.12510464000002,-141.74997504000004,24.75649997696,41.28087500096
4.9e-08,185.50010367999994,-157.374976,24.75649997696,41.28087500096
4.95e-08,216.75010559999987,-141.74997504000004,24.77212497792,41.28087500096
5.0000000000000004e-08,216.75010559999987,-141.74997504000004,24.740874976,41.28087500096
5.05e-08,201.12510464000002,-141.74997504000004,24.72524997504,41.28400000064
5.1e-08,216.75010559999987,-126.12497408000002,24.72524997504,41.27775000128
5.1500000000000005e-08,232.37510655999995,-141.74997504000004,24.70962497408,41.2590000032
5.2e-08,216.75010559999987,-126.12497408000002,24.75649997696,41.2433750048
5.25e-08,216.75010559999987,-110.49997311999999,24.77212497792,41.2277500064
5.3000000000000005e-08,232.37510655999995,-141.74997504000004,24.78774997888,41.212125008
5.35e-08,232.37510655999995,-110.49997311999999,24.818999980799997,41.19962500928
5.4e-08,232.37510655999995,-126.12497408000002,24.834624981759998,41.18712501056
5.4500000000000005e-08,232.37510655999995,-141.74997504000004,24.818999980799997,41.17775001152
5.5e-08,232.37510655999995,-126.12497408000002,24.818999980799997,41.18712501056
5.55e-08,232.37510655999995,-126.12497408000002,24.803374979839997,41.20587500864
5.6000000000000005e-08,232.37510655999995,-110.49997311999999,24.78774997888,41.23087500608
5.65e-08,232.37510655999995,-110.49997311999999,24.78774997888,41.25275000384
5.7e-08,232.37510655999995,-94.87497216000003,24.75649997696,41.26212500288
5.7500000000000005e-08,248.00010752000003,-110.49997311999999,24.75649997696,41.2590000032
5.8e-08,232.37510655999995,-110.49997311999999,24.72524997504,41.25587500352
5.85e-08,216.75010559999987,-110.49997311999999,24.72524997504,41.26525000256
5.9000000000000006e-08,232.37510655999995,-79.2499712,24.740874976,41.26837500224
5.9500000000000003e-08,248.00010752000003,-94.87497216000003,24.740874976,41.26837500224
6.000000000000001e-08,232.37510655999995,-79.2499712,24.78774997888,41.27150000192
6.05e-08,232.37510655999995,-79.2499712,24.77212497792,41.26212500288
6.1e-08,232.37510655999995,-79.2499712,24.740874976,41.25275000384
6.15e-08,248.00010752000003,-63.62497024000004,24.740874976,41.24962500416
6.2e-08,232.37510655999995,-94.87497216000003,24.75649997696,41.2433750048
6.250000000000001e-08,232.37510655999995,-79.2499712,24.77212497792,41.2277500064
6.300000000000001e-08,216.75010559999987,-94.87497216000003,24.803374979839997,41.22150000704
6.35e-08,216.75010559999987,-63.62497024000004,24.78774997888,41.21837500736
6.4e-08,216.75010559999987,-63.62497024000004,24.77212497792,41.2277500064
6.45e-08,232.37510655999995,-47.999969280000016,24.77212497792,41.2433750048
6.5e-08,201.12510464000002,-47.999969280000016,24.740874976,41.26212500288
6.55e-08,216.75010559999987,-32.374968319999994,24.70962497408,41.28087500096
6.600000000000001e-08,201.12510464000002,-32.374968319999994,24.64712497024,41.28712500032
6.65e-08,201.12510464000002,-32.374968319999994,24.5846249664,41.29962499904
6.7e-08,185.50010367999994,-32.374968319999994,24.56899996544,41.30274999872
6.75e-08,216.75010559999987,-16.749967360000028,24.55337496448,41.29649999936
6.8e-08,185.50010367999994,-1.124966400000062,24.5846249664,41.29337499968
6.85e-08,185.50010367999994,-1.124966400000062,24.60024996736,41.27775000128
6.900000000000001e-08,169.87510271999986,-16.749967360000028,24.5846249664,41.25587500352
6.950000000000001e-08,185.50010367999994,30.125035519999983,24.61587496832,41.23712500544
7e-08,185.50010367999994,-1.124966400000062,24.63149996928,41.224625006720004
7.05e-08,201.12510464000002,-16.749967360000028,24.63149996928,41.20587500864
7.1e-08,169.87510271999986,-1.124966400000062,24.64712497024,41.19962500928
7.15e-08,169.87510271999986,14.500034560000017,24.64712497024,41.1965000096
7.200000000000001e-08,169.87510271999986,14.500034560000017,24.61587496832,41.20587500864
7.250000000000001e-08,169.87510271999986,30.125035519999983,24.60024996736,41.21837500736
7.3e-08,154.25010176,30.125035519999983,24.56899996544,41.2277500064
7.35e-08,169.87510271999986,45.75003647999995,24.60024996736,41.23087500608
7.4e-08,154.25010176,30.125035519999983,24.5846249664,41.23400000576
7.45e-08,154.25010176,30.125035519999983,24.5846249664,41.2433750048
7.500000000000001e-08,154.25010176,45.75003647999995,24.60024996736,41.240250005120004
7.550000000000001e-08,154.25010176,45.75003647999995,24.61587496832,41.240250005120004
7.6e-08,138.62510079999993,61.37503744000003,24.70962497408,41.23400000576
7.65e-08,138.62510079999993,61.37503744000003,24.69399997312,41.22150000704
7.7e-08,123.00009983999985,45.75003647999995,24.67837497216,41.20275000896
7.75e-08,138.62510079999993,77.0000384,24.67837497216,41.18712501056
7.800000000000001e-08,123.00009983999985,61.37503744000003,24.64712497024,41.18400001088
7.850000000000001e-08,123.00009983999985,45.75003647999995,24.61587496832,41.17775001152
7.9e-08,107.37509888,45.75003647999995,24.60024996736,41.18712501056
7.95e-08,107.37509888,77.0000384,24.56899996544,41.20275000896
8e-08,123.00009983999985,77.0000384,24.55337496448,41.21525000768
8.05e-08,107.37509888,77.0000384,24.52212496256,41.2277500064
8.100000000000001e-08,91.75009791999992,92.62503935999996,24.49087496064,41.23400000576
8.150000000000001e-08,91.75009791999992,92.62503935999996,24.5064999616,41.240250005120004
8.2e-08,91.75009791999992,108.25004031999993,24.49087496064,41.24962500416
8.25e-08,76.12509695999984,92.62503935999996,24.52212496256,41.26212500288
8.3e-08,76.12509695999984,108.25004031999993,24.53774996352,41.26525000256
8.35e-08,91.75009791999992,108.25004031999993,24.53774996352,41.27150000192
8.400000000000001e-08,76.12509695999984,123.87504128,24.5846249664,41.28087500096
8.450000000000001e-08,60.500095999999985,123.87504128,24.60024996736,41.28087500096
8.500000000000001e-08,60.500095999999985,123.87504128,24.56899996544,41.28087500096
8.55e-08,60.500095999999985,155.12504319999994,24.56899996544,41.2746250016
8.6e-08,60.500095999999985,139.50004223999997,24.55337496448,41.26212500288
8.65e-08,76.12509695999984,123.87504128,24.52212496256,41.240250005120004
8.700000000000001e-08,44.875095039999906,123.87504128,24.52212496256,41.23087500608
8.750000000000001e-08,44.875095039999906,155.12504319999994,24.5064999616,41.2277500064
8.800000000000001e-08,60.500095999999985,155.12504319999994,24.5064999616,41.224625006720004
8.85e-08,44.875095039999906,139.50004223999997,24.5064999616,41.2277500064
8.9e-08,13.625093119999974,155.12504319999994,24.52212496256,41.23087500608
8.95e-08,29.250094080000054,155.12504319999994,24.55337496448,41.23087500608
9.000000000000001e-08,29.250094080000054,155.12504319999994,24.55337496448,41.23400000576
9.050000000000001e-08,13.625093119999974,139.50004223999997,24.55337496448,41.240250005120004
9.100000000000001e-08,29.250094080000054,170.75004416000002,24.56899996544,41.23400000576
9.15e-08,29.250094080000054,155.12504319999994,24.55337496448,41.2277500064
9.2e-08,13.625093119999974,170.75004416000002,24.56899996544,41.21837500736
9.25e-08,-1.9999078400001054,186.37504511999998,24.55337496448,41.209000008320004
9.300000000000001e-08,-1.9999078400001054,155.12504319999994,24.52212496256,41.20587500864
9.350000000000001e-08,13.625093119999974,186.37504511999998,24.52212496256,41.20587500864
9.400000000000001e-08,-1.9999078400001054,155.12504319999994,24.49087496064,41.20587500864
9.45e-08,13.625093119999974,155.12504319999994,24.5064999616,41.19962500928
9.5e-08,-1.9999078400001054,155.12504319999994,24.5064999616,41.19962500928
9.55e-08,-17.624908799999957,170.75004416000002,24.52212496256,41.20275000896
9.600000000000001e-08,-1.9999078400001054,186.37504511999998,24.55337496448,41.20275000896
9.650000000000001e-08,-33.24990976000004,170.75004416000002,24.5846249664,41.209000008320004
9.700000000000001e-08,-33.24990976000004,186.37504511999998,24.61587496832,41.21837500736
9.75e-08,-33.24990976000004,186.37504511999998,24.61587496832,41.2277500064
9.8e-08,-33.24990976000004,186.37504511999998,24.61587496832,41.240250005120004
9.85e-08,-48.874910720000116,186.37504511999998,24.60024996736,41.26212500288
9.9e-08,-48.874910720000116,202.00004607999995,24.60024996736,41.27775000128
9.950000000000001e-08,-33.24990976000004,202.00004607999995,24.5846249664,41.28400000064
1.0000000000000001e-07,-48.874910720000116,202.00004607999995,24.5846249664,41.29649999936
1.005e-07,-48.874910720000116,217.62504704000003,24.5846249664,41.29337499968
1.01e-07,-64.49991167999997,186.37504511999998,24.56899996544,41.28712500032
1.015e-07,-48.874910720000116,217.62504704000003,24.5846249664,41.27775000128
1.02e-07,-64.49991167999997,186.37504511999998,24.60024996736,41.2590000032
1.0250000000000001e-07,-48.874910720000116,170.75004416000002,24.60024996736,41.240250005120004
1.0300000000000001e-07,-80.12491264000005,186.37504511999998,24.61587496832,41.23087500608
1.0350000000000001e-07,-80.12491264000005,202.00004607999995,24.60024996736,41.2277500064
1.04e-07,-80.12491264000005,202.00004607999995,24.5846249664,41.23712500544
1.045e-07,-64.49991167999997,202.00004607999995,24.5846249664,41.25275000384
1.05e-07,-80.12491264000005,186.37504511999998,24.5846249664,41.2746250016
1.0550000000000001e-07,-95.74991360000013,202.00004607999995,24.60024996736,41.29337499968
1.0600000000000001e-07,-95.74991360000013,202.00004607999995,24.5846249664,41.29962499904
1.0650000000000001e-07,-111.37491455999998,202.00004607999995,24.56899996544,41.31212499776
1.07e-07,-95.74991360000013,202.00004607999995,24.60024996736,41.30274999872
1.075e-07,-95.74991360000013,202.00004607999995,24.60024996736,41.28712500032
1.08e-07,-95.74991360000013,202.00004607999995,24.67837497216,41.26525000256
1.0850000000000001e-07,-95.74991360000013,202.00004607999995,24.69399997312,41.240250005120004
1.0900000000000001e-07,-126.99991552000006,155.12504319999994,24.70962497408,41.22150000704
1.0950000000000001e-07,-111.37491455999998,186.37504511999998,24.740874976,41.21525000768
1.1e-07,-111.37491455999998,170.75004416000002,24.740874976,41.224625006720004
1.105e-07,-111.37491455999998,170.75004416000002,24.77212497792,41.23400000576
1.11e-07,-142.62491648000014,155.12504319999994,24.75649997696,41.26212500288
1.1150000000000001e-07,-126.99991552000006,170.75004416000002,24.77212497792,41.29337499968
1.1200000000000001e-07,-142.62491648000014,186.37504511999998,24.740874976,41.3214999968
1.1250000000000001e-07,-142.62491648000014,155.12504319999994,24.740874976,41.34024999488
1.13e-07,-158.24991744,155.12504319999994,24.72524997504,41.34649999424
1.135e-07,-142.62491648000014,155.12504319999994,24.77212497792,41.34024999488
1.14e-07,-173.87491840000007,139.50004223999997,24.75649997696,41.32462499648
1.1450000000000001e-07,-173.87491840000007,123.87504128,24.72524997504,41.3058749984
1.1500000000000001e-07,-173.87491840000007,139.50004223999997,24.69399997312,41.27775000128
1.1550000000000001e-07,-158.24991744,123.87504128,24.64712497024,41.2433750048
1.16e-07,-189.49991936000015,123.87504128,24.67837497216,41.224625006720004
1.165e-07,-189.49991936000015,123.87504128,24.67837497216,41.209000008320004
1.17e-07,-189.49991936000015,108.25004031999993,24.6627499712,41.212125008
1.1750000000000001e-07,-205.12492032,123.87504128,24.64712497024,41.224625006720004
1.1800000000000001e-07,-205.12492032,108.25004031999993,24.63149996928,41.2433750048
1.1850000000000001e-07,-189.49991936000015,92.62503935999996,24.61587496832,41.25275000384
1.1900000000000001e-07,-220.74992128000008,92.62503935999996,24.61587496832,41.27150000192
1.195e-07,-220.74992128000008,92.62503935999996,24.61587496832,41.28712500032
1.2000000000000002e-07,-220.74992128000008,77.0000384,24.64712497024,41.29337499968
1.205e-07,-220.74992128000008,77.0000384,24.6627499712,41.29337499968
1.21e-07,-251.9999232,92.62503935999996,24.6627499712,41.28400000064
1.215e-07,-236.37492223999993,77.0000384,24.69399997312,41.27775000128
1.22e-07,-251.9999232,92.62503935999996,24.69399997312,41.26212500288
1.2250000000000002e-07,-251.9999232,77.0000384,24.72524997504,41.2590000032
1.23e-07,-236.37492223999993,77.0000384,24.740874976,41.24962500416
