ROUT,V_IN,I_IN,P_IN,V_OUT,I_OUT,P_OUT,V_GS_A_pp,V_GS_A_amp,V_GS_B_pp,V_GS_B_amp,V_DS_A_pp,V_DS_B_pp
50.0,25.00235,1.22562316,30.643459214426002,36.7136,0.7340255,26.94453,7.88,5.0,8.44,5.0,61.9,59.4
50.5,25.00216,1.23664374,30.9187646504784,37.08723,0.733974,27.22189,7.94,4.94,8.5,5.0,62.5,58.1
51.0,25.002012,1.24765903,31.193986039968358,37.4417,0.734006,27.48208,7.88,5.0,8.56,5.0,63.1,58.8
51.5,25.00179,1.25833804,31.460703425091598,37.80807,0.7339833,27.7541,7.88,5.0,8.44,5.0,62.5,59.4
52.0,25.001735,1.26906741,31.728887081956348,38.17504,0.7338378,28.0127,7.88,5.0,8.5,5.0,61.9,59.4
52.5,25.001603,1.27901137,31.97733450522611,38.51064,0.7336735,28.25534,7.94,5.0,8.5,5.0,61.9,58.8
53.0,25.001404,1.28995952,32.25079910316608,38.881,0.7336823,28.52212,7.81,5.0,8.5,5.0,61.9,58.1
53.5,25.001224,1.30174437,32.54520258510888,39.27678,0.7339402,28.82714,7.88,5.0,8.5,5.06,61.9,59.4
54.0,25.001131,1.31158895,32.79120715710245,39.61348,0.7338771,29.06888,7.88,5.0,8.44,5.0,61.3,58.1
54.5,25.001063,1.32243518,33.06228524859634,39.981,0.7332639,29.32074,7.88,5.0,8.5,5.06,61.9,58.8
55.0,25.000933,1.33313349,33.32958106354617,40.34544,0.7333494,29.58705,7.81,5.0,8.44,4.94,62.5,58.8
55.5,25.0004,1.34397601,33.599937840403996,40.71368,0.7331821,29.8539,7.81,5.0,8.44,5.0,62.5,58.1
56.0,25.000179,1.35393578,33.84863685450462,41.05286,0.7328759,30.0811,7.81,5.0,8.5,4.94,61.3,58.1
56.5,25.000783,1.36422368,34.106660187141436,41.41114,0.7327794,30.34252,7.81,5.0,8.5,5.0,61.3,58.8
57.0,25.000564,1.37461073,34.36604353045172,41.77024,0.7325156,30.59368,7.88,5.0,8.5,5.0,61.9,58.1
57.5,25.00079,1.38475238,34.61990345438019,42.11206,0.7323239,30.85402,7.81,5.0,8.5,5.06,61.9,58.1
58.0,25.000543,1.3951734,34.8800925791562,42.47532,0.7319441,31.09105,7.88,5.0,8.5,5.06,61.9,58.1
58.5,25.000605,1.4039752,35.100229404996,42.77276,0.7320435,31.30897,7.81,5.0,8.5,5.0,61.3,58.1
59.0,25.000624,1.41653222,35.41418941610527,43.20275,0.7319553,31.61391,7.81,5.0,8.5,5.0,61.3,58.8
59.5,25.000481,1.42616126,35.65471748356606,43.54721,0.7317208,31.85483,7.81,5.0,8.5,5.0,61.3,58.1
60.0,25.000806,1.43660346,35.91624440238876,43.90268,0.7316311,32.11517,7.81,5.0,8.44,5.0,61.3,58.1
60.5,25.002254,1.44601649,36.153671571168466,44.23804,0.7312903,32.34998,7.88,5.0,8.56,5.0,60.6,57.5
61.0,25.001059,1.45633388,36.409889257578925,44.60356,0.7307546,32.59893,7.88,5.0,8.56,5.06,61.3,58.1
61.5,25.002218,1.46660268,36.66831992474424,44.97077,0.7308946,32.86476,7.88,5.0,8.44,5.0,60.6,57.5
61.68502750680849,25.001309,1.47081822,36.77238080104998,45.11311,0.7307941,32.97032,7.88,5.0,8.44,5.0,61.3,57.5
62.0,25.001626,1.47695988,36.92639853676488,45.33226,0.7305802,33.12421,7.81,5.0,8.44,5.0,61.3,58.8
62.5,25.00161,1.48644866,37.163609682342596,45.6679,0.7305712,33.35822,7.81,5.0,8.44,4.94,61.3,57.5
63.0,25.001628,1.49603824,37.403391550254725,46.01627,0.7301343,33.60074,7.88,5.0,8.5,5.0,60.6,57.5
63.5,25.001633,1.50583853,37.64842228431949,46.35947,0.7299595,33.84008,7.88,5.0,8.5,5.0,60.0,57.5
64.0,25.001569,1.51592366,37.90046998422254,46.72836,0.7298566,34.10552,7.88,5.0,8.44,5.0,60.6,58.1
64.5,25.001575,1.52596583,38.15154914618225,47.08371,0.7297381,34.34878,7.81,5.0,8.5,5.0,60.6,57.5
65.0,25.00176,1.53521674,38.383120481462406,47.41772,0.7290848,34.57985,7.81,5.0,8.44,5.0,60.0,56.9
65.5,25.001771,1.54510958,38.63047588906618,47.77888,0.7289036,34.82686,7.88,5.0,8.44,5.0,61.3,56.9
66.0,25.003059,1.55421351,38.86009208912709,48.10941,0.7287122,35.05905,7.88,5.0,8.56,5.06,60.0,58.1
66.5,25.003161,1.56326318,39.08652097491198,48.43778,0.7280653,35.27351,7.88,5.0,8.44,5.06,60.0,56.9
67.0,25.003588,1.57088156,39.27767532303728,48.72607,0.7278845,35.46265,7.81,5.0,8.44,5.0,60.0,56.9
67.5,25.003435,1.5806657,39.5220720866795,49.08896,0.7270793,35.69254,7.88,5.0,8.44,5.0,60.0,56.9
68.0,25.003516,1.58942055,39.7411021526538,49.41508,0.7263938,35.90498,7.88,5.0,8.5,5.0,59.4,56.9
68.5,25.003442,1.5981156,39.9583907138952,49.73897,0.7260097,36.1119,7.88,5.06,8.56,5.0,59.4,56.3
69.0,25.003508,1.6054889,40.142854555061206,50.0224,0.7256436,36.30341,7.88,5.0,8.44,5.0,60.0,56.3
69.5,25.003537,1.61494996,40.37946107800852,50.38054,0.7249565,36.52509,7.88,5.0,8.5,5.06,59.4,56.9
70.0,25.003448,1.62443685,40.616522308258794,50.74325,0.7244869,36.7562,7.81,5.0,8.5,5.06,59.4,56.3
70.5,25.003711,1.63265006,40.82231026437266,51.06524,0.7240161,36.98481,7.81,5.0,8.5,5.06,58.8,56.9
71.0,25.003836,1.64026631,41.01294981156516,51.36327,0.723253,37.14006,7.88,5.0,8.5,5.0,58.8,56.9
71.5,25.004013,1.64776969,41.20085474976597,51.66691,0.7225735,37.33458,7.94,5.0,8.5,5.06,59.4,56.9
72.0,25.004059,1.65569882,41.39919098151038,51.98896,0.7217436,37.53192,7.81,5.0,8.5,5.06,59.4,56.3
72.5,25.004182,1.6613787,41.5414153857234,52.21501,0.7211701,37.66595,7.81,5.0,8.5,5.06,58.1,56.9
73.0,25.004675,1.67009233,41.760115931642744,52.57757,0.7202184,37.87026,7.81,5.0,8.56,5.0,58.8,56.3
73.5,25.004745,1.67772512,41.951088805694404,52.89427,0.719536,38.05939,7.81,5.0,8.56,5.0,58.1,56.3
74.0,25.005036,1.68521373,42.138829986344284,53.20958,0.718769,38.24564,7.81,5.0,8.5,5.06,58.1,56.9
74.5,25.0051,1.69171102,42.301403226202,53.48973,0.7179826,38.40336,7.81,5.0,8.63,5.06,57.5,56.3
