!--------------------------------------------------------------------------------------------------------								
!  *** S-Parameter ***								
!								
!  Copyright (C) Panasonic Industry								
!								
!  Conductive Polymer Aluminum Soild Capacitor (OS-CON)								
!								
!  Parts No. 50SVPF68M								
!--------------------------------------------------------------------------------------------------------								
!  Connection Mode : Series								
!								
!     1  o---||---o  2								
!								
!    GND o--------o GND								
!								
!  Conditions : Temperature = 20 degC   DC Bias = 0 V								
!								
!--------------------------------------------------------------------------------------------------------								
! Frequency Range : 100Hz  -  1GHz   [ 401 Steps ]								
!--------------------------------------------------------------------------------------------------------								
# Hz S RI R 50								
1.000000000000000E+02	6.241069068482950E-02	-2.319143931154640E-01	9.375893093151680E-01	2.319143931154630E-01	9.375893093151680E-01	2.319143931154630E-01	6.241069068482950E-02	-2.319143931154640E-01
1.041118107623340E+02	5.812720426828330E-02	-2.239769198232940E-01	9.418727957317190E-01	2.239769198232940E-01	9.418727957317190E-01	2.239769198232940E-01	5.812720426828330E-02	-2.239769198232940E-01
1.083926914021200E+02	5.412218522126250E-02	-2.162421703903600E-01	9.458778147787410E-01	2.162421703903610E-01	9.458778147787410E-01	2.162421703903610E-01	5.412218522126250E-02	-2.162421703903600E-01
1.128495937527760E+02	5.037936726961130E-02	-2.087118400128900E-01	9.496206327303920E-01	2.087118400128910E-01	9.496206327303920E-01	2.087118400128910E-01	5.037936726961130E-02	-2.087118400128900E-01
1.174897554939530E+02	4.688322625741530E-02	-2.013867218526300E-01	9.531167737425870E-01	2.013867218526310E-01	9.531167737425870E-01	2.013867218526310E-01	4.688322625741530E-02	-2.013867218526300E-01
1.223207119049930E+02	4.361897941275470E-02	-1.942668153100420E-01	9.563810205872440E-01	1.942668153100410E-01	9.563810205872440E-01	1.942668153100410E-01	4.361897941275470E-02	-1.942668153100420E-01
1.273503081016660E+02	4.057257679520380E-02	-1.873514247360000E-01	9.594274232047970E-01	1.873514247360010E-01	9.594274232047970E-01	1.873514247360010E-01	4.057257679520380E-02	-1.873514247360000E-01
1.325867117760560E+02	3.773068662204700E-02	-1.806392488064650E-01	9.622693133779560E-01	1.806392488064660E-01	9.622693133779560E-01	1.806392488064660E-01	3.773068662204700E-02	-1.806392488064650E-01
1.380384264602880E+02	3.508067596285900E-02	-1.741284609571520E-01	9.649193240371420E-01	1.741284609571520E-01	9.649193240371420E-01	1.741284609571520E-01	3.508067596285900E-02	-1.741284609571520E-01
1.437143053356390E+02	3.261058808340840E-02	-1.678167814021360E-01	9.673894119165940E-01	1.678167814021370E-01	9.673894119165940E-01	1.678167814021370E-01	3.261058808340840E-02	-1.678167814021360E-01
1.496235656094430E+02	3.030911751672440E-02	-1.617015413457360E-01	9.696908824832760E-01	1.617015413457360E-01	9.696908824832760E-01	1.617015413457360E-01	3.030911751672440E-02	-1.617015413457360E-01
1.557758034831600E+02	2.816558374721430E-02	-1.557797400458870E-01	9.718344162527820E-01	1.557797400458870E-01	9.718344162527820E-01	1.557797400458870E-01	2.816558374721430E-02	-1.557797400458870E-01
1.621810097358930E+02	2.616990421731410E-02	-1.500480954050290E-01	9.738300957826860E-01	1.500480954050290E-01	9.738300957826860E-01	1.500480954050290E-01	2.616990421731410E-02	-1.500480954050290E-01
1.688495859486750E+02	2.431256720835780E-02	-1.445030887569220E-01	9.756874327916420E-01	1.445030887569220E-01	9.756874327916420E-01	1.445030887569220E-01	2.431256720835780E-02	-1.445030887569220E-01
1.757923613958690E+02	2.258460500993600E-02	-1.391410044906210E-01	9.774153949900620E-01	1.391410044906210E-01	9.774153949900620E-01	1.391410044906210E-01	2.258460500993600E-02	-1.391410044906210E-01
1.830206106311060E+02	2.097756767557870E-02	-1.339579651113320E-01	9.790224323244220E-01	1.339579651113320E-01	9.790224323244220E-01	1.339579651113320E-01	2.097756767557870E-02	-1.339579651113320E-01
1.905460717963250E+02	1.948349756673530E-02	-1.289499622870370E-01	9.805165024332650E-01	1.289499622870370E-01	9.805165024332650E-01	1.289499622870370E-01	1.948349756673530E-02	-1.289499622870370E-01
1.983809656836510E+02	1.809490481056900E-02	-1.241128843740440E-01	9.819050951894320E-01	1.241128843740440E-01	9.819050951894320E-01	1.241128843740440E-01	1.809490481056900E-02	-1.241128843740440E-01
2.065380155810530E+02	1.680474373813200E-02	-1.194425408572580E-01	9.831952562618680E-01	1.194425408572580E-01	9.831952562618680E-01	1.194425408572580E-01	1.680474373813200E-02	-1.194425408572580E-01
2.150304679340260E+02	1.560639032594470E-02	-1.149346840850910E-01	9.843936096740580E-01	1.149346840850910E-01	9.843936096740580E-01	1.149346840850910E-01	1.560639032594470E-02	-1.149346840850910E-01
2.238721138568340E+02	1.449362063340290E-02	-1.105850286264000E-01	9.855063793666000E-01	1.105850286264000E-01	9.855063793666000E-01	1.105850286264000E-01	1.449362063340290E-02	-1.105850286264000E-01
2.330773115282640E+02	1.346059020842740E-02	-1.063892685290900E-01	9.865394097915740E-01	1.063892685290900E-01	9.865394097915740E-01	1.063892685290900E-01	1.346059020842740E-02	-1.063892685290900E-01
2.426610095082420E+02	1.250181442203230E-02	-1.023430927178270E-01	9.874981855779690E-01	1.023430927178270E-01	9.874981855779690E-01	1.023430927178270E-01	1.250181442203230E-02	-1.023430927178270E-01
2.526387710131900E+02	1.161214968694210E-02	-9.844219873189780E-02	9.883878503130560E-01	9.844219873189760E-02	9.883878503130560E-01	9.844219873189760E-02	1.161214968694210E-02	-9.844219873189780E-02
2.630267991895380E+02	1.078677551424970E-02	-9.468230497365730E-02	9.892132244857510E-01	9.468230497365740E-02	9.892132244857510E-01	9.468230497365740E-02	1.078677551424970E-02	-9.468230497365730E-02
2.738419634264360E+02	1.002117736380600E-02	-9.105916161262830E-02	9.899788226361930E-01	9.105916161262810E-02	9.899788226361930E-01	9.105916161262810E-02	1.002117736380600E-02	-9.105916161262830E-02
2.851018267503910E+02	9.311130247430210E-03	-8.756856026987110E-02	9.906888697525720E-01	8.756856026987130E-02	9.906888697525720E-01	8.756856026987130E-02	9.311130247430210E-03	-8.756856026987110E-02
2.968246743463240E+02	8.652683048127870E-03	-8.420634259080070E-02	9.913473169518730E-01	8.420634259080080E-02	9.913473169518730E-01	8.420634259080080E-02	8.652683048127870E-03	-8.420634259080070E-02
3.090295432513590E+02	8.042143522694010E-03	-8.096840780170230E-02	9.919578564773050E-01	8.096840780170220E-02	9.919578564773050E-01	8.096840780170220E-02	8.042143522694010E-03	-8.096840780170230E-02
3.217362532695600E+02	7.476063958884400E-03	-7.785071933500410E-02	9.925239360411120E-01	7.785071933500380E-02	9.925239360411120E-01	7.785071933500380E-02	7.476063958884400E-03	-7.785071933500410E-02
3.349654391578280E+02	6.951227461505080E-03	-7.484931060026560E-02	9.930487725384940E-01	7.484931060026550E-02	9.930487725384940E-01	7.484931060026550E-02	6.951227461505080E-03	-7.484931060026560E-02
3.487385841352190E+02	6.464634844206930E-03	-7.196028997137810E-02	9.935353651557900E-01	7.196028997137800E-02	9.935353651557900E-01	7.196028997137800E-02	6.464634844206930E-03	-7.196028997137810E-02
3.630780547701010E+02	6.013492105445470E-03	-6.917984505501610E-02	9.939865078945510E-01	6.917984505501570E-02	9.939865078945510E-01	6.917984505501570E-02	6.013492105445470E-03	-6.917984505501610E-02
3.780071373018110E+02	5.595198468092020E-03	-6.650424630070320E-02	9.944048015319120E-01	6.650424630070350E-02	9.944048015319120E-01	6.650424630070350E-02	5.595198468092020E-03	-6.650424630070320E-02
3.935500754557780E+02	5.207334962667660E-03	-6.392985000853580E-02	9.947926650373310E-01	6.392985000853570E-02	9.947926650373310E-01	6.392985000853570E-02	5.207334962667660E-03	-6.392985000853580E-02
4.097321098135420E+02	4.847653534300970E-03	-6.145310078652820E-02	9.951523464656940E-01	6.145310078652790E-02	9.951523464656940E-01	6.145310078652790E-02	4.847653534300970E-03	-6.145310078652820E-02
4.265795188015930E+02	4.514066653441920E-03	-5.907053350549220E-02	9.954859333465590E-01	5.907053350549230E-02	9.954859333465590E-01	5.907053350549230E-02	4.514066653441920E-03	-5.907053350549220E-02
4.441196613655890E+02	4.204637410282990E-03	-5.677877479534190E-02	9.957953625897160E-01	5.677877479534180E-02	9.957953625897160E-01	5.677877479534180E-02	4.204637410282990E-03	-5.677877479534190E-02
4.623810213992600E+02	3.917570072886680E-03	-5.457454412270120E-02	9.960824299271140E-01	5.457454412270120E-02	9.960824299271140E-01	5.457454412270120E-02	3.917570072886680E-03	-5.457454412270120E-02
4.813932540001450E+02	3.651201089314010E-03	-5.245465448568370E-02	9.963487989106850E-01	5.245465448568360E-02	9.963487989106850E-01	5.245465448568360E-02	3.651201089314010E-03	-5.245465448568370E-02
5.011872336272720E+02	3.403990514686260E-03	-5.041601275787220E-02	9.965960094853110E-01	5.041601275787210E-02	9.965960094853110E-01	5.041601275787210E-02	3.403990514686260E-03	-5.041601275787220E-02
5.217951042390020E+02	3.174513845123260E-03	-4.845561970990770E-02	9.968254861548800E-01	4.845561970990780E-02	9.968254861548800E-01	4.845561970990780E-02	3.174513845123260E-03	-4.845561970990770E-02
5.432503314924330E+02	2.961454241882620E-03	-4.657056973378830E-02	9.970385457581150E-01	4.657056973378820E-02	9.970385457581150E-01	4.657056973378820E-02	2.961454241882620E-03	-4.657056973378830E-02
5.655877570891540E+02	2.763595130733400E-03	-4.475805029216750E-02	9.972364048692710E-01	4.475805029216770E-02	9.972364048692710E-01	4.475805029216770E-02	2.763595130733400E-03	-4.475805029216750E-02
5.888436553555890E+02	2.579813163540030E-03	-4.301534111262190E-02	9.974201868364650E-01	4.301534111262210E-02	9.974201868364650E-01	4.301534111262210E-02	2.579813163540030E-03	-4.301534111262190E-02
6.130557921498210E+02	2.409071531094390E-03	-4.133981314516930E-02	9.975909284689090E-01	4.133981314516950E-02	9.975909284689090E-01	4.133981314516950E-02	2.409071531094390E-03	-4.133981314516930E-02
6.382634861905490E+02	2.250413618277030E-03	-3.972892730022490E-02	9.977495863817270E-01	3.972892730022510E-02	9.977495863817270E-01	3.972892730022510E-02	2.250413618277030E-03	-3.972892730022490E-02
6.645076729077800E+02	2.102956994505350E-03	-3.818023298369410E-02	9.978970430054950E-01	3.818023298369420E-02	9.978970430054950E-01	3.818023298369420E-02	2.102956994505350E-03	-3.818023298369410E-02
6.918309709189370E+02	1.965887734005590E-03	-3.669136644594870E-02	9.980341122659910E-01	3.669136644594860E-02	9.980341122659910E-01	3.669136644594860E-02	1.965887734005590E-03	-3.669136644594870E-02
7.202777512383410E+02	1.838455061603340E-03	-3.526004896189590E-02	9.981615449383970E-01	3.526004896189590E-02	9.981615449383970E-01	3.526004896189590E-02	1.838455061603340E-03	-3.526004896189590E-02
7.498942093324560E+02	1.719966320388650E-03	-3.388408486012720E-02	9.982800336796130E-01	3.388408486012730E-02	9.982800336796130E-01	3.388408486012730E-02	1.719966320388650E-03	-3.388408486012720E-02
7.807284401379070E+02	1.609782257726470E-03	-3.256135942004190E-02	9.983902177422750E-01	3.256135942004200E-02	9.983902177422750E-01	3.256135942004200E-02	1.609782257726470E-03	-3.256135942004190E-02
8.128305161641000E+02	1.507312625657680E-03	-3.128983665673680E-02	9.984926873743410E-01	3.128983665673670E-02	9.984926873743410E-01	3.128983665673670E-02	1.507312625657680E-03	-3.128983665673680E-02
8.462525688072700E+02	1.412012090813650E-03	-3.006755701419640E-02	9.985879879091890E-01	3.006755701419640E-02	9.985879879091890E-01	3.006755701419640E-02	1.412012090813650E-03	-3.006755701419640E-02
8.810488730080140E+02	1.323376447631540E-03	-2.889263498775930E-02	9.986766235523720E-01	2.889263498775940E-02	9.986766235523720E-01	2.889263498775940E-02	1.323376447631540E-03	-2.889263498775930E-02
9.172759353897800E+02	1.240939127023460E-03	-2.776325669691560E-02	9.987590608729800E-01	2.776325669691570E-02	9.987590608729800E-01	2.776325669691570E-02	1.240939127023460E-03	-2.776325669691560E-02
9.549925860214360E+02	1.164267990847270E-03	-2.667767742909630E-02	9.988357320091570E-01	2.667767742909640E-02	9.988357320091570E-01	2.667767742909640E-02	1.164267990847270E-03	-2.667767742909630E-02
9.942600739529570E+02	1.092962400690780E-03	-2.563421917429310E-02	9.989070375993100E-01	2.563421917429320E-02	9.989070375993100E-01	2.563421917429320E-02	1.092962400690780E-03	-2.563421917429310E-02
1.035142166679340E+03	1.026650547742380E-03	-2.463126816907880E-02	9.989733494522620E-01	2.463126816907890E-02	9.989733494522620E-01	2.463126816907890E-02	1.026650547742380E-03	-2.463126816907880E-02
1.077705253694320E+03	9.649870289902730E-04	-2.366727246692270E-02	9.990350129710060E-01	2.366727246692260E-02	9.990350129710060E-01	2.366727246692260E-02	9.649870289902730E-04	-2.366727246692270E-02
1.122018454301960E+03	9.076506537639200E-04	-2.274073954976270E-02	9.990923493462330E-01	2.274073954976260E-02	9.990923493462330E-01	2.274073954976260E-02	9.076506537639200E-04	-2.274073954976270E-02
1.168153729861330E+03	8.543424637579600E-04	-2.185023399359790E-02	9.991456575362460E-01	2.185023399359790E-02	9.991456575362460E-01	2.185023399359790E-02	8.543424637579600E-04	-2.185023399359790E-02
1.216186000646370E+03	8.047839491963180E-04	-2.099437519860610E-02	9.991952160508010E-01	2.099437519860610E-02	9.991952160508010E-01	2.099437519860610E-02	8.047839491963180E-04	-2.099437519860610E-02
1.266193267510940E+03	7.587154436996860E-04	-2.017183519199100E-02	9.992412845562960E-01	2.017183519199090E-02	9.992412845562960E-01	2.017183519199090E-02	7.587154436996860E-04	-2.017183519199100E-02
1.318256738556410E+03	7.158946806916180E-04	-1.938133650955010E-02	9.992841053193130E-01	1.938133650955010E-02	9.992841053193130E-01	1.938133650955010E-02	7.158946806916180E-04	-1.938133650955010E-02
1.372460961007560E+03	6.760954947746690E-04	-1.862165015990670E-02	9.993239045052300E-01	1.862165015990670E-02	9.993239045052300E-01	1.862165015990670E-02	6.760954947746690E-04	-1.862165015990670E-02
1.428893958511100E+03	6.391066523717480E-04	-1.789159367349460E-02	9.993608933476240E-01	1.789159367349450E-02	9.993608933476240E-01	1.789159367349450E-02	6.391066523717480E-04	-1.789159367349460E-02
1.487647374079500E+03	6.047307969958330E-04	-1.719002923678550E-02	9.993952692030020E-01	1.719002923678550E-02	9.993952692030020E-01	1.719002923678550E-02	6.047307969958330E-04	-1.719002923678550E-02
1.548816618912480E+03	5.727834957204310E-04	-1.651586191091870E-02	9.994272165042790E-01	1.651586191091870E-02	9.994272165042790E-01	1.651586191091870E-02	5.727834957204310E-04	-1.651586191091870E-02
1.612501027337740E+03	5.430923747089950E-04	-1.586803793283720E-02	9.994569076252870E-01	1.586803793283710E-02	9.994569076252870E-01	1.586803793283710E-02	5.430923747089950E-04	-1.586803793283720E-02
1.678804018122560E+03	5.154963329692720E-04	-1.524554309622670E-02	9.994845036670330E-01	1.524554309622670E-02	9.994845036670330E-01	1.524554309622670E-02	5.154963329692720E-04	-1.524554309622670E-02
1.747833262418220E+03	4.898448247802390E-04	-1.464740120900320E-02	9.995101551752200E-01	1.464740120900320E-02	9.995101551752200E-01	1.464740120900320E-02	4.898448247802390E-04	-1.464740120900320E-02
1.819700858609980E+03	4.659972024558810E-04	-1.407267262374700E-02	9.995340027975440E-01	1.407267262374700E-02	9.995340027975440E-01	1.407267262374700E-02	4.659972024558810E-04	-1.407267262374700E-02
1.894523514356590E+03	4.438221122328920E-04	-1.352045283731290E-02	9.995561778877720E-01	1.352045283731300E-02	9.995561778877720E-01	1.352045283731300E-02	4.438221122328920E-04	-1.352045283731290E-02
1.972422736114850E+03	4.231969370796250E-04	-1.298987115583020E-02	9.995768030629150E-01	1.298987115583020E-02	9.995768030629150E-01	1.298987115583020E-02	4.231969370796250E-04	-1.298987115583020E-02
2.053525026457150E+03	4.040072811095630E-04	-1.248008942139910E-02	9.995959927188950E-01	1.248008942139910E-02	9.995959927188950E-01	1.248008942139910E-02	4.040072811095630E-04	-1.248008942139910E-02
2.137962089502230E+03	3.861464910405680E-04	-1.199030079695370E-02	9.996138535089600E-01	1.199030079695370E-02	9.996138535089600E-01	1.199030079695370E-02	3.861464910405680E-04	-1.199030079695370E-02
2.225871044793010E+03	3.695152107749860E-04	-1.151972860599680E-02	9.996304847892210E-01	1.151972860599680E-02	9.996304847892210E-01	1.151972860599680E-02	3.695152107749860E-04	-1.151972860599680E-02
2.317394649968480E+03	3.540209656908100E-04	-1.106762522414220E-02	9.996459790343100E-01	1.106762522414220E-02	9.996459790343100E-01	1.106762522414220E-02	3.540209656908100E-04	-1.106762522414220E-02
2.412681532591640E+03	3.395777736438400E-04	-1.063327101965720E-02	9.996604222263550E-01	1.063327101965710E-02	9.996604222263550E-01	1.063327101965710E-02	3.395777736438400E-04	-1.063327101965720E-02
2.511886431509580E+03	3.261057799980790E-04	-1.021597334042500E-02	9.996738942200060E-01	1.021597334042500E-02	9.996738942200060E-01	1.021597334042500E-02	3.261057799980790E-04	-1.021597334042500E-02
2.615170448138000E+03	3.135309142428580E-04	-9.815065544944930E-03	9.996864690857580E-01	9.815065544944930E-03	9.996864690857580E-01	9.815065544944930E-03	3.135309142428580E-04	-9.815065544944930E-03
2.722701308077910E+03	3.017845659380720E-04	-9.429906075153650E-03	9.996982154340620E-01	9.429906075153660E-03	9.996982154340620E-01	9.429906075153660E-03	3.017845659380720E-04	-9.429906075153650E-03
2.834653633489670E+03	2.908032778702520E-04	-9.059877568958710E-03	9.997091967221320E-01	9.059877568958740E-03	9.997091967221320E-01	9.059877568958740E-03	2.908032778702520E-04	-9.059877568958710E-03
2.951209226666390E+03	2.805284544206530E-04	-8.704386010454770E-03	9.997194715455770E-01	8.704386010454750E-03	9.997194715455770E-01	8.704386010454750E-03	2.805284544206530E-04	-8.704386010454770E-03
3.072557365267450E+03	2.709060832570700E-04	-8.362859915808380E-03	9.997290939167410E-01	8.362859915808360E-03	9.997290939167410E-01	8.362859915808360E-03	2.709060832570700E-04	-8.362859915808380E-03
3.198895109691400E+03	2.618864685797980E-04	-8.034749552790700E-03	9.997381135314180E-01	8.034749552790670E-03	9.997381135314180E-01	8.034749552790670E-03	2.618864685797980E-04	-8.034749552790700E-03
3.330427623087460E+03	2.534239742902110E-04	-7.719526191893740E-03	9.997465760257110E-01	7.719526191893750E-03	9.997465760257110E-01	7.719526191893750E-03	2.534239742902110E-04	-7.719526191893740E-03
3.467368504525320E+03	2.454767756178780E-04	-7.416681386909970E-03	9.997545232243870E-01	7.416681386910010E-03	9.997545232243870E-01	7.416681386910010E-03	2.454767756178780E-04	-7.416681386909970E-03
3.609940135864170E+03	2.380066179435250E-04	-7.125726282793770E-03	9.997619933820580E-01	7.125726282793790E-03	9.997619933820580E-01	7.125726282793790E-03	2.380066179435250E-04	-7.125726282793770E-03
3.758374042884440E+03	2.309785817923160E-04	-6.846190948576720E-03	9.997690214182040E-01	6.846190948576690E-03	9.997690214182040E-01	6.846190948576690E-03	2.309785817923160E-04	-6.846190948576720E-03
3.912911271268530E+03	2.243608532411130E-04	-6.577623733085620E-03	9.997756391467580E-01	6.577623733085600E-03	9.997756391467580E-01	6.577623733085600E-03	2.243608532411130E-04	-6.577623733085620E-03
4.073802778041130E+03	2.181244992773620E-04	-6.319590641234910E-03	9.997818755007260E-01	6.319590641234930E-03	9.997818755007260E-01	6.319590641234930E-03	2.181244992773620E-04	-6.319590641234910E-03
4.241309839104890E+03	2.122432479541570E-04	-6.071674728730360E-03	9.997877567520480E-01	6.071674728730370E-03	9.997877567520480E-01	6.071674728730370E-03	2.122432479541570E-04	-6.071674728730360E-03
4.415704473533130E+03	2.066932734918240E-04	-5.833475513150550E-03	9.997933067265070E-01	5.833475513150540E-03	9.997933067265070E-01	5.833475513150540E-03	2.066932734918240E-04	-5.833475513150550E-03
