!Keysight Technologies,E5063A,MY54100949,A.07.30
!Date: Sun Dec 21 04:15:41 2025
!Data & Calibration Information:
!Freq	S11:SOLT2(ON)	S21:SOLT2(ON)	S12:SOLT2(ON)	S22:SOLT2(ON)
# Hz S RI R 50
1000000.000	1.000152e+000	-8.739244e-002	1.278049e-004	1.324105e-003	1.169770e-004	1.338965e-003	1.000198e+000	-8.933652e-002
1000900.000	9.976659e-001	-8.715850e-002	1.163326e-004	1.331417e-003	1.037666e-004	1.346821e-003	9.982397e-001	-8.924435e-002
1001800.000	9.974457e-001	-8.714589e-002	1.107072e-004	1.331825e-003	1.133947e-004	1.325414e-003	9.976729e-001	-8.899527e-002
1002700.000	9.971476e-001	-8.714574e-002	1.233785e-004	1.343412e-003	1.077000e-004	1.346501e-003	9.971997e-001	-8.915019e-002
1003600.000	9.971779e-001	-8.732712e-002	1.167420e-004	1.339974e-003	1.071954e-004	1.340549e-003	9.971695e-001	-8.904697e-002
1004500.000	9.972510e-001	-8.751882e-002	1.139478e-004	1.354540e-003	1.081329e-004	1.348631e-003	9.971637e-001	-8.923937e-002
1005400.000	9.972726e-001	-8.754394e-002	1.221354e-004	1.345855e-003	1.029691e-004	1.349078e-003	9.970719e-001	-8.927073e-002
1006300.000	9.974380e-001	-8.758935e-002	1.133072e-004	1.355963e-003	1.195340e-004	1.359648e-003	9.972791e-001	-8.933715e-002
1007200.000	9.975663e-001	-8.762786e-002	1.154025e-004	1.344806e-003	9.446215e-005	1.362202e-003	9.972259e-001	-8.966222e-002
1008100.000	9.975664e-001	-8.798632e-002	1.160979e-004	1.355594e-003	1.177777e-004	1.362088e-003	9.971992e-001	-8.976748e-002
1009000.000	9.973837e-001	-8.805812e-002	1.168074e-004	1.352215e-003	1.228652e-004	1.351630e-003	9.972581e-001	-8.971148e-002
1009900.000	9.974993e-001	-8.796778e-002	1.137348e-004	1.359372e-003	1.181433e-004	1.357329e-003	9.971223e-001	-8.989166e-002
1010800.000	9.975694e-001	-8.818568e-002	1.099851e-004	1.357493e-003	1.177224e-004	1.357177e-003	9.973362e-001	-8.999278e-002
1011700.000	9.975978e-001	-8.844895e-002	1.128752e-004	1.366127e-003	1.355505e-004	1.362701e-003	9.970272e-001	-9.007945e-002
1012600.000	9.973607e-001	-8.835294e-002	1.193882e-004	1.365051e-003	1.284997e-004	1.351729e-003	9.972430e-001	-9.023537e-002
1013500.000	9.975147e-001	-8.844019e-002	1.226443e-004	1.373560e-003	1.232991e-004	1.370257e-003	9.970572e-001	-9.014634e-002
1014400.000	9.973606e-001	-8.846474e-002	1.230475e-004	1.365608e-003	1.104428e-004	1.364974e-003	9.971351e-001	-9.050671e-002
1015300.000	9.974421e-001	-8.866411e-002	1.056142e-004	1.375197e-003	1.141015e-004	1.374822e-003	9.971883e-001	-9.048442e-002
1016200.000	9.973525e-001	-8.861014e-002	1.195210e-004	1.368309e-003	1.142323e-004	1.371574e-003	9.970376e-001	-9.061198e-002
1017100.000	9.975168e-001	-8.871464e-002	1.251608e-004	1.367802e-003	1.257129e-004	1.380047e-003	9.971753e-001	-9.059432e-002
1018000.000	9.976065e-001	-8.889941e-002	1.317109e-004	1.386309e-003	1.178013e-004	1.375601e-003	9.971525e-001	-9.057760e-002
1018900.000	9.974070e-001	-8.904166e-002	1.219724e-004	1.381359e-003	1.255970e-004	1.382357e-003	9.971759e-001	-9.086530e-002
1019800.000	9.974487e-001	-8.894121e-002	1.202513e-004	1.378719e-003	1.184318e-004	1.379221e-003	9.970824e-001	-9.076882e-002
1020700.000	9.972076e-001	-8.886029e-002	1.132782e-004	1.384194e-003	1.217956e-004	1.384705e-003	9.971055e-001	-9.110587e-002
1021600.000	9.973244e-001	-8.908890e-002	1.186864e-004	1.382585e-003	1.230065e-004	1.380485e-003	9.971723e-001	-9.107053e-002
1022500.000	9.972328e-001	-8.916148e-002	1.301842e-004	1.381202e-003	1.230252e-004	1.386393e-003	9.971459e-001	-9.118150e-002
1023400.000	9.974921e-001	-8.907610e-002	1.247449e-004	1.389721e-003	1.142118e-004	1.388920e-003	9.973163e-001	-9.123433e-002
1024300.000	9.973039e-001	-8.920972e-002	1.192832e-004	1.389343e-003	1.208227e-004	1.406039e-003	9.970649e-001	-9.123109e-002
1025200.000	9.972469e-001	-8.933355e-002	1.197349e-004	1.389297e-003	1.224275e-004	1.386184e-003	9.971080e-001	-9.154006e-002
1026100.000	9.971153e-001	-8.942898e-002	1.214571e-004	1.389828e-003	1.165403e-004	1.406836e-003	9.970104e-001	-9.140230e-002
1027000.000	9.971321e-001	-8.938764e-002	1.167799e-004	1.394756e-003	1.234661e-004	1.393893e-003	9.970367e-001	-9.140495e-002
1027900.000	9.971641e-001	-8.962073e-002	1.140155e-004	1.398137e-003	1.211773e-004	1.394639e-003	9.971261e-001	-9.159278e-002
1028800.000	9.972604e-001	-8.975703e-002	1.253684e-004	1.401759e-003	1.182538e-004	1.397606e-003	9.971189e-001	-9.161701e-002
1029700.000	9.970845e-001	-8.980686e-002	1.284992e-004	1.419436e-003	1.260706e-004	1.423569e-003	9.969291e-001	-9.179757e-002
1030600.000	9.974688e-001	-8.979236e-002	1.155606e-004	1.405388e-003	1.141628e-004	1.399548e-003	9.970031e-001	-9.184479e-002
1031500.000	9.972294e-001	-8.981411e-002	1.183001e-004	1.411471e-003	1.197282e-004	1.400945e-003	9.969901e-001	-9.197244e-002
1032400.000	9.970443e-001	-8.998996e-002	1.246497e-004	1.416748e-003	1.248310e-004	1.420674e-003	9.971852e-001	-9.207997e-002
1033300.000	9.970088e-001	-9.010511e-002	1.477690e-004	1.416109e-003	1.139219e-004	1.414086e-003	9.969509e-001	-9.216374e-002
1034200.000	9.970930e-001	-9.032829e-002	1.208451e-004	1.417525e-003	1.245829e-004	1.424391e-003	9.970482e-001	-9.217148e-002
1035100.000	9.970607e-001	-9.022556e-002	1.175658e-004	1.425919e-003	1.315914e-004	1.419062e-003	9.969905e-001	-9.225403e-002
1036000.000	9.971763e-001	-9.024212e-002	1.338164e-004	1.419717e-003	1.299963e-004	1.416709e-003	9.969980e-001	-9.245750e-002
1036900.000	9.970775e-001	-9.034582e-002	1.316505e-004	1.427455e-003	1.264038e-004	1.426852e-003	9.970440e-001	-9.230486e-002
1037800.000	9.971641e-001	-9.058241e-002	1.335196e-004	1.429462e-003	1.169061e-004	1.420482e-003	9.970356e-001	-9.248727e-002
1038700.000	9.970708e-001	-9.044947e-002	1.279411e-004	1.434004e-003	1.354372e-004	1.416672e-003	9.971113e-001	-9.261594e-002
1039600.000	9.971135e-001	-9.064049e-002	1.269473e-004	1.419728e-003	1.182084e-004	1.437943e-003	9.969107e-001	-9.252458e-002
1040500.000	9.970728e-001	-9.084038e-002	1.349892e-004	1.430379e-003	1.299948e-004	1.424564e-003	9.968924e-001	-9.277466e-002
1041400.000	9.970039e-001	-9.083368e-002	1.325566e-004	1.431166e-003	1.339782e-004	1.442362e-003	9.968601e-001	-9.281348e-002
1042300.000	9.972295e-001	-9.082952e-002	1.353820e-004	1.434289e-003	1.406610e-004	1.435940e-003	9.967001e-001	-9.287262e-002
1043200.000	9.969296e-001	-9.085702e-002	1.304790e-004	1.444999e-003	1.188771e-004	1.438681e-003	9.968558e-001	-9.290814e-002
1044100.000	9.972118e-001	-9.112002e-002	1.145684e-004	1.435731e-003	1.362276e-004	1.443217e-003	9.969894e-001	-9.306582e-002
1045000.000	9.969095e-001	-9.115643e-002	1.328640e-004	1.449005e-003	1.376124e-004	1.443127e-003	9.968158e-001	-9.338074e-002
1045900.000	9.969680e-001	-9.102949e-002	1.184553e-004	1.444042e-003	1.355138e-004	1.439125e-003	9.967372e-001	-9.312340e-002
1046800.000	9.970440e-001	-9.123840e-002	1.244283e-004	1.445922e-003	1.267817e-004	1.443328e-003	9.969199e-001	-9.333697e-002
1047700.000	9.971952e-001	-9.128651e-002	1.304390e-004	1.448160e-003	1.306428e-004	1.445477e-003	9.968205e-001	-9.349833e-002
1048600.000	9.968442e-001	-9.130361e-002	1.335218e-004	1.452878e-003	1.241176e-004	1.442686e-003	9.966903e-001	-9.350195e-002
1049500.000	9.971753e-001	-9.145001e-002	1.313558e-004	1.456964e-003	1.310608e-004	1.451833e-003	9.968857e-001	-9.369619e-002
1050400.000	9.968490e-001	-9.155332e-002	1.388024e-004	1.454828e-003	1.339283e-004	1.456349e-003	9.968825e-001	-9.375216e-002
1051300.000	9.970403e-001	-9.148281e-002	1.427646e-004	1.463402e-003	1.237218e-004	1.470168e-003	9.968502e-001	-9.365181e-002
1052200.000	9.970491e-001	-9.172685e-002	1.266361e-004	1.457737e-003	1.356508e-004	1.460959e-003	9.967510e-001	-9.379328e-002
1053100.000	9.970213e-001	-9.179827e-002	1.271653e-004	1.467475e-003	1.235431e-004	1.465371e-003	9.967997e-001	-9.388317e-002
1054000.000	9.969834e-001	-9.191601e-002	1.398589e-004	1.463299e-003	1.343193e-004	1.466679e-003	9.968438e-001	-9.395533e-002
1054900.000	9.968081e-001	-9.184853e-002	1.214439e-004	1.482275e-003	1.387394e-004	1.470336e-003	9.966106e-001	-9.394816e-002
1055800.000	9.968227e-001	-9.202163e-002	1.376204e-004	1.474045e-003	1.235430e-004	1.479633e-003	9.967333e-001	-9.412901e-002
1056700.000	9.968911e-001	-9.210145e-002	1.318097e-004	1.475825e-003	1.327899e-004	1.470898e-003	9.968432e-001	-9.419756e-002
1057600.000	9.970503e-001	-9.213584e-002	1.382791e-004	1.483448e-003	1.311196e-004	1.481552e-003	9.968011e-001	-9.423808e-002
1058500.000	9.969002e-001	-9.222803e-002	1.332327e-004	1.472179e-003	1.327900e-004	1.480246e-003	9.966928e-001	-9.426727e-002
1059400.000	9.969555e-001	-9.247210e-002	1.392564e-004	1.480635e-003	1.090723e-004	1.483609e-003	9.966324e-001	-9.429130e-002
1060300.000	9.973045e-001	-9.238240e-002	1.367634e-004	1.495227e-003	1.399288e-004	1.497670e-003	9.969406e-001	-9.455835e-002
1061200.000	9.970598e-001	-9.239135e-002	1.446552e-004	1.483864e-003	1.234026e-004	1.476115e-003	9.968127e-001	-9.463025e-002
1062100.000	9.970556e-001	-9.246600e-002	1.295725e-004	1.497229e-003	1.395890e-004	1.483624e-003	9.966485e-001	-9.478235e-002
1063000.000	9.968298e-001	-9.259008e-002	1.347791e-004	1.485929e-003	1.399498e-004	1.489360e-003	9.966426e-001	-9.468642e-002
1063900.000	9.969234e-001	-9.295474e-002	1.288060e-004	1.481012e-003	1.451025e-004	1.489010e-003	9.966232e-001	-9.493206e-002
1064800.000	9.969937e-001	-9.291633e-002	1.299405e-004	1.493856e-003	1.318540e-004	1.499207e-003	9.965864e-001	-9.486599e-002
1065700.000	9.968807e-001	-9.277296e-002	1.410507e-004	1.505440e-003	1.357658e-004	1.489596e-003	9.967569e-001	-9.502435e-002
1066600.000	9.967016e-001	-9.299782e-002	1.349163e-004	1.507464e-003	1.449652e-004	1.501741e-003	9.966948e-001	-9.520513e-002
1067500.000	9.968691e-001	-9.323492e-002	1.431168e-004	1.497139e-003	1.321243e-004	1.503127e-003	9.965893e-001	-9.527797e-002
1068400.000	9.968496e-001	-9.313083e-002	1.360854e-004	1.496039e-003	1.361929e-004	1.504458e-003	9.965332e-001	-9.531692e-002
1069300.000	9.968503e-001	-9.331274e-002	1.380214e-004	1.497799e-003	1.427694e-004	1.524433e-003	9.965812e-001	-9.546130e-002
1070200.000	9.967353e-001	-9.340719e-002	1.433760e-004	1.500731e-003	1.378698e-004	1.512223e-003	9.967967e-001	-9.552398e-002
1071100.000	9.967364e-001	-9.332921e-002	1.381117e-004	1.509899e-003	1.372955e-004	1.518922e-003	9.965027e-001	-9.549715e-002
1072000.000	9.968328e-001	-9.358148e-002	1.415800e-004	1.509549e-003	1.523339e-004	1.513495e-003	9.965441e-001	-9.577306e-002
1072900.000	9.969464e-001	-9.370292e-002	1.467484e-004	1.510838e-003	1.392227e-004	1.522026e-003	9.966911e-001	-9.584105e-002
1073800.000	9.969095e-001	-9.363023e-002	1.431702e-004	1.516675e-003	1.456806e-004	1.518133e-003	9.965472e-001	-9.569986e-002
1074700.000	9.966146e-001	-9.381993e-002	1.328381e-004	1.511728e-003	1.505584e-004	1.524148e-003	9.965813e-001	-9.594965e-002
1075600.000	9.968050e-001	-9.381544e-002	1.508966e-004	1.519834e-003	1.409244e-004	1.514465e-003	9.965240e-001	-9.590429e-002
1076500.000	9.969310e-001	-9.368851e-002	1.456027e-004	1.520802e-003	1.364368e-004	1.524131e-003	9.965803e-001	-9.604211e-002
1077400.000	9.968277e-001	-9.395449e-002	1.430270e-004	1.519598e-003	1.513481e-004	1.523933e-003	9.965143e-001	-9.610387e-002
1078300.000	9.965888e-001	-9.412368e-002	1.553833e-004	1.527500e-003	1.330159e-004	1.530852e-003	9.965261e-001	-9.619111e-002
1079200.000	9.966201e-001	-9.423268e-002	1.461554e-004	1.526403e-003	1.356414e-004	1.545734e-003	9.966781e-001	-9.632652e-002
1080100.000	9.967716e-001	-9.435022e-002	1.509332e-004	1.537931e-003	1.349152e-004	1.527845e-003	9.967242e-001	-9.641473e-002
1081000.000	9.966718e-001	-9.447849e-002	1.420338e-004	1.534046e-003	1.306117e-004	1.538516e-003	9.967327e-001	-9.642161e-002
1081900.000	9.967331e-001	-9.440574e-002	1.454887e-004	1.540445e-003	1.472779e-004	1.556463e-003	9.965815e-001	-9.666936e-002
1082800.000	9.967851e-001	-9.462610e-002	1.409240e-004	1.545529e-003	1.435150e-004	1.537521e-003	9.965450e-001	-9.661653e-002
1083700.000	9.966163e-001	-9.466603e-002	1.584620e-004	1.549787e-003	1.416145e-004	1.549650e-003	9.964276e-001	-9.670505e-002
1084600.000	9.965996e-001	-9.468134e-002	1.467447e-004	1.537641e-003	1.362659e-004	1.539048e-003	9.965262e-001	-9.691427e-002
1085500.000	9.964211e-001	-9.460597e-002	1.455712e-004	1.537027e-003	1.486298e-004	1.565295e-003	9.965836e-001	-9.703940e-002
1086400.000	9.966211e-001	-9.477479e-002	1.420965e-004	1.554628e-003	1.463852e-004	1.553244e-003	9.965489e-001	-9.689112e-002
1087300.000	9.967861e-001	-9.485557e-002	1.487177e-004	1.557504e-003	1.468190e-004	1.563993e-003	9.965095e-001	-9.717151e-002
1088200.000	9.966314e-001	-9.492494e-002	1.555487e-004	1.553204e-003	1.410391e-004	1.558514e-003	9.965671e-001	-9.722210e-002
1089100.000	9.966625e-001	-9.491755e-002	1.378131e-004	1.563031e-003	1.580006e-004	1.558435e-003	9.965994e-001	-9.728269e-002
1090000.000	9.965930e-001	-9.518818e-002	1.470177e-004	1.559637e-003	1.426005e-004	1.562603e-003	9.965872e-001	-9.723556e-002
1090900.000	9.965957e-001	-9.517547e-002	1.560497e-004	1.560783e-003	1.477685e-004	1.570515e-003	9.963721e-001	-9.733366e-002
1091800.000	9.965445e-001	-9.518231e-002	1.503342e-004	1.564821e-003	1.508213e-004	1.559978e-003	9.965268e-001	-9.750104e-002
1092700.000	9.965195e-001	-9.547336e-002	1.605241e-004	1.573570e-003	1.473610e-004	1.576097e-003	9.965387e-001	-9.771808e-002
1093600.000	9.967691e-001	-9.538053e-002	1.384754e-004	1.572520e-003	1.503596e-004	1.569127e-003	9.965026e-001	-9.781468e-002
1094500.000	9.966131e-001	-9.560300e-002	1.522348e-004	1.557456e-003	1.483378e-004	1.569899e-003	9.963631e-001	-9.773843e-002
1095400.000	9.965478e-001	-9.557155e-002	1.532115e-004	1.568046e-003	1.404697e-004	1.576918e-003	9.963488e-001	-9.777628e-002
1096300.000	9.964687e-001	-9.564764e-002	1.599316e-004	1.571278e-003	1.536287e-004	1.575951e-003	9.963034e-001	-9.781519e-002
1097200.000	9.965653e-001	-9.570519e-002	1.501054e-004	1.574026e-003	1.342145e-004	1.575637e-003	9.964971e-001	-9.793615e-002
1098100.000	9.963779e-001	-9.590154e-002	1.508013e-004	1.587390e-003	1.341638e-004	1.592650e-003	9.965270e-001	-9.815815e-002
1099000.000	9.964734e-001	-9.609414e-002	1.522379e-004	1.582900e-003	1.440545e-004	1.583286e-003	9.964478e-001	-9.812110e-002
1099900.000	9.965959e-001	-9.610870e-002	1.444027e-004	1.593094e-003	1.405125e-004	1.580525e-003	9.963126e-001	-9.824724e-002
1100800.000	9.963832e-001	-9.615231e-002	1.538193e-004	1.588088e-003	1.505586e-004	1.583896e-003	9.963933e-001	-9.842434e-002
1101700.000	9.964305e-001	-9.614723e-002	1.504788e-004	1.594413e-003	1.513292e-004	1.579533e-003	9.962081e-001	-9.844880e-002
1102600.000	9.965175e-001	-9.629355e-002	1.650967e-004	1.590745e-003	1.439240e-004	1.594457e-003	9.962833e-001	-9.838854e-002
1103500.000	9.965230e-001	-9.632182e-002	1.442916e-004	1.597060e-003	1.619225e-004	1.601650e-003	9.961666e-001	-9.862099e-002
1104400.000	9.966053e-001	-9.647964e-002	1.543932e-004	1.593650e-003	1.544554e-004	1.604484e-003	9.965179e-001	-9.867222e-002
1105300.000	9.964160e-001	-9.648584e-002	1.486859e-004	1.600423e-003	1.499179e-004	1.606137e-003	9.962456e-001	-9.872295e-002
1106200.000	9.963660e-001	-9.650332e-002	1.620952e-004	1.592591e-003	1.600701e-004	1.608139e-003	9.963909e-001	-9.896457e-002
1107100.000	9.964497e-001	-9.674004e-002	1.701899e-004	1.603465e-003	1.520104e-004	1.611118e-003	9.964169e-001	-9.881060e-002
1108000.000	9.962860e-001	-9.682064e-002	1.522696e-004	1.616387e-003	1.707556e-004	1.613351e-003	9.962465e-001	-9.906340e-002
1108900.000	9.963871e-001	-9.676281e-002	1.566376e-004	1.600762e-003	1.476700e-004	1.622728e-003	9.963392e-001	-9.916753e-002
1109800.000	9.964369e-001	-9.694518e-002	1.454497e-004	1.610369e-003	1.502973e-004	1.637237e-003	9.964383e-001	-9.919161e-002
1110700.000	9.964532e-001	-9.697374e-002	1.588904e-004	1.619020e-003	1.589052e-004	1.636570e-003	9.962831e-001	-9.919704e-002
1111600.000	9.964720e-001	-9.710399e-002	1.417211e-004	1.610867e-003	1.584698e-004	1.617424e-003	9.961997e-001	-9.932149e-002
1112500.000	9.964411e-001	-9.721545e-002	1.569866e-004	1.624691e-003	1.640329e-004	1.612660e-003	9.964474e-001	-9.929943e-002
1113400.000	9.966023e-001	-9.724825e-002	1.632274e-004	1.616232e-003	1.495990e-004	1.630554e-003	9.963886e-001	-9.945947e-002
1114300.000	9.964927e-001	-9.744260e-002	1.583431e-004	1.624905e-003	1.518358e-004	1.644593e-003	9.962895e-001	-9.946307e-002
1115200.000	9.963674e-001	-9.753868e-002	1.455924e-004	1.632275e-003	1.469386e-004	1.625578e-003	9.962503e-001	-9.978299e-002
1116100.000	9.965138e-001	-9.749562e-002	1.485170e-004	1.621142e-003	1.532167e-004	1.644799e-003	9.960952e-001	-9.966058e-002
1117000.000	9.962874e-001	-9.750217e-002	1.564406e-004	1.646098e-003	1.596007e-004	1.629463e-003	9.961666e-001	-9.991133e-002
1117900.000	9.963619e-001	-9.755282e-002	1.551746e-004	1.623998e-003	1.561347e-004	1.651134e-003	9.963414e-001	-9.987255e-002
1118800.000	9.963278e-001	-9.778057e-002	1.668568e-004	1.635143e-003	1.548916e-004	1.639330e-003	9.964188e-001	-1.000939e-001
1119700.000	9.965166e-001	-9.785374e-002	1.529651e-004	1.636391e-003	1.711821e-004	1.641109e-003	9.962603e-001	-1.000846e-001
1120600.000	9.964169e-001	-9.799319e-002	1.567455e-004	1.658005e-003	1.604051e-004	1.633376e-003	9.962560e-001	-1.002051e-001
1121500.000	9.963953e-001	-9.804341e-002	1.471271e-004	1.634493e-003	1.580831e-004	1.662515e-003	9.961352e-001	-1.002391e-001
1122400.000	9.962697e-001	-9.815899e-002	1.489758e-004	1.635324e-003	1.692531e-004	1.657672e-003	9.961315e-001	-1.002827e-001
1123300.000	9.963423e-001	-9.809748e-002	1.517318e-004	1.646874e-003	1.588068e-004	1.656621e-003	9.961876e-001	-1.005436e-001
1124200.000	9.963935e-001	-9.829947e-002	1.477196e-004	1.656256e-003	1.623377e-004	1.675695e-003	9.962459e-001	-1.005034e-001
1125100.000	9.963636e-001	-9.840844e-002	1.548927e-004	1.637838e-003	1.671358e-004	1.645950e-003	9.962958e-001	-1.004337e-001
1126000.000	9.964092e-001	-9.837261e-002	1.655165e-004	1.654881e-003	1.573213e-004	1.657501e-003	9.960907e-001	-1.007184e-001
1126900.000	9.964542e-001	-9.864970e-002	1.596744e-004	1.667192e-003	1.620936e-004	1.661198e-003	9.961106e-001	-1.008072e-001
1127800.000	9.963624e-001	-9.869930e-002	1.710325e-004	1.672453e-003	1.789764e-004	1.664194e-003	9.962866e-001	-1.008571e-001
1128700.000	9.962048e-001	-9.860607e-002	1.628031e-004	1.676794e-003	1.627706e-004	1.669852e-003	9.961978e-001	-1.007828e-001
1129600.000	9.962232e-001	-9.883621e-002	1.777028e-004	1.661382e-003	1.748978e-004	1.662487e-003	9.960363e-001	-1.009626e-001
1130500.000	9.963664e-001	-9.888241e-002	1.546459e-004	1.680833e-003	1.604981e-004	1.686454e-003	9.962116e-001	-1.009676e-001
1131400.000	9.962625e-001	-9.903807e-002	1.560691e-004	1.682450e-003	1.675241e-004	1.673323e-003	9.960954e-001	-1.009685e-001
1132300.000	9.963170e-001	-9.893135e-002	1.654156e-004	1.667905e-003	1.673983e-004	1.685934e-003	9.961971e-001	-1.014350e-001
1133200.000	9.960953e-001	-9.911959e-002	1.639000e-004	1.667203e-003	1.524457e-004	1.672958e-003	9.960916e-001	-1.013688e-001
1134100.000	9.964956e-001	-9.935187e-002	1.738086e-004	1.678859e-003	1.610775e-004	1.691252e-003	9.962228e-001	-1.013538e-001
1135000.000	9.963089e-001	-9.928378e-002	1.678793e-004	1.684490e-003	1.731313e-004	1.694299e-003	9.961354e-001	-1.014518e-001
1135900.000	9.963008e-001	-9.940279e-002	1.686581e-004	1.685913e-003	1.684939e-004	1.677562e-003	9.959706e-001	-1.014503e-001
1136800.000	9.962427e-001	-9.943917e-002	1.565840e-004	1.689893e-003	1.634094e-004	1.701256e-003	9.960385e-001	-1.016087e-001
1137700.000	9.961476e-001	-9.966484e-002	1.699371e-004	1.685026e-003	1.629156e-004	1.680960e-003	9.961043e-001	-1.016271e-001
1138600.000	9.963773e-001	-9.967993e-002	1.639827e-004	1.687886e-003	1.629620e-004	1.706460e-003	9.960527e-001	-1.018635e-001
1139500.000	9.960620e-001	-9.970509e-002	1.769908e-004	1.702997e-003	1.633686e-004	1.696069e-003	9.961668e-001	-1.017659e-001
1140400.000	9.962402e-001	-9.989925e-002	1.699435e-004	1.701376e-003	1.664548e-004	1.699692e-003	9.960125e-001	-1.020616e-001
