Time (s),VIN,IIN,VOUT
0.0,24.27012498944,1.706187507584,48.84612500096
5e-10,24.22324998656,1.706187507584,48.87737500288
1e-09,24.23887498752,1.706187507584,48.89300000384
1.5000000000000002e-09,24.27012498944,1.70775000768,48.84612500096
2e-09,24.30137499136,1.703062507392,48.78362499712
2.5e-09,24.22324998656,1.703062507392,48.81487499904
3.0000000000000004e-09,24.23887498752,1.703062507392,48.84612500096
3.5000000000000003e-09,24.25449998848,1.704625007488,48.87737500288
4e-09,24.2857499904,1.706187507584,48.81487499904
4.500000000000001e-09,24.30137499136,1.704625007488,48.78362499712
5e-09,24.2857499904,1.704625007488,48.78362499712
5.5000000000000004e-09,24.2857499904,1.703062507392,48.81487499904
6.000000000000001e-09,24.25449998848,1.704625007488,48.8305
6.5e-09,24.31699999232,1.706187507584,48.81487499904
7.000000000000001e-09,24.33262499328,1.70775000768,48.76799999616
7.500000000000001e-09,24.27012498944,1.703062507392,48.79924999808
8e-09,24.2076249856,1.703062507392,48.8305
8.5e-09,24.22324998656,1.703062507392,48.8305
9.000000000000001e-09,24.2857499904,1.704625007488,48.79924999808
9.5e-09,24.31699999232,1.704625007488,48.7523749952
1e-08,24.30137499136,1.703062507392,48.72112499328
1.0500000000000001e-08,24.23887498752,1.701500007296,48.76799999616
1.1000000000000001e-08,24.2076249856,1.703062507392,48.8305
1.15e-08,24.23887498752,1.704625007488,48.8305
1.2000000000000002e-08,24.33262499328,1.706187507584,48.7523749952
1.2500000000000001e-08,24.37949999616,1.701500007296,48.68987499136
1.3e-08,24.3638749952,1.6999375072,48.68987499136
1.35e-08,24.33262499328,1.6999375072,48.7523749952
1.4000000000000001e-08,24.30137499136,1.701500007296,48.79924999808
1.45e-08,24.3638749952,1.703062507392,48.78362499712
1.5000000000000002e-08,24.39512499712,1.701500007296,48.73674999424
1.55e-08,24.33262499328,1.696812507008,48.7523749952
1.6e-08,24.23887498752,1.696812507008,48.81487499904
1.6500000000000002e-08,24.23887498752,1.698375007104,48.87737500288
1.7e-08,24.25449998848,1.701500007296,48.89300000384
1.75e-08,24.30137499136,1.701500007296,48.8305
1.8000000000000002e-08,24.33262499328,1.6999375072,48.76799999616
1.85e-08,24.30137499136,1.696812507008,48.7523749952
1.9e-08,24.27012498944,1.698375007104,48.79924999808
1.9500000000000003e-08,24.31699999232,1.6999375072,48.84612500096
2e-08,24.41074999808,1.701500007296,48.81487499904
2.05e-08,24.42637499904,1.698375007104,48.76799999616
2.1000000000000003e-08,24.37949999616,1.695250006912,48.7523749952
2.15e-08,24.3638749952,1.696812507008,48.78362499712
2.2000000000000002e-08,24.34824999424,1.698375007104,48.8305
2.2500000000000003e-08,24.37949999616,1.698375007104,48.81487499904
2.3e-08,24.39512499712,1.703062507392,48.76799999616
2.3500000000000002e-08,24.39512499712,1.704625007488,48.78362499712
2.4000000000000003e-08,24.33262499328,1.703062507392,48.78362499712
2.45e-08,24.30137499136,1.701500007296,48.79924999808
2.5000000000000002e-08,24.2857499904,1.701500007296,48.8305
2.55e-08,24.37949999616,1.698375007104,48.8305
2.6e-08,24.39512499712,1.693687506816,48.8305
2.6500000000000002e-08,24.31699999232,1.69212500672,48.86175000192
2.7e-08,24.2076249856,1.696812507008,48.89300000384
2.75e-08,24.19199998464,1.701500007296,48.9086250048
2.8000000000000003e-08,24.31699999232,1.6999375072,48.86175000192
2.85e-08,24.47325000192,1.696812507008,48.84612500096
2.9e-08,24.48887500288,1.695250006912,48.84612500096
2.9500000000000003e-08,24.41074999808,1.696812507008,48.86175000192
3.0000000000000004e-08,24.31699999232,1.6999375072,48.87737500288
3.05e-08,24.2857499904,1.6999375072,48.86175000192
3.1e-08,24.30137499136,1.698375007104,48.8305
3.1500000000000004e-08,24.41074999808,1.698375007104,48.84612500096
3.2e-08,24.37949999616,1.698375007104,48.84612500096
3.25e-08,24.30137499136,1.696812507008,48.86175000192
3.3000000000000004e-08,24.25449998848,1.701500007296,48.87737500288
3.35e-08,24.23887498752,1.703062507392,48.89300000384
3.4e-08,24.25449998848,1.6999375072,48.8305
3.4500000000000005e-08,24.25449998848,1.698375007104,48.81487499904
3.5e-08,24.27012498944,1.6999375072,48.79924999808
3.55e-08,24.2857499904,1.703062507392,48.86175000192
3.6000000000000005e-08,24.31699999232,1.701500007296,48.9086250048
3.65e-08,24.30137499136,1.695250006912,48.93987500672
3.7e-08,24.30137499136,1.693687506816,48.92425000576
3.7500000000000005e-08,24.31699999232,1.698375007104,48.87737500288
3.8e-08,24.31699999232,1.703062507392,48.86175000192
3.85e-08,24.33262499328,1.704625007488,48.86175000192
3.9000000000000005e-08,24.31699999232,1.703062507392,48.89300000384
3.95e-08,24.31699999232,1.6999375072,48.95550000768
4e-08,24.34824999424,1.701500007296,48.9086250048
4.0500000000000005e-08,24.3638749952,1.70775000768,48.81487499904
4.1e-08,24.3638749952,1.709312507776,48.84612500096
4.15e-08,24.30137499136,1.706187507584,48.87737500288
4.2000000000000006e-08,24.25449998848,1.701500007296,48.92425000576
4.2500000000000003e-08,24.16074998272,1.703062507392,48.97112500864
4.3e-08,24.2076249856,1.709312507776,48.93987500672
4.3500000000000006e-08,24.25449998848,1.710875007872,48.9086250048
4.4000000000000004e-08,24.33262499328,1.709312507776,48.87737500288
4.45e-08,24.31699999232,1.701500007296,48.92425000576
4.5000000000000006e-08,24.2076249856,1.701500007296,48.97112500864
4.5500000000000004e-08,24.1294999808,1.706187507584,49.00237501056
4.6e-08,24.19199998464,1.710875007872,48.95550000768
4.6500000000000006e-08,24.3638749952,1.709312507776,48.84612500096
4.7000000000000004e-08,24.39512499712,1.706187507584,48.81487499904
4.75e-08,24.27012498944,1.703062507392,48.92425000576
4.8000000000000006e-08,24.14512498176,1.70775000768,48.97112500864
4.8500000000000004e-08,24.14512498176,1.709312507776,48.93987500672
4.9e-08,24.23887498752,1.709312507776,48.87737500288
4.95e-08,24.3638749952,1.70775000768,48.8305
5.0000000000000004e-08,24.41074999808,1.704625007488,48.86175000192
5.05e-08,24.31699999232,1.704625007488,48.95550000768
5.1e-08,24.2076249856,1.706187507584,49.00237501056
5.1500000000000005e-08,24.19199998464,1.70775000768,48.9867500096
5.2e-08,24.22324998656,1.704625007488,48.87737500288
5.25e-08,24.25449998848,1.6999375072,48.9086250048
5.3000000000000005e-08,24.2076249856,1.703062507392,49.00237501056
5.35e-08,24.19199998464,1.710875007872,49.08050001536
5.4e-08,24.2076249856,1.7171250082560001,49.03362501248
5.4500000000000005e-08,24.25449998848,1.71556250816,48.92425000576
5.5e-08,24.22324998656,1.70775000768,48.84612500096
5.55e-08,24.19199998464,1.701500007296,48.93987500672
5.6000000000000005e-08,24.19199998464,1.706187507584,49.01800001152
5.65e-08,24.2857499904,1.712437507968,49.00237501056
5.7e-08,24.34824999424,1.714000008064,48.93987500672
5.7500000000000005e-08,24.3638749952,1.712437507968,48.87737500288
5.8e-08,24.25449998848,1.70775000768,48.9086250048
5.85e-08,24.1294999808,1.706187507584,49.00237501056
5.9000000000000006e-08,24.1294999808,1.710875007872,49.03362501248
5.9500000000000003e-08,24.19199998464,1.712437507968,48.9867500096
6.000000000000001e-08,24.25449998848,1.710875007872,48.9086250048
6.05e-08,24.25449998848,1.704625007488,48.95550000768
6.1e-08,24.16074998272,1.70775000768,49.00237501056
6.15e-08,24.1294999808,1.714000008064,49.03362501248
6.2e-08,24.19199998464,1.714000008064,49.03362501248
6.250000000000001e-08,24.27012498944,1.710875007872,48.93987500672
6.300000000000001e-08,24.25449998848,1.709312507776,48.9086250048
6.35e-08,24.2076249856,1.709312507776,49.01800001152
6.4e-08,24.16074998272,1.710875007872,49.11175001728
6.45e-08,24.19199998464,1.714000008064,49.09612501632
6.5e-08,24.25449998848,1.714000008064,49.03362501248
6.55e-08,24.25449998848,1.712437507968,48.97112500864
6.600000000000001e-08,24.19199998464,1.710875007872,48.92425000576
6.65e-08,24.14512498176,1.712437507968,48.93987500672
6.7e-08,24.19199998464,1.71556250816,48.93987500672
6.75e-08,24.25449998848,1.71556250816,48.95550000768
6.8e-08,24.2857499904,1.710875007872,48.9086250048
6.85e-08,24.2076249856,1.706187507584,48.95550000768
6.900000000000001e-08,24.11387497984,1.710875007872,48.9867500096
6.950000000000001e-08,24.11387497984,1.7186875083520001,49.01800001152
7e-08,24.22324998656,1.7186875083520001,49.01800001152
7.05e-08,24.30137499136,1.71556250816,49.01800001152
7.1e-08,24.23887498752,1.712437507968,48.9867500096
7.15e-08,24.1294999808,1.709312507776,49.00237501056
7.200000000000001e-08,24.066999976960002,1.712437507968,49.03362501248
7.250000000000001e-08,24.11387497984,1.712437507968,49.01800001152
7.3e-08,24.19199998464,1.714000008064,49.01800001152
7.35e-08,24.2857499904,1.714000008064,49.01800001152
7.4e-08,24.27012498944,1.712437507968,48.9867500096
7.45e-08,24.16074998272,1.714000008064,48.97112500864
7.500000000000001e-08,24.14512498176,1.7171250082560001,48.97112500864
7.550000000000001e-08,24.19199998464,1.7171250082560001,48.9867500096
7.6e-08,24.19199998464,1.714000008064,48.9867500096
7.65e-08,24.19199998464,1.712437507968,49.00237501056
7.7e-08,24.17637498368,1.71556250816,48.97112500864
7.75e-08,24.17637498368,1.7218125085440001,48.93987500672
7.800000000000001e-08,24.2076249856,1.7202500084480001,48.9086250048
7.850000000000001e-08,24.23887498752,1.71556250816,48.9086250048
7.9e-08,24.2076249856,1.712437507968,48.92425000576
7.95e-08,24.19199998464,1.712437507968,48.9867500096
8e-08,24.17637498368,1.71556250816,49.00237501056
8.05e-08,24.22324998656,1.7202500084480001,48.9867500096
8.100000000000001e-08,24.2857499904,1.7218125085440001,48.9867500096
8.150000000000001e-08,24.25449998848,1.7218125085440001,49.01800001152
8.2e-08,24.16074998272,1.7186875083520001,49.00237501056
8.25e-08,24.066999976960002,1.7202500084480001,48.9867500096
8.3e-08,24.082624977920002,1.7233750086400001,48.95550000768
8.35e-08,24.16074998272,1.7218125085440001,48.95550000768
8.400000000000001e-08,24.25449998848,1.7202500084480001,48.95550000768
8.450000000000001e-08,24.25449998848,1.7202500084480001,48.9867500096
8.500000000000001e-08,24.2076249856,1.7218125085440001,48.95550000768
8.55e-08,24.19199998464,1.7249375087360002,48.9086250048
8.6e-08,24.22324998656,1.7233750086400001,48.92425000576
8.65e-08,24.2857499904,1.7186875083520001,48.95550000768
8.700000000000001e-08,24.27012498944,1.7171250082560001,48.9867500096
8.750000000000001e-08,24.19199998464,1.7202500084480001,49.03362501248
8.800000000000001e-08,24.14512498176,1.7218125085440001,49.00237501056
8.85e-08,24.14512498176,1.7233750086400001,48.97112500864
8.9e-08,24.2076249856,1.7233750086400001,49.00237501056
8.95e-08,24.22324998656,1.7233750086400001,49.00237501056
9.000000000000001e-08,24.19199998464,1.7265000088320002,48.95550000768
9.050000000000001e-08,24.17637498368,1.7280625089280002,48.93987500672
9.100000000000001e-08,24.19199998464,1.7280625089280002,48.92425000576
9.15e-08,24.22324998656,1.7233750086400001,48.97112500864
9.2e-08,24.23887498752,1.7218125085440001,49.00237501056
9.25e-08,24.19199998464,1.7202500084480001,49.04925001344
9.300000000000001e-08,24.16074998272,1.7249375087360002,49.01800001152
9.350000000000001e-08,24.14512498176,1.7280625089280002,49.00237501056
9.400000000000001e-08,24.17637498368,1.7265000088320002,49.00237501056
9.45e-08,24.17637498368,1.7218125085440001,49.03362501248
9.5e-08,24.16074998272,1.7233750086400001,49.04925001344
9.55e-08,24.14512498176,1.7249375087360002,49.08050001536
9.600000000000001e-08,24.14512498176,1.7296250090240002,49.03362501248
9.650000000000001e-08,24.17637498368,1.7280625089280002,48.9867500096
9.700000000000001e-08,24.23887498752,1.7265000088320002,48.9867500096
9.75e-08,24.2857499904,1.7218125085440001,48.9867500096
9.8e-08,24.2857499904,1.7202500084480001,48.93987500672
9.85e-08,24.2076249856,1.7233750086400001,48.9086250048
9.9e-08,24.22324998656,1.7218125085440001,48.92425000576
9.950000000000001e-08,24.27012498944,1.7186875083520001,48.97112500864
1.0000000000000001e-07,24.2857499904,1.7186875083520001,48.97112500864
1.005e-07,24.22324998656,1.7186875083520001,49.01800001152
1.01e-07,24.19199998464,1.7233750086400001,49.01800001152
1.015e-07,24.17637498368,1.7265000088320002,49.03362501248
1.02e-07,24.16074998272,1.7233750086400001,49.0648750144
1.0250000000000001e-07,24.17637498368,1.7186875083520001,49.0648750144
1.0300000000000001e-07,24.17637498368,1.7186875083520001,49.03362501248
1.0350000000000001e-07,24.14512498176,1.7202500084480001,49.01800001152
1.04e-07,24.14512498176,1.7249375087360002,48.95550000768
1.045e-07,24.2076249856,1.7249375087360002,48.92425000576
1.05e-07,24.22324998656,1.7218125085440001,48.93987500672
1.0550000000000001e-07,24.19199998464,1.7218125085440001,48.95550000768
1.0600000000000001e-07,24.17637498368,1.7202500084480001,48.89300000384
1.0650000000000001e-07,24.17637498368,1.7249375087360002,48.86175000192
1.07e-07,24.25449998848,1.7233750086400001,48.86175000192
1.075e-07,24.30137499136,1.7202500084480001,48.93987500672
1.08e-07,24.2857499904,1.7171250082560001,48.97112500864
1.0850000000000001e-07,24.17637498368,1.7186875083520001,49.01800001152
1.0900000000000001e-07,24.1294999808,1.7249375087360002,49.00237501056
1.0950000000000001e-07,24.19199998464,1.7265000088320002,48.93987500672
1.1e-07,24.27012498944,1.7265000088320002,48.9086250048
1.105e-07,24.33262499328,1.7233750086400001,48.92425000576
1.11e-07,24.27012498944,1.7186875083520001,48.93987500672
1.1150000000000001e-07,24.19199998464,1.7202500084480001,48.95550000768
1.1200000000000001e-07,24.14512498176,1.7233750086400001,48.9086250048
1.1250000000000001e-07,24.23887498752,1.7218125085440001,48.87737500288
1.13e-07,24.31699999232,1.7202500084480001,48.87737500288
1.135e-07,24.2857499904,1.7171250082560001,48.89300000384
1.14e-07,24.22324998656,1.7186875083520001,48.95550000768
1.1450000000000001e-07,24.16074998272,1.7249375087360002,49.00237501056
1.1500000000000001e-07,24.19199998464,1.7249375087360002,49.00237501056
1.1550000000000001e-07,24.27012498944,1.7265000088320002,48.9867500096
1.16e-07,24.31699999232,1.7233750086400001,48.95550000768
1.165e-07,24.19199998464,1.7202500084480001,48.9867500096
1.17e-07,24.11387497984,1.7249375087360002,49.00237501056
1.1750000000000001e-07,24.19199998464,1.7265000088320002,48.93987500672
1.1800000000000001e-07,24.33262499328,1.7249375087360002,48.84612500096
1.1850000000000001e-07,24.39512499712,1.7202500084480001,48.79924999808
1.1900000000000001e-07,24.31699999232,1.7186875083520001,48.79924999808
1.195e-07,24.22324998656,1.7186875083520001,48.86175000192
1.2000000000000002e-07,24.16074998272,1.7218125085440001,48.89300000384
1.205e-07,24.22324998656,1.7202500084480001,48.89300000384
1.21e-07,24.2857499904,1.7186875083520001,48.89300000384
1.215e-07,24.2857499904,1.7171250082560001,48.89300000384
1.22e-07,24.22324998656,1.7186875083520001,48.95550000768
1.2250000000000002e-07,24.16074998272,1.7202500084480001,49.03362501248
1.23e-07,24.16074998272,1.7171250082560001,49.04925001344
1.2350000000000001e-07,24.2076249856,1.71556250816,49.01800001152
1.24e-07,24.2857499904,1.7171250082560001,48.93987500672
1.245e-07,24.23887498752,1.7171250082560001,48.89300000384
1.2500000000000002e-07,24.22324998656,1.7233750086400001,48.9086250048
1.255e-07,24.30137499136,1.7265000088320002,48.93987500672
1.2600000000000002e-07,24.33262499328,1.7233750086400001,48.92425000576
1.265e-07,24.3638749952,1.7218125085440001,48.86175000192
1.27e-07,24.30137499136,1.7218125085440001,48.84612500096
1.275e-07,24.23887498752,1.7218125085440001,48.9086250048
1.28e-07,24.2076249856,1.7202500084480001,48.9867500096
1.2850000000000002e-07,24.23887498752,1.7202500084480001,49.03362501248
1.29e-07,24.25449998848,1.7186875083520001,49.03362501248
1.2950000000000001e-07,24.2076249856,1.7186875083520001,48.95550000768
1.3e-07,24.17637498368,1.7202500084480001,48.9086250048
1.305e-07,24.17637498368,1.7202500084480001,48.93987500672
1.31e-07,24.23887498752,1.7202500084480001,48.95550000768
1.315e-07,24.27012498944,1.7171250082560001,48.9867500096
1.3200000000000002e-07,24.30137499136,1.7171250082560001,48.9086250048
1.325e-07,24.23887498752,1.7171250082560001,48.86175000192
1.33e-07,24.23887498752,1.7186875083520001,48.86175000192
1.335e-07,24.25449998848,1.71556250816,48.92425000576
1.34e-07,24.2857499904,1.712437507968,48.95550000768
1.3450000000000002e-07,24.31699999232,1.710875007872,48.93987500672
1.35e-07,24.27012498944,1.712437507968,48.93987500672
1.3550000000000002e-07,24.22324998656,1.712437507968,48.97112500864
1.36e-07,24.2076249856,1.712437507968,49.00237501056
1.365e-07,24.27012498944,1.710875007872,49.00237501056
1.37e-07,24.33262499328,1.710875007872,48.9867500096
1.375e-07,24.31699999232,1.710875007872,48.92425000576
1.3800000000000002e-07,24.30137499136,1.710875007872,48.87737500288
1.385e-07,24.27012498944,1.709312507776,48.89300000384
1.3900000000000001e-07,24.27012498944,1.70775000768,48.89300000384
1.395e-07,24.27012498944,1.70775000768,48.93987500672
1.4e-07,24.2857499904,1.709312507776,48.89300000384
1.4050000000000002e-07,24.2857499904,1.70775000768,48.86175000192
1.41e-07,24.25449998848,1.709312507776,48.86175000192
1.4150000000000002e-07,24.27012498944,1.710875007872,48.9086250048
1.42e-07,24.23887498752,1.70775000768,48.93987500672
1.425e-07,24.23887498752,1.709312507776,48.95550000768
1.43e-07,24.22324998656,1.712437507968,48.92425000576
1.435e-07,24.22324998656,1.710875007872,48.9086250048
1.4400000000000002e-07,24.23887498752,1.709312507776,48.87737500288
1.445e-07,24.27012498944,1.710875007872,48.87737500288
1.4500000000000001e-07,24.27012498944,1.709312507776,48.9086250048
1.455e-07,24.27012498944,1.709312507776,48.87737500288
1.46e-07,24.33262499328,1.709312507776,48.8305
1.4650000000000002e-07,24.3638749952,1.706187507584,48.78362499712
1.47e-07,24.33262499328,1.704625007488,48.76799999616
1.4750000000000002e-07,24.27012498944,1.704625007488,48.84612500096
1.48e-07,24.23887498752,1.704625007488,48.87737500288
1.485e-07,24.23887498752,1.706187507584,48.87737500288
1.49e-07,24.2857499904,1.70775000768,48.8305
1.495e-07,24.31699999232,1.704625007488,48.81487499904
1.5000000000000002e-07,24.23887498752,1.6999375072,48.8305
1.505e-07,24.25449998848,1.703062507392,48.87737500288
1.5100000000000002e-07,24.27012498944,1.70775000768,48.86175000192
1.515e-07,24.31699999232,1.710875007872,48.8305
1.52e-07,24.31699999232,1.70775000768,48.76799999616
1.5250000000000002e-07,24.31699999232,1.701500007296,48.76799999616
1.53e-07,24.2857499904,1.703062507392,48.8305
1.5350000000000002e-07,24.30137499136,1.70775000768,48.86175000192
1.54e-07,24.33262499328,1.709312507776,48.8305
1.5450000000000001e-07,24.31699999232,1.70775000768,48.79924999808
1.55e-07,24.25449998848,1.704625007488,48.78362499712
1.555e-07,24.22324998656,1.701500007296,48.81487499904
1.5600000000000002e-07,24.23887498752,1.703062507392,48.8305
1.565e-07,24.30137499136,1.703062507392,48.81487499904
1.5700000000000002e-07,24.33262499328,1.706187507584,48.73674999424
1.575e-07,24.33262499328,1.704625007488,48.72112499328
1.58e-07,24.23887498752,1.6999375072,48.78362499712
1.5850000000000002e-07,24.23887498752,1.6999375072,48.8305
1.59e-07,24.27012498944,1.701500007296,48.8305
1.5950000000000002e-07,24.34824999424,1.701500007296,48.76799999616
1.6e-07,24.37949999616,1.6999375072,48.70549999232
1.6050000000000001e-07,24.3638749952,1.6999375072,48.70549999232
1.61e-07,24.33262499328,1.701500007296,48.78362499712
1.615e-07,24.31699999232,1.701500007296,48.81487499904
1.6200000000000002e-07,24.3638749952,1.701500007296,48.79924999808
1.625e-07,24.39512499712,1.703062507392,48.7523749952
1.6300000000000002e-07,24.33262499328,1.6999375072,48.7523749952
1.635e-07,24.23887498752,1.698375007104,48.8305
1.64e-07,24.22324998656,1.701500007296,48.87737500288
1.645e-07,24.27012498944,1.701500007296,48.9086250048
1.65e-07,24.2857499904,1.704625007488,48.86175000192
1.6550000000000002e-07,24.33262499328,1.701500007296,48.78362499712
1.66e-07,24.2857499904,1.6999375072,48.7523749952
1.6650000000000002e-07,24.2857499904,1.6999375072,48.81487499904
