Time (s),VIN,IIN,VOUT
0.0,24.25674998848,1.736962508928,49.08187500672
5e-10,24.24112498752,1.733837508736,49.09750000768
1e-09,24.2098749856,1.735400008832,49.08187500672
1.5000000000000002e-09,24.24112498752,1.735400008832,49.01937500288
2e-09,24.2879999904,1.73227500864,48.9725
2.5e-09,24.25674998848,1.73227500864,49.03500000384
3.0000000000000004e-09,24.24112498752,1.73227500864,49.08187500672
3.5000000000000003e-09,24.27237498944,1.733837508736,49.0506250048
4e-09,24.31924999232,1.733837508736,48.98812500096
4.500000000000001e-09,24.38174999616,1.735400008832,48.95687499904
5e-09,24.38174999616,1.730712508544,48.925624997119996
5.5000000000000004e-09,24.30362499136,1.726025008256,48.98812500096
6.000000000000001e-09,24.22549998656,1.729150008448,49.03500000384
6.5e-09,24.22549998656,1.729150008448,49.06625000576
7.000000000000001e-09,24.2879999904,1.73227500864,48.98812500096
7.500000000000001e-09,24.31924999232,1.733837508736,48.95687499904
8e-09,24.27237498944,1.729150008448,48.941249998079996
8.5e-09,24.22549998656,1.727587508352,48.95687499904
9.000000000000001e-09,24.25674998848,1.729150008448,48.98812500096
9.5e-09,24.31924999232,1.73227500864,48.925624997119996
1e-08,24.3661249952,1.733837508736,48.878749994239996
1.0500000000000001e-08,24.33487499328,1.733837508736,48.909999996159996
1.1000000000000001e-08,24.27237498944,1.727587508352,48.925624997119996
1.15e-08,24.27237498944,1.726025008256,48.941249998079996
1.2000000000000002e-08,24.33487499328,1.729150008448,48.9725
1.2500000000000001e-08,24.3661249952,1.73227500864,48.941249998079996
1.3e-08,24.35049999424,1.73227500864,48.925624997119996
1.35e-08,24.24112498752,1.727587508352,48.941249998079996
1.4000000000000001e-08,24.19424998464,1.726025008256,48.9725
1.45e-08,24.24112498752,1.729150008448,48.9725
1.5000000000000002e-08,24.35049999424,1.73227500864,48.909999996159996
1.55e-08,24.38174999616,1.729150008448,48.878749994239996
1.6e-08,24.27237498944,1.726025008256,48.909999996159996
1.6500000000000002e-08,24.2098749856,1.722900008064,48.95687499904
1.7e-08,24.2098749856,1.726025008256,48.9725
1.75e-08,24.31924999232,1.729150008448,48.894374995199996
1.8000000000000002e-08,24.39737499712,1.730712508544,48.816249990399996
1.85e-08,24.39737499712,1.727587508352,48.831874991359996
1.9e-08,24.33487499328,1.722900008064,48.878749994239996
1.9500000000000003e-08,24.30362499136,1.726025008256,48.909999996159996
2e-08,24.3661249952,1.729150008448,48.925624997119996
2.05e-08,24.42862499904,1.730712508544,48.925624997119996
2.1000000000000003e-08,24.39737499712,1.729150008448,48.909999996159996
2.15e-08,24.25674998848,1.726025008256,48.941249998079996
2.2000000000000002e-08,24.2098749856,1.722900008064,49.00375000192
2.2500000000000003e-08,24.22549998656,1.72446250816,49.03500000384
2.3e-08,24.31924999232,1.726025008256,48.98812500096
2.3500000000000002e-08,24.3661249952,1.722900008064,48.941249998079996
2.4000000000000003e-08,24.31924999232,1.719775007872,48.894374995199996
2.45e-08,24.27237498944,1.721337507968,48.925624997119996
2.5000000000000002e-08,24.27237498944,1.722900008064,48.95687499904
2.55e-08,24.41299999808,1.726025008256,48.941249998079996
2.6e-08,24.47550000192,1.726025008256,48.909999996159996
2.6500000000000002e-08,24.39737499712,1.726025008256,48.925624997119996
2.7e-08,24.3661249952,1.722900008064,48.941249998079996
2.75e-08,24.35049999424,1.721337507968,48.9725
2.8000000000000003e-08,24.38174999616,1.722900008064,48.98812500096
2.85e-08,24.44425,1.726025008256,48.95687499904
2.9e-08,24.42862499904,1.72446250816,48.925624997119996
2.9500000000000003e-08,24.33487499328,1.722900008064,48.925624997119996
3.0000000000000004e-08,24.27237498944,1.722900008064,48.941249998079996
3.05e-08,24.2879999904,1.72446250816,48.95687499904
3.1e-08,24.42862499904,1.729150008448,48.95687499904
3.1500000000000004e-08,24.44425,1.727587508352,48.98812500096
3.2e-08,24.35049999424,1.72446250816,48.98812500096
3.25e-08,24.2098749856,1.722900008064,49.01937500288
3.3000000000000004e-08,24.14737498176,1.727587508352,49.03500000384
3.35e-08,24.30362499136,1.727587508352,49.00375000192
3.4e-08,24.47550000192,1.726025008256,48.9725
3.4500000000000005e-08,24.49112500288,1.722900008064,49.01937500288
3.5e-08,24.3661249952,1.721337507968,49.03500000384
3.55e-08,24.30362499136,1.721337507968,49.03500000384
3.6000000000000005e-08,24.27237498944,1.72446250816,49.03500000384
3.65e-08,24.30362499136,1.726025008256,49.00375000192
3.7e-08,24.41299999808,1.726025008256,48.98812500096
3.7500000000000005e-08,24.39737499712,1.722900008064,49.00375000192
3.8e-08,24.31924999232,1.726025008256,49.00375000192
3.85e-08,24.27237498944,1.729150008448,49.0506250048
3.9000000000000005e-08,24.30362499136,1.729150008448,49.00375000192
3.95e-08,24.31924999232,1.726025008256,48.98812500096
4e-08,24.2879999904,1.722900008064,48.941249998079996
4.0500000000000005e-08,24.30362499136,1.726025008256,48.9725
4.1e-08,24.30362499136,1.73227500864,49.00375000192
4.15e-08,24.33487499328,1.733837508736,49.06625000576
4.2000000000000006e-08,24.31924999232,1.727587508352,49.09750000768
4.2500000000000003e-08,24.31924999232,1.722900008064,49.09750000768
4.3e-08,24.2879999904,1.722900008064,49.03500000384
4.3500000000000006e-08,24.30362499136,1.727587508352,49.01937500288
4.4000000000000004e-08,24.31924999232,1.730712508544,49.03500000384
4.45e-08,24.30362499136,1.73227500864,49.06625000576
4.5000000000000006e-08,24.33487499328,1.730712508544,49.09750000768
4.5500000000000004e-08,24.33487499328,1.726025008256,49.06625000576
4.6e-08,24.33487499328,1.727587508352,48.9725
4.6500000000000006e-08,24.35049999424,1.73227500864,48.9725
4.7000000000000004e-08,24.31924999232,1.733837508736,48.98812500096
4.75e-08,24.22549998656,1.729150008448,49.08187500672
4.8000000000000006e-08,24.14737498176,1.72446250816,49.14437501056
4.8500000000000004e-08,24.17862498368,1.727587508352,49.09750000768
4.9e-08,24.25674998848,1.733837508736,49.03500000384
4.95e-08,24.35049999424,1.736962508928,49.00375000192
5.0000000000000004e-08,24.31924999232,1.730712508544,49.03500000384
5.05e-08,24.17862498368,1.727587508352,49.1287500096
5.1e-08,24.11612497984,1.72446250816,49.17562501248
5.1500000000000005e-08,24.22549998656,1.73227500864,49.06625000576
5.2e-08,24.3661249952,1.736962508928,48.98812500096
5.25e-08,24.38174999616,1.738525009024,48.9725
5.3000000000000005e-08,24.27237498944,1.733837508736,49.01937500288
5.35e-08,24.1317499808,1.729150008448,49.09750000768
5.4e-08,24.1317499808,1.729150008448,49.06625000576
5.4500000000000005e-08,24.2098749856,1.73227500864,49.00375000192
5.5e-08,24.35049999424,1.735400008832,48.9725
5.55e-08,24.38174999616,1.733837508736,49.00375000192
5.6000000000000005e-08,24.27237498944,1.73227500864,49.08187500672
5.65e-08,24.22549998656,1.733837508736,49.16000001152
5.7e-08,24.19424998464,1.738525009024,49.09750000768
5.7500000000000005e-08,24.24112498752,1.738525009024,49.03500000384
5.8e-08,24.24112498752,1.733837508736,49.06625000576
5.85e-08,24.19424998464,1.729150008448,49.17562501248
5.9000000000000006e-08,24.16299998272,1.729150008448,49.23812501632
5.9500000000000003e-08,24.22549998656,1.736962508928,49.17562501248
6.000000000000001e-08,24.27237498944,1.7416500092159999,49.0506250048
6.05e-08,24.24112498752,1.743212509312,49.01937500288
6.1e-08,24.17862498368,1.735400008832,49.0506250048
6.15e-08,24.16299998272,1.729150008448,49.1287500096
6.2e-08,24.25674998848,1.730712508544,49.08187500672
6.250000000000001e-08,24.3661249952,1.738525009024,49.0506250048
6.300000000000001e-08,24.38174999616,1.74008750912,49.01937500288
6.35e-08,24.27237498944,1.735400008832,49.06625000576
6.4e-08,24.14737498176,1.730712508544,49.14437501056
6.45e-08,24.14737498176,1.733837508736,49.1287500096
6.5e-08,24.22549998656,1.738525009024,49.08187500672
6.55e-08,24.2879999904,1.738525009024,49.03500000384
6.600000000000001e-08,24.24112498752,1.733837508736,49.06625000576
6.65e-08,24.1317499808,1.730712508544,49.16000001152
6.7e-08,24.100499978880002,1.733837508736,49.17562501248
6.75e-08,24.2098749856,1.738525009024,49.11312500864
6.8e-08,24.27237498944,1.738525009024,49.0506250048
6.85e-08,24.27237498944,1.736962508928,49.08187500672
6.900000000000001e-08,24.2098749856,1.733837508736,49.17562501248
6.950000000000001e-08,24.16299998272,1.733837508736,49.25375001728
7e-08,24.2098749856,1.7416500092159999,49.22250001536
7.05e-08,24.25674998848,1.743212509312,49.17562501248
7.1e-08,24.25674998848,1.74008750912,49.09750000768
7.15e-08,24.19424998464,1.738525009024,49.11312500864
7.200000000000001e-08,24.14737498176,1.735400008832,49.11312500864
7.250000000000001e-08,24.2098749856,1.74008750912,49.08187500672
7.3e-08,24.2879999904,1.744775009408,49.0506250048
7.35e-08,24.33487499328,1.743212509312,49.03500000384
7.4e-08,24.25674998848,1.736962508928,49.08187500672
7.45e-08,24.11612497984,1.733837508736,49.16000001152
7.500000000000001e-08,24.11612497984,1.736962508928,49.16000001152
7.550000000000001e-08,24.22549998656,1.743212509312,49.14437501056
7.6e-08,24.31924999232,1.744775009408,49.1287500096
7.65e-08,24.24112498752,1.744775009408,49.16000001152
7.7e-08,24.100499978880002,1.7416500092159999,49.16000001152
7.75e-08,24.069249976960002,1.74008750912,49.17562501248
7.800000000000001e-08,24.1317499808,1.743212509312,49.14437501056
7.850000000000001e-08,24.2098749856,1.7479000096,49.14437501056
7.9e-08,24.30362499136,1.746337509504,49.1287500096
7.95e-08,24.27237498944,1.743212509312,49.16000001152
8e-08,24.19424998464,1.74008750912,49.1287500096
8.05e-08,24.19424998464,1.744775009408,49.08187500672
8.100000000000001e-08,24.24112498752,1.749462509696,49.0506250048
8.150000000000001e-08,24.24112498752,1.746337509504,49.09750000768
8.2e-08,24.17862498368,1.74008750912,49.1287500096
8.25e-08,24.1317499808,1.7416500092159999,49.1287500096
8.3e-08,24.1317499808,1.7479000096,49.06625000576
8.35e-08,24.2098749856,1.751025009792,49.03500000384
8.400000000000001e-08,24.25674998848,1.749462509696,49.03500000384
8.450000000000001e-08,24.2098749856,1.744775009408,49.08187500672
8.500000000000001e-08,24.16299998272,1.7416500092159999,49.1287500096
8.55e-08,24.17862498368,1.7416500092159999,49.14437501056
8.6e-08,24.2879999904,1.743212509312,49.09750000768
8.65e-08,24.33487499328,1.7479000096,49.14437501056
8.700000000000001e-08,24.30362499136,1.749462509696,49.16000001152
8.750000000000001e-08,24.14737498176,1.746337509504,49.17562501248
8.800000000000001e-08,24.053624976000002,1.744775009408,49.14437501056
8.85e-08,24.084874977920002,1.749462509696,49.08187500672
8.9e-08,24.14737498176,1.751025009792,49.06625000576
8.95e-08,24.24112498752,1.751025009792,49.09750000768
9.000000000000001e-08,24.2098749856,1.746337509504,49.09750000768
9.050000000000001e-08,24.16299998272,1.746337509504,49.11312500864
9.100000000000001e-08,24.17862498368,1.7479000096,49.08187500672
9.15e-08,24.25674998848,1.752587509888,49.0506250048
9.2e-08,24.33487499328,1.751025009792,49.08187500672
9.25e-08,24.2879999904,1.7479000096,49.16000001152
9.300000000000001e-08,24.19424998464,1.7479000096,49.17562501248
9.350000000000001e-08,24.1317499808,1.751025009792,49.14437501056
9.400000000000001e-08,24.16299998272,1.754150009984,49.11312500864
9.45e-08,24.19424998464,1.752587509888,49.1287500096
9.5e-08,24.19424998464,1.749462509696,49.14437501056
9.55e-08,24.14737498176,1.752587509888,49.11312500864
9.600000000000001e-08,24.11612497984,1.752587509888,49.08187500672
9.650000000000001e-08,24.17862498368,1.75571251008,49.06625000576
9.700000000000001e-08,24.27237498944,1.75571251008,49.09750000768
9.75e-08,24.2879999904,1.7479000096,49.17562501248
9.8e-08,24.2098749856,1.743212509312,49.22250001536
9.85e-08,24.14737498176,1.749462509696,49.22250001536
9.9e-08,24.17862498368,1.754150009984,49.2068750144
9.950000000000001e-08,24.24112498752,1.758837510272,49.16000001152
1.0000000000000001e-07,24.22549998656,1.75571251008,49.19125001344
1.005e-07,24.19424998464,1.752587509888,49.23812501632
1.01e-07,24.14737498176,1.752587509888,49.22250001536
1.015e-07,24.11612497984,1.752587509888,49.17562501248
1.02e-07,24.17862498368,1.75571251008,49.11312500864
1.0250000000000001e-07,24.25674998848,1.75571251008,49.1287500096
1.0300000000000001e-07,24.30362499136,1.752587509888,49.1287500096
1.0350000000000001e-07,24.24112498752,1.749462509696,49.11312500864
1.04e-07,24.2098749856,1.7479000096,49.09750000768
1.045e-07,24.24112498752,1.749462509696,49.08187500672
1.05e-07,24.2879999904,1.752587509888,49.11312500864
1.0550000000000001e-07,24.30362499136,1.751025009792,49.16000001152
1.0600000000000001e-07,24.25674998848,1.746337509504,49.17562501248
1.0650000000000001e-07,24.19424998464,1.749462509696,49.2068750144
1.07e-07,24.16299998272,1.752587509888,49.2068750144
1.075e-07,24.17862498368,1.752587509888,49.17562501248
1.08e-07,24.17862498368,1.749462509696,49.19125001344
1.0850000000000001e-07,24.17862498368,1.746337509504,49.19125001344
1.0900000000000001e-07,24.16299998272,1.746337509504,49.16000001152
1.0950000000000001e-07,24.14737498176,1.749462509696,49.09750000768
1.1e-07,24.19424998464,1.752587509888,49.08187500672
1.105e-07,24.2098749856,1.749462509696,49.11312500864
1.11e-07,24.16299998272,1.7479000096,49.11312500864
1.1150000000000001e-07,24.1317499808,1.749462509696,49.09750000768
1.1200000000000001e-07,24.19424998464,1.749462509696,49.06625000576
1.1250000000000001e-07,24.2879999904,1.752587509888,49.01937500288
1.13e-07,24.33487499328,1.752587509888,49.0506250048
1.135e-07,24.31924999232,1.746337509504,49.11312500864
1.14e-07,24.2098749856,1.743212509312,49.14437501056
1.1450000000000001e-07,24.1317499808,1.746337509504,49.16000001152
1.1500000000000001e-07,24.14737498176,1.751025009792,49.09750000768
1.1550000000000001e-07,24.27237498944,1.75571251008,49.01937500288
1.16e-07,24.33487499328,1.75571251008,49.03500000384
1.165e-07,24.27237498944,1.751025009792,49.11312500864
1.17e-07,24.17862498368,1.749462509696,49.14437501056
1.1750000000000001e-07,24.11612497984,1.7479000096,49.09750000768
1.1800000000000001e-07,24.16299998272,1.749462509696,49.03500000384
1.1850000000000001e-07,24.22549998656,1.7479000096,49.03500000384
1.1900000000000001e-07,24.25674998848,1.746337509504,49.03500000384
1.195e-07,24.22549998656,1.7479000096,49.09750000768
1.2000000000000002e-07,24.17862498368,1.749462509696,49.14437501056
1.205e-07,24.2098749856,1.749462509696,49.14437501056
1.21e-07,24.24112498752,1.751025009792,49.11312500864
1.215e-07,24.30362499136,1.7479000096,49.09750000768
1.22e-07,24.24112498752,1.7479000096,49.09750000768
1.2250000000000002e-07,24.16299998272,1.751025009792,49.14437501056
1.23e-07,24.16299998272,1.752587509888,49.1287500096
1.2350000000000001e-07,24.30362499136,1.752587509888,49.03500000384
1.24e-07,24.38174999616,1.749462509696,48.98812500096
1.245e-07,24.33487499328,1.744775009408,48.95687499904
1.2500000000000002e-07,24.27237498944,1.744775009408,48.95687499904
1.255e-07,24.19424998464,1.744775009408,48.98812500096
1.2600000000000002e-07,24.19424998464,1.749462509696,49.0506250048
1.265e-07,24.25674998848,1.7479000096,49.06625000576
1.27e-07,24.2879999904,1.7479000096,49.01937500288
1.275e-07,24.22549998656,1.7479000096,49.06625000576
1.28e-07,24.2098749856,1.7479000096,49.14437501056
1.2850000000000002e-07,24.19424998464,1.749462509696,49.22250001536
1.29e-07,24.19424998464,1.746337509504,49.2068750144
1.2950000000000001e-07,24.25674998848,1.743212509312,49.11312500864
1.3e-07,24.25674998848,1.7416500092159999,49.01937500288
1.305e-07,24.24112498752,1.744775009408,49.03500000384
1.31e-07,24.25674998848,1.744775009408,49.09750000768
1.315e-07,24.33487499328,1.746337509504,49.09750000768
1.3200000000000002e-07,24.3661249952,1.746337509504,49.0506250048
1.325e-07,24.31924999232,1.746337509504,48.98812500096
1.33e-07,24.2879999904,1.746337509504,48.95687499904
1.335e-07,24.24112498752,1.746337509504,49.06625000576
1.34e-07,24.25674998848,1.7479000096,49.17562501248
1.3450000000000002e-07,24.24112498752,1.746337509504,49.22250001536
1.35e-07,24.22549998656,1.744775009408,49.11312500864
1.3550000000000002e-07,24.19424998464,1.744775009408,49.03500000384
1.36e-07,24.2098749856,1.743212509312,49.01937500288
1.365e-07,24.2879999904,1.7416500092159999,49.08187500672
1.37e-07,24.30362499136,1.743212509312,49.11312500864
1.375e-07,24.30362499136,1.7416500092159999,49.06625000576
1.3800000000000002e-07,24.25674998848,1.7416500092159999,49.00375000192
1.385e-07,24.25674998848,1.746337509504,49.00375000192
1.3900000000000001e-07,24.27237498944,1.744775009408,49.0506250048
1.395e-07,24.33487499328,1.743212509312,49.08187500672
1.4e-07,24.33487499328,1.74008750912,49.11312500864
1.4050000000000002e-07,24.2879999904,1.7416500092159999,49.09750000768
1.41e-07,24.25674998848,1.743212509312,49.08187500672
1.4150000000000002e-07,24.22549998656,1.743212509312,49.1287500096
1.42e-07,24.24112498752,1.74008750912,49.19125001344
1.425e-07,24.27237498944,1.738525009024,49.2068750144
1.43e-07,24.30362499136,1.735400008832,49.11312500864
1.435e-07,24.33487499328,1.74008750912,49.0506250048
1.4400000000000002e-07,24.31924999232,1.7416500092159999,49.01937500288
1.445e-07,24.33487499328,1.7416500092159999,49.03500000384
1.4500000000000001e-07,24.2879999904,1.74008750912,49.08187500672
1.455e-07,24.27237498944,1.738525009024,49.06625000576
1.46e-07,24.2879999904,1.74008750912,49.00375000192
1.4650000000000002e-07,24.31924999232,1.74008750912,49.00375000192
1.47e-07,24.31924999232,1.738525009024,49.01937500288
1.4750000000000002e-07,24.2879999904,1.736962508928,49.08187500672
1.48e-07,24.24112498752,1.735400008832,49.09750000768
1.485e-07,24.2098749856,1.736962508928,49.08187500672
1.49e-07,24.24112498752,1.74008750912,49.00375000192
1.495e-07,24.27237498944,1.738525009024,49.00375000192
1.5000000000000002e-07,24.25674998848,1.735400008832,49.01937500288
1.505e-07,24.22549998656,1.730712508544,49.06625000576
1.5100000000000002e-07,24.24112498752,1.729150008448,49.03500000384
1.515e-07,24.31924999232,1.735400008832,49.01937500288
1.52e-07,24.38174999616,1.738525009024,48.95687499904
1.5250000000000002e-07,24.39737499712,1.736962508928,48.95687499904
1.53e-07,24.31924999232,1.735400008832,49.00375000192
1.5350000000000002e-07,24.2098749856,1.733837508736,49.0506250048
1.54e-07,24.2098749856,1.733837508736,49.0506250048
1.5450000000000001e-07,24.2879999904,1.738525009024,49.01937500288
1.55e-07,24.31924999232,1.735400008832,48.95687499904
1.555e-07,24.27237498944,1.729150008448,48.941249998079996
1.5600000000000002e-07,24.24112498752,1.72446250816,48.9725
1.565e-07,24.24112498752,1.727587508352,48.98812500096
1.5700000000000002e-07,24.33487499328,1.733837508736,48.941249998079996
1.575e-07,24.35049999424,1.738525009024,48.878749994239996
1.58e-07,24.33487499328,1.736962508928,48.878749994239996
1.5850000000000002e-07,24.27237498944,1.729150008448,48.941249998079996
1.59e-07,24.24112498752,1.727587508352,48.95687499904
1.5950000000000002e-07,24.31924999232,1.73227500864,48.95687499904
1.6e-07,24.3661249952,1.733837508736,48.925624997119996
1.6050000000000001e-07,24.35049999424,1.735400008832,48.925624997119996
1.61e-07,24.22549998656,1.73227500864,48.95687499904
1.615e-07,24.19424998464,1.729150008448,48.98812500096
1.6200000000000002e-07,24.24112498752,1.73227500864,48.941249998079996
1.625e-07,24.35049999424,1.735400008832,48.925624997119996
1.6300000000000002e-07,24.3661249952,1.73227500864,48.894374995199996
1.635e-07,24.2879999904,1.729150008448,48.909999996159996
1.64e-07,24.19424998464,1.727587508352,48.98812500096
1.645e-07,24.2098749856,1.729150008448,48.98812500096
1.65e-07,24.31924999232,1.73227500864,48.909999996159996
1.6550000000000002e-07,24.38174999616,1.73227500864,48.831874991359996
1.66e-07,24.41299999808,1.73227500864,48.831874991359996
1.6650000000000002e-07,24.31924999232,1.729150008448,48.894374995199996
1.67e-07,24.2879999904,1.729150008448,48.925624997119996
1.675e-07,24.3661249952,1.73227500864,48.941249998079996
