Time (s),VIN,IIN,VOUT
0.0,18.922999992319998,1.3609625068159998,17.812495104000007
5e-10,18.922999992319998,1.3625250069119998,16.249995008
1e-09,18.907374991359998,1.3625250069119998,16.249995008
1.5000000000000002e-09,18.907374991359998,1.3609625068159998,14.687494912000005
2e-09,18.907374991359998,1.3609625068159998,13.124994815999997
2.5e-09,18.922999992319998,1.3640875070079999,13.124994815999997
3.0000000000000004e-09,18.938624993279998,1.3625250069119998,11.562494720000004
3.5000000000000003e-09,18.938624993279998,1.3625250069119998,9.99999462400001
4e-09,18.922999992319998,1.3609625068159998,8.437494528000002
4.500000000000001e-09,18.876124989439997,1.3625250069119998,6.874994432000008
5e-09,18.876124989439997,1.3625250069119998,9.99999462400001
5.5000000000000004e-09,18.922999992319998,1.3640875070079999,5.312494336
6.000000000000001e-09,18.954249994239998,1.3672125071999999,5.312494336
6.5e-09,18.985499996159998,1.3687750072959999,3.7499942400000066
7.000000000000001e-09,18.938624993279998,1.3656500071039999,0.6249940480000049
7.500000000000001e-09,18.922999992319998,1.3625250069119998,0.6249940480000049
8e-09,18.891749990399997,1.3625250069119998,0.6249940480000049
8.5e-09,18.922999992319998,1.3656500071039999,-2.5000061439999968
9.000000000000001e-09,18.954249994239998,1.3656500071039999,-0.937506048000003
9.5e-09,18.985499996159998,1.3656500071039999,-4.0625062399999905
1e-08,18.969874995199998,1.3656500071039999,-4.0625062399999905
1.0500000000000001e-08,18.938624993279998,1.3672125071999999,-5.625006335999998
1.1000000000000001e-08,18.938624993279998,1.3672125071999999,-5.625006335999998
1.15e-08,18.954249994239998,1.3640875070079999,-5.625006335999998
1.2000000000000002e-08,18.985499996159998,1.3625250069119998,-10.312506623999994
1.2500000000000001e-08,18.969874995199998,1.3609625068159998,-11.875006720000002
1.3e-08,18.969874995199998,1.3625250069119998,-8.750006528
1.35e-08,18.938624993279998,1.3640875070079999,-10.312506623999994
1.4000000000000001e-08,18.938624993279998,1.3640875070079999,-11.875006720000002
1.45e-08,18.969874995199998,1.3656500071039999,-13.437506815999996
1.5000000000000002e-08,18.938624993279998,1.3640875070079999,-15.000006912000003
1.55e-08,18.954249994239998,1.3625250069119998,-16.562507007999997
1.6e-08,18.938624993279998,1.3625250069119998,-18.12500710399999
1.6500000000000002e-08,18.954249994239998,1.3640875070079999,-19.6875072
1.7e-08,18.954249994239998,1.3656500071039999,-18.12500710399999
1.75e-08,18.954249994239998,1.3656500071039999,-19.6875072
1.8000000000000002e-08,18.954249994239998,1.3672125071999999,-21.250007295999993
1.85e-08,18.938624993279998,1.3672125071999999,-21.250007295999993
1.9e-08,18.969874995199998,1.3656500071039999,-21.250007295999993
1.9500000000000003e-08,18.938624993279998,1.3640875070079999,-24.375007487999994
2e-08,18.938624993279998,1.3672125071999999,-24.375007487999994
2.05e-08,18.938624993279998,1.3703375073919999,-27.500007679999996
2.1000000000000003e-08,18.969874995199998,1.3687750072959999,-25.937507584000002
2.15e-08,18.969874995199998,1.3656500071039999,-27.500007679999996
2.2000000000000002e-08,18.938624993279998,1.3656500071039999,-29.06250777599999
2.2500000000000003e-08,18.954249994239998,1.3672125071999999,-30.625007871999998
2.3e-08,18.969874995199998,1.3687750072959999,-30.625007871999998
2.3500000000000002e-08,19.001124997119998,1.3687750072959999,-30.625007871999998
2.4000000000000003e-08,18.954249994239998,1.3656500071039999,-32.187507968000006
2.45e-08,18.938624993279998,1.3656500071039999,-33.750008063999985
2.5000000000000002e-08,18.938624993279998,1.3656500071039999,-32.187507968000006
2.55e-08,18.985499996159998,1.3656500071039999,-32.187507968000006
2.6e-08,18.969874995199998,1.3656500071039999,-35.31250815999999
2.6500000000000002e-08,18.922999992319998,1.3656500071039999,-36.875008256
2.7e-08,18.938624993279998,1.3640875070079999,-35.31250815999999
2.75e-08,18.938624993279998,1.3640875070079999,-36.875008256
2.8000000000000003e-08,19.016749998079998,1.3640875070079999,-38.43750835200001
2.85e-08,19.001124997119998,1.3687750072959999,-40.00000844799999
2.9e-08,19.001124997119998,1.3672125071999999,-36.875008256
2.9500000000000003e-08,18.938624993279998,1.3672125071999999,-41.562508543999996
3.0000000000000004e-08,18.876124989439997,1.3656500071039999,-40.00000844799999
3.05e-08,18.860499988479997,1.3656500071039999,-41.562508543999996
3.1e-08,18.907374991359998,1.3703375073919999,-43.125008640000004
3.1500000000000004e-08,18.969874995199998,1.3672125071999999,-43.125008640000004
3.2e-08,18.938624993279998,1.3656500071039999,-43.125008640000004
3.25e-08,18.891749990399997,1.3656500071039999,-44.687508735999984
3.3000000000000004e-08,18.860499988479997,1.3672125071999999,-43.125008640000004
3.35e-08,18.829249986559997,1.3687750072959999,-44.687508735999984
3.4e-08,18.844874987519997,1.3672125071999999,-46.25000883199999
3.4500000000000005e-08,18.891749990399997,1.3672125071999999,-46.25000883199999
3.5e-08,18.954249994239998,1.3656500071039999,-44.687508735999984
3.55e-08,18.954249994239998,1.3656500071039999,-44.687508735999984
3.6000000000000005e-08,18.954249994239998,1.3703375073919999,-46.25000883199999
3.65e-08,18.922999992319998,1.371900007488,-49.37500902400001
3.7e-08,18.876124989439997,1.3703375073919999,-46.25000883199999
3.7500000000000005e-08,18.876124989439997,1.3687750072959999,-49.37500902400001
3.8e-08,18.891749990399997,1.3687750072959999,-46.25000883199999
3.85e-08,18.954249994239998,1.3687750072959999,-49.37500902400001
3.9000000000000005e-08,18.954249994239998,1.3687750072959999,-49.37500902400001
3.95e-08,18.954249994239998,1.3703375073919999,-47.812508928
4e-08,18.891749990399997,1.373462507584,-49.37500902400001
4.0500000000000005e-08,18.829249986559997,1.376587507776,-49.37500902400001
4.1e-08,18.813624985599997,1.371900007488,-47.812508928
4.15e-08,18.876124989439997,1.3687750072959999,-50.93750911999999
4.2000000000000006e-08,18.907374991359998,1.3687750072959999,-50.93750911999999
4.2500000000000003e-08,18.938624993279998,1.3703375073919999,-50.93750911999999
4.3e-08,18.969874995199998,1.373462507584,-49.37500902400001
4.3500000000000006e-08,18.907374991359998,1.37502500768,-50.93750911999999
4.4000000000000004e-08,18.844874987519997,1.37502500768,-49.37500902400001
4.45e-08,18.813624985599997,1.373462507584,-52.500009215999995
4.5000000000000006e-08,18.844874987519997,1.3687750072959999,-47.812508928
4.5500000000000004e-08,18.922999992319998,1.3703375073919999,-52.500009215999995
4.6e-08,18.985499996159998,1.3703375073919999,-50.93750911999999
4.6500000000000006e-08,18.969874995199998,1.376587507776,-50.93750911999999
4.7000000000000004e-08,18.876124989439997,1.378150007872,-50.93750911999999
4.75e-08,18.782374983679997,1.37502500768,-50.93750911999999
4.8000000000000006e-08,18.735499980799997,1.371900007488,-50.93750911999999
4.8500000000000004e-08,18.797999984639997,1.371900007488,-52.500009215999995
4.9e-08,18.907374991359998,1.371900007488,-49.37500902400001
4.95e-08,18.985499996159998,1.371900007488,-49.37500902400001
5.0000000000000004e-08,18.969874995199998,1.3703375073919999,-50.93750911999999
5.05e-08,18.860499988479997,1.373462507584,-50.93750911999999
5.1e-08,18.797999984639997,1.37502500768,-49.37500902400001
5.1500000000000005e-08,18.813624985599997,1.3703375073919999,-47.812508928
5.2e-08,18.891749990399997,1.3703375073919999,-49.37500902400001
5.25e-08,18.922999992319998,1.371900007488,-50.93750911999999
5.3000000000000005e-08,18.954249994239998,1.37502500768,-47.812508928
5.35e-08,18.907374991359998,1.376587507776,-49.37500902400001
5.4e-08,18.844874987519997,1.376587507776,-47.812508928
5.4500000000000005e-08,18.782374983679997,1.37502500768,-49.37500902400001
5.5e-08,18.751124981759997,1.37502500768,-47.812508928
5.55e-08,18.813624985599997,1.371900007488,-46.25000883199999
5.6000000000000005e-08,18.876124989439997,1.373462507584,-46.25000883199999
5.65e-08,18.907374991359998,1.37502500768,-46.25000883199999
5.7e-08,18.876124989439997,1.378150007872,-43.125008640000004
5.7500000000000005e-08,18.876124989439997,1.376587507776,-44.687508735999984
5.8e-08,18.876124989439997,1.376587507776,-44.687508735999984
5.85e-08,18.860499988479997,1.37502500768,-44.687508735999984
5.9000000000000006e-08,18.891749990399997,1.373462507584,-43.125008640000004
5.9500000000000003e-08,18.907374991359998,1.371900007488,-43.125008640000004
6.000000000000001e-08,18.938624993279998,1.373462507584,-43.125008640000004
6.05e-08,18.922999992319998,1.37502500768,-43.125008640000004
6.1e-08,18.891749990399997,1.376587507776,-38.43750835200001
6.15e-08,18.844874987519997,1.378150007872,-40.00000844799999
6.2e-08,18.813624985599997,1.378150007872,-40.00000844799999
6.250000000000001e-08,18.813624985599997,1.378150007872,-40.00000844799999
6.300000000000001e-08,18.844874987519997,1.37502500768,-38.43750835200001
6.35e-08,18.876124989439997,1.373462507584,-36.875008256
6.4e-08,18.860499988479997,1.37502500768,-36.875008256
6.45e-08,18.829249986559997,1.37502500768,-38.43750835200001
6.5e-08,18.797999984639997,1.37502500768,-33.750008063999985
6.55e-08,18.813624985599997,1.376587507776,-35.31250815999999
6.600000000000001e-08,18.860499988479997,1.373462507584,-35.31250815999999
6.65e-08,18.922999992319998,1.376587507776,-32.187507968000006
6.7e-08,18.907374991359998,1.379712507968,-29.06250777599999
6.75e-08,18.844874987519997,1.376587507776,-30.625007871999998
6.8e-08,18.813624985599997,1.37502500768,-30.625007871999998
6.85e-08,18.797999984639997,1.37502500768,-30.625007871999998
6.900000000000001e-08,18.829249986559997,1.376587507776,-25.937507584000002
6.950000000000001e-08,18.891749990399997,1.379712507968,-27.500007679999996
7e-08,18.891749990399997,1.381275008064,-25.937507584000002
7.05e-08,18.860499988479997,1.381275008064,-25.937507584000002
7.1e-08,18.782374983679997,1.381275008064,-24.375007487999994
7.15e-08,18.766749982719997,1.376587507776,-25.937507584000002
7.200000000000001e-08,18.766749982719997,1.37502500768,-22.812507392
7.250000000000001e-08,18.829249986559997,1.376587507776,-22.812507392
7.3e-08,18.891749990399997,1.378150007872,-18.12500710399999
7.35e-08,18.922999992319998,1.379712507968,-18.12500710399999
7.4e-08,18.876124989439997,1.381275008064,-19.6875072
7.45e-08,18.813624985599997,1.381275008064,-16.562507007999997
7.500000000000001e-08,18.797999984639997,1.379712507968,-15.000006912000003
7.550000000000001e-08,18.813624985599997,1.378150007872,-15.000006912000003
7.6e-08,18.876124989439997,1.378150007872,-15.000006912000003
7.65e-08,18.876124989439997,1.379712507968,-13.437506815999996
7.7e-08,18.844874987519997,1.379712507968,-11.875006720000002
7.75e-08,18.813624985599997,1.381275008064,-10.312506623999994
7.800000000000001e-08,18.829249986559997,1.381275008064,-8.750006528
7.850000000000001e-08,18.829249986559997,1.381275008064,-8.750006528
7.9e-08,18.813624985599997,1.381275008064,-5.625006335999998
7.95e-08,18.813624985599997,1.379712507968,-7.187506431999992
8e-08,18.813624985599997,1.373462507584,-5.625006335999998
8.05e-08,18.844874987519997,1.376587507776,-4.0625062399999905
8.100000000000001e-08,18.860499988479997,1.379712507968,-0.937506048000003
8.150000000000001e-08,18.891749990399997,1.381275008064,-0.937506048000003
8.2e-08,18.876124989439997,1.381275008064,-0.937506048000003
8.25e-08,18.829249986559997,1.381275008064,0.6249940480000049
8.3e-08,18.829249986559997,1.378150007872,2.1874941439999986
8.35e-08,18.876124989439997,1.378150007872,2.1874941439999986
8.400000000000001e-08,18.891749990399997,1.378150007872,2.1874941439999986
8.450000000000001e-08,18.844874987519997,1.378150007872,2.1874941439999986
8.500000000000001e-08,18.797999984639997,1.378150007872,6.874994432000008
8.55e-08,18.782374983679997,1.379712507968,5.312494336
8.6e-08,18.797999984639997,1.379712507968,8.437494528000002
8.65e-08,18.860499988479997,1.381275008064,9.99999462400001
8.700000000000001e-08,18.876124989439997,1.379712507968,8.437494528000002
8.750000000000001e-08,18.891749990399997,1.376587507776,11.562494720000004
8.800000000000001e-08,18.860499988479997,1.37502500768,11.562494720000004
8.85e-08,18.844874987519997,1.376587507776,11.562494720000004
8.9e-08,18.829249986559997,1.378150007872,16.249995008
8.95e-08,18.876124989439997,1.378150007872,14.687494912000005
9.000000000000001e-08,18.907374991359998,1.378150007872,14.687494912000005
9.050000000000001e-08,18.891749990399997,1.376587507776,16.249995008
9.100000000000001e-08,18.876124989439997,1.37502500768,17.812495104000007
9.15e-08,18.797999984639997,1.373462507584,17.812495104000007
9.2e-08,18.782374983679997,1.376587507776,17.812495104000007
9.25e-08,18.797999984639997,1.376587507776,19.3749952
9.300000000000001e-08,18.813624985599997,1.378150007872,22.499995392000002
9.350000000000001e-08,18.813624985599997,1.379712507968,22.499995392000002
9.400000000000001e-08,18.829249986559997,1.379712507968,24.062495487999996
9.45e-08,18.844874987519997,1.379712507968,24.062495487999996
9.5e-08,18.844874987519997,1.37502500768,25.624995584000004
9.55e-08,18.860499988479997,1.3703375073919999,25.624995584000004
9.600000000000001e-08,18.860499988479997,1.371900007488,27.187495679999998
9.650000000000001e-08,18.891749990399997,1.373462507584,25.624995584000004
9.700000000000001e-08,18.907374991359998,1.37502500768,30.312495872
9.75e-08,18.891749990399997,1.371900007488,30.312495872
9.8e-08,18.860499988479997,1.3703375073919999,30.312495872
9.85e-08,18.860499988479997,1.371900007488,30.312495872
9.9e-08,18.907374991359998,1.37502500768,33.437496064
9.950000000000001e-08,18.876124989439997,1.378150007872,33.437496064
1.0000000000000001e-07,18.860499988479997,1.376587507776,33.437496064
1.005e-07,18.844874987519997,1.373462507584,33.437496064
1.01e-07,18.876124989439997,1.373462507584,34.99999616
1.015e-07,18.876124989439997,1.37502500768,34.99999616
1.02e-07,18.876124989439997,1.376587507776,36.562496256
1.0250000000000001e-07,18.876124989439997,1.37502500768,36.562496256
1.0300000000000001e-07,18.844874987519997,1.373462507584,38.124996352000004
1.0350000000000001e-07,18.876124989439997,1.371900007488,38.124996352000004
1.04e-07,18.876124989439997,1.373462507584,38.124996352000004
1.045e-07,18.876124989439997,1.376587507776,38.124996352000004
1.05e-07,18.844874987519997,1.37502500768,41.249996544
1.0550000000000001e-07,18.829249986559997,1.371900007488,39.687496448000005
1.0600000000000001e-07,18.829249986559997,1.3703375073919999,39.687496448000005
1.0650000000000001e-07,18.844874987519997,1.373462507584,41.249996544
1.07e-07,18.907374991359998,1.371900007488,42.81249664
1.075e-07,18.891749990399997,1.373462507584,41.249996544
1.08e-07,18.860499988479997,1.373462507584,42.81249664
1.0850000000000001e-07,18.797999984639997,1.3703375073919999,41.249996544
1.0900000000000001e-07,18.797999984639997,1.3687750072959999,44.374996736
1.0950000000000001e-07,18.876124989439997,1.371900007488,42.81249664
1.1e-07,18.938624993279998,1.371900007488,44.374996736
1.105e-07,18.954249994239998,1.371900007488,44.374996736
1.11e-07,18.891749990399997,1.3703375073919999,45.937496832
1.1150000000000001e-07,18.844874987519997,1.3672125071999999,45.937496832
1.1200000000000001e-07,18.829249986559997,1.3672125071999999,44.374996736
1.1250000000000001e-07,18.907374991359998,1.3687750072959999,44.374996736
1.13e-07,18.985499996159998,1.371900007488,47.499996928
1.135e-07,18.985499996159998,1.373462507584,47.499996928
1.14e-07,18.891749990399997,1.371900007488,45.937496832
1.1450000000000001e-07,18.797999984639997,1.371900007488,47.499996928
1.1500000000000001e-07,18.782374983679997,1.371900007488,49.062497024
1.1550000000000001e-07,18.860499988479997,1.373462507584,47.499996928
1.16e-07,18.954249994239998,1.373462507584,47.499996928
1.165e-07,18.954249994239998,1.37502500768,45.937496832
1.17e-07,18.876124989439997,1.371900007488,47.499996928
1.1750000000000001e-07,18.782374983679997,1.3703375073919999,47.499996928
1.1800000000000001e-07,18.797999984639997,1.3687750072959999,49.062497024
1.1850000000000001e-07,18.907374991359998,1.3703375073919999,47.499996928
1.1900000000000001e-07,18.969874995199998,1.373462507584,47.499996928
1.195e-07,18.985499996159998,1.373462507584,49.062497024
1.2000000000000002e-07,18.891749990399997,1.371900007488,47.499996928
1.205e-07,18.766749982719997,1.371900007488,49.062497024
1.21e-07,18.751124981759997,1.3687750072959999,49.062497024
1.215e-07,18.876124989439997,1.3687750072959999,47.499996928
1.22e-07,18.954249994239998,1.3672125071999999,47.499996928
1.2250000000000002e-07,18.922999992319998,1.3703375073919999,47.499996928
1.23e-07,18.876124989439997,1.3687750072959999,49.062497024
1.2350000000000001e-07,18.813624985599997,1.3687750072959999,47.499996928
1.24e-07,18.829249986559997,1.3672125071999999,47.499996928
1.245e-07,18.891749990399997,1.3672125071999999,45.937496832
1.2500000000000002e-07,18.954249994239998,1.3672125071999999,47.499996928
1.255e-07,18.954249994239998,1.3687750072959999,45.937496832
1.2600000000000002e-07,18.876124989439997,1.3672125071999999,44.374996736
1.265e-07,18.876124989439997,1.3672125071999999,45.937496832
1.27e-07,18.876124989439997,1.3687750072959999,45.937496832
1.275e-07,18.891749990399997,1.3672125071999999,45.937496832
1.28e-07,18.891749990399997,1.3672125071999999,45.937496832
1.2850000000000002e-07,18.876124989439997,1.3687750072959999,44.374996736
1.29e-07,18.844874987519997,1.3656500071039999,45.937496832
1.2950000000000001e-07,18.860499988479997,1.3656500071039999,44.374996736
1.3e-07,18.891749990399997,1.3672125071999999,42.81249664
1.305e-07,18.938624993279998,1.3687750072959999,42.81249664
1.31e-07,18.907374991359998,1.3703375073919999,42.81249664
1.315e-07,18.829249986559997,1.3687750072959999,42.81249664
1.3200000000000002e-07,18.813624985599997,1.3672125071999999,41.249996544
1.325e-07,18.829249986559997,1.3640875070079999,39.687496448000005
1.33e-07,18.907374991359998,1.3656500071039999,41.249996544
1.335e-07,18.954249994239998,1.3703375073919999,39.687496448000005
1.34e-07,18.907374991359998,1.3703375073919999,41.249996544
1.3450000000000002e-07,18.844874987519997,1.3687750072959999,38.124996352000004
1.35e-07,18.813624985599997,1.3656500071039999,38.124996352000004
1.3550000000000002e-07,18.844874987519997,1.3640875070079999,38.124996352000004
1.36e-07,18.922999992319998,1.3656500071039999,36.562496256
1.365e-07,18.985499996159998,1.3656500071039999,33.437496064
1.37e-07,18.954249994239998,1.3640875070079999,36.562496256
1.375e-07,18.876124989439997,1.3625250069119998,36.562496256
1.3800000000000002e-07,18.829249986559997,1.3609625068159998,34.99999616
1.385e-07,18.844874987519997,1.3640875070079999,34.99999616
1.3900000000000001e-07,18.907374991359998,1.3656500071039999,33.437496064
1.395e-07,18.907374991359998,1.3625250069119998,31.874995968000007
1.4e-07,18.891749990399997,1.3609625068159998,31.874995968000007
1.4050000000000002e-07,18.829249986559997,1.3609625068159998,27.187495679999998
1.41e-07,18.829249986559997,1.3609625068159998,30.312495872
1.4150000000000002e-07,18.860499988479997,1.3625250069119998,28.749995776000006
1.42e-07,18.891749990399997,1.3640875070079999,25.624995584000004
1.425e-07,18.907374991359998,1.3672125071999999,25.624995584000004
1.43e-07,18.891749990399997,1.3656500071039999,25.624995584000004
1.435e-07,18.891749990399997,1.35940000672,24.062495487999996
1.4400000000000002e-07,18.876124989439997,1.35940000672,22.499995392000002
1.445e-07,18.891749990399997,1.3625250069119998,22.499995392000002
1.4500000000000001e-07,18.907374991359998,1.3625250069119998,24.062495487999996
1.455e-07,18.907374991359998,1.3609625068159998,20.93749529600001
1.46e-07,18.891749990399997,1.357837506624,19.3749952
1.4650000000000002e-07,18.876124989439997,1.35940000672,19.3749952
1.47e-07,18.922999992319998,1.3609625068159998,19.3749952
1.4750000000000002e-07,18.907374991359998,1.3625250069119998,17.812495104000007
