Time (s),VIN,IIN,VOUT
0.0,25.461124987519998,1.8369000063360001,20.93749529600001
5e-10,25.55487499328,1.8400250065280002,20.93749529600001
1e-09,25.57049999424,1.8400250065280002,19.3749952
1.5000000000000002e-09,25.52362499136,1.8369000063360001,19.3749952
2e-09,25.476749988479998,1.8369000063360001,16.249995008
2.5e-09,25.476749988479998,1.8384625064320002,14.687494912000005
3.0000000000000004e-09,25.53924999232,1.8400250065280002,13.124994815999997
3.5000000000000003e-09,25.55487499328,1.8384625064320002,14.687494912000005
4e-09,25.53924999232,1.8369000063360001,9.99999462400001
4.500000000000001e-09,25.49237498944,1.8369000063360001,9.99999462400001
5e-09,25.476749988479998,1.8384625064320002,8.437494528000002
5.5000000000000004e-09,25.55487499328,1.844712506816,6.874994432000008
6.000000000000001e-09,25.57049999424,1.8415875066240002,5.312494336
6.5e-09,25.5861249952,1.8384625064320002,5.312494336
7.000000000000001e-09,25.49237498944,1.8369000063360001,2.1874941439999986
7.500000000000001e-09,25.476749988479998,1.8384625064320002,0.6249940480000049
8e-09,25.52362499136,1.8415875066240002,-0.937506048000003
8.5e-09,25.57049999424,1.8415875066240002,-2.5000061439999968
9.000000000000001e-09,25.57049999424,1.8384625064320002,-4.0625062399999905
9.5e-09,25.52362499136,1.8369000063360001,-2.5000061439999968
1e-08,25.52362499136,1.8384625064320002,-5.625006335999998
1.0500000000000001e-08,25.52362499136,1.8415875066240002,-7.187506431999992
1.1000000000000001e-08,25.60174999616,1.8415875066240002,-8.750006528
1.15e-08,25.61737499712,1.8400250065280002,-7.187506431999992
1.2000000000000002e-08,25.61737499712,1.8353375062400001,-11.875006720000002
1.2500000000000001e-08,25.60174999616,1.8369000063360001,-11.875006720000002
1.3e-08,25.57049999424,1.8384625064320002,-15.000006912000003
1.35e-08,25.61737499712,1.8415875066240002,-16.562507007999997
1.4000000000000001e-08,25.60174999616,1.8400250065280002,-18.12500710399999
1.45e-08,25.5861249952,1.8369000063360001,-18.12500710399999
1.5000000000000002e-08,25.55487499328,1.8384625064320002,-21.250007295999993
1.55e-08,25.53924999232,1.8400250065280002,-19.6875072
1.6e-08,25.53924999232,1.8400250065280002,-21.250007295999993
1.6500000000000002e-08,25.57049999424,1.8431500067200002,-24.375007487999994
1.7e-08,25.5861249952,1.844712506816,-25.937507584000002
1.75e-08,25.55487499328,1.8431500067200002,-24.375007487999994
1.8000000000000002e-08,25.55487499328,1.8415875066240002,-29.06250777599999
1.85e-08,25.53924999232,1.8415875066240002,-30.625007871999998
1.9e-08,25.5861249952,1.8400250065280002,-30.625007871999998
1.9500000000000003e-08,25.60174999616,1.8400250065280002,-29.06250777599999
2e-08,25.60174999616,1.8400250065280002,-33.750008063999985
2.05e-08,25.57049999424,1.8400250065280002,-33.750008063999985
2.1000000000000003e-08,25.55487499328,1.8415875066240002,-35.31250815999999
2.15e-08,25.60174999616,1.8431500067200002,-36.875008256
2.2000000000000002e-08,25.63299999808,1.8431500067200002,-36.875008256
2.2500000000000003e-08,25.63299999808,1.8415875066240002,-40.00000844799999
2.3e-08,25.5861249952,1.8415875066240002,-41.562508543999996
2.3500000000000002e-08,25.55487499328,1.8415875066240002,-40.00000844799999
2.4000000000000003e-08,25.55487499328,1.8431500067200002,-41.562508543999996
2.45e-08,25.5861249952,1.8415875066240002,-44.687508735999984
2.5000000000000002e-08,25.60174999616,1.8400250065280002,-43.125008640000004
2.55e-08,25.60174999616,1.8415875066240002,-43.125008640000004
2.6e-08,25.61737499712,1.8400250065280002,-44.687508735999984
2.6500000000000002e-08,25.53924999232,1.8431500067200002,-47.812508928
2.7e-08,25.52362499136,1.844712506816,-49.37500902400001
2.75e-08,25.5861249952,1.8431500067200002,-46.25000883199999
2.8000000000000003e-08,25.67987500096,1.8415875066240002,-50.93750911999999
2.85e-08,25.69550000192,1.8431500067200002,-50.93750911999999
2.9e-08,25.63299999808,1.847837507008,-52.500009215999995
2.9500000000000003e-08,25.57049999424,1.8509625072,-52.500009215999995
3.0000000000000004e-08,25.476749988479998,1.846275006912,-52.500009215999995
3.05e-08,25.461124987519998,1.8415875066240002,-54.062509312
3.1e-08,25.5079999904,1.8431500067200002,-57.18750950399999
3.1500000000000004e-08,25.55487499328,1.846275006912,-55.62500940799998
3.2e-08,25.55487499328,1.847837507008,-55.62500940799998
3.25e-08,25.53924999232,1.849400007104,-58.7500096
3.3000000000000004e-08,25.476749988479998,1.846275006912,-58.7500096
3.35e-08,25.414249984639998,1.8415875066240002,-58.7500096
3.4e-08,25.398624983679998,1.8415875066240002,-60.312509696000006
3.4500000000000005e-08,25.476749988479998,1.844712506816,-60.312509696000006
3.5e-08,25.57049999424,1.847837507008,-61.875009791999986
3.55e-08,25.60174999616,1.844712506816,-60.312509696000006
3.6000000000000005e-08,25.61737499712,1.844712506816,-61.875009791999986
3.65e-08,25.57049999424,1.846275006912,-63.437509887999994
3.7e-08,25.476749988479998,1.849400007104,-63.437509887999994
3.7500000000000005e-08,25.5079999904,1.847837507008,-63.437509887999994
3.8e-08,25.57049999424,1.8415875066240002,-63.437509887999994
3.85e-08,25.60174999616,1.8400250065280002,-63.437509887999994
3.9000000000000005e-08,25.5861249952,1.844712506816,-65.000009984
3.95e-08,25.57049999424,1.8509625072,-63.437509887999994
4e-08,25.53924999232,1.854087507392,-63.437509887999994
4.0500000000000005e-08,25.5079999904,1.852525007296,-66.56251007999998
4.1e-08,25.476749988479998,1.847837507008,-65.000009984
4.15e-08,25.445499986559998,1.844712506816,-65.000009984
4.2000000000000006e-08,25.49237498944,1.846275006912,-65.000009984
4.2500000000000003e-08,25.55487499328,1.852525007296,-66.56251007999998
4.3e-08,25.64862499904,1.855650007488,-66.56251007999998
4.3500000000000006e-08,25.60174999616,1.852525007296,-65.000009984
4.4000000000000004e-08,25.476749988479998,1.849400007104,-66.56251007999998
4.45e-08,25.382999982719998,1.849400007104,-66.56251007999998
4.5000000000000006e-08,25.414249984639998,1.852525007296,-68.12501017599999
4.5500000000000004e-08,25.5861249952,1.855650007488,-66.56251007999998
4.6e-08,25.64862499904,1.852525007296,-66.56251007999998
4.6500000000000006e-08,25.60174999616,1.847837507008,-66.56251007999998
4.7000000000000004e-08,25.461124987519998,1.852525007296,-68.12501017599999
4.75e-08,25.367374981759998,1.852525007296,-66.56251007999998
4.8000000000000006e-08,25.367374981759998,1.854087507392,-66.56251007999998
4.8500000000000004e-08,25.461124987519998,1.8509625072,-66.56251007999998
4.9e-08,25.52362499136,1.847837507008,-66.56251007999998
4.95e-08,25.53924999232,1.846275006912,-65.000009984
5.0000000000000004e-08,25.55487499328,1.849400007104,-65.000009984
5.05e-08,25.52362499136,1.852525007296,-65.000009984
5.1e-08,25.52362499136,1.8509625072,-65.000009984
5.1500000000000005e-08,25.461124987519998,1.847837507008,-63.437509887999994
5.2e-08,25.461124987519998,1.849400007104,-66.56251007999998
5.25e-08,25.49237498944,1.852525007296,-65.000009984
5.3000000000000005e-08,25.55487499328,1.855650007488,-65.000009984
5.35e-08,25.5861249952,1.857212507584,-63.437509887999994
5.4e-08,25.5079999904,1.854087507392,-63.437509887999994
5.4500000000000005e-08,25.445499986559998,1.849400007104,-63.437509887999994
5.5e-08,25.367374981759998,1.8509625072,-63.437509887999994
5.55e-08,25.398624983679998,1.852525007296,-60.312509696000006
5.6000000000000005e-08,25.476749988479998,1.855650007488,-60.312509696000006
5.65e-08,25.53924999232,1.854087507392,-60.312509696000006
5.7e-08,25.52362499136,1.855650007488,-58.7500096
5.7500000000000005e-08,25.49237498944,1.857212507584,-58.7500096
5.8e-08,25.52362499136,1.857212507584,-58.7500096
5.85e-08,25.476749988479998,1.854087507392,-58.7500096
5.9000000000000006e-08,25.414249984639998,1.849400007104,-58.7500096
5.9500000000000003e-08,25.414249984639998,1.847837507008,-54.062509312
6.000000000000001e-08,25.5079999904,1.852525007296,-55.62500940799998
6.05e-08,25.57049999424,1.855650007488,-54.062509312
6.1e-08,25.53924999232,1.854087507392,-54.062509312
6.15e-08,25.49237498944,1.8509625072,-54.062509312
6.2e-08,25.398624983679998,1.846275006912,-52.500009215999995
6.250000000000001e-08,25.398624983679998,1.847837507008,-50.93750911999999
6.300000000000001e-08,25.445499986559998,1.857212507584,-50.93750911999999
6.35e-08,25.476749988479998,1.861900007872,-46.25000883199999
6.4e-08,25.461124987519998,1.860337507776,-47.812508928
6.45e-08,25.429874985599998,1.854087507392,-46.25000883199999
6.5e-08,25.398624983679998,1.852525007296,-44.687508735999984
6.55e-08,25.398624983679998,1.8509625072,-43.125008640000004
6.600000000000001e-08,25.445499986559998,1.854087507392,-41.562508543999996
6.65e-08,25.461124987519998,1.854087507392,-41.562508543999996
6.7e-08,25.445499986559998,1.854087507392,-41.562508543999996
6.75e-08,25.445499986559998,1.8509625072,-38.43750835200001
6.8e-08,25.476749988479998,1.857212507584,-38.43750835200001
6.85e-08,25.49237498944,1.860337507776,-36.875008256
6.900000000000001e-08,25.49237498944,1.863462507968,-36.875008256
6.950000000000001e-08,25.49237498944,1.860337507776,-35.31250815999999
7e-08,25.445499986559998,1.854087507392,-33.750008063999985
7.05e-08,25.429874985599998,1.8509625072,-33.750008063999985
7.1e-08,25.382999982719998,1.854087507392,-32.187507968000006
7.15e-08,25.336124979839997,1.855650007488,-29.06250777599999
7.200000000000001e-08,25.367374981759998,1.855650007488,-27.500007679999996
7.250000000000001e-08,25.429874985599998,1.852525007296,-27.500007679999996
7.3e-08,25.461124987519998,1.852525007296,-27.500007679999996
7.35e-08,25.461124987519998,1.854087507392,-24.375007487999994
7.4e-08,25.49237498944,1.85877500768,-24.375007487999994
7.45e-08,25.445499986559998,1.85877500768,-21.250007295999993
7.500000000000001e-08,25.429874985599998,1.857212507584,-21.250007295999993
7.550000000000001e-08,25.445499986559998,1.855650007488,-16.562507007999997
7.6e-08,25.461124987519998,1.85877500768,-16.562507007999997
7.65e-08,25.445499986559998,1.861900007872,-15.000006912000003
7.7e-08,25.429874985599998,1.865025008064,-15.000006912000003
7.75e-08,25.429874985599998,1.861900007872,-11.875006720000002
7.800000000000001e-08,25.398624983679998,1.855650007488,-11.875006720000002
7.850000000000001e-08,25.382999982719998,1.854087507392,-8.750006528
7.9e-08,25.351749980799998,1.855650007488,-8.750006528
7.95e-08,25.382999982719998,1.857212507584,-5.625006335999998
8e-08,25.445499986559998,1.857212507584,-4.0625062399999905
8.05e-08,25.5079999904,1.855650007488,-4.0625062399999905
8.100000000000001e-08,25.49237498944,1.857212507584,-4.0625062399999905
8.150000000000001e-08,25.414249984639998,1.85877500768,0.6249940480000049
8.2e-08,25.367374981759998,1.860337507776,0.6249940480000049
8.25e-08,25.351749980799998,1.861900007872,2.1874941439999986
8.3e-08,25.414249984639998,1.860337507776,2.1874941439999986
8.35e-08,25.461124987519998,1.85877500768,6.874994432000008
8.400000000000001e-08,25.476749988479998,1.860337507776,5.312494336
8.450000000000001e-08,25.445499986559998,1.860337507776,6.874994432000008
8.500000000000001e-08,25.445499986559998,1.861900007872,8.437494528000002
8.55e-08,25.461124987519998,1.861900007872,9.99999462400001
8.6e-08,25.445499986559998,1.857212507584,11.562494720000004
8.65e-08,25.429874985599998,1.854087507392,13.124994815999997
8.700000000000001e-08,25.429874985599998,1.857212507584,13.124994815999997
8.750000000000001e-08,25.429874985599998,1.85877500768,16.249995008
8.800000000000001e-08,25.429874985599998,1.85877500768,16.249995008
8.85e-08,25.429874985599998,1.857212507584,17.812495104000007
8.9e-08,25.429874985599998,1.857212507584,19.3749952
8.95e-08,25.414249984639998,1.85877500768,22.499995392000002
9.000000000000001e-08,25.445499986559998,1.85877500768,22.499995392000002
9.050000000000001e-08,25.49237498944,1.85877500768,20.93749529600001
9.100000000000001e-08,25.52362499136,1.857212507584,22.499995392000002
9.15e-08,25.461124987519998,1.855650007488,27.187495679999998
9.2e-08,25.414249984639998,1.85877500768,25.624995584000004
9.25e-08,25.398624983679998,1.85877500768,28.749995776000006
9.300000000000001e-08,25.414249984639998,1.85877500768,28.749995776000006
9.350000000000001e-08,25.445499986559998,1.857212507584,30.312495872
9.400000000000001e-08,25.382999982719998,1.855650007488,30.312495872
9.45e-08,25.367374981759998,1.855650007488,33.437496064
9.5e-08,25.367374981759998,1.855650007488,33.437496064
9.55e-08,25.414249984639998,1.855650007488,34.99999616
9.600000000000001e-08,25.429874985599998,1.854087507392,36.562496256
9.650000000000001e-08,25.461124987519998,1.852525007296,38.124996352000004
9.700000000000001e-08,25.5079999904,1.854087507392,38.124996352000004
9.75e-08,25.53924999232,1.855650007488,41.249996544
9.8e-08,25.55487499328,1.855650007488,41.249996544
9.85e-08,25.476749988479998,1.854087507392,41.249996544
9.9e-08,25.445499986559998,1.852525007296,41.249996544
9.950000000000001e-08,25.445499986559998,1.8509625072,45.937496832
1.0000000000000001e-07,25.461124987519998,1.855650007488,44.374996736
1.005e-07,25.461124987519998,1.85877500768,45.937496832
1.01e-07,25.461124987519998,1.860337507776,45.937496832
1.015e-07,25.445499986559998,1.855650007488,47.499996928
1.02e-07,25.429874985599998,1.8509625072,49.062497024
1.0250000000000001e-07,25.461124987519998,1.849400007104,49.062497024
1.0300000000000001e-07,25.49237498944,1.852525007296,49.062497024
1.0350000000000001e-07,25.5079999904,1.854087507392,53.749997312000005
1.04e-07,25.49237498944,1.8509625072,52.187497216000004
1.045e-07,25.476749988479998,1.849400007104,52.187497216000004
1.05e-07,25.414249984639998,1.849400007104,53.749997312000005
1.0550000000000001e-07,25.382999982719998,1.847837507008,53.749997312000005
1.0600000000000001e-07,25.398624983679998,1.849400007104,53.749997312000005
1.0650000000000001e-07,25.445499986559998,1.8509625072,55.312497408
1.07e-07,25.49237498944,1.852525007296,55.312497408
1.075e-07,25.461124987519998,1.847837507008,56.874997504
1.08e-07,25.398624983679998,1.847837507008,56.874997504
1.0850000000000001e-07,25.351749980799998,1.849400007104,56.874997504
1.0900000000000001e-07,25.414249984639998,1.852525007296,56.874997504
1.0950000000000001e-07,25.55487499328,1.849400007104,59.999997696
1.1e-07,25.61737499712,1.844712506816,59.999997696
1.105e-07,25.57049999424,1.8431500067200002,59.999997696
1.11e-07,25.382999982719998,1.8431500067200002,59.999997696
1.1150000000000001e-07,25.30487497792,1.846275006912,61.562497792
1.1200000000000001e-07,25.382999982719998,1.847837507008,61.562497792
1.1250000000000001e-07,25.57049999424,1.846275006912,59.999997696
1.13e-07,25.66425,1.847837507008,61.562497792
1.135e-07,25.5861249952,1.846275006912,61.562497792
1.14e-07,25.445499986559998,1.844712506816,61.562497792
1.1450000000000001e-07,25.398624983679998,1.846275006912,63.124997888
1.1500000000000001e-07,25.49237498944,1.849400007104,63.124997888
1.1550000000000001e-07,25.57049999424,1.849400007104,64.687497984
1.16e-07,25.53924999232,1.8509625072,63.124997888
1.165e-07,25.445499986559998,1.849400007104,63.124997888
1.17e-07,25.429874985599998,1.847837507008,63.124997888
1.1750000000000001e-07,25.461124987519998,1.8509625072,64.687497984
1.1800000000000001e-07,25.52362499136,1.847837507008,64.687497984
1.1850000000000001e-07,25.53924999232,1.847837507008,64.687497984
1.1900000000000001e-07,25.476749988479998,1.847837507008,64.687497984
1.195e-07,25.414249984639998,1.846275006912,66.24999808
1.2000000000000002e-07,25.445499986559998,1.844712506816,64.687497984
1.205e-07,25.55487499328,1.844712506816,63.124997888
1.21e-07,25.5861249952,1.846275006912,64.687497984
1.215e-07,25.55487499328,1.846275006912,64.687497984
1.22e-07,25.5079999904,1.8431500067200002,61.562497792
1.2250000000000002e-07,25.429874985599998,1.8400250065280002,63.124997888
1.23e-07,25.445499986559998,1.8400250065280002,63.124997888
1.2350000000000001e-07,25.461124987519998,1.8400250065280002,64.687497984
1.24e-07,25.49237498944,1.8400250065280002,63.124997888
1.245e-07,25.49237498944,1.8431500067200002,63.124997888
1.2500000000000002e-07,25.476749988479998,1.8431500067200002,63.124997888
1.255e-07,25.52362499136,1.8400250065280002,63.124997888
1.2600000000000002e-07,25.49237498944,1.8400250065280002,61.562497792
1.265e-07,25.5079999904,1.8415875066240002,59.999997696
1.27e-07,25.5079999904,1.8415875066240002,59.999997696
1.275e-07,25.476749988479998,1.8415875066240002,61.562497792
1.28e-07,25.445499986559998,1.8400250065280002,59.999997696
1.2850000000000002e-07,25.476749988479998,1.8400250065280002,58.4374976
1.29e-07,25.5079999904,1.8431500067200002,59.999997696
1.2950000000000001e-07,25.52362499136,1.844712506816,59.999997696
1.3e-07,25.52362499136,1.8431500067200002,58.4374976
1.305e-07,25.461124987519998,1.8400250065280002,58.4374976
1.31e-07,25.445499986559998,1.8384625064320002,56.874997504
1.315e-07,25.429874985599998,1.8415875066240002,58.4374976
1.3200000000000002e-07,25.5079999904,1.8431500067200002,56.874997504
1.325e-07,25.55487499328,1.844712506816,56.874997504
1.33e-07,25.5079999904,1.8415875066240002,53.749997312000005
1.335e-07,25.461124987519998,1.8400250065280002,53.749997312000005
1.34e-07,25.398624983679998,1.8384625064320002,53.749997312000005
1.3450000000000002e-07,25.461124987519998,1.8384625064320002,52.187497216000004
1.35e-07,25.53924999232,1.8415875066240002,50.62499712
1.3550000000000002e-07,25.53924999232,1.8400250065280002,52.187497216000004
1.36e-07,25.49237498944,1.8369000063360001,50.62499712
1.365e-07,25.461124987519998,1.8353375062400001,49.062497024
1.37e-07,25.5079999904,1.8384625064320002,49.062497024
1.375e-07,25.57049999424,1.8384625064320002,47.499996928
1.3800000000000002e-07,25.61737499712,1.8369000063360001,45.937496832
1.385e-07,25.52362499136,1.8353375062400001,42.81249664
1.3900000000000001e-07,25.429874985599998,1.8353375062400001,42.81249664
1.395e-07,25.398624983679998,1.8369000063360001,44.374996736
1.4e-07,25.476749988479998,1.8384625064320002,41.249996544
1.4050000000000002e-07,25.53924999232,1.8384625064320002,39.687496448000005
1.41e-07,25.476749988479998,1.8400250065280002,39.687496448000005
1.4150000000000002e-07,25.414249984639998,1.8384625064320002,38.124996352000004
1.42e-07,25.398624983679998,1.8353375062400001,38.124996352000004
1.425e-07,25.476749988479998,1.8353375062400001,36.562496256
1.43e-07,25.55487499328,1.8384625064320002,33.437496064
1.435e-07,25.55487499328,1.8369000063360001,34.99999616
1.4400000000000002e-07,25.476749988479998,1.8369000063360001,33.437496064
1.445e-07,25.461124987519998,1.8369000063360001,30.312495872
1.4500000000000001e-07,25.5079999904,1.8400250065280002,28.749995776000006
1.455e-07,25.5861249952,1.8384625064320002,28.749995776000006
1.46e-07,25.61737499712,1.8369000063360001,27.187495679999998
1.4650000000000002e-07,25.5079999904,1.8337750061440001,25.624995584000004
1.47e-07,25.445499986559998,1.8337750061440001,24.062495487999996
1.4750000000000002e-07,25.476749988479998,1.8369000063360001,24.062495487999996
1.48e-07,25.53924999232,1.8400250065280002,20.93749529600001
1.485e-07,25.57049999424,1.8384625064320002,19.3749952
1.49e-07,25.53924999232,1.8353375062400001,17.812495104000007
1.495e-07,25.49237498944,1.8369000063360001,16.249995008
1.5000000000000002e-07,25.476749988479998,1.8400250065280002,16.249995008
1.505e-07,25.53924999232,1.8415875066240002,13.124994815999997
1.5100000000000002e-07,25.57049999424,1.8384625064320002,11.562494720000004
1.515e-07,25.55487499328,1.8306500059520001,13.124994815999997
1.52e-07,25.5079999904,1.8322125060480001,9.99999462400001
1.5250000000000002e-07,25.5079999904,1.8384625064320002,8.437494528000002
1.53e-07,25.53924999232,1.8415875066240002,6.874994432000008
1.5350000000000002e-07,25.57049999424,1.8415875066240002,6.874994432000008
1.54e-07,25.55487499328,1.8369000063360001,3.7499942400000066
1.5450000000000001e-07,25.461124987519998,1.8353375062400001,2.1874941439999986
1.55e-07,25.461124987519998,1.8353375062400001,0.6249940480000049
