Time (s),VIN,IIN,VOUT
0.0,27.07587499328,1.959112507008,22.499995392000002
5e-10,27.09149999424,1.955987506816,22.499995392000002
1e-09,27.07587499328,1.955987506816,20.93749529600001
1.5000000000000002e-09,26.99774998848,1.955987506816,17.812495104000007
2e-09,26.99774998848,1.955987506816,16.249995008
2.5e-09,27.04462499136,1.955987506816,16.249995008
3.0000000000000004e-09,27.12274999616,1.957550006912,11.562494720000004
3.5000000000000003e-09,27.09149999424,1.9528625066240002,13.124994815999997
4e-09,27.0289999904,1.9513000065280002,11.562494720000004
4.500000000000001e-09,27.04462499136,1.955987506816,9.99999462400001
5e-09,27.06024999232,1.9622375072,6.874994432000008
5.5000000000000004e-09,27.13837499712,1.960675007104,6.874994432000008
6.000000000000001e-09,27.12274999616,1.959112507008,3.7499942400000066
6.5e-09,27.0289999904,1.955987506816,5.312494336
7.000000000000001e-09,26.98212498752,1.959112507008,2.1874941439999986
7.500000000000001e-09,27.04462499136,1.960675007104,-0.937506048000003
8e-09,27.09149999424,1.9622375072,-0.937506048000003
8.5e-09,27.06024999232,1.957550006912,-0.937506048000003
9.000000000000001e-09,27.04462499136,1.955987506816,-4.0625062399999905
9.5e-09,27.01337498944,1.959112507008,-5.625006335999998
1e-08,27.04462499136,1.959112507008,-8.750006528
1.0500000000000001e-08,27.09149999424,1.960675007104,-7.187506431999992
1.1000000000000001e-08,27.15399999808,1.959112507008,-10.312506623999994
1.15e-08,27.15399999808,1.955987506816,-11.875006720000002
1.2000000000000002e-08,27.12274999616,1.9544250067200002,-13.437506815999996
1.2500000000000001e-08,27.13837499712,1.959112507008,-15.000006912000003
1.3e-08,27.13837499712,1.9622375072,-16.562507007999997
1.35e-08,27.13837499712,1.9622375072,-18.12500710399999
1.4000000000000001e-08,27.1071249952,1.959112507008,-19.6875072
1.45e-08,27.07587499328,1.957550006912,-19.6875072
1.5000000000000002e-08,27.07587499328,1.957550006912,-21.250007295999993
1.55e-08,27.1071249952,1.959112507008,-24.375007487999994
1.6e-08,27.1071249952,1.963800007296,-25.937507584000002
1.6500000000000002e-08,27.09149999424,1.960675007104,-24.375007487999994
1.7e-08,27.1071249952,1.959112507008,-27.500007679999996
1.75e-08,27.06024999232,1.960675007104,-29.06250777599999
1.8000000000000002e-08,27.06024999232,1.960675007104,-30.625007871999998
1.85e-08,27.09149999424,1.9622375072,-29.06250777599999
1.9e-08,27.15399999808,1.9622375072,-32.187507968000006
1.9500000000000003e-08,27.15399999808,1.957550006912,-32.187507968000006
2e-08,27.09149999424,1.957550006912,-36.875008256
2.05e-08,27.07587499328,1.960675007104,-36.875008256
2.1000000000000003e-08,27.07587499328,1.959112507008,-38.43750835200001
2.15e-08,27.13837499712,1.955987506816,-40.00000844799999
2.2000000000000002e-08,27.16962499904,1.955987506816,-40.00000844799999
2.2500000000000003e-08,27.15399999808,1.957550006912,-40.00000844799999
2.3e-08,27.1071249952,1.957550006912,-41.562508543999996
2.3500000000000002e-08,27.09149999424,1.959112507008,-46.25000883199999
2.4000000000000003e-08,27.12274999616,1.9622375072,-44.687508735999984
2.45e-08,27.13837499712,1.960675007104,-46.25000883199999
2.5000000000000002e-08,27.13837499712,1.955987506816,-47.812508928
2.55e-08,27.12274999616,1.955987506816,-50.93750911999999
2.6e-08,27.12274999616,1.960675007104,-50.93750911999999
2.6500000000000002e-08,27.06024999232,1.9622375072,-49.37500902400001
2.7e-08,27.09149999424,1.960675007104,-52.500009215999995
2.75e-08,27.16962499904,1.959112507008,-54.062509312
2.8000000000000003e-08,27.21650000192,1.9622375072,-54.062509312
2.85e-08,27.18525,1.966925007488,-55.62500940799998
2.9e-08,27.13837499712,1.968487507584,-55.62500940799998
2.9500000000000003e-08,27.1071249952,1.965362507392,-55.62500940799998
3.0000000000000004e-08,27.04462499136,1.9622375072,-58.7500096
3.05e-08,27.0289999904,1.960675007104,-57.18750950399999
3.1e-08,27.04462499136,1.963800007296,-58.7500096
3.1500000000000004e-08,27.09149999424,1.966925007488,-60.312509696000006
3.2e-08,27.1071249952,1.968487507584,-60.312509696000006
3.25e-08,27.06024999232,1.965362507392,-58.7500096
3.3000000000000004e-08,26.98212498752,1.9622375072,-61.875009791999986
3.35e-08,26.90399998272,1.9622375072,-63.437509887999994
3.4e-08,26.93524998464,1.963800007296,-63.437509887999994
3.4500000000000005e-08,27.04462499136,1.963800007296,-61.875009791999986
3.5e-08,27.13837499712,1.963800007296,-65.000009984
3.55e-08,27.16962499904,1.963800007296,-66.56251007999998
3.6000000000000005e-08,27.1071249952,1.965362507392,-66.56251007999998
3.65e-08,27.06024999232,1.971612507776,-66.56251007999998
3.7e-08,26.98212498752,1.971612507776,-66.56251007999998
3.7500000000000005e-08,27.06024999232,1.965362507392,-68.12501017599999
3.8e-08,27.1071249952,1.9622375072,-69.687510272
3.85e-08,27.09149999424,1.959112507008,-66.56251007999998
3.9000000000000005e-08,27.07587499328,1.965362507392,-68.12501017599999
3.95e-08,27.09149999424,1.974737507968,-69.687510272
4e-08,27.09149999424,1.979425008256,-69.687510272
4.0500000000000005e-08,27.01337498944,1.973175007872,-68.12501017599999
4.1e-08,26.9508749856,1.966925007488,-69.687510272
4.15e-08,26.93524998464,1.966925007488,-71.250010368
4.2000000000000006e-08,27.0289999904,1.971612507776,-71.250010368
4.2500000000000003e-08,27.13837499712,1.974737507968,-68.12501017599999
4.3e-08,27.16962499904,1.974737507968,-71.250010368
4.3500000000000006e-08,27.07587499328,1.973175007872,-71.250010368
4.4000000000000004e-08,26.9508749856,1.971612507776,-72.81251046399998
4.45e-08,26.93524998464,1.973175007872,-71.250010368
4.5000000000000006e-08,27.0289999904,1.971612507776,-69.687510272
4.5500000000000004e-08,27.15399999808,1.968487507584,-71.250010368
4.6e-08,27.13837499712,1.97005000768,-72.81251046399998
4.6500000000000006e-08,27.0289999904,1.973175007872,-71.250010368
4.7000000000000004e-08,26.90399998272,1.974737507968,-69.687510272
4.75e-08,26.90399998272,1.974737507968,-71.250010368
4.8000000000000006e-08,26.93524998464,1.97005000768,-71.250010368
4.8500000000000004e-08,26.9508749856,1.965362507392,-69.687510272
4.9e-08,26.99774998848,1.963800007296,-71.250010368
4.95e-08,27.04462499136,1.968487507584,-71.250010368
5.0000000000000004e-08,27.09149999424,1.973175007872,-72.81251046399998
5.05e-08,27.07587499328,1.971612507776,-68.12501017599999
5.1e-08,27.01337498944,1.966925007488,-71.250010368
5.1500000000000005e-08,26.9508749856,1.965362507392,-69.687510272
5.2e-08,26.96649998656,1.97005000768,-69.687510272
5.25e-08,27.06024999232,1.976300008064,-69.687510272
5.3000000000000005e-08,27.12274999616,1.97786250816,-68.12501017599999
5.35e-08,27.07587499328,1.973175007872,-68.12501017599999
5.4e-08,26.96649998656,1.97005000768,-68.12501017599999
5.4500000000000005e-08,26.91962498368,1.973175007872,-65.000009984
5.5e-08,26.88837498176,1.976300008064,-65.000009984
5.55e-08,26.9508749856,1.976300008064,-66.56251007999998
5.6000000000000005e-08,27.0289999904,1.976300008064,-65.000009984
5.65e-08,27.0289999904,1.974737507968,-61.875009791999986
5.7e-08,27.04462499136,1.97786250816,-63.437509887999994
5.7500000000000005e-08,27.06024999232,1.980987508352,-63.437509887999994
5.8e-08,27.04462499136,1.979425008256,-61.875009791999986
5.85e-08,26.96649998656,1.97005000768,-60.312509696000006
5.9000000000000006e-08,26.91962498368,1.968487507584,-58.7500096
5.9500000000000003e-08,26.9508749856,1.971612507776,-58.7500096
6.000000000000001e-08,27.04462499136,1.976300008064,-58.7500096
6.05e-08,27.1071249952,1.979425008256,-57.18750950399999
6.1e-08,27.04462499136,1.976300008064,-57.18750950399999
6.15e-08,26.93524998464,1.968487507584,-55.62500940799998
6.2e-08,26.8727499808,1.97005000768,-55.62500940799998
6.250000000000001e-08,26.93524998464,1.974737507968,-54.062509312
6.300000000000001e-08,26.98212498752,1.979425008256,-52.500009215999995
6.35e-08,26.98212498752,1.980987508352,-52.500009215999995
6.4e-08,26.9508749856,1.976300008064,-49.37500902400001
6.45e-08,26.91962498368,1.971612507776,-47.812508928
6.5e-08,26.91962498368,1.97005000768,-46.25000883199999
6.55e-08,26.93524998464,1.976300008064,-47.812508928
6.600000000000001e-08,26.96649998656,1.97786250816,-44.687508735999984
6.65e-08,26.9508749856,1.973175007872,-41.562508543999996
6.7e-08,26.93524998464,1.97005000768,-41.562508543999996
6.75e-08,26.98212498752,1.973175007872,-40.00000844799999
6.8e-08,27.01337498944,1.976300008064,-40.00000844799999
6.85e-08,27.0289999904,1.980987508352,-38.43750835200001
6.900000000000001e-08,26.98212498752,1.97786250816,-38.43750835200001
6.950000000000001e-08,26.98212498752,1.974737507968,-35.31250815999999
7e-08,26.9508749856,1.973175007872,-35.31250815999999
7.05e-08,26.93524998464,1.976300008064,-32.187507968000006
7.1e-08,26.8727499808,1.979425008256,-32.187507968000006
7.15e-08,26.85712497984,1.97786250816,-30.625007871999998
7.200000000000001e-08,26.91962498368,1.973175007872,-29.06250777599999
7.250000000000001e-08,26.96649998656,1.974737507968,-24.375007487999994
7.3e-08,26.99774998848,1.976300008064,-25.937507584000002
7.35e-08,26.98212498752,1.97786250816,-24.375007487999994
7.4e-08,26.98212498752,1.976300008064,-24.375007487999994
7.45e-08,26.9508749856,1.973175007872,-19.6875072
7.500000000000001e-08,26.98212498752,1.971612507776,-21.250007295999993
7.550000000000001e-08,26.98212498752,1.973175007872,-16.562507007999997
7.6e-08,26.98212498752,1.980987508352,-18.12500710399999
7.65e-08,26.9508749856,1.9856750086400001,-16.562507007999997
7.7e-08,26.93524998464,1.980987508352,-15.000006912000003
7.75e-08,26.9508749856,1.973175007872,-13.437506815999996
7.800000000000001e-08,26.93524998464,1.971612507776,-11.875006720000002
7.850000000000001e-08,26.90399998272,1.974737507968,-8.750006528
7.9e-08,26.85712497984,1.979425008256,-7.187506431999992
7.95e-08,26.91962498368,1.979425008256,-7.187506431999992
8e-08,27.01337498944,1.97786250816,-5.625006335999998
8.05e-08,27.01337498944,1.974737507968,-0.937506048000003
8.100000000000001e-08,26.96649998656,1.976300008064,-0.937506048000003
8.150000000000001e-08,26.90399998272,1.979425008256,0.6249940480000049
8.2e-08,26.8727499808,1.976300008064,0.6249940480000049
8.25e-08,26.91962498368,1.974737507968,5.312494336
8.3e-08,26.9508749856,1.974737507968,3.7499942400000066
8.35e-08,26.9508749856,1.974737507968,6.874994432000008
8.400000000000001e-08,26.9508749856,1.976300008064,6.874994432000008
8.450000000000001e-08,26.9508749856,1.974737507968,9.99999462400001
8.500000000000001e-08,26.93524998464,1.971612507776,9.99999462400001
8.55e-08,26.9508749856,1.97005000768,11.562494720000004
8.6e-08,26.93524998464,1.974737507968,11.562494720000004
8.65e-08,26.93524998464,1.976300008064,16.249995008
8.700000000000001e-08,26.93524998464,1.976300008064,16.249995008
8.750000000000001e-08,26.96649998656,1.976300008064,17.812495104000007
8.800000000000001e-08,26.93524998464,1.976300008064,17.812495104000007
8.85e-08,26.91962498368,1.976300008064,20.93749529600001
8.9e-08,26.91962498368,1.979425008256,20.93749529600001
8.95e-08,26.91962498368,1.97786250816,22.499995392000002
9.000000000000001e-08,26.98212498752,1.976300008064,24.062495487999996
9.050000000000001e-08,26.99774998848,1.974737507968,27.187495679999998
9.100000000000001e-08,26.99774998848,1.973175007872,27.187495679999998
9.15e-08,26.93524998464,1.973175007872,28.749995776000006
9.2e-08,26.93524998464,1.974737507968,28.749995776000006
9.25e-08,26.9508749856,1.974737507968,30.312495872
9.300000000000001e-08,26.93524998464,1.971612507776,33.437496064
9.350000000000001e-08,26.91962498368,1.968487507584,33.437496064
9.400000000000001e-08,26.8727499808,1.968487507584,33.437496064
9.45e-08,26.8727499808,1.97005000768,38.124996352000004
9.5e-08,26.88837498176,1.97005000768,36.562496256
9.55e-08,26.9508749856,1.97005000768,38.124996352000004
9.600000000000001e-08,26.96649998656,1.968487507584,39.687496448000005
9.650000000000001e-08,26.96649998656,1.97005000768,41.249996544
9.700000000000001e-08,27.0289999904,1.97005000768,41.249996544
9.75e-08,27.06024999232,1.97005000768,42.81249664
9.8e-08,27.04462499136,1.968487507584,41.249996544
9.85e-08,26.98212498752,1.963800007296,45.937496832
9.9e-08,26.9508749856,1.966925007488,44.374996736
9.950000000000001e-08,26.9508749856,1.97005000768,47.499996928
1.0000000000000001e-07,26.98212498752,1.974737507968,45.937496832
1.005e-07,26.98212498752,1.973175007872,47.499996928
1.01e-07,26.93524998464,1.968487507584,49.062497024
1.015e-07,26.91962498368,1.963800007296,50.62499712
1.02e-07,26.9508749856,1.963800007296,49.062497024
1.0250000000000001e-07,26.99774998848,1.965362507392,52.187497216000004
1.0300000000000001e-07,27.01337498944,1.966925007488,52.187497216000004
1.0350000000000001e-07,27.0289999904,1.966925007488,53.749997312000005
1.04e-07,27.01337498944,1.963800007296,55.312497408
1.045e-07,26.96649998656,1.965362507392,58.4374976
1.05e-07,26.93524998464,1.966925007488,56.874997504
1.0550000000000001e-07,26.88837498176,1.966925007488,56.874997504
1.0600000000000001e-07,26.91962498368,1.965362507392,58.4374976
1.0650000000000001e-07,26.96649998656,1.9622375072,59.999997696
1.07e-07,27.01337498944,1.965362507392,58.4374976
1.075e-07,26.96649998656,1.968487507584,59.999997696
1.08e-07,26.8727499808,1.97005000768,59.999997696
1.0850000000000001e-07,26.85712497984,1.968487507584,61.562497792
1.0900000000000001e-07,26.9508749856,1.965362507392,61.562497792
1.0950000000000001e-07,27.09149999424,1.963800007296,63.124997888
1.1e-07,27.15399999808,1.963800007296,59.999997696
1.105e-07,27.0289999904,1.9622375072,63.124997888
1.11e-07,26.82587497792,1.960675007104,63.124997888
1.1150000000000001e-07,26.81024997696,1.9622375072,64.687497984
1.1200000000000001e-07,26.96649998656,1.965362507392,64.687497984
1.1250000000000001e-07,27.13837499712,1.965362507392,64.687497984
1.13e-07,27.16962499904,1.966925007488,64.687497984
1.135e-07,27.04462499136,1.968487507584,64.687497984
1.14e-07,26.91962498368,1.965362507392,63.124997888
1.1450000000000001e-07,26.93524998464,1.966925007488,67.812498176
1.1500000000000001e-07,27.04462499136,1.965362507392,66.24999808
1.1550000000000001e-07,27.09149999424,1.966925007488,66.24999808
1.16e-07,26.99774998848,1.968487507584,64.687497984
1.165e-07,26.93524998464,1.968487507584,66.24999808
1.17e-07,26.91962498368,1.966925007488,66.24999808
1.1750000000000001e-07,26.98212498752,1.965362507392,66.24999808
1.1800000000000001e-07,27.01337498944,1.966925007488,66.24999808
1.1850000000000001e-07,26.99774998848,1.965362507392,69.374998272
1.1900000000000001e-07,26.96649998656,1.965362507392,66.24999808
1.195e-07,26.98212498752,1.963800007296,67.812498176
1.2000000000000002e-07,27.04462499136,1.9622375072,69.374998272
1.205e-07,27.07587499328,1.963800007296,67.812498176
1.21e-07,27.06024999232,1.963800007296,67.812498176
1.215e-07,27.01337498944,1.9622375072,66.24999808
1.22e-07,26.98212498752,1.959112507008,66.24999808
1.2250000000000002e-07,26.98212498752,1.957550006912,67.812498176
1.23e-07,26.98212498752,1.959112507008,66.24999808
1.2350000000000001e-07,26.99774998848,1.959112507008,66.24999808
1.24e-07,26.96649998656,1.960675007104,64.687497984
1.245e-07,26.98212498752,1.960675007104,66.24999808
1.2500000000000002e-07,26.98212498752,1.957550006912,66.24999808
1.255e-07,27.0289999904,1.957550006912,64.687497984
1.2600000000000002e-07,27.0289999904,1.959112507008,63.124997888
1.265e-07,27.04462499136,1.963800007296,66.24999808
1.27e-07,27.0289999904,1.960675007104,66.24999808
1.275e-07,27.01337498944,1.957550006912,63.124997888
1.28e-07,26.98212498752,1.955987506816,64.687497984
1.2850000000000002e-07,26.98212498752,1.959112507008,64.687497984
1.29e-07,27.0289999904,1.9622375072,63.124997888
1.2950000000000001e-07,27.04462499136,1.9622375072,63.124997888
1.3e-07,27.07587499328,1.959112507008,59.999997696
1.305e-07,27.01337498944,1.957550006912,61.562497792
1.31e-07,26.96649998656,1.959112507008,58.4374976
1.315e-07,26.96649998656,1.960675007104,58.4374976
1.3200000000000002e-07,27.01337498944,1.960675007104,55.312497408
1.325e-07,27.07587499328,1.9622375072,58.4374976
1.33e-07,27.04462499136,1.959112507008,56.874997504
1.335e-07,26.96649998656,1.955987506816,56.874997504
1.34e-07,26.9508749856,1.960675007104,55.312497408
1.3450000000000002e-07,27.01337498944,1.959112507008,55.312497408
1.35e-07,27.04462499136,1.957550006912,52.187497216000004
1.3550000000000002e-07,27.04462499136,1.9544250067200002,50.62499712
1.36e-07,26.99774998848,1.955987506816,49.062497024
1.365e-07,27.01337498944,1.959112507008,52.187497216000004
1.37e-07,27.09149999424,1.960675007104,49.062497024
1.375e-07,27.12274999616,1.959112507008,47.499996928
1.3800000000000002e-07,27.09149999424,1.955987506816,45.937496832
1.385e-07,26.96649998656,1.9528625066240002,47.499996928
1.3900000000000001e-07,26.93524998464,1.955987506816,45.937496832
1.395e-07,26.96649998656,1.955987506816,44.374996736
1.4e-07,27.04462499136,1.955987506816,42.81249664
1.4050000000000002e-07,27.04462499136,1.955987506816,42.81249664
1.41e-07,26.9508749856,1.9544250067200002,41.249996544
1.4150000000000002e-07,26.91962498368,1.955987506816,38.124996352000004
1.42e-07,26.9508749856,1.959112507008,36.562496256
1.425e-07,27.04462499136,1.959112507008,38.124996352000004
1.43e-07,27.06024999232,1.9544250067200002,36.562496256
1.435e-07,27.04462499136,1.9528625066240002,34.99999616
1.4400000000000002e-07,26.99774998848,1.9544250067200002,33.437496064
1.445e-07,27.0289999904,1.955987506816,31.874995968000007
1.4500000000000001e-07,27.13837499712,1.9544250067200002,30.312495872
1.455e-07,27.13837499712,1.9513000065280002,27.187495679999998
1.46e-07,27.07587499328,1.9513000065280002,25.624995584000004
1.4650000000000002e-07,26.96649998656,1.9513000065280002,25.624995584000004
1.47e-07,26.99774998848,1.9544250067200002,24.062495487999996
1.4750000000000002e-07,27.09149999424,1.955987506816,24.062495487999996
1.48e-07,27.1071249952,1.9544250067200002,20.93749529600001
1.485e-07,27.07587499328,1.9528625066240002,19.3749952
1.49e-07,26.98212498752,1.9528625066240002,19.3749952
1.495e-07,26.98212498752,1.9528625066240002,16.249995008
1.5000000000000002e-07,27.06024999232,1.955987506816,14.687494912000005
1.505e-07,27.1071249952,1.9544250067200002,14.687494912000005
1.5100000000000002e-07,27.07587499328,1.9497375064320002,13.124994815999997
1.515e-07,27.04462499136,1.9497375064320002,11.562494720000004
1.52e-07,27.0289999904,1.9528625066240002,8.437494528000002
1.5250000000000002e-07,27.06024999232,1.957550006912,8.437494528000002
1.53e-07,27.12274999616,1.957550006912,6.874994432000008
1.5350000000000002e-07,27.12274999616,1.955987506816,3.7499942400000066
1.54e-07,27.04462499136,1.9528625066240002,2.1874941439999986
1.5450000000000001e-07,26.96649998656,1.955987506816,3.7499942400000066
1.55e-07,27.0289999904,1.955987506816,0.6249940480000049
1.555e-07,27.07587499328,1.955987506816,-0.937506048000003
1.5600000000000002e-07,27.07587499328,1.9544250067200002,-2.5000061439999968
1.565e-07,27.06024999232,1.955987506816,-4.0625062399999905
1.5700000000000002e-07,27.01337498944,1.957550006912,-7.187506431999992
1.575e-07,27.0289999904,1.960675007104,-7.187506431999992
1.58e-07,27.1071249952,1.9622375072,-8.750006528
1.5850000000000002e-07,27.16962499904,1.955987506816,-8.750006528
1.59e-07,27.12274999616,1.9528625066240002,-11.875006720000002
1.5950000000000002e-07,27.13837499712,1.9528625066240002,-13.437506815999996
1.6e-07,27.13837499712,1.957550006912,-15.000006912000003
1.6050000000000001e-07,27.13837499712,1.960675007104,-13.437506815999996
1.61e-07,27.15399999808,1.960675007104,-18.12500710399999
1.615e-07,27.1071249952,1.959112507008,-19.6875072
1.6200000000000002e-07,27.07587499328,1.959112507008,-22.812507392
1.625e-07,27.06024999232,1.960675007104,-21.250007295999993
1.6300000000000002e-07,27.09149999424,1.963800007296,-24.375007487999994
1.635e-07,27.09149999424,1.9622375072,-24.375007487999994
1.64e-07,27.09149999424,1.9622375072,-27.500007679999996
