Time (s),VIN,IIN,VOUT
0.0,27.64012499712,1.993700006912,22.499995392000002
5e-10,27.59324999424,1.9921375068159999,24.062495487999996
1e-09,27.5307499904,1.9921375068159999,19.3749952
1.5000000000000002e-09,27.51512498944,1.9905750067199999,17.812495104000007
2e-09,27.5307499904,1.9921375068159999,17.812495104000007
2.5e-09,27.6088749952,1.993700006912,17.812495104000007
3.0000000000000004e-09,27.59324999424,1.995262507008,14.687494912000005
3.5000000000000003e-09,27.54637499136,1.993700006912,13.124994815999997
4e-09,27.51512498944,1.9921375068159999,9.99999462400001
4.500000000000001e-09,27.57762499328,1.993700006912,11.562494720000004
5e-09,27.64012499712,2.001512507392,6.874994432000008
5.5000000000000004e-09,27.62449999616,2.001512507392,8.437494528000002
6.000000000000001e-09,27.56199999232,1.999950007296,5.312494336
6.5e-09,27.48387498752,1.996825007104,3.7499942400000066
7.000000000000001e-09,27.54637499136,1.995262507008,3.7499942400000066
7.500000000000001e-09,27.59324999424,1.993700006912,0.6249940480000049
8e-09,27.6088749952,1.996825007104,-0.937506048000003
8.5e-09,27.54637499136,1.996825007104,-0.937506048000003
9.000000000000001e-09,27.54637499136,1.995262507008,-2.5000061439999968
9.5e-09,27.5307499904,1.995262507008,-7.187506431999992
1e-08,27.57762499328,1.9983875072,-5.625006335999998
1.0500000000000001e-08,27.67137499904,2.001512507392,-5.625006335999998
1.1000000000000001e-08,27.67137499904,1.9983875072,-8.750006528
1.15e-08,27.65574999808,1.996825007104,-11.875006720000002
1.2000000000000002e-08,27.64012499712,1.996825007104,-13.437506815999996
1.2500000000000001e-08,27.65574999808,1.999950007296,-13.437506815999996
1.3e-08,27.65574999808,2.003075007488,-16.562507007999997
1.35e-08,27.62449999616,2.003075007488,-16.562507007999997
1.4000000000000001e-08,27.6088749952,1.9983875072,-21.250007295999993
1.45e-08,27.57762499328,1.995262507008,-21.250007295999993
1.5000000000000002e-08,27.62449999616,1.995262507008,-22.812507392
1.55e-08,27.62449999616,2.001512507392,-24.375007487999994
1.6e-08,27.62449999616,2.004637507584,-25.937507584000002
1.6500000000000002e-08,27.6088749952,2.001512507392,-24.375007487999994
1.7e-08,27.59324999424,1.9983875072,-27.500007679999996
1.75e-08,27.59324999424,1.996825007104,-29.06250777599999
1.8000000000000002e-08,27.59324999424,1.999950007296,-30.625007871999998
1.85e-08,27.65574999808,2.003075007488,-30.625007871999998
1.9e-08,27.67137499904,2.001512507392,-33.750008063999985
1.9500000000000003e-08,27.64012499712,1.999950007296,-35.31250815999999
2e-08,27.57762499328,1.999950007296,-36.875008256
2.05e-08,27.56199999232,2.001512507392,-35.31250815999999
2.1000000000000003e-08,27.62449999616,2.004637507584,-38.43750835200001
2.15e-08,27.687,2.004637507584,-38.43750835200001
2.2000000000000002e-08,27.687,2.003075007488,-41.562508543999996
2.2500000000000003e-08,27.62449999616,1.999950007296,-43.125008640000004
2.3e-08,27.6088749952,1.999950007296,-44.687508735999984
2.3500000000000002e-08,27.6088749952,1.999950007296,-44.687508735999984
2.4000000000000003e-08,27.65574999808,2.001512507392,-46.25000883199999
2.45e-08,27.64012499712,1.999950007296,-46.25000883199999
2.5000000000000002e-08,27.64012499712,1.9983875072,-47.812508928
2.55e-08,27.64012499712,1.9983875072,-49.37500902400001
2.6e-08,27.6088749952,2.003075007488,-50.93750911999999
2.6500000000000002e-08,27.59324999424,2.001512507392,-50.93750911999999
2.7e-08,27.64012499712,1.9983875072,-52.500009215999995
2.75e-08,27.71825000192,1.9983875072,-54.062509312
2.8000000000000003e-08,27.70262500096,1.9983875072,-55.62500940799998
2.85e-08,27.64012499712,2.001512507392,-52.500009215999995
2.9e-08,27.62449999616,2.009325007872,-55.62500940799998
2.9500000000000003e-08,27.54637499136,2.004637507584,-55.62500940799998
3.0000000000000004e-08,27.5307499904,1.999950007296,-58.7500096
3.05e-08,27.51512498944,1.9983875072,-57.18750950399999
3.1e-08,27.57762499328,2.001512507392,-58.7500096
3.1500000000000004e-08,27.57762499328,2.00620000768,-60.312509696000006
3.2e-08,27.59324999424,2.007762507776,-61.875009791999986
3.25e-08,27.51512498944,2.004637507584,-60.312509696000006
3.3000000000000004e-08,27.43699998464,2.001512507392,-61.875009791999986
3.35e-08,27.43699998464,2.001512507392,-65.000009984
3.4e-08,27.49949998848,2.003075007488,-63.437509887999994
3.4500000000000005e-08,27.64012499712,2.004637507584,-65.000009984
3.5e-08,27.67137499904,2.003075007488,-66.56251007999998
3.55e-08,27.64012499712,2.001512507392,-65.000009984
3.6000000000000005e-08,27.56199999232,2.003075007488,-68.12501017599999
3.65e-08,27.5307499904,2.007762507776,-65.000009984
3.7e-08,27.54637499136,2.010887507968,-68.12501017599999
3.7500000000000005e-08,27.59324999424,2.003075007488,-68.12501017599999
3.8e-08,27.59324999424,1.9983875072,-69.687510272
3.85e-08,27.56199999232,1.9983875072,-68.12501017599999
3.9000000000000005e-08,27.59324999424,2.00620000768,-69.687510272
3.95e-08,27.57762499328,2.01401250816,-69.687510272
4e-08,27.5307499904,2.017137508352,-71.250010368
4.0500000000000005e-08,27.46824998656,2.012450008064,-68.12501017599999
4.1e-08,27.4526249856,2.007762507776,-69.687510272
4.15e-08,27.48387498752,2.007762507776,-71.250010368
4.2000000000000006e-08,27.6088749952,2.012450008064,-69.687510272
4.2500000000000003e-08,27.70262500096,2.015575008256,-71.250010368
4.3e-08,27.6088749952,2.015575008256,-71.250010368
4.3500000000000006e-08,27.48387498752,2.01401250816,-71.250010368
4.4000000000000004e-08,27.40574998272,2.015575008256,-72.81251046399998
4.45e-08,27.48387498752,2.018700008448,-69.687510272
4.5000000000000006e-08,27.64012499712,2.020262508544,-71.250010368
4.5500000000000004e-08,27.67137499904,2.015575008256,-71.250010368
4.6e-08,27.57762499328,2.012450008064,-71.250010368
4.6500000000000006e-08,27.43699998464,2.012450008064,-71.250010368
4.7000000000000004e-08,27.40574998272,2.015575008256,-72.81251046399998
4.75e-08,27.40574998272,2.015575008256,-72.81251046399998
4.8000000000000006e-08,27.4526249856,2.01401250816,-74.37501055999999
4.8500000000000004e-08,27.46824998656,2.009325007872,-69.687510272
4.9e-08,27.54637499136,2.00620000768,-69.687510272
4.95e-08,27.57762499328,2.010887507968,-71.250010368
5.0000000000000004e-08,27.57762499328,2.015575008256,-71.250010368
5.05e-08,27.54637499136,2.01401250816,-69.687510272
5.1e-08,27.4526249856,2.007762507776,-69.687510272
5.1500000000000005e-08,27.43699998464,2.007762507776,-71.250010368
5.2e-08,27.51512498944,2.012450008064,-71.250010368
5.25e-08,27.64012499712,2.017137508352,-66.56251007999998
5.3000000000000005e-08,27.6088749952,2.020262508544,-69.687510272
5.35e-08,27.49949998848,2.015575008256,-69.687510272
5.4e-08,27.43699998464,2.01401250816,-69.687510272
5.4500000000000005e-08,27.40574998272,2.015575008256,-66.56251007999998
5.5e-08,27.4526249856,2.018700008448,-68.12501017599999
5.55e-08,27.49949998848,2.018700008448,-66.56251007999998
5.6000000000000005e-08,27.54637499136,2.020262508544,-66.56251007999998
5.65e-08,27.5307499904,2.018700008448,-61.875009791999986
5.7e-08,27.54637499136,2.017137508352,-63.437509887999994
5.7500000000000005e-08,27.56199999232,2.017137508352,-61.875009791999986
5.8e-08,27.49949998848,2.020262508544,-61.875009791999986
5.85e-08,27.43699998464,2.015575008256,-60.312509696000006
5.9000000000000006e-08,27.43699998464,2.010887507968,-61.875009791999986
5.9500000000000003e-08,27.5307499904,2.012450008064,-60.312509696000006
6.000000000000001e-08,27.59324999424,2.017137508352,-60.312509696000006
6.05e-08,27.57762499328,2.017137508352,-55.62500940799998
6.1e-08,27.46824998656,2.017137508352,-58.7500096
6.15e-08,27.40574998272,2.010887507968,-55.62500940799998
6.2e-08,27.43699998464,2.012450008064,-54.062509312
6.250000000000001e-08,27.48387498752,2.015575008256,-52.500009215999995
6.300000000000001e-08,27.49949998848,2.018700008448,-52.500009215999995
6.35e-08,27.4526249856,2.015575008256,-52.500009215999995
6.4e-08,27.4526249856,2.01401250816,-50.93750911999999
6.45e-08,27.43699998464,2.012450008064,-47.812508928
6.5e-08,27.46824998656,2.010887507968,-47.812508928
6.55e-08,27.48387498752,2.015575008256,-47.812508928
6.600000000000001e-08,27.4526249856,2.015575008256,-44.687508735999984
6.65e-08,27.43699998464,2.017137508352,-41.562508543999996
6.7e-08,27.46824998656,2.015575008256,-43.125008640000004
6.75e-08,27.5307499904,2.015575008256,-41.562508543999996
6.8e-08,27.51512498944,2.017137508352,-41.562508543999996
6.85e-08,27.49949998848,2.02182500864,-36.875008256
6.900000000000001e-08,27.48387498752,2.02182500864,-38.43750835200001
6.950000000000001e-08,27.46824998656,2.015575008256,-35.31250815999999
7e-08,27.4526249856,2.01401250816,-35.31250815999999
7.05e-08,27.39012498176,2.01401250816,-35.31250815999999
7.1e-08,27.3744999808,2.017137508352,-32.187507968000006
7.15e-08,27.40574998272,2.020262508544,-30.625007871999998
7.200000000000001e-08,27.46824998656,2.017137508352,-29.06250777599999
7.250000000000001e-08,27.49949998848,2.01401250816,-25.937507584000002
7.3e-08,27.51512498944,2.015575008256,-25.937507584000002
7.35e-08,27.48387498752,2.020262508544,-24.375007487999994
7.4e-08,27.46824998656,2.02182500864,-21.250007295999993
7.45e-08,27.49949998848,2.018700008448,-19.6875072
7.500000000000001e-08,27.49949998848,2.012450008064,-19.6875072
7.550000000000001e-08,27.48387498752,2.01401250816,-18.12500710399999
7.6e-08,27.4526249856,2.018700008448,-18.12500710399999
7.65e-08,27.43699998464,2.024950008832,-13.437506815999996
7.7e-08,27.43699998464,2.023387508736,-15.000006912000003
7.75e-08,27.42137498368,2.015575008256,-10.312506623999994
7.800000000000001e-08,27.42137498368,2.012450008064,-11.875006720000002
7.850000000000001e-08,27.3744999808,2.01401250816,-10.312506623999994
7.9e-08,27.40574998272,2.017137508352,-7.187506431999992
7.95e-08,27.46824998656,2.020262508544,-7.187506431999992
8e-08,27.51512498944,2.020262508544,-4.0625062399999905
8.05e-08,27.48387498752,2.017137508352,-0.937506048000003
8.100000000000001e-08,27.42137498368,2.017137508352,-0.937506048000003
8.150000000000001e-08,27.3744999808,2.018700008448,-0.937506048000003
8.2e-08,27.39012498176,2.018700008448,2.1874941439999986
8.25e-08,27.4526249856,2.015575008256,3.7499942400000066
8.3e-08,27.46824998656,2.010887507968,5.312494336
8.35e-08,27.48387498752,2.01401250816,5.312494336
8.400000000000001e-08,27.4526249856,2.017137508352,6.874994432000008
8.450000000000001e-08,27.43699998464,2.017137508352,9.99999462400001
8.500000000000001e-08,27.4526249856,2.018700008448,9.99999462400001
8.55e-08,27.4526249856,2.015575008256,13.124994815999997
8.6e-08,27.4526249856,2.01401250816,13.124994815999997
8.65e-08,27.43699998464,2.017137508352,16.249995008
8.700000000000001e-08,27.4526249856,2.02182500864,17.812495104000007
8.750000000000001e-08,27.4526249856,2.020262508544,19.3749952
8.800000000000001e-08,27.43699998464,2.017137508352,19.3749952
8.85e-08,27.42137498368,2.015575008256,22.499995392000002
8.9e-08,27.43699998464,2.017137508352,22.499995392000002
8.95e-08,27.46824998656,2.018700008448,22.499995392000002
9.000000000000001e-08,27.51512498944,2.017137508352,24.062495487999996
9.050000000000001e-08,27.5307499904,2.012450008064,27.187495679999998
9.100000000000001e-08,27.46824998656,2.010887507968,27.187495679999998
9.15e-08,27.43699998464,2.01401250816,28.749995776000006
9.2e-08,27.43699998464,2.020262508544,28.749995776000006
9.25e-08,27.4526249856,2.02182500864,33.437496064
9.300000000000001e-08,27.42137498368,2.020262508544,33.437496064
9.350000000000001e-08,27.3744999808,2.01401250816,34.99999616
9.400000000000001e-08,27.3744999808,2.01401250816,34.99999616
9.45e-08,27.39012498176,2.017137508352,34.99999616
9.5e-08,27.4526249856,2.018700008448,38.124996352000004
9.55e-08,27.46824998656,2.015575008256,38.124996352000004
9.600000000000001e-08,27.46824998656,2.012450008064,38.124996352000004
9.650000000000001e-08,27.51512498944,2.012450008064,44.374996736
9.700000000000001e-08,27.57762499328,2.01401250816,42.81249664
9.75e-08,27.57762499328,2.01401250816,44.374996736
9.8e-08,27.49949998848,2.012450008064,45.937496832
9.85e-08,27.4526249856,2.007762507776,47.499996928
9.9e-08,27.4526249856,2.00620000768,45.937496832
9.950000000000001e-08,27.49949998848,2.010887507968,47.499996928
1.0000000000000001e-07,27.48387498752,2.017137508352,47.499996928
1.005e-07,27.4526249856,2.015575008256,50.62499712
1.01e-07,27.42137498368,2.010887507968,50.62499712
1.015e-07,27.46824998656,2.003075007488,53.749997312000005
1.02e-07,27.49949998848,2.001512507392,53.749997312000005
1.0250000000000001e-07,27.5307499904,2.00620000768,53.749997312000005
1.0300000000000001e-07,27.54637499136,2.009325007872,55.312497408
1.0350000000000001e-07,27.5307499904,2.007762507776,55.312497408
1.04e-07,27.49949998848,2.004637507584,55.312497408
1.045e-07,27.4526249856,2.001512507392,58.4374976
1.05e-07,27.42137498368,2.003075007488,58.4374976
1.0550000000000001e-07,27.43699998464,2.009325007872,59.999997696
1.0600000000000001e-07,27.48387498752,2.010887507968,59.999997696
1.0650000000000001e-07,27.54637499136,2.007762507776,61.562497792
1.07e-07,27.49949998848,2.004637507584,59.999997696
1.075e-07,27.42137498368,2.004637507584,61.562497792
1.08e-07,27.35887497984,2.00620000768,61.562497792
1.0850000000000001e-07,27.42137498368,2.009325007872,63.124997888
1.0900000000000001e-07,27.57762499328,2.009325007872,64.687497984
1.0950000000000001e-07,27.65574999808,2.00620000768,64.687497984
1.1e-07,27.59324999424,2.004637507584,63.124997888
1.105e-07,27.40574998272,2.00620000768,64.687497984
1.11e-07,27.327624977920003,2.003075007488,66.24999808
1.1150000000000001e-07,27.43699998464,2.001512507392,64.687497984
1.1200000000000001e-07,27.64012499712,2.003075007488,66.24999808
1.1250000000000001e-07,27.687,2.007762507776,67.812498176
1.13e-07,27.59324999424,2.007762507776,67.812498176
1.135e-07,27.4526249856,2.007762507776,66.24999808
1.14e-07,27.42137498368,2.007762507776,67.812498176
1.1450000000000001e-07,27.54637499136,2.00620000768,67.812498176
1.1500000000000001e-07,27.6088749952,2.00620000768,67.812498176
1.1550000000000001e-07,27.56199999232,2.00620000768,67.812498176
1.16e-07,27.4526249856,2.007762507776,66.24999808
1.165e-07,27.43699998464,2.010887507968,69.374998272
1.17e-07,27.48387498752,2.012450008064,69.374998272
1.1750000000000001e-07,27.49949998848,2.009325007872,69.374998272
1.1800000000000001e-07,27.49949998848,2.007762507776,69.374998272
1.1850000000000001e-07,27.46824998656,2.00620000768,69.374998272
1.1900000000000001e-07,27.51512498944,2.004637507584,69.374998272
1.195e-07,27.56199999232,2.003075007488,69.374998272
1.2000000000000002e-07,27.57762499328,2.003075007488,69.374998272
1.205e-07,27.54637499136,2.003075007488,70.937498368
1.21e-07,27.49949998848,2.003075007488,69.374998272
1.215e-07,27.48387498752,2.004637507584,69.374998272
1.22e-07,27.48387498752,2.003075007488,69.374998272
1.2250000000000002e-07,27.51512498944,2.001512507392,70.937498368
1.23e-07,27.49949998848,1.999950007296,69.374998272
1.2350000000000001e-07,27.48387498752,2.001512507392,67.812498176
1.24e-07,27.4526249856,2.003075007488,67.812498176
1.245e-07,27.49949998848,2.003075007488,70.937498368
1.2500000000000002e-07,27.51512498944,2.003075007488,69.374998272
1.255e-07,27.5307499904,1.9983875072,69.374998272
1.2600000000000002e-07,27.54637499136,1.999950007296,66.24999808
1.265e-07,27.51512498944,2.004637507584,66.24999808
1.27e-07,27.51512498944,2.00620000768,66.24999808
1.275e-07,27.49949998848,2.001512507392,64.687497984
1.28e-07,27.48387498752,1.996825007104,63.124997888
1.2850000000000002e-07,27.48387498752,1.996825007104,66.24999808
1.29e-07,27.54637499136,2.003075007488,66.24999808
1.2950000000000001e-07,27.59324999424,2.003075007488,63.124997888
1.3e-07,27.54637499136,2.003075007488,64.687497984
1.305e-07,27.49949998848,2.001512507392,64.687497984
1.31e-07,27.4526249856,2.001512507392,63.124997888
1.315e-07,27.51512498944,2.001512507392,61.562497792
1.3200000000000002e-07,27.56199999232,2.003075007488,59.999997696
1.325e-07,27.56199999232,2.001512507392,61.562497792
1.33e-07,27.51512498944,2.001512507392,58.4374976
1.335e-07,27.48387498752,1.9983875072,58.4374976
1.34e-07,27.51512498944,1.9983875072,55.312497408
1.3450000000000002e-07,27.54637499136,1.9983875072,55.312497408
1.35e-07,27.56199999232,1.995262507008,55.312497408
1.3550000000000002e-07,27.51512498944,1.9921375068159999,53.749997312000005
1.36e-07,27.51512498944,1.993700006912,50.62499712
1.365e-07,27.57762499328,1.996825007104,53.749997312000005
1.37e-07,27.64012499712,1.999950007296,52.187497216000004
1.375e-07,27.64012499712,1.999950007296,50.62499712
1.3800000000000002e-07,27.49949998848,1.995262507008,50.62499712
1.385e-07,27.43699998464,1.9905750067199999,49.062497024
1.3900000000000001e-07,27.4526249856,1.9890125066239999,44.374996736
1.395e-07,27.54637499136,1.9921375068159999,44.374996736
1.4e-07,27.54637499136,1.996825007104,42.81249664
1.4050000000000002e-07,27.48387498752,1.993700006912,42.81249664
1.41e-07,27.42137498368,1.993700006912,42.81249664
1.4150000000000002e-07,27.43699998464,1.996825007104,41.249996544
1.42e-07,27.54637499136,1.996825007104,38.124996352000004
1.425e-07,27.57762499328,1.995262507008,36.562496256
1.43e-07,27.56199999232,1.9905750067199999,36.562496256
1.435e-07,27.5307499904,1.9905750067199999,34.99999616
1.4400000000000002e-07,27.5307499904,1.993700006912,31.874995968000007
1.445e-07,27.6088749952,1.996825007104,34.99999616
1.4500000000000001e-07,27.65574999808,1.995262507008,31.874995968000007
1.455e-07,27.59324999424,1.9921375068159999,28.749995776000006
1.46e-07,27.48387498752,1.9905750067199999,27.187495679999998
1.4650000000000002e-07,27.49949998848,1.993700006912,27.187495679999998
1.47e-07,27.57762499328,1.996825007104,25.624995584000004
1.4750000000000002e-07,27.64012499712,1.996825007104,24.062495487999996
1.48e-07,27.56199999232,1.995262507008,20.93749529600001
1.485e-07,27.51512498944,1.9921375068159999,24.062495487999996
1.49e-07,27.49949998848,1.993700006912,19.3749952
1.495e-07,27.56199999232,1.996825007104,19.3749952
1.5000000000000002e-07,27.64012499712,1.996825007104,16.249995008
1.505e-07,27.6088749952,1.995262507008,14.687494912000005
1.5100000000000002e-07,27.54637499136,1.9905750067199999,13.124994815999997
1.515e-07,27.54637499136,1.9905750067199999,11.562494720000004
1.52e-07,27.59324999424,1.995262507008,9.99999462400001
1.5250000000000002e-07,27.62449999616,1.9983875072,11.562494720000004
1.53e-07,27.64012499712,1.9983875072,8.437494528000002
1.5350000000000002e-07,27.56199999232,1.993700006912,3.7499942400000066
1.54e-07,27.49949998848,1.9921375068159999,3.7499942400000066
1.5450000000000001e-07,27.56199999232,1.9921375068159999,3.7499942400000066
1.55e-07,27.59324999424,1.993700006912,0.6249940480000049
1.555e-07,27.59324999424,1.993700006912,-0.937506048000003
1.5600000000000002e-07,27.5307499904,1.9921375068159999,-2.5000061439999968
1.565e-07,27.5307499904,1.9921375068159999,-0.937506048000003
1.5700000000000002e-07,27.54637499136,1.993700006912,-7.187506431999992
1.575e-07,27.6088749952,1.996825007104,-5.625006335999998
1.58e-07,27.67137499904,1.996825007104,-8.750006528
1.5850000000000002e-07,27.65574999808,1.996825007104,-10.312506623999994
1.59e-07,27.64012499712,1.9921375068159999,-10.312506623999994
1.5950000000000002e-07,27.64012499712,1.9905750067199999,-13.437506815999996
1.6e-07,27.67137499904,1.995262507008,-15.000006912000003
1.6050000000000001e-07,27.67137499904,1.999950007296,-15.000006912000003
1.61e-07,27.64012499712,2.001512507392,-16.562507007999997
1.615e-07,27.6088749952,1.996825007104,-19.6875072
1.6200000000000002e-07,27.57762499328,1.996825007104,-21.250007295999993
1.625e-07,27.6088749952,1.9983875072,-21.250007295999993
1.6300000000000002e-07,27.6088749952,2.001512507392,-24.375007487999994
1.635e-07,27.59324999424,2.001512507392,-24.375007487999994
1.64e-07,27.59324999424,1.999950007296,-27.500007679999996
1.645e-07,27.59324999424,1.9983875072,-25.937507584000002
