Time (s),VIN,IIN,VOUT
0.0,24.705875025919998,1.982537497216,51.850249987839995
5e-10,24.752750028799998,1.982537497216,51.856499987199996
1e-09,24.799625031679998,1.982537497216,51.82212499072
1.5000000000000002e-09,24.799625031679998,1.982537497216,51.7471249984
2e-09,24.752750028799998,1.982537497216,51.66587500672
2.5e-09,24.737125027839998,1.985662497408,51.609625012479995
3.0000000000000004e-09,24.737125027839998,1.984099997312,51.6065000128
3.5000000000000003e-09,24.768375029759998,1.98097499712,51.6221250112
4e-09,24.768375029759998,1.979412497024,51.64400000896
4.500000000000001e-09,24.752750028799998,1.98097499712,51.6690000064
5e-09,24.721500026879998,1.982537497216,51.71275000192
5.5000000000000004e-09,24.690250024959997,1.982537497216,51.76899999616
6.000000000000001e-09,24.752750028799998,1.98097499712,51.81274999167999
6.5e-09,24.752750028799998,1.984099997312,51.840874988799996
7.000000000000001e-09,24.752750028799998,1.985662497408,51.85337498752
7.500000000000001e-09,24.721500026879998,1.98097499712,51.84399998848
8e-09,24.690250024959997,1.98097499712,51.83149998976
8.5e-09,24.705875025919998,1.982537497216,51.81587499136
9.000000000000001e-09,24.737125027839998,1.984099997312,51.803374992639995
9.5e-09,24.768375029759998,1.98097499712,51.7783749952
1e-08,24.737125027839998,1.98097499712,51.7315
1.0500000000000001e-08,24.705875025919998,1.98097499712,51.687750004479994
1.1000000000000001e-08,24.659000023039997,1.98097499712,51.647125008639996
1.15e-08,24.705875025919998,1.982537497216,51.631500010239996
1.2000000000000002e-08,24.752750028799998,1.984099997312,51.64400000896
1.2500000000000001e-08,24.768375029759998,1.985662497408,51.66587500672
1.3e-08,24.737125027839998,1.982537497216,51.687750004479994
1.35e-08,24.705875025919998,1.98097499712,51.719000001279994
1.4000000000000001e-08,24.721500026879998,1.98097499712,51.734624999679994
1.45e-08,24.721500026879998,1.982537497216,51.756499997439995
1.5000000000000002e-08,24.737125027839998,1.984099997312,51.79712499327999
1.55e-08,24.737125027839998,1.984099997312,51.83774998912
1.6e-08,24.737125027839998,1.984099997312,51.856499987199996
1.6500000000000002e-08,24.705875025919998,1.982537497216,51.82837499008
1.7e-08,24.643375022079997,1.98097499712,51.79087499392
1.75e-08,24.705875025919998,1.979412497024,51.7627499968
1.8000000000000002e-08,24.784000030719998,1.98097499712,51.75337499776
1.85e-08,24.84650003456,1.982537497216,51.750249998079994
1.9e-08,24.752750028799998,1.982537497216,51.72837500032
1.9500000000000003e-08,24.674625023999997,1.982537497216,51.68150000512
2e-08,24.659000023039997,1.984099997312,51.640875009279995
2.05e-08,24.690250024959997,1.984099997312,51.61275001216
2.1000000000000003e-08,24.705875025919998,1.984099997312,51.625250010879995
2.15e-08,24.705875025919998,1.982537497216,51.672125006079995
2.2000000000000002e-08,24.737125027839998,1.982537497216,51.709625002239996
2.2500000000000003e-08,24.721500026879998,1.985662497408,51.72837500032
2.3e-08,24.737125027839998,1.985662497408,51.73774999936
2.3500000000000002e-08,24.721500026879998,1.984099997312,51.7627499968
2.4000000000000003e-08,24.690250024959997,1.98097499712,51.81587499136
2.45e-08,24.659000023039997,1.98097499712,51.84712498816
2.5000000000000002e-08,24.659000023039997,1.982537497216,51.85337498752
2.55e-08,24.721500026879998,1.982537497216,51.80649999232
2.6e-08,24.721500026879998,1.982537497216,51.75337499776
2.6500000000000002e-08,24.674625023999997,1.979412497024,51.725250000639996
2.7e-08,24.659000023039997,1.976287496832,51.734624999679994
2.75e-08,24.674625023999997,1.979412497024,51.74399999872
2.8000000000000003e-08,24.705875025919998,1.98097499712,51.734624999679994
2.85e-08,24.737125027839998,1.982537497216,51.6846250048
2.9e-08,24.752750028799998,1.982537497216,51.6377500096
2.9500000000000003e-08,24.690250024959997,1.98097499712,51.619000011519994
3.0000000000000004e-08,24.62775002112,1.98097499712,51.6221250112
3.05e-08,24.659000023039997,1.982537497216,51.656500007679995
3.1e-08,24.737125027839998,1.984099997312,51.719000001279994
3.1500000000000004e-08,24.768375029759998,1.982537497216,51.772124995839995
3.2e-08,24.752750028799998,1.98097499712,51.80649999232
3.25e-08,24.674625023999997,1.976287496832,51.79087499392
3.3000000000000004e-08,24.62775002112,1.976287496832,51.7783749952
3.35e-08,24.659000023039997,1.979412497024,51.78462499456
3.4e-08,24.721500026879998,1.982537497216,51.82212499072
3.4500000000000005e-08,24.768375029759998,1.98097499712,51.834624989439995
3.5e-08,24.737125027839998,1.976287496832,51.79712499327999
3.55e-08,24.690250024959997,1.977849996928,51.709625002239996
3.6000000000000005e-08,24.643375022079997,1.979412497024,51.64400000896
3.65e-08,24.705875025919998,1.977849996928,51.625250010879995
3.7e-08,24.737125027839998,1.9747249967359999,51.64400000896
3.7500000000000005e-08,24.721500026879998,1.9715999965439999,51.66587500672
3.8e-08,24.674625023999997,1.9715999965439999,51.6690000064
3.85e-08,24.659000023039997,1.9731624966399999,51.678375005439996
3.9000000000000005e-08,24.690250024959997,1.979412497024,51.7315
3.95e-08,24.737125027839998,1.98097499712,51.803374992639995
4e-08,24.721500026879998,1.979412497024,51.85337498752
4.0500000000000005e-08,24.659000023039997,1.979412497024,51.84399998848
4.1e-08,24.5965000192,1.98097499712,51.825249990399996
4.15e-08,24.62775002112,1.979412497024,51.840874988799996
4.2000000000000006e-08,24.674625023999997,1.977849996928,51.87524998528
4.2500000000000003e-08,24.721500026879998,1.98097499712,51.85962498688
4.3e-08,24.737125027839998,1.979412497024,51.7627499968
4.3500000000000006e-08,24.705875025919998,1.976287496832,51.6377500096
4.4000000000000004e-08,24.705875025919998,1.976287496832,51.58150001536
4.45e-08,24.752750028799998,1.976287496832,51.603375013119994
4.5000000000000006e-08,24.752750028799998,1.9747249967359999,51.672125006079995
4.5500000000000004e-08,24.705875025919998,1.9747249967359999,51.7315
4.6e-08,24.643375022079997,1.977849996928,51.7783749952
4.6500000000000006e-08,24.659000023039997,1.98097499712,51.83149998976
4.7000000000000004e-08,24.705875025919998,1.98097499712,51.89087498368
4.75e-08,24.721500026879998,1.977849996928,51.912749981439994
4.8000000000000006e-08,24.674625023999997,1.976287496832,51.87524998528
4.8500000000000004e-08,24.62775002112,1.976287496832,51.80649999232
4.9e-08,24.659000023039997,1.9747249967359999,51.765874996479994
4.95e-08,24.721500026879998,1.9747249967359999,51.7627499968
5.0000000000000004e-08,24.752750028799998,1.976287496832,51.7627499968
5.05e-08,24.768375029759998,1.976287496832,51.72837500032
5.1e-08,24.721500026879998,1.9747249967359999,51.69712500352
5.1500000000000005e-08,24.659000023039997,1.9747249967359999,51.72837500032
5.2e-08,24.643375022079997,1.977849996928,51.81587499136
5.25e-08,24.674625023999997,1.977849996928,51.881499984639994
5.3000000000000005e-08,24.690250024959997,1.976287496832,51.87837498496
5.35e-08,24.674625023999997,1.976287496832,51.818999991039995
5.4e-08,24.674625023999997,1.976287496832,51.76899999616
5.4500000000000005e-08,24.659000023039997,1.977849996928,51.7783749952
5.5e-08,24.690250024959997,1.9747249967359999,51.809624991999996
5.55e-08,24.705875025919998,1.9715999965439999,51.80024999296
5.6000000000000005e-08,24.705875025919998,1.9731624966399999,51.74399999872
5.65e-08,24.674625023999997,1.9747249967359999,51.65962500736
5.7e-08,24.674625023999997,1.9747249967359999,51.619000011519994
5.7500000000000005e-08,24.705875025919998,1.977849996928,51.6221250112
5.8e-08,24.705875025919998,1.977849996928,51.653375008
5.85e-08,24.705875025919998,1.98097499712,51.69087500416
5.9000000000000006e-08,24.659000023039997,1.979412497024,51.7471249984
5.9500000000000003e-08,24.659000023039997,1.976287496832,51.81274999167999
6.000000000000001e-08,24.690250024959997,1.976287496832,51.87837498496
6.05e-08,24.737125027839998,1.9731624966399999,51.897124983039994
6.1e-08,24.737125027839998,1.9715999965439999,51.87524998528
6.15e-08,24.705875025919998,1.9700374964479999,51.834624989439995
6.2e-08,24.721500026879998,1.9731624966399999,51.80649999232
6.250000000000001e-08,24.721500026879998,1.976287496832,51.78462499456
6.300000000000001e-08,24.705875025919998,1.979412497024,51.740874999039995
6.35e-08,24.690250024959997,1.98097499712,51.68150000512
6.4e-08,24.690250024959997,1.982537497216,51.65025000832
6.45e-08,24.674625023999997,1.979412497024,51.65025000832
6.5e-08,24.674625023999997,1.977849996928,51.6846250048
6.55e-08,24.705875025919998,1.976287496832,51.7158750016
6.600000000000001e-08,24.690250024959997,1.977849996928,51.72837500032
6.65e-08,24.705875025919998,1.977849996928,51.7315
6.7e-08,24.705875025919998,1.9747249967359999,51.74399999872
6.75e-08,24.705875025919998,1.9715999965439999,51.765874996479994
6.8e-08,24.721500026879998,1.9700374964479999,51.787749994239995
6.85e-08,24.721500026879998,1.9700374964479999,51.79087499392
6.900000000000001e-08,24.690250024959997,1.9715999965439999,51.79087499392
6.950000000000001e-08,24.690250024959997,1.9715999965439999,51.79712499327999
7e-08,24.690250024959997,1.9747249967359999,51.809624991999996
7.05e-08,24.659000023039997,1.976287496832,51.803374992639995
7.1e-08,24.705875025919998,1.976287496832,51.78462499456
7.15e-08,24.721500026879998,1.976287496832,51.750249998079994
7.200000000000001e-08,24.674625023999997,1.9747249967359999,51.72212500096
7.250000000000001e-08,24.659000023039997,1.9747249967359999,51.7002500032
7.3e-08,24.690250024959997,1.9747249967359999,51.703375002879994
7.35e-08,24.752750028799998,1.976287496832,51.7158750016
7.4e-08,24.737125027839998,1.977849996928,51.72837500032
7.45e-08,24.721500026879998,1.977849996928,51.7315
7.500000000000001e-08,24.659000023039997,1.9731624966399999,51.72837500032
7.550000000000001e-08,24.674625023999997,1.9715999965439999,51.7315
7.6e-08,24.690250024959997,1.9731624966399999,51.740874999039995
7.65e-08,24.705875025919998,1.9747249967359999,51.740874999039995
7.7e-08,24.690250024959997,1.9747249967359999,51.7471249984
7.75e-08,24.705875025919998,1.976287496832,51.75962499712
7.800000000000001e-08,24.737125027839998,1.9747249967359999,51.765874996479994
7.850000000000001e-08,24.737125027839998,1.9747249967359999,51.7627499968
7.9e-08,24.721500026879998,1.9747249967359999,51.7783749952
7.95e-08,24.690250024959997,1.9731624966399999,51.793999993599996
8e-08,24.690250024959997,1.9715999965439999,51.793999993599996
8.05e-08,24.690250024959997,1.9700374964479999,51.76899999616
8.100000000000001e-08,24.737125027839998,1.9700374964479999,51.74399999872
8.150000000000001e-08,24.737125027839998,1.9715999965439999,51.740874999039995
8.2e-08,24.690250024959997,1.9700374964479999,51.75962499712
8.25e-08,24.674625023999997,1.9700374964479999,51.772124995839995
8.3e-08,24.690250024959997,1.9700374964479999,51.75337499776
8.35e-08,24.737125027839998,1.9731624966399999,51.703375002879994
8.400000000000001e-08,24.705875025919998,1.9731624966399999,51.662750007039996
8.450000000000001e-08,24.705875025919998,1.9747249967359999,51.66587500672
8.500000000000001e-08,24.674625023999997,1.9731624966399999,51.71275000192
8.55e-08,24.674625023999997,1.9731624966399999,51.75337499776
8.6e-08,24.737125027839998,1.9715999965439999,51.75337499776
8.65e-08,24.737125027839998,1.9700374964479999,51.734624999679994
8.700000000000001e-08,24.690250024959997,1.9700374964479999,51.73774999936
8.750000000000001e-08,24.659000023039997,1.9684749963519999,51.772124995839995
8.800000000000001e-08,24.659000023039997,1.9653499961599998,51.82212499072
8.85e-08,24.674625023999997,1.9669124962559998,51.84399998848
8.9e-08,24.737125027839998,1.9669124962559998,51.82212499072
8.95e-08,24.737125027839998,1.9669124962559998,51.765874996479994
9.000000000000001e-08,24.674625023999997,1.9684749963519999,51.7158750016
9.050000000000001e-08,24.674625023999997,1.9700374964479999,51.7002500032
9.100000000000001e-08,24.705875025919998,1.9684749963519999,51.709625002239996
9.15e-08,24.768375029759998,1.9653499961599998,51.72212500096
9.2e-08,24.784000030719998,1.9669124962559998,51.719000001279994
9.25e-08,24.752750028799998,1.9684749963519999,51.69712500352
9.300000000000001e-08,24.690250024959997,1.9684749963519999,51.69712500352
9.350000000000001e-08,24.690250024959997,1.9684749963519999,51.719000001279994
9.400000000000001e-08,24.721500026879998,1.9700374964479999,51.734624999679994
9.45e-08,24.721500026879998,1.9715999965439999,51.72837500032
9.5e-08,24.674625023999997,1.9715999965439999,51.72212500096
9.55e-08,24.62775002112,1.9715999965439999,51.734624999679994
9.600000000000001e-08,24.752750028799998,1.9731624966399999,51.772124995839995
9.650000000000001e-08,24.87775003648,1.9731624966399999,51.79087499392
9.700000000000001e-08,24.89337503744,1.9684749963519999,51.78462499456
9.75e-08,24.768375029759998,1.9669124962559998,51.750249998079994
9.8e-08,24.58087501824,1.9669124962559998,51.73774999936
9.85e-08,24.50275001344,1.9684749963519999,51.750249998079994
9.9e-08,24.5965000192,1.9700374964479999,51.75337499776
9.950000000000001e-08,24.830875033599998,1.9700374964479999,51.725250000639996
1.0000000000000001e-07,24.97150004224,1.9700374964479999,51.69087500416
1.005e-07,24.94025004032,1.9684749963519999,51.6690000064
1.01e-07,24.737125027839998,1.9669124962559998,51.687750004479994
1.015e-07,24.53400001536,1.9684749963519999,51.72212500096
1.02e-07,24.5183750144,1.9700374964479999,51.7315
1.0250000000000001e-07,24.705875025919998,1.9715999965439999,51.703375002879994
1.0300000000000001e-07,24.9090000384,1.9700374964479999,51.67525000576
1.0350000000000001e-07,24.97150004224,1.9669124962559998,51.687750004479994
1.04e-07,24.799625031679998,1.9669124962559998,51.75962499712
1.045e-07,24.58087501824,1.9684749963519999,51.809624991999996
1.05e-07,24.53400001536,1.9684749963519999,51.80024999296
1.0550000000000001e-07,24.705875025919998,1.9669124962559998,51.73774999936
1.0600000000000001e-07,24.89337503744,1.9700374964479999,51.694000003839996
1.0650000000000001e-07,24.94025004032,1.9731624966399999,51.703375002879994
1.07e-07,24.784000030719998,1.9715999965439999,51.756499997439995
1.075e-07,24.5965000192,1.9700374964479999,51.793999993599996
1.08e-07,24.58087501824,1.9669124962559998,51.79087499392
1.0850000000000001e-07,24.752750028799998,1.9653499961599998,51.750249998079994
1.0900000000000001e-07,24.92462503936,1.9653499961599998,51.71275000192
1.0950000000000001e-07,24.94025004032,1.963787496064,51.7158750016
1.1e-07,24.752750028799998,1.9653499961599998,51.734624999679994
1.105e-07,24.61212502016,1.9669124962559998,51.72212500096
1.11e-07,24.659000023039997,1.9653499961599998,51.69712500352
1.1150000000000001e-07,24.799625031679998,1.9669124962559998,51.6690000064
1.1200000000000001e-07,24.89337503744,1.9684749963519999,51.662750007039996
1.1250000000000001e-07,24.830875033599998,1.9684749963519999,51.662750007039996
1.13e-07,24.705875025919998,1.9684749963519999,51.68150000512
1.135e-07,24.674625023999997,1.9669124962559998,51.71275000192
1.14e-07,24.737125027839998,1.9669124962559998,51.756499997439995
1.1450000000000001e-07,24.815250032639998,1.9700374964479999,51.79087499392
1.1500000000000001e-07,24.799625031679998,1.9684749963519999,51.79712499327999
1.1550000000000001e-07,24.752750028799998,1.9684749963519999,51.79087499392
1.16e-07,24.737125027839998,1.9700374964479999,51.79087499392
1.165e-07,24.799625031679998,1.9669124962559998,51.78462499456
1.17e-07,24.830875033599998,1.9669124962559998,51.7627499968
1.1750000000000001e-07,24.799625031679998,1.9684749963519999,51.740874999039995
1.1800000000000001e-07,24.721500026879998,1.9684749963519999,51.7158750016
1.1850000000000001e-07,24.659000023039997,1.9684749963519999,51.68150000512
1.1900000000000001e-07,24.705875025919998,1.9684749963519999,51.67525000576
1.195e-07,24.799625031679998,1.9700374964479999,51.694000003839996
1.2000000000000002e-07,24.830875033599998,1.9731624966399999,51.71275000192
1.205e-07,24.768375029759998,1.9747249967359999,51.72837500032
1.21e-07,24.690250024959997,1.9747249967359999,51.7783749952
1.215e-07,24.705875025919998,1.9700374964479999,51.840874988799996
1.22e-07,24.784000030719998,1.9684749963519999,51.88462498432
1.2250000000000002e-07,24.84650003456,1.9715999965439999,51.87837498496
1.23e-07,24.784000030719998,1.9700374964479999,51.803374992639995
1.2350000000000001e-07,24.737125027839998,1.9715999965439999,51.72212500096
1.24e-07,24.737125027839998,1.976287496832,51.7002500032
1.245e-07,24.768375029759998,1.977849996928,51.7315
1.2500000000000002e-07,24.799625031679998,1.9747249967359999,51.7627499968
1.255e-07,24.752750028799998,1.9715999965439999,51.7627499968
1.2600000000000002e-07,24.737125027839998,1.9731624966399999,51.740874999039995
1.265e-07,24.737125027839998,1.9731624966399999,51.72837500032
1.27e-07,24.799625031679998,1.9731624966399999,51.765874996479994
1.275e-07,24.830875033599998,1.9715999965439999,51.82212499072
1.28e-07,24.815250032639998,1.9715999965439999,51.84399998848
1.2850000000000002e-07,24.737125027839998,1.9747249967359999,51.825249990399996
1.29e-07,24.721500026879998,1.9747249967359999,51.81587499136
1.2950000000000001e-07,24.768375029759998,1.9731624966399999,51.83774998912
1.3e-07,24.784000030719998,1.9747249967359999,51.87837498496
1.305e-07,24.815250032639998,1.9747249967359999,51.897124983039994
1.31e-07,24.752750028799998,1.9747249967359999,51.85962498688
1.315e-07,24.721500026879998,1.9715999965439999,51.7783749952
1.3200000000000002e-07,24.737125027839998,1.9715999965439999,51.719000001279994
1.325e-07,24.784000030719998,1.9731624966399999,51.687750004479994
1.33e-07,24.815250032639998,1.9731624966399999,51.6690000064
1.335e-07,24.784000030719998,1.9731624966399999,51.65025000832
1.34e-07,24.752750028799998,1.9747249967359999,51.631500010239996
1.3450000000000002e-07,24.737125027839998,1.9747249967359999,51.6377500096
1.35e-07,24.784000030719998,1.976287496832,51.66587500672
1.3550000000000002e-07,24.799625031679998,1.977849996928,51.7158750016
1.36e-07,24.784000030719998,1.9747249967359999,51.765874996479994
1.365e-07,24.737125027839998,1.9715999965439999,51.78462499456
1.37e-07,24.705875025919998,1.9731624966399999,51.79087499392
1.375e-07,24.752750028799998,1.9747249967359999,51.803374992639995
1.3800000000000002e-07,24.784000030719998,1.9731624966399999,51.834624989439995
1.385e-07,24.815250032639998,1.976287496832,51.881499984639994
1.3900000000000001e-07,24.768375029759998,1.9731624966399999,51.903374982399995
1.395e-07,24.752750028799998,1.9747249967359999,51.87837498496
1.4e-07,24.721500026879998,1.976287496832,51.80649999232
1.4050000000000002e-07,24.784000030719998,1.9747249967359999,51.72837500032
1.41e-07,24.815250032639998,1.9747249967359999,51.678375005439996
1.4150000000000002e-07,24.799625031679998,1.9747249967359999,51.67525000576
1.42e-07,24.768375029759998,1.9747249967359999,51.67525000576
1.425e-07,24.737125027839998,1.976287496832,51.65025000832
1.43e-07,24.768375029759998,1.979412497024,51.6221250112
1.435e-07,24.784000030719998,1.979412497024,51.63462500991999
1.4400000000000002e-07,24.784000030719998,1.982537497216,51.703375002879994
1.445e-07,24.752750028799998,1.984099997312,51.772124995839995
1.4500000000000001e-07,24.737125027839998,1.984099997312,51.81587499136
1.455e-07,24.752750028799998,1.98097499712,51.818999991039995
1.46e-07,24.768375029759998,1.979412497024,51.818999991039995
1.4650000000000002e-07,24.799625031679998,1.977849996928,51.840874988799996
1.47e-07,24.799625031679998,1.9747249967359999,51.86899998592
1.4750000000000002e-07,24.752750028799998,1.976287496832,51.856499987199996
1.48e-07,24.705875025919998,1.98097499712,51.81587499136
1.485e-07,24.752750028799998,1.982537497216,51.765874996479994
1.49e-07,24.784000030719998,1.98097499712,51.740874999039995
1.495e-07,24.799625031679998,1.98097499712,51.740874999039995
1.5000000000000002e-07,24.784000030719998,1.979412497024,51.725250000639996
1.505e-07,24.721500026879998,1.98097499712,51.6846250048
