!Keysight Technologies,E5063A,MY54100949,A.07.30
!Date: Thu Dec 25 00:17:55 2025
!Data & Calibration Information:
!Freq	S11:SOLT2(ON)	S21:SOLT2(ON)	S12:SOLT2(ON)	S22:SOLT2(ON)
# Hz S RI R 50
50000.000	3.073459e-003	2.650939e-003	1.000603e+000	-1.361092e-002	9.996623e-001	-1.181842e-002	5.900233e-003	2.285718e-003
149750.000	2.866231e-003	-5.949125e-003	9.966534e-001	-2.042562e-002	9.969991e-001	-1.893913e-002	5.796179e-003	-5.781704e-003
249500.000	1.972622e-003	-1.039122e-002	9.963062e-001	-3.077626e-002	9.967990e-001	-2.953181e-002	5.232754e-003	-1.084073e-002
349250.000	1.446572e-003	-1.447151e-002	9.952299e-001	-4.190991e-002	9.962627e-001	-4.081080e-002	5.006307e-003	-1.542827e-002
449000.000	-2.378362e-004	-1.917439e-002	9.945761e-001	-5.349278e-002	9.960236e-001	-5.243738e-002	4.951431e-003	-1.990617e-002
548750.000	-6.789710e-004	-2.355213e-002	9.937802e-001	-6.474481e-002	9.949891e-001	-6.397228e-002	5.076824e-003	-2.439467e-002
648500.000	-1.972620e-003	-2.754689e-002	9.928718e-001	-7.607383e-002	9.940619e-001	-7.520752e-002	4.850469e-003	-2.872209e-002
748250.000	-3.674842e-003	-3.228602e-002	9.918408e-001	-8.745513e-002	9.930334e-001	-8.697376e-002	4.845528e-003	-3.330180e-002
848000.000	-5.256513e-003	-3.672374e-002	9.907389e-001	-9.886747e-002	9.917377e-001	-9.819487e-002	5.020761e-003	-3.792030e-002
947750.000	-7.251978e-003	-4.075009e-002	9.895447e-001	-1.102883e-001	9.900636e-001	-1.096280e-001	5.027033e-003	-4.255562e-002
1047500.000	-9.355805e-003	-4.569681e-002	9.879418e-001	-1.213688e-001	9.885849e-001	-1.210899e-001	5.148994e-003	-4.687484e-002
1147250.000	-1.130819e-002	-4.925331e-002	9.863056e-001	-1.327908e-001	9.867840e-001	-1.322190e-001	5.209184e-003	-5.189655e-002
1247000.000	-1.401687e-002	-5.321301e-002	9.845409e-001	-1.441784e-001	9.849435e-001	-1.437450e-001	5.431123e-003	-5.645413e-002
1346750.000	-1.649654e-002	-5.741303e-002	9.823257e-001	-1.553403e-001	9.830325e-001	-1.546912e-001	5.104224e-003	-6.136561e-002
1446500.000	-1.912042e-002	-6.134155e-002	9.803096e-001	-1.667295e-001	9.805268e-001	-1.660454e-001	5.473537e-003	-6.637694e-002
1546250.000	-2.190869e-002	-6.525343e-002	9.779433e-001	-1.781490e-001	9.784005e-001	-1.774736e-001	5.466759e-003	-7.101093e-002
1646000.000	-2.481884e-002	-6.916892e-002	9.752824e-001	-1.893443e-001	9.755762e-001	-1.888471e-001	5.666038e-003	-7.536046e-002
1745750.000	-2.864692e-002	-7.294398e-002	9.726129e-001	-2.003498e-001	9.732070e-001	-1.997348e-001	5.069694e-003	-8.073112e-002
1845500.000	-3.200710e-002	-7.645280e-002	9.698257e-001	-2.117505e-001	9.703406e-001	-2.109242e-001	5.487190e-003	-8.550332e-002
1945250.000	-3.591811e-002	-8.007457e-002	9.669863e-001	-2.226423e-001	9.674858e-001	-2.220992e-001	5.104284e-003	-8.979448e-002
2045000.000	-3.944757e-002	-8.342791e-002	9.639289e-001	-2.335977e-001	9.643539e-001	-2.330883e-001	5.114135e-003	-9.505395e-002
2144750.000	-4.344876e-002	-8.698513e-002	9.604463e-001	-2.449035e-001	9.609182e-001	-2.442186e-001	5.065289e-003	-1.001490e-001
2244500.000	-4.820494e-002	-8.995285e-002	9.572133e-001	-2.558080e-001	9.574875e-001	-2.552271e-001	4.951006e-003	-1.049300e-001
2344250.000	-5.245733e-002	-9.286886e-002	9.536605e-001	-2.669274e-001	9.540272e-001	-2.665099e-001	4.995395e-003	-1.095169e-001
2444000.000	-5.699137e-002	-9.585025e-002	9.499689e-001	-2.778386e-001	9.499274e-001	-2.768824e-001	5.030178e-003	-1.152524e-001
2543750.000	-6.178009e-002	-9.859773e-002	9.462155e-001	-2.887176e-001	9.462851e-001	-2.879096e-001	4.480850e-003	-1.200352e-001
2643500.000	-6.675996e-002	-1.012428e-001	9.418600e-001	-2.993941e-001	9.421487e-001	-2.986824e-001	4.485835e-003	-1.252965e-001
2743250.000	-7.215243e-002	-1.039568e-001	9.376579e-001	-3.099834e-001	9.379757e-001	-3.095828e-001	4.325094e-003	-1.301222e-001
2843000.000	-7.741647e-002	-1.061343e-001	9.334486e-001	-3.206695e-001	9.339017e-001	-3.201707e-001	3.841549e-003	-1.353214e-001
2942750.000	-8.274122e-002	-1.084534e-001	9.289508e-001	-3.314096e-001	9.290735e-001	-3.308191e-001	3.934592e-003	-1.405429e-001
3042500.000	-8.839481e-002	-1.105358e-001	9.241558e-001	-3.419946e-001	9.245572e-001	-3.415627e-001	3.433448e-003	-1.456502e-001
3142250.000	-9.396452e-002	-1.122309e-001	9.193470e-001	-3.526277e-001	9.195404e-001	-3.519944e-001	3.095437e-003	-1.509278e-001
3242000.000	-9.969562e-002	-1.139161e-001	9.144102e-001	-3.632803e-001	9.145459e-001	-3.624167e-001	2.772894e-003	-1.561365e-001
3341750.000	-1.054241e-001	-1.156370e-001	9.091464e-001	-3.735573e-001	9.094852e-001	-3.728453e-001	2.463523e-003	-1.611206e-001
3441500.000	-1.116590e-001	-1.169130e-001	9.037843e-001	-3.839588e-001	9.040850e-001	-3.833137e-001	1.933502e-003	-1.665700e-001
3541250.000	-1.181516e-001	-1.178038e-001	8.986046e-001	-3.942418e-001	8.988714e-001	-3.934128e-001	1.243539e-003	-1.718556e-001
3641000.000	-1.242181e-001	-1.186816e-001	8.927491e-001	-4.044971e-001	8.931083e-001	-4.036786e-001	9.598151e-004	-1.773404e-001
3740750.000	-1.310001e-001	-1.194467e-001	8.872019e-001	-4.145129e-001	8.874533e-001	-4.137276e-001	4.465497e-004	-1.827126e-001
3840500.000	-1.375948e-001	-1.203820e-001	8.812818e-001	-4.244760e-001	8.812204e-001	-4.237816e-001	-8.624835e-005	-1.883256e-001
3940250.000	-1.441944e-001	-1.207752e-001	8.750058e-001	-4.342046e-001	8.753302e-001	-4.336805e-001	-5.686648e-004	-1.934512e-001
4040000.000	-1.509748e-001	-1.207311e-001	8.689046e-001	-4.441181e-001	8.690669e-001	-4.436096e-001	-1.339221e-003	-1.991672e-001
4139750.000	-1.578402e-001	-1.204707e-001	8.626743e-001	-4.540180e-001	8.626451e-001	-4.533641e-001	-2.091592e-003	-2.049457e-001
4239500.000	-1.648675e-001	-1.202895e-001	8.561844e-001	-4.637118e-001	8.564829e-001	-4.629305e-001	-2.994379e-003	-2.100711e-001
4339250.000	-1.720299e-001	-1.197012e-001	8.492988e-001	-4.731687e-001	8.495775e-001	-4.724345e-001	-3.912837e-003	-2.159592e-001
4439000.000	-1.792063e-001	-1.190799e-001	8.425742e-001	-4.826737e-001	8.428000e-001	-4.821124e-001	-4.631274e-003	-2.213898e-001
4538750.000	-1.863414e-001	-1.181457e-001	8.356760e-001	-4.922854e-001	8.357872e-001	-4.913773e-001	-5.569781e-003	-2.272199e-001
4638500.000	-1.936586e-001	-1.169009e-001	8.284689e-001	-5.013827e-001	8.287633e-001	-5.008527e-001	-6.143476e-003	-2.327861e-001
4738250.000	-2.007904e-001	-1.154777e-001	8.213582e-001	-5.107449e-001	8.212848e-001	-5.096853e-001	-7.616030e-003	-2.387081e-001
4838000.000	-2.083404e-001	-1.141137e-001	8.136462e-001	-5.195847e-001	8.139675e-001	-5.188157e-001	-8.472650e-003	-2.442777e-001
4937750.000	-2.157336e-001	-1.123124e-001	8.062104e-001	-5.284280e-001	8.063835e-001	-5.276144e-001	-9.715724e-003	-2.501990e-001
5037500.000	-2.230342e-001	-1.100945e-001	7.985645e-001	-5.375157e-001	7.986642e-001	-5.364387e-001	-1.096404e-002	-2.560322e-001
5137250.000	-2.305164e-001	-1.076549e-001	7.905964e-001	-5.460867e-001	7.910191e-001	-5.454633e-001	-1.195437e-002	-2.615303e-001
5237000.000	-2.380129e-001	-1.050587e-001	7.826174e-001	-5.544908e-001	7.828211e-001	-5.538878e-001	-1.326788e-002	-2.677356e-001
5336750.000	-2.457684e-001	-1.025128e-001	7.746254e-001	-5.631015e-001	7.747006e-001	-5.620524e-001	-1.489349e-002	-2.735388e-001
5436500.000	-2.533038e-001	-9.966520e-002	7.661130e-001	-5.712383e-001	7.667612e-001	-5.704603e-001	-1.617578e-002	-2.791999e-001
5536250.000	-2.607144e-001	-9.607223e-002	7.577662e-001	-5.794588e-001	7.582419e-001	-5.786875e-001	-1.789484e-002	-2.849538e-001
5636000.000	-2.679496e-001	-9.267673e-002	7.495363e-001	-5.875962e-001	7.497675e-001	-5.868662e-001	-1.934227e-002	-2.911634e-001
5735750.000	-2.757767e-001	-8.851096e-002	7.410303e-001	-5.951599e-001	7.410186e-001	-5.944380e-001	-2.104567e-002	-2.969522e-001
5835500.000	-2.829200e-001	-8.482539e-002	7.318198e-001	-6.030167e-001	7.322558e-001	-6.023041e-001	-2.270956e-002	-3.029421e-001
5935250.000	-2.907363e-001	-8.061757e-002	7.230097e-001	-6.105162e-001	7.236588e-001	-6.098196e-001	-2.481014e-002	-3.087654e-001
6035000.000	-2.977524e-001	-7.600641e-002	7.140562e-001	-6.181614e-001	7.145155e-001	-6.173725e-001	-2.663181e-002	-3.146501e-001
6134750.000	-3.052419e-001	-7.139108e-002	7.048410e-001	-6.253235e-001	7.054150e-001	-6.244243e-001	-2.863689e-002	-3.205328e-001
6234500.000	-3.123417e-001	-6.617219e-002	6.956412e-001	-6.326888e-001	6.960460e-001	-6.318544e-001	-3.052276e-002	-3.267664e-001
6334250.000	-3.197994e-001	-6.069949e-002	6.865853e-001	-6.393816e-001	6.868347e-001	-6.386448e-001	-3.291134e-002	-3.325752e-001
6434000.000	-3.269593e-001	-5.553806e-002	6.767503e-001	-6.460790e-001	6.773905e-001	-6.454561e-001	-3.500151e-002	-3.385873e-001
6533750.000	-3.339837e-001	-4.984486e-002	6.671888e-001	-6.527792e-001	6.677600e-001	-6.520206e-001	-3.739835e-002	-3.446690e-001
6633500.000	-3.408359e-001	-4.397632e-002	6.573695e-001	-6.593113e-001	6.582654e-001	-6.584467e-001	-3.981889e-002	-3.503953e-001
6733250.000	-3.476676e-001	-3.735370e-002	6.478511e-001	-6.657555e-001	6.486708e-001	-6.646576e-001	-4.241627e-002	-3.563186e-001
6833000.000	-3.549081e-001	-3.115981e-002	6.380177e-001	-6.714754e-001	6.385112e-001	-6.708415e-001	-4.468785e-002	-3.625123e-001
6932750.000	-3.616516e-001	-2.443864e-002	6.280603e-001	-6.773184e-001	6.285124e-001	-6.766772e-001	-4.763219e-002	-3.685081e-001
7032500.000	-3.681731e-001	-1.746314e-002	6.180254e-001	-6.831504e-001	6.184640e-001	-6.823169e-001	-5.053257e-002	-3.743116e-001
7132250.000	-3.746360e-001	-1.061901e-002	6.077391e-001	-6.885774e-001	6.084099e-001	-6.877534e-001	-5.330175e-002	-3.804239e-001
7232000.000	-3.808207e-001	-3.232904e-003	5.975213e-001	-6.940360e-001	5.983412e-001	-6.933668e-001	-5.612634e-002	-3.862010e-001
7331750.000	-3.869377e-001	4.473366e-003	5.872979e-001	-6.994436e-001	5.879010e-001	-6.985427e-001	-5.926460e-002	-3.922464e-001
7431500.000	-3.931674e-001	1.209586e-002	5.769491e-001	-7.041927e-001	5.774706e-001	-7.035648e-001	-6.214867e-002	-3.982434e-001
7531250.000	-3.989665e-001	2.007835e-002	5.663425e-001	-7.091434e-001	5.673764e-001	-7.085157e-001	-6.525370e-002	-4.037938e-001
7631000.000	-4.047718e-001	2.825654e-002	5.560530e-001	-7.137647e-001	5.566359e-001	-7.128866e-001	-6.872367e-002	-4.098728e-001
7730750.000	-4.104050e-001	3.646903e-002	5.454097e-001	-7.178934e-001	5.459819e-001	-7.174868e-001	-7.198065e-002	-4.160022e-001
7830500.000	-4.156483e-001	4.503287e-002	5.348309e-001	-7.224240e-001	5.357665e-001	-7.215524e-001	-7.552773e-002	-4.210961e-001
7930250.000	-4.209310e-001	5.379133e-002	5.240621e-001	-7.263656e-001	5.250493e-001	-7.257346e-001	-7.892000e-002	-4.271518e-001
8030000.000	-4.258728e-001	6.242888e-002	5.134084e-001	-7.302036e-001	5.145060e-001	-7.294772e-001	-8.264177e-002	-4.327879e-001
8129750.000	-4.307494e-001	7.147918e-002	5.026831e-001	-7.338257e-001	5.036937e-001	-7.331775e-001	-8.624660e-002	-4.383373e-001
8229500.000	-4.355398e-001	8.099819e-002	4.920045e-001	-7.371912e-001	4.928858e-001	-7.364249e-001	-9.025723e-002	-4.444489e-001
8329250.000	-4.398969e-001	9.051713e-002	4.812931e-001	-7.405905e-001	4.821650e-001	-7.395809e-001	-9.411554e-002	-4.498261e-001
8429000.000	-4.444324e-001	9.976773e-002	4.702088e-001	-7.434509e-001	4.715371e-001	-7.427316e-001	-9.828994e-002	-4.552438e-001
8528750.000	-4.483273e-001	1.098578e-001	4.595694e-001	-7.463002e-001	4.608303e-001	-7.456262e-001	-1.021187e-001	-4.606743e-001
8628500.000	-4.523276e-001	1.198167e-001	4.488913e-001	-7.488427e-001	4.500290e-001	-7.482219e-001	-1.062953e-001	-4.661151e-001
8728250.000	-4.559275e-001	1.296829e-001	4.378466e-001	-7.514066e-001	4.391957e-001	-7.506772e-001	-1.104540e-001	-4.715811e-001
8828000.000	-4.592860e-001	1.399656e-001	4.271352e-001	-7.536009e-001	4.284040e-001	-7.528173e-001	-1.148649e-001	-4.769002e-001
8927750.000	-4.624553e-001	1.502106e-001	4.161994e-001	-7.555830e-001	4.175005e-001	-7.547822e-001	-1.192339e-001	-4.822491e-001
9027500.000	-4.655808e-001	1.605989e-001	4.053923e-001	-7.572729e-001	4.067672e-001	-7.565887e-001	-1.237047e-001	-4.874442e-001
9127250.000	-4.682870e-001	1.712867e-001	3.947367e-001	-7.589155e-001	3.958478e-001	-7.582508e-001	-1.283004e-001	-4.927150e-001
9227000.000	-4.708047e-001	1.818921e-001	3.837948e-001	-7.602852e-001	3.851393e-001	-7.596630e-001	-1.329955e-001	-4.977454e-001
9326750.000	-4.729962e-001	1.927723e-001	3.731136e-001	-7.614892e-001	3.743653e-001	-7.609337e-001	-1.376587e-001	-5.028479e-001
9426500.000	-4.750608e-001	2.034547e-001	3.622545e-001	-7.624914e-001	3.636608e-001	-7.618595e-001	-1.425012e-001	-5.077108e-001
9526250.000	-4.767724e-001	2.143415e-001	3.515336e-001	-7.632747e-001	3.527898e-001	-7.626178e-001	-1.474635e-001	-5.127689e-001
9626000.000	-4.782602e-001	2.255340e-001	3.409648e-001	-7.639670e-001	3.421434e-001	-7.633223e-001	-1.523405e-001	-5.175590e-001
9725750.000	-4.795277e-001	2.365641e-001	3.302975e-001	-7.642405e-001	3.314924e-001	-7.635802e-001	-1.574730e-001	-5.223306e-001
9825500.000	-4.806498e-001	2.476723e-001	3.196898e-001	-7.645036e-001	3.209619e-001	-7.639403e-001	-1.623635e-001	-5.268124e-001
9925250.000	-4.813225e-001	2.588538e-001	3.091627e-001	-7.645297e-001	3.104399e-001	-7.640004e-001	-1.676325e-001	-5.315260e-001
10025000.000	-4.817979e-001	2.699212e-001	2.985734e-001	-7.644804e-001	2.998646e-001	-7.641054e-001	-1.726098e-001	-5.360293e-001
10124750.000	-4.821383e-001	2.811669e-001	2.881834e-001	-7.641260e-001	2.894194e-001	-7.636175e-001	-1.780256e-001	-5.405559e-001
10224500.000	-4.821681e-001	2.925493e-001	2.778492e-001	-7.635270e-001	2.790948e-001	-7.632302e-001	-1.833164e-001	-5.448895e-001
10324250.000	-4.818672e-001	3.037120e-001	2.674843e-001	-7.627105e-001	2.687168e-001	-7.624612e-001	-1.888155e-001	-5.490632e-001
10424000.000	-4.815469e-001	3.151065e-001	2.573527e-001	-7.617729e-001	2.585762e-001	-7.616744e-001	-1.940761e-001	-5.533005e-001
10523750.000	-4.809024e-001	3.265509e-001	2.472325e-001	-7.607669e-001	2.484926e-001	-7.606154e-001	-1.996213e-001	-5.573336e-001
10623500.000	-4.798465e-001	3.376998e-001	2.370578e-001	-7.596114e-001	2.383165e-001	-7.593778e-001	-2.051546e-001	-5.615056e-001
10723250.000	-4.786626e-001	3.489850e-001	2.270408e-001	-7.582261e-001	2.282990e-001	-7.579094e-001	-2.109137e-001	-5.653832e-001
10823000.000	-4.770174e-001	3.603716e-001	2.171549e-001	-7.568250e-001	2.184921e-001	-7.565305e-001	-2.164491e-001	-5.691611e-001
10922750.000	-4.755025e-001	3.716331e-001	2.073600e-001	-7.549660e-001	2.087161e-001	-7.548357e-001	-2.220805e-001	-5.728472e-001
11022500.000	-4.735517e-001	3.827679e-001	1.975833e-001	-7.529136e-001	1.989135e-001	-7.529138e-001	-2.278509e-001	-5.765841e-001
11122250.000	-4.713629e-001	3.940327e-001	1.880714e-001	-7.508931e-001	1.893510e-001	-7.508259e-001	-2.336192e-001	-5.800435e-001
11222000.000	-4.689147e-001	4.051959e-001	1.784851e-001	-7.488219e-001	1.797887e-001	-7.487447e-001	-2.393642e-001	-5.835069e-001
11321750.000	-4.663107e-001	4.162908e-001	1.691164e-001	-7.464211e-001	1.704226e-001	-7.464165e-001	-2.452976e-001	-5.869346e-001
11421500.000	-4.634229e-001	4.274598e-001	1.598789e-001	-7.439322e-001	1.612367e-001	-7.439257e-001	-2.511054e-001	-5.899732e-001
11521250.000	-4.601719e-001	4.383677e-001	1.505550e-001	-7.413446e-001	1.519342e-001	-7.413810e-001	-2.568994e-001	-5.933201e-001
11621000.000	-4.568291e-001	4.494237e-001	1.415749e-001	-7.385920e-001	1.427513e-001	-7.386719e-001	-2.627915e-001	-5.965436e-001
11720750.000	-4.531635e-001	4.601818e-001	1.325333e-001	-7.357667e-001	1.338281e-001	-7.357395e-001	-2.688408e-001	-5.993749e-001
11820500.000	-4.494265e-001	4.710044e-001	1.237412e-001	-7.326281e-001	1.249169e-001	-7.327167e-001	-2.747439e-001	-6.022596e-001
11920250.000	-4.455288e-001	4.816911e-001	1.149823e-001	-7.293967e-001	1.162150e-001	-7.295393e-001	-2.807191e-001	-6.050403e-001
12020000.000	-4.412888e-001	4.922320e-001	1.063159e-001	-7.262238e-001	1.076440e-001	-7.263825e-001	-2.867398e-001	-6.077409e-001
12119750.000	-4.368322e-001	5.026840e-001	9.782859e-002	-7.227706e-001	9.900915e-002	-7.229975e-001	-2.927438e-001	-6.104354e-001
12219500.000	-4.320952e-001	5.132501e-001	8.959449e-002	-7.193588e-001	9.060608e-002	-7.195000e-001	-2.988141e-001	-6.128265e-001
12319250.000	-4.273240e-001	5.234857e-001	8.122492e-002	-7.157472e-001	8.243968e-002	-7.158319e-001	-3.048179e-001	-6.152428e-001
12419000.000	-4.222097e-001	5.337258e-001	7.319806e-002	-7.119151e-001	7.422208e-002	-7.122257e-001	-3.107670e-001	-6.175823e-001
12518750.000	-4.170901e-001	5.436487e-001	6.509565e-002	-7.081015e-001	6.628804e-002	-7.084120e-001	-3.168854e-001	-6.198611e-001
12618500.000	-4.116220e-001	5.536454e-001	5.727041e-002	-7.040706e-001	5.850641e-002	-7.043356e-001	-3.230882e-001	-6.219501e-001
12718250.000	-4.060530e-001	5.634995e-001	4.958000e-002	-7.001483e-001	5.062424e-002	-7.004868e-001	-3.289290e-001	-6.239704e-001
12818000.000	-4.003668e-001	5.730531e-001	4.191778e-002	-6.959220e-001	4.281761e-002	-6.964246e-001	-3.351454e-001	-6.259549e-001
12917750.000	-3.943292e-001	5.827704e-001	3.445516e-002	-6.918369e-001	3.554626e-002	-6.922603e-001	-3.410440e-001	-6.277648e-001
13017500.000	-3.881145e-001	5.920532e-001	2.713677e-002	-6.875608e-001	2.817274e-002	-6.880223e-001	-3.471445e-001	-6.295974e-001
13117250.000	-3.819997e-001	6.013281e-001	1.988878e-002	-6.830956e-001	2.096600e-002	-6.835629e-001	-3.531932e-001	-6.312057e-001
13217000.000	-3.755378e-001	6.104844e-001	1.290849e-002	-6.787177e-001	1.383992e-002	-6.791482e-001	-3.592928e-001	-6.328315e-001
13316750.000	-3.688534e-001	6.196224e-001	5.916944e-003	-6.742887e-001	6.849801e-003	-6.747192e-001	-3.652080e-001	-6.343065e-001
13416500.000	-3.621574e-001	6.284346e-001	-8.820504e-004	-6.696663e-001	1.006205e-004	-6.700874e-001	-3.711627e-001	-6.356902e-001
13516250.000	-3.551471e-001	6.370267e-001	-7.572390e-003	-6.650620e-001	-6.583149e-003	-6.654282e-001	-3.772941e-001	-6.370544e-001
13616000.000	-3.482238e-001	6.455367e-001	-1.411743e-002	-6.602626e-001	-1.308798e-002	-6.607823e-001	-3.831704e-001	-6.382393e-001
13715750.000	-3.410251e-001	6.541239e-001	-2.050481e-002	-6.556105e-001	-1.960023e-002	-6.560544e-001	-3.890879e-001	-6.394324e-001
13815500.000	-3.338232e-001	6.622818e-001	-2.675195e-002	-6.507309e-001	-2.584408e-002	-6.512645e-001	-3.950315e-001	-6.404270e-001
13915250.000	-3.264451e-001	6.702488e-001	-3.298690e-002	-6.459051e-001	-3.202808e-002	-6.463733e-001	-4.009403e-001	-6.414513e-001
14015000.000	-3.187720e-001	6.782413e-001	-3.895975e-002	-6.410641e-001	-3.812801e-002	-6.416310e-001	-4.068323e-001	-6.422888e-001
14114750.000	-3.112213e-001	6.860053e-001	-4.479576e-002	-6.360777e-001	-4.399415e-002	-6.365963e-001	-4.127848e-001	-6.430304e-001
14214500.000	-3.035410e-001	6.936219e-001	-5.066211e-002	-6.311007e-001	-4.972800e-002	-6.316276e-001	-4.185249e-001	-6.437811e-001
14314250.000	-2.959351e-001	7.009579e-001	-5.610068e-002	-6.259126e-001	-5.540673e-002	-6.265682e-001	-4.243456e-001	-6.445034e-001
14414000.000	-2.877521e-001	7.082603e-001	-6.162585e-002	-6.209060e-001	-6.084898e-002	-6.215324e-001	-4.299958e-001	-6.450841e-001
14513750.000	-2.797718e-001	7.154655e-001	-6.698283e-002	-6.158720e-001	-6.621912e-002	-6.164197e-001	-4.358051e-001	-6.455064e-001
14613500.000	-2.715577e-001	7.224051e-001	-7.228327e-002	-6.108043e-001	-7.149727e-002	-6.113349e-001	-4.415213e-001	-6.460342e-001
14713250.000	-2.634055e-001	7.291816e-001	-7.735436e-002	-6.055961e-001	-7.656683e-002	-6.061943e-001	-4.473184e-001	-6.463821e-001
14813000.000	-2.552778e-001	7.358378e-001	-8.212124e-002	-6.003476e-001	-8.166814e-002	-6.010783e-001	-4.527813e-001	-6.465622e-001
14912750.000	-2.467132e-001	7.423586e-001	-8.705716e-002	-5.952465e-001	-8.655765e-002	-5.958786e-001	-4.584277e-001	-6.468115e-001
15012500.000	-2.381612e-001	7.485381e-001	-9.193207e-002	-5.901507e-001	-9.125728e-002	-5.906747e-001	-4.639817e-001	-6.470799e-001
15112250.000	-2.298565e-001	7.547740e-001	-9.645596e-002	-5.849068e-001	-9.581217e-002	-5.854477e-001	-4.695831e-001	-6.471044e-001
