Time (s),V_PRI,V_SEC,V_IN,V_OUT
0.0,-67.99991167999997,-218.37497984000004,24.99000001408,42.27612500224
5e-10,-36.74990976000004,-233.9999808,24.983750014720002,42.279250001920005
1e-09,-52.374910720000116,-233.9999808,24.99625001344,42.27612500224
1.5000000000000002e-09,-52.374910720000116,-249.62498176000003,24.99000001408,42.26987500288
2e-09,-36.74990976000004,-249.62498176000003,24.99000001408,42.257375004160004
2.5e-09,-21.124908799999957,-249.62498176000003,24.99625001344,42.2511250048
3.0000000000000004e-09,-36.74990976000004,-233.9999808,25.002500012800002,42.25425000448
3.5000000000000003e-09,-36.74990976000004,-249.62498176000003,25.02750001024,42.2511250048
4e-09,-36.74990976000004,-249.62498176000003,25.052500007680003,42.25425000448
4.500000000000001e-09,-21.124908799999957,-233.9999808,25.04625000832,42.25425000448
5e-09,-21.124908799999957,-265.24998272,25.033750009600002,42.263625003520005
5.5000000000000004e-09,10.125093119999974,-265.24998272,25.02750001024,42.263625003520005
6.000000000000001e-09,-21.124908799999957,-265.24998272,25.04000000896,42.279250001920005
6.5e-09,-5.499907840000105,-265.24998272,25.04000000896,42.279250001920005
7.000000000000001e-09,-5.499907840000105,-265.24998272,25.02750001024,42.26987500288
7.500000000000001e-09,-5.499907840000105,-280.87498368,25.002500012800002,42.263625003520005
8e-09,-5.499907840000105,-265.24998272,24.99000001408,42.25425000448
8.5e-09,10.125093119999974,-265.24998272,24.971250016000003,42.248000005120005
9.000000000000001e-09,-5.499907840000105,-265.24998272,24.983750014720002,42.23862500608
9.5e-09,10.125093119999974,-280.87498368,24.97750001536,42.2355000064
1e-08,10.125093119999974,-265.24998272,24.971250016000003,42.22300000768
1.0500000000000001e-08,25.750094080000054,-265.24998272,24.96500001664,42.219875008
1.1000000000000001e-08,25.750094080000054,-265.24998272,24.952500017920002,42.232375006720005
1.15e-08,25.750094080000054,-249.62498176000003,24.95875001728,42.24487500544
1.2000000000000002e-08,25.750094080000054,-249.62498176000003,24.971250016000003,42.25425000448
1.2500000000000001e-08,25.750094080000054,-218.37497984000004,24.952500017920002,42.263625003520005
1.3e-08,41.375095039999906,-249.62498176000003,24.93375001984,42.279250001920005
1.35e-08,57.000095999999985,-265.24998272,24.921250021120002,42.28550000128
1.4000000000000001e-08,41.375095039999906,-265.24998272,24.91500002176,42.310499998720005
1.45e-08,41.375095039999906,-265.24998272,24.921250021120002,42.31674999808
1.5000000000000002e-08,57.000095999999985,-249.62498176000003,24.91500002176,42.31674999808
1.55e-08,57.000095999999985,-233.9999808,24.9087500224,42.30737499904
1.6e-08,41.375095039999906,-233.9999808,24.9087500224,42.298
1.6500000000000002e-08,72.62509695999984,-233.9999808,24.91500002176,42.298
1.7e-08,41.375095039999906,-249.62498176000003,24.940000019200003,42.29175000064
1.75e-08,57.000095999999985,-233.9999808,24.95875001728,42.30112499968
1.8000000000000002e-08,72.62509695999984,-233.9999808,24.971250016000003,42.294875000320005
1.85e-08,72.62509695999984,-218.37497984000004,24.96500001664,42.30112499968
1.9e-08,72.62509695999984,-218.37497984000004,24.952500017920002,42.31674999808
1.9500000000000003e-08,72.62509695999984,-218.37497984000004,24.96500001664,42.31987499776
2e-08,88.25009791999992,-218.37497984000004,24.983750014720002,42.32299999744
2.05e-08,72.62509695999984,-187.12497792,24.983750014720002,42.310499998720005
2.1000000000000003e-08,103.87509888,-202.74997888000001,24.983750014720002,42.30424999936
2.15e-08,119.50009983999985,-202.74997888000001,24.971250016000003,42.28550000128
2.2000000000000002e-08,88.25009791999992,-202.74997888000001,24.983750014720002,42.28862500096
2.2500000000000003e-08,103.87509888,-187.12497792,25.002500012800002,42.28862500096
2.3e-08,103.87509888,-187.12497792,25.01500001152,42.28550000128
2.3500000000000002e-08,103.87509888,-187.12497792,25.021250010880003,42.279250001920005
2.4000000000000003e-08,72.62509695999984,-171.49997696000003,25.021250010880003,42.26987500288
2.45e-08,103.87509888,-171.49997696000003,25.00875001216,42.263625003520005
2.5000000000000002e-08,119.50009983999985,-171.49997696000003,25.021250010880003,42.26050000384
2.55e-08,103.87509888,-171.49997696000003,25.02750001024,42.257375004160004
2.6e-08,103.87509888,-140.24997504000004,25.021250010880003,42.2511250048
2.6500000000000002e-08,119.50009983999985,-155.874976,25.01500001152,42.241750005760004
2.7e-08,119.50009983999985,-140.24997504000004,24.99625001344,42.248000005120005
2.75e-08,103.87509888,-140.24997504000004,24.99000001408,42.248000005120005
2.8000000000000003e-08,103.87509888,-155.874976,25.002500012800002,42.248000005120005
2.85e-08,119.50009983999985,-124.62497408000002,25.002500012800002,42.241750005760004
2.9e-08,119.50009983999985,-140.24997504000004,25.021250010880003,42.2355000064
2.9500000000000003e-08,150.75010176,-140.24997504000004,25.021250010880003,42.22300000768
3.0000000000000004e-08,135.12510079999993,-155.874976,25.04625000832,42.216750008320005
3.05e-08,135.12510079999993,-140.24997504000004,25.07125000576,42.216750008320005
3.1e-08,135.12510079999993,-140.24997504000004,25.083750004480002,42.21362500864
3.1500000000000004e-08,135.12510079999993,-124.62497408000002,25.083750004480002,42.210500008960004
3.2e-08,119.50009983999985,-140.24997504000004,25.065000006400002,42.20737500928
3.25e-08,150.75010176,-124.62497408000002,25.04000000896,42.21362500864
3.3000000000000004e-08,150.75010176,-124.62497408000002,25.04000000896,42.226125007360004
3.35e-08,150.75010176,-108.99997311999999,25.033750009600002,42.248000005120005
3.4e-08,150.75010176,-108.99997311999999,25.01500001152,42.263625003520005
3.4500000000000005e-08,166.37510271999986,-108.99997311999999,25.002500012800002,42.279250001920005
3.5e-08,166.37510271999986,-93.37497216000003,24.96500001664,42.298
3.55e-08,150.75010176,-93.37497216000003,24.95875001728,42.30424999936
3.6000000000000005e-08,150.75010176,-108.99997311999999,24.97750001536,42.3136249984
3.65e-08,166.37510271999986,-77.7499712,24.99000001408,42.3136249984
3.7e-08,166.37510271999986,-93.37497216000003,25.00875001216,42.30737499904
3.7500000000000005e-08,197.62510464000002,-108.99997311999999,24.99625001344,42.29175000064
3.8e-08,166.37510271999986,-108.99997311999999,24.983750014720002,42.28862500096
3.85e-08,182.00010367999994,-93.37497216000003,24.97750001536,42.28550000128
3.9000000000000005e-08,182.00010367999994,-77.7499712,24.96500001664,42.279250001920005
3.95e-08,182.00010367999994,-77.7499712,24.95875001728,42.26987500288
4e-08,182.00010367999994,-77.7499712,24.952500017920002,42.257375004160004
4.0500000000000005e-08,197.62510464000002,-62.12497024000004,24.93375001984,42.248000005120005
4.1e-08,182.00010367999994,-77.7499712,24.94625001856,42.241750005760004
4.15e-08,182.00010367999994,-62.12497024000004,24.96500001664,42.241750005760004
4.2000000000000006e-08,197.62510464000002,-62.12497024000004,24.983750014720002,42.2355000064
4.2500000000000003e-08,213.25010559999987,-46.499969280000016,24.99000001408,42.23862500608
4.3e-08,197.62510464000002,-30.874968319999994,24.983750014720002,42.241750005760004
4.3500000000000006e-08,213.25010559999987,-30.874968319999994,24.99000001408,42.248000005120005
4.4000000000000004e-08,182.00010367999994,-46.499969280000016,25.002500012800002,42.25425000448
4.45e-08,213.25010559999987,-15.249967360000028,25.01500001152,42.25425000448
4.5000000000000006e-08,197.62510464000002,-15.249967360000028,25.033750009600002,42.257375004160004
4.5500000000000004e-08,228.87510655999995,-30.874968319999994,25.02750001024,42.248000005120005
4.6e-08,182.00010367999994,-46.499969280000016,24.99625001344,42.24487500544
4.6500000000000006e-08,197.62510464000002,0.3750335999999379,24.95875001728,42.23862500608
4.7000000000000004e-08,213.25010559999987,0.3750335999999379,24.921250021120002,42.232375006720005
4.75e-08,197.62510464000002,0.3750335999999379,24.89625002368,42.22300000768
4.8000000000000006e-08,197.62510464000002,0.3750335999999379,24.90250002304,42.216750008320005
4.8500000000000004e-08,213.25010559999987,0.3750335999999379,24.890000024320003,42.216750008320005
4.9e-08,197.62510464000002,0.3750335999999379,24.89625002368,42.216750008320005
4.95e-08,197.62510464000002,0.3750335999999379,24.890000024320003,42.22925000704
5.0000000000000004e-08,213.25010559999987,16.000034560000017,24.890000024320003,42.22925000704
5.05e-08,213.25010559999987,0.3750335999999379,24.90250002304,42.22925000704
5.1e-08,197.62510464000002,16.000034560000017,24.90250002304,42.241750005760004
5.1500000000000005e-08,197.62510464000002,31.625035519999983,24.91500002176,42.2511250048
5.2e-08,182.00010367999994,16.000034560000017,24.93375001984,42.263625003520005
5.25e-08,197.62510464000002,47.25003647999995,24.921250021120002,42.27300000256
5.3000000000000005e-08,197.62510464000002,31.625035519999983,24.91500002176,42.279250001920005
5.35e-08,213.25010559999987,31.625035519999983,24.89625002368,42.2667500032
5.4e-08,182.00010367999994,16.000034560000017,24.8775000256,42.27612500224
5.4500000000000005e-08,182.00010367999994,47.25003647999995,24.858750027520003,42.28862500096
5.5e-08,182.00010367999994,31.625035519999983,24.8462500288,42.29175000064
5.55e-08,182.00010367999994,47.25003647999995,24.840000029440002,42.29175000064
5.6000000000000005e-08,166.37510271999986,62.87503744000003,24.85250002816,42.28550000128
5.65e-08,182.00010367999994,62.87503744000003,24.858750027520003,42.26987500288
5.7e-08,166.37510271999986,62.87503744000003,24.8775000256,42.257375004160004
5.7500000000000005e-08,166.37510271999986,62.87503744000003,24.88375002496,42.25425000448
5.8e-08,166.37510271999986,78.5000384,24.88375002496,42.24487500544
5.85e-08,182.00010367999994,78.5000384,24.8775000256,42.2355000064
5.9000000000000006e-08,166.37510271999986,94.12503935999996,24.8462500288,42.232375006720005
5.9500000000000003e-08,150.75010176,94.12503935999996,24.83375003008,42.22925000704
6.000000000000001e-08,150.75010176,94.12503935999996,24.83375003008,42.2355000064
6.05e-08,150.75010176,125.37504128,24.840000029440002,42.241750005760004
6.1e-08,135.12510079999993,94.12503935999996,24.85250002816,42.25425000448
6.15e-08,166.37510271999986,94.12503935999996,24.858750027520003,42.248000005120005
6.2e-08,135.12510079999993,94.12503935999996,24.871250026240002,42.25425000448
6.250000000000001e-08,119.50009983999985,109.75004031999993,24.8775000256,42.26050000384
6.300000000000001e-08,119.50009983999985,125.37504128,24.871250026240002,42.26050000384
6.35e-08,119.50009983999985,141.00004223999997,24.8775000256,42.26050000384
6.4e-08,103.87509888,141.00004223999997,24.88375002496,42.2511250048
6.45e-08,119.50009983999985,125.37504128,24.8775000256,42.241750005760004
6.5e-08,103.87509888,125.37504128,24.88375002496,42.232375006720005
6.55e-08,103.87509888,125.37504128,24.8775000256,42.2355000064
6.600000000000001e-08,103.87509888,141.00004223999997,24.871250026240002,42.226125007360004
6.65e-08,119.50009983999985,141.00004223999997,24.871250026240002,42.21362500864
6.7e-08,103.87509888,141.00004223999997,24.871250026240002,42.20737500928
6.75e-08,103.87509888,172.25004416000002,24.890000024320003,42.20112500992
6.8e-08,88.25009791999992,141.00004223999997,24.92750002048,42.20112500992
6.85e-08,88.25009791999992,172.25004416000002,24.93375001984,42.210500008960004
6.900000000000001e-08,88.25009791999992,156.62504319999994,24.93375001984,42.219875008
6.950000000000001e-08,103.87509888,156.62504319999994,24.91500002176,42.219875008
7e-08,72.62509695999984,141.00004223999997,24.890000024320003,42.232375006720005
7.05e-08,72.62509695999984,156.62504319999994,24.86500002688,42.23862500608
7.1e-08,57.000095999999985,172.25004416000002,24.8462500288,42.24487500544
7.15e-08,72.62509695999984,172.25004416000002,24.82750003072,42.2511250048
7.200000000000001e-08,41.375095039999906,156.62504319999994,24.840000029440002,42.2511250048
7.250000000000001e-08,72.62509695999984,172.25004416000002,24.840000029440002,42.2511250048
7.3e-08,57.000095999999985,156.62504319999994,24.8775000256,42.248000005120005
7.35e-08,41.375095039999906,172.25004416000002,24.9087500224,42.257375004160004
7.4e-08,57.000095999999985,187.87504511999998,24.93375001984,42.25425000448
7.45e-08,57.000095999999985,172.25004416000002,24.95875001728,42.257375004160004
7.500000000000001e-08,41.375095039999906,172.25004416000002,24.952500017920002,42.26050000384
7.550000000000001e-08,41.375095039999906,203.50004607999995,24.94625001856,42.263625003520005
7.6e-08,25.750094080000054,172.25004416000002,24.940000019200003,42.263625003520005
7.65e-08,25.750094080000054,219.12504704000003,24.9087500224,42.2667500032
7.7e-08,25.750094080000054,187.87504511999998,24.88375002496,42.27612500224
7.75e-08,25.750094080000054,187.87504511999998,24.85250002816,42.27612500224
7.800000000000001e-08,25.750094080000054,172.25004416000002,24.8462500288,42.279250001920005
7.850000000000001e-08,10.125093119999974,187.87504511999998,24.85250002816,42.279250001920005
7.9e-08,10.125093119999974,187.87504511999998,24.871250026240002,42.27300000256
7.95e-08,-5.499907840000105,187.87504511999998,24.88375002496,42.26987500288
8e-08,-5.499907840000105,187.87504511999998,24.91500002176,42.26050000384
8.05e-08,10.125093119999974,219.12504704000003,24.92750002048,42.25425000448
8.100000000000001e-08,-5.499907840000105,219.12504704000003,24.93375001984,42.24487500544
8.150000000000001e-08,-21.124908799999957,203.50004607999995,24.93375001984,42.23862500608
8.2e-08,-5.499907840000105,203.50004607999995,24.9087500224,42.22925000704
8.25e-08,-5.499907840000105,219.12504704000003,24.88375002496,42.226125007360004
8.3e-08,-21.124908799999957,219.12504704000003,24.83375003008,42.232375006720005
8.35e-08,-21.124908799999957,219.12504704000003,24.815000032,42.2355000064
8.400000000000001e-08,-36.74990976000004,219.12504704000003,24.815000032,42.248000005120005
8.450000000000001e-08,-36.74990976000004,234.750048,24.815000032,42.25425000448
8.500000000000001e-08,-36.74990976000004,187.87504511999998,24.82750003072,42.26987500288
8.55e-08,-21.124908799999957,187.87504511999998,24.83375003008,42.27300000256
8.6e-08,-52.374910720000116,187.87504511999998,24.858750027520003,42.27612500224
8.65e-08,-36.74990976000004,203.50004607999995,24.871250026240002,42.27612500224
8.700000000000001e-08,-36.74990976000004,203.50004607999995,24.8775000256,42.27612500224
8.750000000000001e-08,-52.374910720000116,187.87504511999998,24.8775000256,42.27300000256
8.800000000000001e-08,-67.99991167999997,172.25004416000002,24.871250026240002,42.26987500288
8.85e-08,-52.374910720000116,203.50004607999995,24.85250002816,42.2667500032
8.9e-08,-52.374910720000116,187.87504511999998,24.8462500288,42.263625003520005
8.95e-08,-67.99991167999997,187.87504511999998,24.83375003008,42.26987500288
9.000000000000001e-08,-67.99991167999997,172.25004416000002,24.82750003072,42.27300000256
9.050000000000001e-08,-52.374910720000116,172.25004416000002,24.840000029440002,42.279250001920005
9.100000000000001e-08,-83.62491264000005,187.87504511999998,24.840000029440002,42.294875000320005
9.15e-08,-67.99991167999997,187.87504511999998,24.858750027520003,42.30737499904
9.2e-08,-83.62491264000005,156.62504319999994,24.88375002496,42.31987499776
9.25e-08,-83.62491264000005,187.87504511999998,24.89625002368,42.33237499648
9.300000000000001e-08,-83.62491264000005,156.62504319999994,24.9087500224,42.33862499584
9.350000000000001e-08,-67.99991167999997,156.62504319999994,24.90250002304,42.3292499968
9.400000000000001e-08,-99.24991360000013,141.00004223999997,24.89625002368,42.3292499968
9.45e-08,-83.62491264000005,141.00004223999997,24.88375002496,42.31674999808
9.5e-08,-114.87491455999998,156.62504319999994,24.86500002688,42.30112499968
9.55e-08,-99.24991360000013,141.00004223999997,24.85250002816,42.28862500096
9.600000000000001e-08,-114.87491455999998,141.00004223999997,24.85250002816,42.263625003520005
9.650000000000001e-08,-99.24991360000013,125.37504128,24.8462500288,42.25425000448
9.700000000000001e-08,-99.24991360000013,125.37504128,24.858750027520003,42.24487500544
9.75e-08,-114.87491455999998,125.37504128,24.86500002688,42.2511250048
9.8e-08,-99.24991360000013,125.37504128,24.871250026240002,42.24487500544
9.85e-08,-99.24991360000013,109.75004031999993,24.88375002496,42.23862500608
9.9e-08,-99.24991360000013,125.37504128,24.86500002688,42.241750005760004
9.950000000000001e-08,-114.87491455999998,109.75004031999993,24.871250026240002,42.24487500544
1.0000000000000001e-07,-130.49991552000006,109.75004031999993,24.871250026240002,42.25425000448
1.005e-07,-114.87491455999998,125.37504128,24.86500002688,42.26050000384
1.01e-07,-114.87491455999998,109.75004031999993,24.86500002688,42.2667500032
1.015e-07,-114.87491455999998,94.12503935999996,24.86500002688,42.26050000384
1.02e-07,-146.12491648000014,78.5000384,24.890000024320003,42.26050000384
1.0250000000000001e-07,-130.49991552000006,94.12503935999996,24.90250002304,42.25425000448
1.0300000000000001e-07,-130.49991552000006,78.5000384,24.92750002048,42.241750005760004
1.0350000000000001e-07,-146.12491648000014,78.5000384,24.952500017920002,42.226125007360004
1.04e-07,-146.12491648000014,78.5000384,24.97750001536,42.216750008320005
1.045e-07,-146.12491648000014,78.5000384,24.97750001536,42.210500008960004
1.05e-07,-146.12491648000014,78.5000384,24.99625001344,42.2042500096
1.0550000000000001e-07,-161.74991744,78.5000384,25.002500012800002,42.210500008960004
1.0600000000000001e-07,-161.74991744,78.5000384,24.99625001344,42.20737500928
1.0650000000000001e-07,-146.12491648000014,78.5000384,24.99000001408,42.216750008320005
1.07e-07,-177.37491840000007,78.5000384,24.952500017920002,42.232375006720005
1.075e-07,-177.37491840000007,78.5000384,24.92750002048,42.24487500544
1.08e-07,-177.37491840000007,62.87503744000003,24.921250021120002,42.263625003520005
1.0850000000000001e-07,-161.74991744,94.12503935999996,24.921250021120002,42.279250001920005
1.0900000000000001e-07,-177.37491840000007,62.87503744000003,24.94625001856,42.28862500096
1.0950000000000001e-07,-161.74991744,47.25003647999995,24.96500001664,42.29175000064
1.1e-07,-177.37491840000007,31.625035519999983,24.97750001536,42.310499998720005
1.105e-07,-177.37491840000007,47.25003647999995,24.983750014720002,42.31674999808
1.11e-07,-177.37491840000007,31.625035519999983,24.99000001408,42.31674999808
1.1150000000000001e-07,-177.37491840000007,47.25003647999995,24.983750014720002,42.310499998720005
1.1200000000000001e-07,-208.62492032,47.25003647999995,24.99000001408,42.30112499968
1.1250000000000001e-07,-208.62492032,47.25003647999995,24.96500001664,42.294875000320005
1.13e-07,-177.37491840000007,31.625035519999983,24.940000019200003,42.279250001920005
1.135e-07,-208.62492032,31.625035519999983,24.90250002304,42.26987500288
1.14e-07,-208.62492032,31.625035519999983,24.890000024320003,42.2511250048
1.1450000000000001e-07,-192.99991936000015,16.000034560000017,24.9087500224,42.23862500608
1.1500000000000001e-07,-208.62492032,31.625035519999983,24.921250021120002,42.22925000704
1.1550000000000001e-07,-208.62492032,16.000034560000017,24.952500017920002,42.219875008
1.16e-07,-224.24992128000008,-15.249967360000028,24.97750001536,42.226125007360004
1.165e-07,-224.24992128000008,16.000034560000017,24.99000001408,42.22925000704
1.17e-07,-224.24992128000008,0.3750335999999379,25.021250010880003,42.23862500608
1.1750000000000001e-07,-208.62492032,-30.874968319999994,25.04000000896,42.24487500544
1.1800000000000001e-07,-239.87492223999993,-30.874968319999994,25.052500007680003,42.25425000448
1.1850000000000001e-07,-224.24992128000008,-30.874968319999994,25.04625000832,42.263625003520005
1.1900000000000001e-07,-224.24992128000008,-15.249967360000028,25.00875001216,42.27612500224
1.195e-07,-224.24992128000008,-30.874968319999994,24.96500001664,42.27612500224
1.2000000000000002e-07,-239.87492223999993,-30.874968319999994,24.940000019200003,42.27612500224
