Time (s),V_PRI,V_SEC,V_IN,V_OUT
0.0,-67.99991167999997,-199.74997888000001,24.99475001344,42.23587500288
5e-10,-67.99991167999997,-215.37497984000004,24.969750016000003,42.24212500224
1e-09,-52.374910720000116,-230.9999808,24.96350001664,42.239000002560005
1.5000000000000002e-09,-67.99991167999997,-246.62498176000003,24.969750016000003,42.245250001920006
2e-09,-67.99991167999997,-230.9999808,24.98225001472,42.25150000128
2.5e-09,-36.74990976000004,-230.9999808,24.97600001536,42.24212500224
3.0000000000000004e-09,-52.374910720000116,-246.62498176000003,24.97600001536,42.2327500032
3.5000000000000003e-09,-52.374910720000116,-246.62498176000003,24.96350001664,42.22025000448
4e-09,-36.74990976000004,-230.9999808,24.98850001408,42.214000005120006
4.500000000000001e-09,-36.74990976000004,-246.62498176000003,25.01350001152,42.214000005120006
5e-09,-36.74990976000004,-262.24998272,25.032250009600002,42.22025000448
5.5000000000000004e-09,-36.74990976000004,-246.62498176000003,25.02600001024,42.22025000448
6.000000000000001e-09,-21.124908799999957,-262.24998272,25.001000012800002,42.223375004160005
6.5e-09,-21.124908799999957,-246.62498176000003,24.99475001344,42.23587500288
7.000000000000001e-09,-5.499907840000105,-246.62498176000003,25.00725001216,42.239000002560005
7.500000000000001e-09,-21.124908799999957,-262.24998272,25.001000012800002,42.2483750016
8e-09,-5.499907840000105,-246.62498176000003,25.001000012800002,42.245250001920006
8.5e-09,-21.124908799999957,-262.24998272,24.98225001472,42.245250001920006
9.000000000000001e-09,10.125093119999974,-277.87498368,24.969750016000003,42.229625003520006
9.5e-09,-21.124908799999957,-277.87498368,24.96350001664,42.223375004160005
1e-08,10.125093119999974,-262.24998272,24.969750016000003,42.2171250048
1.0500000000000001e-08,10.125093119999974,-277.87498368,24.969750016000003,42.21087500544
1.1000000000000001e-08,10.125093119999974,-262.24998272,24.96350001664,42.2015000064
1.15e-08,-5.499907840000105,-262.24998272,24.93225001984,42.192125007360005
1.2000000000000002e-08,25.750094080000054,-246.62498176000003,24.938500019200003,42.18900000768
1.2500000000000001e-08,10.125093119999974,-262.24998272,24.94475001856,42.19525000704
1.3e-08,10.125093119999974,-262.24998272,24.94475001856,42.207750005760005
1.35e-08,25.750094080000054,-262.24998272,24.94475001856,42.2171250048
1.4000000000000001e-08,25.750094080000054,-262.24998272,24.91350002176,42.22650000384
1.45e-08,41.375095039999906,-246.62498176000003,24.90100002304,42.24212500224
1.5000000000000002e-08,41.375095039999906,-246.62498176000003,24.90100002304,42.25775000064
1.55e-08,41.375095039999906,-246.62498176000003,24.90100002304,42.270249999360004
1.6e-08,41.375095039999906,-230.9999808,24.9072500224,42.2796249984
1.6500000000000002e-08,41.375095039999906,-246.62498176000003,24.90100002304,42.285874997760004
1.7e-08,72.62509695999984,-262.24998272,24.90100002304,42.27337499904
1.75e-08,57.000095999999985,-262.24998272,24.9072500224,42.270249999360004
1.8000000000000002e-08,72.62509695999984,-230.9999808,24.92600002048,42.26712499968
1.85e-08,72.62509695999984,-246.62498176000003,24.938500019200003,42.270249999360004
1.9e-08,72.62509695999984,-230.9999808,24.94475001856,42.26712499968
1.9500000000000003e-08,57.000095999999985,-215.37497984000004,24.92600002048,42.264
2e-08,72.62509695999984,-215.37497984000004,24.938500019200003,42.270249999360004
2.05e-08,57.000095999999985,-230.9999808,24.951000017920002,42.270249999360004
2.1000000000000003e-08,57.000095999999985,-215.37497984000004,24.95725001728,42.28274999808
2.15e-08,72.62509695999984,-199.74997888000001,24.969750016000003,42.28274999808
2.2000000000000002e-08,88.25009791999992,-199.74997888000001,24.95725001728,42.27337499904
2.2500000000000003e-08,88.25009791999992,-199.74997888000001,24.951000017920002,42.270249999360004
2.3e-08,88.25009791999992,-184.12497792,24.96350001664,42.25775000064
2.3500000000000002e-08,72.62509695999984,-199.74997888000001,24.97600001536,42.25150000128
2.4000000000000003e-08,88.25009791999992,-168.49997696000003,24.99475001344,42.254625000960004
2.45e-08,88.25009791999992,-184.12497792,24.98850001408,42.254625000960004
2.5000000000000002e-08,119.50009983999985,-199.74997888000001,24.98225001472,42.2483750016
2.55e-08,88.25009791999992,-199.74997888000001,24.98850001408,42.239000002560005
2.6e-08,103.87509888,-168.49997696000003,24.98850001408,42.23587500288
2.6500000000000002e-08,119.50009983999985,-184.12497792,24.98225001472,42.229625003520006
2.7e-08,103.87509888,-152.874976,24.98850001408,42.223375004160005
2.75e-08,88.25009791999992,-152.874976,24.969750016000003,42.2171250048
2.8000000000000003e-08,119.50009983999985,-168.49997696000003,24.96350001664,42.21087500544
2.85e-08,119.50009983999985,-137.24997504000004,24.969750016000003,42.207750005760005
2.9e-08,103.87509888,-152.874976,24.98225001472,42.2171250048
2.9500000000000003e-08,119.50009983999985,-137.24997504000004,24.99475001344,42.214000005120006
3.0000000000000004e-08,135.12510079999993,-137.24997504000004,24.99475001344,42.214000005120006
3.05e-08,119.50009983999985,-137.24997504000004,24.99475001344,42.207750005760005
3.1e-08,119.50009983999985,-137.24997504000004,25.01350001152,42.198375006720006
3.1500000000000004e-08,119.50009983999985,-137.24997504000004,25.019750010880003,42.185875008000004
3.2e-08,135.12510079999993,-105.99997311999999,25.03850000896,42.185875008000004
3.25e-08,135.12510079999993,-137.24997504000004,25.032250009600002,42.18900000768
3.3000000000000004e-08,166.37510271999986,-137.24997504000004,25.019750010880003,42.176500008960005
3.35e-08,135.12510079999993,-137.24997504000004,25.00725001216,42.176500008960005
3.4e-08,135.12510079999993,-121.62497408000002,24.99475001344,42.17962500864
3.4500000000000005e-08,150.75010176,-121.62497408000002,24.98850001408,42.19525000704
3.5e-08,150.75010176,-121.62497408000002,24.98850001408,42.21087500544
3.55e-08,119.50009983999985,-105.99997311999999,24.969750016000003,42.2327500032
3.6000000000000005e-08,150.75010176,-121.62497408000002,24.95725001728,42.245250001920006
3.65e-08,150.75010176,-121.62497408000002,24.95725001728,42.254625000960004
3.7e-08,150.75010176,-105.99997311999999,24.96350001664,42.27337499904
3.7500000000000005e-08,166.37510271999986,-105.99997311999999,24.969750016000003,42.28274999808
3.8e-08,182.00010367999994,-105.99997311999999,24.96350001664,42.28274999808
3.85e-08,182.00010367999994,-90.37497216000003,24.95725001728,42.285874997760004
3.9000000000000005e-08,182.00010367999994,-74.7499712,24.94475001856,42.270249999360004
3.95e-08,166.37510271999986,-105.99997311999999,24.92600002048,42.260875000320006
4e-08,182.00010367999994,-59.12497024000004,24.92600002048,42.25150000128
4.0500000000000005e-08,182.00010367999994,-90.37497216000003,24.92600002048,42.2483750016
4.1e-08,197.62510464000002,-90.37497216000003,24.919750021120002,42.23587500288
4.15e-08,182.00010367999994,-90.37497216000003,24.919750021120002,42.229625003520006
4.2000000000000006e-08,197.62510464000002,-74.7499712,24.919750021120002,42.2171250048
4.2500000000000003e-08,197.62510464000002,-59.12497024000004,24.938500019200003,42.21087500544
4.3e-08,197.62510464000002,-74.7499712,24.951000017920002,42.20462500608
4.3500000000000006e-08,182.00010367999994,-59.12497024000004,24.951000017920002,42.2015000064
4.4000000000000004e-08,213.25010559999987,-59.12497024000004,24.96350001664,42.20462500608
4.45e-08,197.62510464000002,-59.12497024000004,24.96350001664,42.20462500608
4.5000000000000006e-08,197.62510464000002,-43.499969280000016,24.96350001664,42.214000005120006
4.5500000000000004e-08,197.62510464000002,-27.874968319999994,24.98850001408,42.214000005120006
4.6e-08,213.25010559999987,-27.874968319999994,24.98850001408,42.22025000448
4.6500000000000006e-08,213.25010559999987,-27.874968319999994,24.98850001408,42.229625003520006
4.7000000000000004e-08,182.00010367999994,3.375033599999938,24.97600001536,42.22650000384
4.75e-08,197.62510464000002,-12.249967360000028,24.938500019200003,42.22025000448
4.8000000000000006e-08,213.25010559999987,19.000034560000017,24.90100002304,42.214000005120006
4.8500000000000004e-08,197.62510464000002,-12.249967360000028,24.888500024320003,42.20462500608
4.9e-08,213.25010559999987,-12.249967360000028,24.888500024320003,42.192125007360005
4.95e-08,197.62510464000002,-12.249967360000028,24.888500024320003,42.18900000768
5.0000000000000004e-08,213.25010559999987,3.375033599999938,24.8760000256,42.18900000768
5.05e-08,213.25010559999987,19.000034560000017,24.869750026240002,42.192125007360005
5.1e-08,182.00010367999994,3.375033599999938,24.86350002688,42.192125007360005
5.1500000000000005e-08,182.00010367999994,19.000034560000017,24.857250027520003,42.192125007360005
5.2e-08,197.62510464000002,3.375033599999938,24.88225002496,42.19525000704
5.25e-08,197.62510464000002,19.000034560000017,24.90100002304,42.198375006720006
5.3000000000000005e-08,197.62510464000002,19.000034560000017,24.9072500224,42.2171250048
5.35e-08,182.00010367999994,34.62503551999998,24.9072500224,42.229625003520006
5.4e-08,213.25010559999987,34.62503551999998,24.888500024320003,42.239000002560005
5.4500000000000005e-08,197.62510464000002,34.62503551999998,24.8760000256,42.24212500224
5.5e-08,182.00010367999994,50.25003647999995,24.8760000256,42.239000002560005
5.55e-08,197.62510464000002,34.62503551999998,24.85100002816,42.24212500224
5.6000000000000005e-08,182.00010367999994,65.87503744000003,24.83225003008,42.25150000128
5.65e-08,182.00010367999994,50.25003647999995,24.81975003136,42.260875000320006
5.7e-08,197.62510464000002,34.62503551999998,24.83225003008,42.254625000960004
5.7500000000000005e-08,182.00010367999994,34.62503551999998,24.8447500288,42.25150000128
5.8e-08,182.00010367999994,50.25003647999995,24.857250027520003,42.239000002560005
5.85e-08,182.00010367999994,50.25003647999995,24.857250027520003,42.22650000384
5.9000000000000006e-08,166.37510271999986,50.25003647999995,24.857250027520003,42.22025000448
5.9500000000000003e-08,150.75010176,81.5000384,24.838500029440002,42.207750005760005
6.000000000000001e-08,166.37510271999986,65.87503744000003,24.8447500288,42.20462500608
6.05e-08,166.37510271999986,81.5000384,24.8447500288,42.19525000704
6.1e-08,150.75010176,81.5000384,24.838500029440002,42.2015000064
6.15e-08,166.37510271999986,97.12503935999996,24.85100002816,42.20462500608
6.2e-08,182.00010367999994,97.12503935999996,24.8447500288,42.214000005120006
6.250000000000001e-08,150.75010176,97.12503935999996,24.86350002688,42.22650000384
6.300000000000001e-08,150.75010176,112.75004031999993,24.869750026240002,42.223375004160005
6.35e-08,119.50009983999985,128.37504128,24.86350002688,42.223375004160005
6.4e-08,135.12510079999993,144.00004223999997,24.85100002816,42.22650000384
6.45e-08,135.12510079999993,128.37504128,24.8447500288,42.2327500032
6.5e-08,150.75010176,112.75004031999993,24.85100002816,42.223375004160005
6.55e-08,119.50009983999985,112.75004031999993,24.857250027520003,42.22025000448
6.600000000000001e-08,119.50009983999985,128.37504128,24.857250027520003,42.214000005120006
6.65e-08,119.50009983999985,144.00004223999997,24.85100002816,42.207750005760005
6.7e-08,119.50009983999985,144.00004223999997,24.85100002816,42.2015000064
6.75e-08,103.87509888,144.00004223999997,24.838500029440002,42.19525000704
6.8e-08,119.50009983999985,144.00004223999997,24.86350002688,42.185875008000004
6.85e-08,103.87509888,144.00004223999997,24.888500024320003,42.17337500928
6.900000000000001e-08,103.87509888,128.37504128,24.9072500224,42.17337500928
6.950000000000001e-08,88.25009791999992,159.62504319999994,24.91350002176,42.170250009600004
7e-08,88.25009791999992,159.62504319999994,24.888500024320003,42.17337500928
7.05e-08,103.87509888,175.25004416000002,24.8760000256,42.185875008000004
7.1e-08,88.25009791999992,190.87504511999998,24.857250027520003,42.192125007360005
7.15e-08,72.62509695999984,159.62504319999994,24.81975003136,42.198375006720006
7.200000000000001e-08,72.62509695999984,175.25004416000002,24.807250032640003,42.20462500608
7.250000000000001e-08,72.62509695999984,159.62504319999994,24.79475003392,42.214000005120006
7.3e-08,88.25009791999992,159.62504319999994,24.807250032640003,42.214000005120006
7.35e-08,57.000095999999985,159.62504319999994,24.838500029440002,42.22025000448
7.4e-08,57.000095999999985,175.25004416000002,24.869750026240002,42.223375004160005
7.45e-08,57.000095999999985,175.25004416000002,24.89475002368,42.223375004160005
7.500000000000001e-08,57.000095999999985,175.25004416000002,24.919750021120002,42.22025000448
7.550000000000001e-08,41.375095039999906,175.25004416000002,24.919750021120002,42.22025000448
7.6e-08,41.375095039999906,190.87504511999998,24.92600002048,42.22025000448
7.65e-08,41.375095039999906,190.87504511999998,24.919750021120002,42.22025000448
7.7e-08,41.375095039999906,190.87504511999998,24.89475002368,42.22650000384
7.75e-08,25.750094080000054,206.50004607999995,24.869750026240002,42.229625003520006
7.800000000000001e-08,25.750094080000054,175.25004416000002,24.83225003008,42.2327500032
7.850000000000001e-08,25.750094080000054,206.50004607999995,24.813500032,42.24212500224
7.9e-08,25.750094080000054,206.50004607999995,24.81975003136,42.2483750016
7.95e-08,-5.499907840000105,190.87504511999998,24.83225003008,42.2483750016
8e-08,10.125093119999974,222.12504704000003,24.8447500288,42.245250001920006
8.05e-08,10.125093119999974,206.50004607999995,24.86350002688,42.24212500224
8.100000000000001e-08,25.750094080000054,190.87504511999998,24.888500024320003,42.2327500032
8.150000000000001e-08,-5.499907840000105,190.87504511999998,24.90100002304,42.229625003520006
8.2e-08,10.125093119999974,222.12504704000003,24.9072500224,42.223375004160005
8.25e-08,10.125093119999974,206.50004607999995,24.89475002368,42.214000005120006
8.3e-08,-5.499907840000105,206.50004607999995,24.869750026240002,42.2015000064
8.35e-08,-36.74990976000004,206.50004607999995,24.83225003008,42.192125007360005
8.400000000000001e-08,-21.124908799999957,222.12504704000003,24.807250032640003,42.192125007360005
8.450000000000001e-08,-36.74990976000004,206.50004607999995,24.79475003392,42.18900000768
8.500000000000001e-08,-36.74990976000004,206.50004607999995,24.79475003392,42.20462500608
8.55e-08,-21.124908799999957,206.50004607999995,24.807250032640003,42.21087500544
8.6e-08,-21.124908799999957,206.50004607999995,24.813500032,42.22025000448
8.65e-08,-36.74990976000004,206.50004607999995,24.82600003072,42.23587500288
8.700000000000001e-08,-52.374910720000116,206.50004607999995,24.8447500288,42.24212500224
8.750000000000001e-08,-36.74990976000004,190.87504511999998,24.85100002816,42.24212500224
8.800000000000001e-08,-36.74990976000004,237.750048,24.85100002816,42.24212500224
8.85e-08,-52.374910720000116,190.87504511999998,24.838500029440002,42.24212500224
8.9e-08,-21.124908799999957,175.25004416000002,24.82600003072,42.229625003520006
8.95e-08,-67.99991167999997,175.25004416000002,24.81975003136,42.2327500032
9.000000000000001e-08,-36.74990976000004,190.87504511999998,24.807250032640003,42.23587500288
9.050000000000001e-08,-67.99991167999997,190.87504511999998,24.80100003328,42.2327500032
9.100000000000001e-08,-67.99991167999997,190.87504511999998,24.80100003328,42.2327500032
9.15e-08,-83.62491264000005,175.25004416000002,24.80100003328,42.239000002560005
9.2e-08,-52.374910720000116,190.87504511999998,24.82600003072,42.245250001920006
9.25e-08,-67.99991167999997,175.25004416000002,24.85100002816,42.25150000128
9.300000000000001e-08,-83.62491264000005,175.25004416000002,24.869750026240002,42.270249999360004
9.350000000000001e-08,-83.62491264000005,190.87504511999998,24.88225002496,42.285874997760004
9.400000000000001e-08,-67.99991167999997,175.25004416000002,24.869750026240002,42.2952499968
9.45e-08,-83.62491264000005,175.25004416000002,24.869750026240002,42.301499996160004
9.5e-08,-83.62491264000005,175.25004416000002,24.86350002688,42.301499996160004
9.55e-08,-83.62491264000005,159.62504319999994,24.8447500288,42.292124997120006
9.600000000000001e-08,-83.62491264000005,159.62504319999994,24.83225003008,42.285874997760004
9.650000000000001e-08,-99.24991360000013,144.00004223999997,24.81975003136,42.27337499904
9.700000000000001e-08,-83.62491264000005,128.37504128,24.81975003136,42.25150000128
9.75e-08,-114.87491455999998,128.37504128,24.83225003008,42.239000002560005
9.8e-08,-99.24991360000013,128.37504128,24.8447500288,42.223375004160005
9.85e-08,-114.87491455999998,128.37504128,24.8447500288,42.2171250048
9.9e-08,-114.87491455999998,112.75004031999993,24.85100002816,42.214000005120006
9.950000000000001e-08,-130.49991552000006,128.37504128,24.838500029440002,42.207750005760005
1.0000000000000001e-07,-114.87491455999998,112.75004031999993,24.838500029440002,42.20462500608
1.005e-07,-130.49991552000006,112.75004031999993,24.838500029440002,42.207750005760005
1.01e-07,-146.12491648000014,97.12503935999996,24.83225003008,42.214000005120006
1.015e-07,-114.87491455999998,112.75004031999993,24.83225003008,42.22025000448
1.02e-07,-114.87491455999998,97.12503935999996,24.81975003136,42.223375004160005
1.0250000000000001e-07,-146.12491648000014,97.12503935999996,24.83225003008,42.23587500288
1.0300000000000001e-07,-146.12491648000014,112.75004031999993,24.86350002688,42.23587500288
1.0350000000000001e-07,-146.12491648000014,97.12503935999996,24.888500024320003,42.22650000384
1.04e-07,-130.49991552000006,112.75004031999993,24.91350002176,42.22025000448
1.045e-07,-146.12491648000014,81.5000384,24.93225001984,42.21087500544
1.05e-07,-130.49991552000006,97.12503935999996,24.94475001856,42.19525000704
1.0550000000000001e-07,-146.12491648000014,65.87503744000003,24.95725001728,42.185875008000004
1.0600000000000001e-07,-146.12491648000014,81.5000384,24.96350001664,42.17962500864
1.0650000000000001e-07,-146.12491648000014,81.5000384,24.95725001728,42.17337500928
1.07e-07,-161.74991744,81.5000384,24.951000017920002,42.17337500928
1.075e-07,-177.37491840000007,81.5000384,24.93225001984,42.17337500928
1.08e-07,-161.74991744,81.5000384,24.919750021120002,42.17962500864
1.0850000000000001e-07,-177.37491840000007,65.87503744000003,24.9072500224,42.192125007360005
1.0900000000000001e-07,-177.37491840000007,65.87503744000003,24.9072500224,42.21087500544
1.0950000000000001e-07,-161.74991744,65.87503744000003,24.919750021120002,42.22650000384
1.1e-07,-161.74991744,65.87503744000003,24.92600002048,42.239000002560005
1.105e-07,-177.37491840000007,65.87503744000003,24.95725001728,42.254625000960004
1.11e-07,-177.37491840000007,65.87503744000003,24.98225001472,42.260875000320006
1.1150000000000001e-07,-177.37491840000007,50.25003647999995,24.969750016000003,42.270249999360004
1.1200000000000001e-07,-177.37491840000007,81.5000384,24.95725001728,42.2796249984
1.1250000000000001e-07,-192.99991936000015,50.25003647999995,24.938500019200003,42.28899999744
1.13e-07,-177.37491840000007,34.62503551999998,24.938500019200003,42.28274999808
1.135e-07,-192.99991936000015,34.62503551999998,24.92600002048,42.27337499904
1.14e-07,-192.99991936000015,34.62503551999998,24.888500024320003,42.26712499968
1.1450000000000001e-07,-177.37491840000007,34.62503551999998,24.86350002688,42.25150000128
1.1500000000000001e-07,-192.99991936000015,34.62503551999998,24.85100002816,42.23587500288
1.1550000000000001e-07,-224.24992128000008,19.000034560000017,24.857250027520003,42.2171250048
1.16e-07,-208.62492032,19.000034560000017,24.89475002368,42.2015000064
1.165e-07,-224.24992128000008,3.375033599999938,24.93225001984,42.185875008000004
1.17e-07,-224.24992128000008,3.375033599999938,24.95725001728,42.182750008320006
1.1750000000000001e-07,-224.24992128000008,3.375033599999938,24.97600001536,42.182750008320006
1.1800000000000001e-07,-208.62492032,3.375033599999938,24.98225001472,42.185875008000004
1.1850000000000001e-07,-208.62492032,3.375033599999938,24.99475001344,42.20462500608
1.1900000000000001e-07,-224.24992128000008,3.375033599999938,25.01350001152,42.214000005120006
