Time (s),VIN,IIN,VOUT,IOUT,"[""CRTL_A"", ""IN_A"", ""CRTL_B"", ""IN_B"", ""nEN"", ""GATE_1"", ""GATE_2""]"
0.0,18.478250028799998,1.1817500067200002,34.7088749952,0.5400749925120001,8960
5e-10,18.509500030719998,1.1817500067200002,34.74012499712,0.5400749925120001,8960
1e-09,18.5563750336,1.183312506816,34.69324999424,0.5400749925120001,8960
1.5000000000000002e-09,18.54075003264,1.184875006912,34.66199999232,0.5416374926080001,8960
2e-09,18.493875029759998,1.183312506816,34.66199999232,0.5431999927040001,8960
2.5e-09,18.400125023999998,1.183312506816,34.67762499328,0.5416374926080001,8704
3.0000000000000004e-09,18.400125023999998,1.183312506816,34.69324999424,0.5400749925120001,8704
3.5000000000000003e-09,18.431375025919998,1.1801875066240002,34.74012499712,0.5416374926080001,8704
4e-09,18.5563750336,1.1817500067200002,34.7088749952,0.5416374926080001,8704
4.500000000000001e-09,18.61887503744,1.183312506816,34.7088749952,0.5416374926080001,8192
5e-09,18.58762503552,1.184875006912,34.67762499328,0.5431999927040001,8192
5.5000000000000004e-09,18.54075003264,1.183312506816,34.66199999232,0.5431999927040001,8192
6.000000000000001e-09,18.493875029759998,1.1817500067200002,34.67762499328,0.5416374926080001,8192
6.5e-09,18.54075003264,1.183312506816,34.67762499328,0.5416374926080001,8192
7.000000000000001e-09,18.60325003648,1.184875006912,34.66199999232,0.5400749925120001,8192
7.500000000000001e-09,18.68137504128,1.188000007104,34.67762499328,0.5416374926080001,8192
8e-09,18.66575004032,1.188000007104,34.66199999232,0.5431999927040001,8192
8.5e-09,18.61887503744,1.186437507008,34.69324999424,0.5447624928,8192
9.000000000000001e-09,18.54075003264,1.184875006912,34.67762499328,0.5447624928,8192
9.5e-09,18.509500030719998,1.183312506816,34.69324999424,0.546324992896,8192
1e-08,18.52512503168,1.183312506816,34.7088749952,0.546324992896,8192
1.0500000000000001e-08,18.5563750336,1.186437507008,34.69324999424,0.5431999927040001,8192
1.1000000000000001e-08,18.61887503744,1.191125007296,34.67762499328,0.5416374926080001,8192
1.15e-08,18.6345000384,1.191125007296,34.67762499328,0.5416374926080001,8192
1.2000000000000002e-08,18.65012503936,1.184875006912,34.67762499328,0.5416374926080001,8192
1.2500000000000001e-08,18.61887503744,1.184875006912,34.7088749952,0.5400749925120001,8192
1.3e-08,18.6345000384,1.184875006912,34.72449999616,0.5416374926080001,8192
1.35e-08,18.6345000384,1.184875006912,34.7088749952,0.5416374926080001,8192
1.4000000000000001e-08,18.6345000384,1.184875006912,34.7088749952,0.5431999927040001,8192
1.45e-08,18.65012503936,1.186437507008,34.7088749952,0.5447624928,8192
1.5000000000000002e-08,18.66575004032,1.186437507008,34.66199999232,0.5431999927040001,8192
1.55e-08,18.65012503936,1.184875006912,34.64637499136,0.5431999927040001,8192
1.6e-08,18.61887503744,1.186437507008,34.64637499136,0.5416374926080001,8192
1.6500000000000002e-08,18.60325003648,1.184875006912,34.67762499328,0.5416374926080001,8192
1.7e-08,18.58762503552,1.184875006912,34.66199999232,0.5416374926080001,8192
1.75e-08,18.60325003648,1.186437507008,34.69324999424,0.5416374926080001,8192
1.8000000000000002e-08,18.65012503936,1.188000007104,34.7088749952,0.5416374926080001,8192
1.85e-08,18.6345000384,1.186437507008,34.7088749952,0.5385124924160001,8192
1.9e-08,18.65012503936,1.188000007104,34.7088749952,0.5400749925120001,8192
1.9500000000000003e-08,18.6345000384,1.186437507008,34.69324999424,0.5416374926080001,8192
2e-08,18.60325003648,1.188000007104,34.66199999232,0.5416374926080001,8192
2.05e-08,18.61887503744,1.188000007104,34.67762499328,0.5416374926080001,8192
2.1000000000000003e-08,18.6345000384,1.186437507008,34.66199999232,0.5416374926080001,8192
2.15e-08,18.65012503936,1.188000007104,34.64637499136,0.5431999927040001,8192
2.2000000000000002e-08,18.65012503936,1.186437507008,34.64637499136,0.5447624928,8192
2.2500000000000003e-08,18.66575004032,1.184875006912,34.67762499328,0.547887492992,8192
2.3e-08,18.65012503936,1.184875006912,34.67762499328,0.5447624928,8192
2.3500000000000002e-08,18.6345000384,1.186437507008,34.7088749952,0.5447624928,8192
2.4000000000000003e-08,18.6345000384,1.186437507008,34.72449999616,0.546324992896,8192
2.45e-08,18.65012503936,1.188000007104,34.74012499712,0.5416374926080001,0
2.5000000000000002e-08,18.65012503936,1.188000007104,34.72449999616,0.5400749925120001,0
2.55e-08,18.65012503936,1.1895625072,34.69324999424,0.5431999927040001,0
2.6e-08,18.6345000384,1.1895625072,34.66199999232,0.5431999927040001,0
2.6500000000000002e-08,18.57200003456,1.188000007104,34.67762499328,0.5431999927040001,0
2.7e-08,18.58762503552,1.1895625072,34.69324999424,0.5400749925120001,0
2.75e-08,18.65012503936,1.188000007104,34.69324999424,0.5385124924160001,0
2.8000000000000003e-08,18.7126250432,1.186437507008,34.69324999424,0.5400749925120001,1024
2.85e-08,18.75950004608,1.188000007104,34.72449999616,0.5431999927040001,1024
2.9e-08,18.74387504512,1.186437507008,34.72449999616,0.5447624928,1024
2.9500000000000003e-08,18.69700004224,1.188000007104,34.69324999424,0.5431999927040001,1024
3.0000000000000004e-08,18.65012503936,1.184875006912,34.7088749952,0.5416374926080001,3072
3.05e-08,18.6345000384,1.186437507008,34.7088749952,0.5447624928,3072
3.1e-08,18.66575004032,1.183312506816,34.69324999424,0.5431999927040001,3072
3.1500000000000004e-08,18.69700004224,1.184875006912,34.66199999232,0.5431999927040001,3072
3.2e-08,18.7126250432,1.186437507008,34.64637499136,0.5400749925120001,3072
3.25e-08,18.7126250432,1.1895625072,34.67762499328,0.5416374926080001,3072
3.3000000000000004e-08,18.68137504128,1.1895625072,34.69324999424,0.5431999927040001,3072
3.35e-08,18.65012503936,1.188000007104,34.72449999616,0.5447624928,3072
3.4e-08,18.65012503936,1.184875006912,34.69324999424,0.5447624928,3072
3.4500000000000005e-08,18.68137504128,1.1817500067200002,34.67762499328,0.5431999927040001,3072
3.5e-08,18.74387504512,1.183312506816,34.6307499904,0.5447624928,3072
3.55e-08,18.72825004416,1.184875006912,34.61512498944,0.5431999927040001,3072
3.6000000000000005e-08,18.69700004224,1.184875006912,34.64637499136,0.5447624928,3072
3.65e-08,18.69700004224,1.186437507008,34.67762499328,0.5416374926080001,3072
3.7e-08,18.66575004032,1.186437507008,34.69324999424,0.5400749925120001,3072
3.7500000000000005e-08,18.69700004224,1.184875006912,34.7088749952,0.5400749925120001,3072
3.8e-08,18.7126250432,1.183312506816,34.7088749952,0.5416374926080001,3072
3.85e-08,18.7126250432,1.183312506816,34.7088749952,0.5416374926080001,3072
3.9000000000000005e-08,18.7126250432,1.183312506816,34.66199999232,0.5400749925120001,3072
3.95e-08,18.68137504128,1.184875006912,34.64637499136,0.5400749925120001,3072
4e-08,18.65012503936,1.184875006912,34.66199999232,0.5416374926080001,3072
4.0500000000000005e-08,18.7126250432,1.184875006912,34.67762499328,0.5416374926080001,3072
4.1e-08,18.790750048,1.184875006912,34.66199999232,0.5416374926080001,3072
4.15e-08,18.80637504896,1.186437507008,34.64637499136,0.5416374926080001,3072
4.2000000000000006e-08,18.80637504896,1.188000007104,34.64637499136,0.5431999927040001,3072
4.2500000000000003e-08,18.75950004608,1.1895625072,34.66199999232,0.5431999927040001,3072
4.3e-08,18.77512504704,1.1895625072,34.67762499328,0.5431999927040001,3072
4.3500000000000006e-08,18.77512504704,1.186437507008,34.69324999424,0.5431999927040001,3072
4.4000000000000004e-08,18.85325005184,1.183312506816,34.67762499328,0.5416374926080001,3072
4.45e-08,18.8688750528,1.184875006912,34.67762499328,0.5431999927040001,3072
4.5000000000000006e-08,18.83762505088,1.186437507008,34.66199999232,0.5431999927040001,3072
4.5500000000000004e-08,18.790750048,1.188000007104,34.69324999424,0.5400749925120001,3072
4.6e-08,18.72825004416,1.186437507008,34.74012499712,0.5416374926080001,3072
4.6500000000000006e-08,18.75950004608,1.186437507008,34.74012499712,0.5447624928,3072
4.7000000000000004e-08,18.75950004608,1.183312506816,34.67762499328,0.5416374926080001,3072
4.75e-08,18.790750048,1.1817500067200002,34.64637499136,0.5400749925120001,3072
4.8000000000000006e-08,18.790750048,1.1770625064320002,34.64637499136,0.5400749925120001,3072
4.8500000000000004e-08,18.75950004608,1.1786250065280002,34.69324999424,0.5400749925120001,3072
4.9e-08,18.7126250432,1.1817500067200002,34.69324999424,0.5400749925120001,3072
4.95e-08,18.74387504512,1.184875006912,34.69324999424,0.5416374926080001,3072
5.0000000000000004e-08,18.82200004992,1.184875006912,34.6307499904,0.5416374926080001,3072
5.05e-08,18.85325005184,1.184875006912,34.6307499904,0.5416374926080001,3072
5.1e-08,18.88450005376,1.183312506816,34.64637499136,0.5447624928,3072
5.1500000000000005e-08,18.83762505088,1.1801875066240002,34.66199999232,0.5431999927040001,3072
5.2e-08,18.75950004608,1.1786250065280002,34.69324999424,0.5416374926080001,3072
5.25e-08,18.72825004416,1.1801875066240002,34.67762499328,0.5385124924160001,19456
5.3000000000000005e-08,18.77512504704,1.1817500067200002,34.64637499136,0.5385124924160001,19456
5.35e-08,18.83762505088,1.183312506816,34.64637499136,0.5385124924160001,19456
5.4e-08,18.91575005568,1.183312506816,34.69324999424,0.5416374926080001,19456
5.4500000000000005e-08,18.90012505472,1.183312506816,34.74012499712,0.5416374926080001,19456
5.5e-08,18.82200004992,1.1801875066240002,34.69324999424,0.5385124924160001,19456
5.55e-08,18.75950004608,1.1786250065280002,34.6307499904,0.533824992128,19456
5.6000000000000005e-08,18.72825004416,1.1786250065280002,34.56824998656,0.5353874922240001,19456
5.65e-08,18.74387504512,1.1786250065280002,34.59949998848,0.5369499923200001,19456
5.7e-08,18.80637504896,1.1817500067200002,34.66199999232,0.5416374926080001,19456
5.7500000000000005e-08,18.82200004992,1.1817500067200002,34.7088749952,0.5416374926080001,19456
5.8e-08,18.83762505088,1.1801875066240002,34.7088749952,0.5416374926080001,19456
5.85e-08,18.790750048,1.1801875066240002,34.67762499328,0.5400749925120001,19456
5.9000000000000006e-08,18.75950004608,1.1817500067200002,34.6307499904,0.5416374926080001,19456
5.9500000000000003e-08,18.72825004416,1.1786250065280002,34.6307499904,0.5431999927040001,19456
6.000000000000001e-08,18.72825004416,1.1801875066240002,34.66199999232,0.5416374926080001,19456
6.05e-08,18.74387504512,1.183312506816,34.7088749952,0.5416374926080001,19456
6.1e-08,18.77512504704,1.183312506816,34.69324999424,0.5431999927040001,19456
6.15e-08,18.80637504896,1.1817500067200002,34.69324999424,0.5416374926080001,19456
6.2e-08,18.790750048,1.1817500067200002,34.67762499328,0.5416374926080001,19456
6.250000000000001e-08,18.77512504704,1.183312506816,34.69324999424,0.5416374926080001,19456
6.300000000000001e-08,18.77512504704,1.186437507008,34.67762499328,0.5385124924160001,19456
6.35e-08,18.75950004608,1.183312506816,34.69324999424,0.5353874922240001,19456
6.4e-08,18.75950004608,1.1817500067200002,34.69324999424,0.5369499923200001,19456
6.45e-08,18.75950004608,1.1801875066240002,34.66199999232,0.5353874922240001,19456
6.5e-08,18.75950004608,1.1786250065280002,34.61512498944,0.5385124924160001,19456
6.55e-08,18.72825004416,1.1786250065280002,34.64637499136,0.5385124924160001,19456
6.600000000000001e-08,18.7126250432,1.1801875066240002,34.69324999424,0.5400749925120001,19456
6.65e-08,18.69700004224,1.183312506816,34.75574999808,0.5385124924160001,19456
6.7e-08,18.77512504704,1.186437507008,34.74012499712,0.5385124924160001,19456
6.75e-08,18.80637504896,1.183312506816,34.67762499328,0.5385124924160001,19456
6.8e-08,18.80637504896,1.1801875066240002,34.6307499904,0.5385124924160001,19456
6.85e-08,18.790750048,1.1786250065280002,34.64637499136,0.5400749925120001,19456
6.900000000000001e-08,18.74387504512,1.1770625064320002,34.67762499328,0.5431999927040001,19456
6.950000000000001e-08,18.69700004224,1.1770625064320002,34.69324999424,0.5416374926080001,19456
7e-08,18.68137504128,1.1786250065280002,34.7088749952,0.5431999927040001,19456
7.05e-08,18.7126250432,1.1801875066240002,34.7088749952,0.5431999927040001,19456
7.1e-08,18.75950004608,1.1786250065280002,34.69324999424,0.5447624928,19456
7.15e-08,18.80637504896,1.1770625064320002,34.69324999424,0.5416374926080001,19456
7.200000000000001e-08,18.75950004608,1.1739375062400002,34.69324999424,0.5369499923200001,19456
7.250000000000001e-08,18.66575004032,1.1739375062400002,34.72449999616,0.5353874922240001,19456
7.3e-08,18.58762503552,1.1739375062400002,34.66199999232,0.5369499923200001,19456
7.35e-08,18.58762503552,1.1755000063360002,34.6307499904,0.5400749925120001,19456
7.4e-08,18.68137504128,1.1755000063360002,34.61512498944,0.5431999927040001,19456
7.45e-08,18.74387504512,1.1786250065280002,34.64637499136,0.547887492992,19456
7.500000000000001e-08,18.82200004992,1.1817500067200002,34.69324999424,0.549449993088,19456
7.550000000000001e-08,18.77512504704,1.1786250065280002,34.7088749952,0.547887492992,19456
7.6e-08,18.69700004224,1.1755000063360002,34.67762499328,0.5447624928,19456
7.65e-08,18.60325003648,1.1755000063360002,34.66199999232,0.5400749925120001,18432
7.7e-08,18.58762503552,1.1770625064320002,34.6307499904,0.5400749925120001,18432
7.75e-08,18.66575004032,1.1755000063360002,34.64637499136,0.5400749925120001,16384
7.800000000000001e-08,18.72825004416,1.1739375062400002,34.67762499328,0.5416374926080001,16384
7.850000000000001e-08,18.77512504704,1.1786250065280002,34.7088749952,0.5431999927040001,16384
7.9e-08,18.75950004608,1.1801875066240002,34.69324999424,0.5416374926080001,16384
7.95e-08,18.69700004224,1.1770625064320002,34.66199999232,0.5431999927040001,16384
8e-08,18.61887503744,1.1739375062400002,34.64637499136,0.5447624928,16384
8.05e-08,18.61887503744,1.1708125060480001,34.66199999232,0.546324992896,16384
8.100000000000001e-08,18.68137504128,1.1708125060480001,34.66199999232,0.547887492992,16384
8.150000000000001e-08,18.69700004224,1.1723750061440001,34.66199999232,0.546324992896,16384
8.2e-08,18.69700004224,1.1723750061440001,34.61512498944,0.546324992896,16384
8.25e-08,18.61887503744,1.1723750061440001,34.6307499904,0.546324992896,16384
8.3e-08,18.58762503552,1.1770625064320002,34.66199999232,0.5431999927040001,16384
8.35e-08,18.60325003648,1.1755000063360002,34.69324999424,0.546324992896,16384
8.400000000000001e-08,18.66575004032,1.1739375062400002,34.72449999616,0.5447624928,16384
8.450000000000001e-08,18.69700004224,1.1723750061440001,34.75574999808,0.5416374926080001,16384
8.500000000000001e-08,18.7126250432,1.1723750061440001,34.7088749952,0.5400749925120001,16384
8.55e-08,18.68137504128,1.1739375062400002,34.66199999232,0.5385124924160001,16384
8.6e-08,18.58762503552,1.1739375062400002,34.64637499136,0.5416374926080001,16384
8.65e-08,18.57200003456,1.1723750061440001,34.69324999424,0.5431999927040001,16384
8.700000000000001e-08,18.5563750336,1.1723750061440001,34.69324999424,0.5416374926080001,16384
8.750000000000001e-08,18.60325003648,1.1723750061440001,34.7088749952,0.5431999927040001,16384
8.800000000000001e-08,18.6345000384,1.1739375062400002,34.67762499328,0.5416374926080001,16384
8.85e-08,18.65012503936,1.1755000063360002,34.66199999232,0.5431999927040001,16384
8.9e-08,18.65012503936,1.1770625064320002,34.66199999232,0.546324992896,16384
8.95e-08,18.58762503552,1.1755000063360002,34.69324999424,0.5416374926080001,16384
9.000000000000001e-08,18.5563750336,1.1739375062400002,34.7088749952,0.5385124924160001,16384
9.050000000000001e-08,18.509500030719998,1.1708125060480001,34.7088749952,0.5385124924160001,16384
9.100000000000001e-08,18.57200003456,1.1739375062400002,34.69324999424,0.5400749925120001,16384
9.15e-08,18.60325003648,1.1739375062400002,34.69324999424,0.5400749925120001,16384
9.2e-08,18.68137504128,1.1739375062400002,34.69324999424,0.5416374926080001,16384
9.25e-08,18.68137504128,1.1739375062400002,34.72449999616,0.5416374926080001,16384
9.300000000000001e-08,18.6345000384,1.1723750061440001,34.7088749952,0.5431999927040001,16384
9.350000000000001e-08,18.5563750336,1.1723750061440001,34.66199999232,0.5447624928,16384
9.400000000000001e-08,18.493875029759998,1.1723750061440001,34.6307499904,0.5431999927040001,16384
9.45e-08,18.478250028799998,1.1723750061440001,34.6307499904,0.5431999927040001,16384
9.5e-08,18.509500030719998,1.1723750061440001,34.6307499904,0.5431999927040001,16384
9.55e-08,18.57200003456,1.1739375062400002,34.66199999232,0.546324992896,16384
9.600000000000001e-08,18.60325003648,1.1739375062400002,34.67762499328,0.547887492992,16384
9.650000000000001e-08,18.58762503552,1.1739375062400002,34.7088749952,0.549449993088,16384
9.700000000000001e-08,18.52512503168,1.1708125060480001,34.69324999424,0.547887492992,16384
9.75e-08,18.478250028799998,1.1708125060480001,34.72449999616,0.546324992896,0
9.8e-08,18.493875029759998,1.1723750061440001,34.7088749952,0.546324992896,0
9.85e-08,18.52512503168,1.1723750061440001,34.72449999616,0.5431999927040001,0
9.9e-08,18.57200003456,1.1723750061440001,34.7088749952,0.5447624928,0
9.950000000000001e-08,18.52512503168,1.1739375062400002,34.69324999424,0.5447624928,0
1.0000000000000001e-07,18.478250028799998,1.1755000063360002,34.66199999232,0.546324992896,0
1.005e-07,18.400125023999998,1.1770625064320002,34.69324999424,0.546324992896,0
1.01e-07,18.384500023039998,1.1755000063360002,34.69324999424,0.546324992896,0
1.015e-07,18.431375025919998,1.1708125060480001,34.67762499328,0.5431999927040001,256
1.02e-07,18.52512503168,1.1692500059520001,34.66199999232,0.5416374926080001,256
1.0250000000000001e-07,18.5563750336,1.1692500059520001,34.64637499136,0.5431999927040001,256
1.0300000000000001e-07,18.54075003264,1.1692500059520001,34.64637499136,0.546324992896,256
1.0350000000000001e-07,18.52512503168,1.1692500059520001,34.66199999232,0.5447624928,256
1.04e-07,18.509500030719998,1.1708125060480001,34.7088749952,0.5416374926080001,768
1.045e-07,18.5563750336,1.1739375062400002,34.787,0.5369499923200001,768
1.05e-07,18.60325003648,1.1739375062400002,34.77137499904,0.5369499923200001,768
1.0550000000000001e-07,18.60325003648,1.1723750061440001,34.75574999808,0.5385124924160001,768
1.0600000000000001e-07,18.5563750336,1.1708125060480001,34.72449999616,0.5400749925120001,768
1.0650000000000001e-07,18.462625027839998,1.1708125060480001,34.74012499712,0.5369499923200001,768
1.07e-07,18.400125023999998,1.1723750061440001,34.72449999616,0.5385124924160001,768
1.075e-07,18.384500023039998,1.1723750061440001,34.7088749952,0.5385124924160001,768
1.08e-07,18.431375025919998,1.1708125060480001,34.67762499328,0.5447624928,768
1.0850000000000001e-07,18.447000026879998,1.1708125060480001,34.67762499328,0.546324992896,768
1.0900000000000001e-07,18.478250028799998,1.1708125060480001,34.64637499136,0.546324992896,768
1.0950000000000001e-07,18.493875029759998,1.1723750061440001,34.64637499136,0.5416374926080001,768
1.1e-07,18.509500030719998,1.1692500059520001,34.69324999424,0.5385124924160001,768
1.105e-07,18.493875029759998,1.1676875058560001,34.7088749952,0.5353874922240001,768
1.11e-07,18.493875029759998,1.1676875058560001,34.67762499328,0.5353874922240001,768
1.1150000000000001e-07,18.462625027839998,1.1723750061440001,34.67762499328,0.5369499923200001,768
1.1200000000000001e-07,18.431375025919998,1.1755000063360002,34.66199999232,0.5369499923200001,768
1.1250000000000001e-07,18.384500023039998,1.1755000063360002,34.69324999424,0.5385124924160001,768
1.13e-07,18.30637501824,1.1755000063360002,34.69324999424,0.5416374926080001,768
1.135e-07,18.30637501824,1.1739375062400002,34.66199999232,0.5400749925120001,768
1.14e-07,18.3220000192,1.1723750061440001,34.66199999232,0.5431999927040001,768
1.1450000000000001e-07,18.384500023039998,1.1708125060480001,34.66199999232,0.5447624928,768
1.1500000000000001e-07,18.447000026879998,1.1739375062400002,34.64637499136,0.546324992896,768
1.1550000000000001e-07,18.431375025919998,1.1755000063360002,34.64637499136,0.5431999927040001,768
1.16e-07,18.431375025919998,1.1755000063360002,34.66199999232,0.5431999927040001,768
1.165e-07,18.415750024959998,1.1770625064320002,34.7088749952,0.5400749925120001,768
