Time (s),VIN,IIN,VOUT
0.0,19.843499992319998,1.398425007872,39.85537501056
5e-10,19.796624989439998,1.398425007872,39.82412500864
1e-09,19.812249990399998,1.398425007872,39.82412500864
1.5000000000000002e-09,19.812249990399998,1.399987507968,39.80850000768
2e-09,19.827874991359998,1.399987507968,39.8397500096
2.5e-09,19.843499992319998,1.399987507968,39.80850000768
3.0000000000000004e-09,19.827874991359998,1.398425007872,39.80850000768
3.5000000000000003e-09,19.843499992319998,1.398425007872,39.79287500672
4e-09,19.827874991359998,1.396862507776,39.79287500672
4.500000000000001e-09,19.843499992319998,1.39530000768,39.82412500864
5e-09,19.843499992319998,1.393737507584,39.82412500864
5.5000000000000004e-09,19.87474999424,1.39530000768,39.80850000768
6.000000000000001e-09,19.8903749952,1.39530000768,39.8397500096
6.5e-09,19.87474999424,1.398425007872,39.8397500096
7.000000000000001e-09,19.843499992319998,1.398425007872,39.82412500864
7.500000000000001e-09,19.827874991359998,1.398425007872,39.8397500096
8e-09,19.827874991359998,1.39530000768,39.87100001152
8.5e-09,19.827874991359998,1.392175007488,39.85537501056
9.000000000000001e-09,19.827874991359998,1.392175007488,39.80850000768
9.5e-09,19.812249990399998,1.393737507584,39.79287500672
1e-08,19.796624989439998,1.393737507584,39.79287500672
1.0500000000000001e-08,19.749749986559998,1.39530000768,39.74600000384
1.1000000000000001e-08,19.734124985599998,1.39530000768,39.7616250048
1.15e-08,19.780999988479998,1.39530000768,39.74600000384
1.2000000000000002e-08,19.827874991359998,1.393737507584,39.73037500288
1.2500000000000001e-08,19.8903749952,1.392175007488,39.7616250048
1.3e-08,19.93724999808,1.390612507392,39.7616250048
1.35e-08,19.93724999808,1.393737507584,39.7616250048
1.4000000000000001e-08,19.93724999808,1.392175007488,39.80850000768
1.45e-08,19.95287499904,1.39530000768,39.80850000768
1.5000000000000002e-08,19.90599999616,1.39530000768,39.77725000576
1.55e-08,19.85912499328,1.39530000768,39.79287500672
1.6e-08,19.843499992319998,1.39530000768,39.80850000768
1.6500000000000002e-08,19.796624989439998,1.393737507584,39.80850000768
1.7e-08,19.749749986559998,1.392175007488,39.79287500672
1.75e-08,19.718499984639998,1.390612507392,39.77725000576
1.8000000000000002e-08,19.718499984639998,1.392175007488,39.77725000576
1.85e-08,19.749749986559998,1.393737507584,39.71475000192
1.9e-08,19.796624989439998,1.390612507392,39.69912500096
1.9500000000000003e-08,19.85912499328,1.390612507392,39.71475000192
2e-08,19.87474999424,1.392175007488,39.71475000192
2.05e-08,19.90599999616,1.389050007296,39.74600000384
2.1000000000000003e-08,19.95287499904,1.3874875072,39.7616250048
2.15e-08,19.99975000192,1.392175007488,39.7616250048
2.2000000000000002e-08,19.9685,1.390612507392,39.79287500672
2.2500000000000003e-08,19.93724999808,1.389050007296,39.77725000576
2.3e-08,19.90599999616,1.389050007296,39.7616250048
2.3500000000000002e-08,19.843499992319998,1.392175007488,39.7616250048
2.4000000000000003e-08,19.796624989439998,1.392175007488,39.74600000384
2.45e-08,19.718499984639998,1.390612507392,39.73037500288
2.5000000000000002e-08,19.749749986559998,1.392175007488,39.74600000384
2.55e-08,19.796624989439998,1.393737507584,39.74600000384
2.6e-08,19.812249990399998,1.392175007488,39.7616250048
2.6500000000000002e-08,19.796624989439998,1.389050007296,39.73037500288
2.7e-08,19.85912499328,1.389050007296,39.71475000192
2.75e-08,19.9685,1.389050007296,39.69912500096
2.8000000000000003e-08,20.03100000384,1.389050007296,39.71475000192
2.85e-08,20.0466250048,1.389050007296,39.74600000384
2.9e-08,19.98412500096,1.389050007296,39.77725000576
2.9500000000000003e-08,19.90599999616,1.392175007488,39.7616250048
3.0000000000000004e-08,19.780999988479998,1.390612507392,39.77725000576
3.05e-08,19.718499984639998,1.389050007296,39.7616250048
3.1e-08,19.749749986559998,1.389050007296,39.7616250048
3.1500000000000004e-08,19.796624989439998,1.390612507392,39.77725000576
3.2e-08,19.827874991359998,1.390612507392,39.74600000384
3.25e-08,19.796624989439998,1.390612507392,39.69912500096
3.3000000000000004e-08,19.827874991359998,1.393737507584,39.66787499904
3.35e-08,19.843499992319998,1.392175007488,39.6835
3.4e-08,19.87474999424,1.390612507392,39.6835
3.4500000000000005e-08,19.92162499712,1.390612507392,39.6835
3.5e-08,19.93724999808,1.3874875072,39.69912500096
3.55e-08,19.9685,1.389050007296,39.69912500096
3.6000000000000005e-08,19.92162499712,1.389050007296,39.71475000192
3.65e-08,19.87474999424,1.389050007296,39.7616250048
3.7e-08,19.780999988479998,1.390612507392,39.79287500672
3.7500000000000005e-08,19.749749986559998,1.392175007488,39.77725000576
3.8e-08,19.749749986559998,1.393737507584,39.77725000576
3.85e-08,19.87474999424,1.393737507584,39.6835
3.9000000000000005e-08,19.95287499904,1.396862507776,39.62099999616
3.95e-08,19.93724999808,1.399987507968,39.63662499712
4e-08,19.827874991359998,1.401550008064,39.65224999808
4.0500000000000005e-08,19.718499984639998,1.399987507968,39.65224999808
4.1e-08,19.718499984639998,1.396862507776,39.6835
4.15e-08,19.780999988479998,1.39530000768,39.6835
4.2000000000000006e-08,19.92162499712,1.392175007488,39.71475000192
4.2500000000000003e-08,19.9685,1.39530000768,39.71475000192
4.3e-08,19.9685,1.398425007872,39.7616250048
4.3500000000000006e-08,19.87474999424,1.401550008064,39.7616250048
4.4000000000000004e-08,19.749749986559998,1.399987507968,39.77725000576
4.45e-08,19.734124985599998,1.398425007872,39.77725000576
4.5000000000000006e-08,19.780999988479998,1.396862507776,39.77725000576
4.5500000000000004e-08,19.92162499712,1.399987507968,39.74600000384
4.6e-08,19.9685,1.399987507968,39.7616250048
4.6500000000000006e-08,19.8903749952,1.399987507968,39.71475000192
4.7000000000000004e-08,19.780999988479998,1.398425007872,39.66787499904
4.75e-08,19.671624981759997,1.399987507968,39.65224999808
4.8000000000000006e-08,19.702874983679997,1.398425007872,39.63662499712
4.8500000000000004e-08,19.812249990399998,1.396862507776,39.62099999616
4.9e-08,19.95287499904,1.393737507584,39.65224999808
4.95e-08,19.92162499712,1.39530000768,39.6835
5.0000000000000004e-08,19.843499992319998,1.398425007872,39.69912500096
5.05e-08,19.734124985599998,1.398425007872,39.71475000192
5.1e-08,19.718499984639998,1.39530000768,39.74600000384
5.1500000000000005e-08,19.780999988479998,1.39530000768,39.74600000384
5.2e-08,19.843499992319998,1.396862507776,39.74600000384
5.25e-08,19.90599999616,1.396862507776,39.74600000384
5.3000000000000005e-08,19.90599999616,1.39530000768,39.71475000192
5.35e-08,19.87474999424,1.401550008064,39.69912500096
5.4e-08,19.827874991359998,1.406237508352,39.71475000192
5.4500000000000005e-08,19.812249990399998,1.404675008256,39.6835
5.5e-08,19.780999988479998,1.398425007872,39.66787499904
5.55e-08,19.765374987519998,1.39530000768,39.65224999808
5.6000000000000005e-08,19.780999988479998,1.39530000768,39.63662499712
5.65e-08,19.780999988479998,1.399987507968,39.63662499712
5.7e-08,19.765374987519998,1.398425007872,39.66787499904
5.7500000000000005e-08,19.718499984639998,1.399987507968,39.71475000192
5.8e-08,19.687249982719997,1.40311250816,39.73037500288
5.85e-08,19.671624981759997,1.401550008064,39.66787499904
5.9000000000000006e-08,19.734124985599998,1.401550008064,39.6835
5.9500000000000003e-08,19.843499992319998,1.404675008256,39.6835
6.000000000000001e-08,19.90599999616,1.406237508352,39.69912500096
6.05e-08,19.93724999808,1.404675008256,39.73037500288
6.1e-08,19.843499992319998,1.404675008256,39.71475000192
6.15e-08,19.780999988479998,1.406237508352,39.66787499904
6.2e-08,19.749749986559998,1.404675008256,39.66787499904
6.250000000000001e-08,19.780999988479998,1.401550008064,39.66787499904
6.300000000000001e-08,19.796624989439998,1.398425007872,39.6835
6.35e-08,19.765374987519998,1.398425007872,39.71475000192
6.4e-08,19.702874983679997,1.399987507968,39.71475000192
6.45e-08,19.60912497792,1.401550008064,39.69912500096
6.5e-08,19.624749978879997,1.401550008064,39.71475000192
6.55e-08,19.687249982719997,1.40311250816,39.73037500288
6.600000000000001e-08,19.796624989439998,1.40311250816,39.7616250048
6.65e-08,19.85912499328,1.404675008256,39.69912500096
6.7e-08,19.85912499328,1.406237508352,39.66787499904
6.75e-08,19.827874991359998,1.409362508544,39.63662499712
6.8e-08,19.780999988479998,1.409362508544,39.63662499712
6.85e-08,19.812249990399998,1.407800008448,39.66787499904
6.900000000000001e-08,19.827874991359998,1.406237508352,39.65224999808
6.950000000000001e-08,19.843499992319998,1.406237508352,39.65224999808
7e-08,19.749749986559998,1.404675008256,39.69912500096
7.05e-08,19.671624981759997,1.404675008256,39.71475000192
7.1e-08,19.640374979839997,1.404675008256,39.73037500288
7.15e-08,19.687249982719997,1.404675008256,39.7616250048
7.200000000000001e-08,19.734124985599998,1.404675008256,39.79287500672
7.250000000000001e-08,19.765374987519998,1.406237508352,39.74600000384
7.3e-08,19.796624989439998,1.409362508544,39.71475000192
7.35e-08,19.796624989439998,1.41092500864,39.66787499904
7.4e-08,19.812249990399998,1.41092500864,39.6835
7.45e-08,19.796624989439998,1.409362508544,39.66787499904
7.500000000000001e-08,19.780999988479998,1.406237508352,39.6835
7.550000000000001e-08,19.780999988479998,1.406237508352,39.65224999808
7.6e-08,19.749749986559998,1.404675008256,39.65224999808
7.65e-08,19.765374987519998,1.401550008064,39.66787499904
7.7e-08,19.749749986559998,1.404675008256,39.66787499904
7.75e-08,19.765374987519998,1.409362508544,39.6835
7.800000000000001e-08,19.765374987519998,1.412487508736,39.7616250048
7.850000000000001e-08,19.718499984639998,1.41092500864,39.7616250048
7.9e-08,19.655999980799997,1.409362508544,39.74600000384
7.95e-08,19.702874983679997,1.41092500864,39.7616250048
8e-08,19.796624989439998,1.409362508544,39.77725000576
8.05e-08,19.780999988479998,1.412487508736,39.7616250048
8.100000000000001e-08,19.780999988479998,1.412487508736,39.74600000384
8.150000000000001e-08,19.734124985599998,1.414050008832,39.71475000192
8.2e-08,19.734124985599998,1.414050008832,39.73037500288
8.25e-08,19.765374987519998,1.414050008832,39.71475000192
8.3e-08,19.827874991359998,1.41092500864,39.73037500288
8.35e-08,19.87474999424,1.409362508544,39.71475000192
8.400000000000001e-08,19.812249990399998,1.412487508736,39.74600000384
8.450000000000001e-08,19.734124985599998,1.409362508544,39.7616250048
8.500000000000001e-08,19.671624981759997,1.409362508544,39.7616250048
8.55e-08,19.687249982719997,1.414050008832,39.7616250048
8.6e-08,19.734124985599998,1.415612508928,39.80850000768
8.65e-08,19.796624989439998,1.417175009024,39.80850000768
8.700000000000001e-08,19.796624989439998,1.415612508928,39.79287500672
8.750000000000001e-08,19.780999988479998,1.414050008832,39.79287500672
8.800000000000001e-08,19.827874991359998,1.415612508928,39.79287500672
8.85e-08,19.843499992319998,1.417175009024,39.77725000576
8.9e-08,19.85912499328,1.414050008832,39.79287500672
8.95e-08,19.812249990399998,1.41092500864,39.74600000384
9.000000000000001e-08,19.780999988479998,1.412487508736,39.79287500672
9.050000000000001e-08,19.734124985599998,1.414050008832,39.77725000576
9.100000000000001e-08,19.687249982719997,1.414050008832,39.77725000576
9.15e-08,19.655999980799997,1.412487508736,39.7616250048
9.2e-08,19.655999980799997,1.414050008832,39.79287500672
9.25e-08,19.687249982719997,1.414050008832,39.8397500096
9.300000000000001e-08,19.702874983679997,1.415612508928,39.8397500096
9.350000000000001e-08,19.749749986559998,1.415612508928,39.8397500096
9.400000000000001e-08,19.812249990399998,1.414050008832,39.8397500096
9.45e-08,19.85912499328,1.414050008832,39.82412500864
9.5e-08,19.85912499328,1.414050008832,39.79287500672
9.55e-08,19.827874991359998,1.415612508928,39.82412500864
9.600000000000001e-08,19.796624989439998,1.415612508928,39.8397500096
9.650000000000001e-08,19.780999988479998,1.415612508928,39.82412500864
9.700000000000001e-08,19.796624989439998,1.412487508736,39.80850000768
9.75e-08,19.765374987519998,1.409362508544,39.79287500672
9.8e-08,19.718499984639998,1.406237508352,39.8397500096
9.85e-08,19.687249982719997,1.407800008448,39.8397500096
9.9e-08,19.734124985599998,1.41092500864,39.85537501056
9.950000000000001e-08,19.796624989439998,1.412487508736,39.8397500096
1.0000000000000001e-07,19.827874991359998,1.412487508736,39.82412500864
1.005e-07,19.87474999424,1.412487508736,39.85537501056
1.01e-07,19.85912499328,1.412487508736,39.85537501056
1.015e-07,19.843499992319998,1.415612508928,39.82412500864
1.02e-07,19.749749986559998,1.414050008832,39.8397500096
1.0250000000000001e-07,19.734124985599998,1.409362508544,39.80850000768
1.0300000000000001e-07,19.702874983679997,1.406237508352,39.79287500672
1.0350000000000001e-07,19.687249982719997,1.409362508544,39.80850000768
1.04e-07,19.640374979839997,1.412487508736,39.82412500864
1.045e-07,19.640374979839997,1.41092500864,39.82412500864
1.05e-07,19.671624981759997,1.409362508544,39.82412500864
1.0550000000000001e-07,19.718499984639998,1.407800008448,39.80850000768
1.0600000000000001e-07,19.796624989439998,1.407800008448,39.8397500096
1.0650000000000001e-07,19.843499992319998,1.409362508544,39.82412500864
1.07e-07,19.87474999424,1.41092500864,39.85537501056
1.075e-07,19.8903749952,1.41092500864,39.85537501056
1.08e-07,19.812249990399998,1.412487508736,39.85537501056
1.0850000000000001e-07,19.780999988479998,1.41092500864,39.8397500096
1.0900000000000001e-07,19.734124985599998,1.409362508544,39.8397500096
1.0950000000000001e-07,19.749749986559998,1.41092500864,39.8397500096
1.1e-07,19.749749986559998,1.412487508736,39.85537501056
1.105e-07,19.718499984639998,1.41092500864,39.82412500864
1.11e-07,19.671624981759997,1.409362508544,39.77725000576
1.1150000000000001e-07,19.687249982719997,1.409362508544,39.7616250048
1.1200000000000001e-07,19.734124985599998,1.409362508544,39.79287500672
1.1250000000000001e-07,19.796624989439998,1.412487508736,39.80850000768
1.13e-07,19.85912499328,1.41092500864,39.80850000768
1.135e-07,19.85912499328,1.41092500864,39.80850000768
1.14e-07,19.827874991359998,1.414050008832,39.8397500096
1.1450000000000001e-07,19.796624989439998,1.415612508928,39.82412500864
1.1500000000000001e-07,19.780999988479998,1.414050008832,39.85537501056
1.1550000000000001e-07,19.827874991359998,1.412487508736,39.87100001152
1.16e-07,19.812249990399998,1.414050008832,39.87100001152
1.165e-07,19.780999988479998,1.414050008832,39.87100001152
1.17e-07,19.687249982719997,1.414050008832,39.87100001152
1.1750000000000001e-07,19.640374979839997,1.415612508928,39.8397500096
1.1800000000000001e-07,19.655999980799997,1.412487508736,39.8397500096
1.1850000000000001e-07,19.749749986559998,1.412487508736,39.82412500864
1.1900000000000001e-07,19.780999988479998,1.412487508736,39.79287500672
1.195e-07,19.765374987519998,1.414050008832,39.77725000576
1.2000000000000002e-07,19.718499984639998,1.41092500864,39.79287500672
1.205e-07,19.687249982719997,1.409362508544,39.8397500096
1.21e-07,19.765374987519998,1.407800008448,39.8397500096
1.215e-07,19.8903749952,1.409362508544,39.82412500864
1.22e-07,19.95287499904,1.41092500864,39.8397500096
1.2250000000000002e-07,19.90599999616,1.412487508736,39.8397500096
1.23e-07,19.796624989439998,1.41092500864,39.85537501056
1.2350000000000001e-07,19.718499984639998,1.407800008448,39.88662501248
1.24e-07,19.702874983679997,1.409362508544,39.88662501248
1.245e-07,19.765374987519998,1.409362508544,39.88662501248
1.2500000000000002e-07,19.780999988479998,1.407800008448,39.90225001344
1.255e-07,19.765374987519998,1.409362508544,39.87100001152
1.2600000000000002e-07,19.702874983679997,1.41092500864,39.88662501248
1.265e-07,19.702874983679997,1.41092500864,39.88662501248
1.27e-07,19.765374987519998,1.407800008448,39.85537501056
1.275e-07,19.843499992319998,1.407800008448,39.8397500096
1.28e-07,19.85912499328,1.406237508352,39.8397500096
1.2850000000000002e-07,19.843499992319998,1.407800008448,39.8397500096
1.29e-07,19.827874991359998,1.406237508352,39.85537501056
1.2950000000000001e-07,19.812249990399998,1.407800008448,39.85537501056
1.3e-07,19.812249990399998,1.409362508544,39.87100001152
1.305e-07,19.765374987519998,1.412487508736,39.85537501056
1.31e-07,19.718499984639998,1.409362508544,39.87100001152
1.315e-07,19.671624981759997,1.409362508544,39.88662501248
1.3200000000000002e-07,19.640374979839997,1.406237508352,39.9178750144
1.325e-07,19.734124985599998,1.401550008064,39.9178750144
1.33e-07,19.827874991359998,1.404675008256,39.90225001344
1.335e-07,19.85912499328,1.407800008448,39.87100001152
1.34e-07,19.827874991359998,1.409362508544,39.87100001152
1.3450000000000002e-07,19.796624989439998,1.406237508352,39.88662501248
1.35e-07,19.796624989439998,1.40311250816,39.88662501248
1.3550000000000002e-07,19.827874991359998,1.40311250816,39.87100001152
1.36e-07,19.8903749952,1.40311250816,39.87100001152
1.365e-07,19.8903749952,1.401550008064,39.85537501056
1.37e-07,19.827874991359998,1.401550008064,39.90225001344
1.375e-07,19.734124985599998,1.40311250816,39.93350001536
1.3800000000000002e-07,19.687249982719997,1.404675008256,39.964750017280004
1.385e-07,19.734124985599998,1.40311250816,39.90225001344
1.3900000000000001e-07,19.796624989439998,1.404675008256,39.88662501248
1.395e-07,19.85912499328,1.40311250816,39.87100001152
1.4e-07,19.85912499328,1.40311250816,39.88662501248
1.4050000000000002e-07,19.843499992319998,1.401550008064,39.90225001344
1.41e-07,19.796624989439998,1.401550008064,39.90225001344
1.4150000000000002e-07,19.812249990399998,1.40311250816,39.85537501056
1.42e-07,19.796624989439998,1.40311250816,39.8397500096
1.425e-07,19.812249990399998,1.398425007872,39.80850000768
1.43e-07,19.780999988479998,1.396862507776,39.8397500096
1.435e-07,19.749749986559998,1.39530000768,39.88662501248
1.4400000000000002e-07,19.734124985599998,1.398425007872,39.90225001344
1.445e-07,19.734124985599998,1.399987507968,39.88662501248
1.4500000000000001e-07,19.765374987519998,1.396862507776,39.85537501056
1.455e-07,19.812249990399998,1.39530000768,39.85537501056
1.46e-07,19.87474999424,1.39530000768,39.87100001152
1.4650000000000002e-07,19.87474999424,1.396862507776,39.85537501056
1.47e-07,19.85912499328,1.39530000768,39.87100001152
1.4750000000000002e-07,19.85912499328,1.39530000768,39.85537501056
1.48e-07,19.796624989439998,1.39530000768,39.82412500864
1.485e-07,19.796624989439998,1.396862507776,39.85537501056
1.49e-07,19.812249990399998,1.398425007872,39.85537501056
1.495e-07,19.827874991359998,1.398425007872,39.82412500864
1.5000000000000002e-07,19.812249990399998,1.398425007872,39.8397500096
1.505e-07,19.812249990399998,1.399987507968,39.82412500864
1.5100000000000002e-07,19.796624989439998,1.398425007872,39.77725000576
1.515e-07,19.812249990399998,1.396862507776,39.79287500672
1.52e-07,19.827874991359998,1.39530000768,39.82412500864
1.5250000000000002e-07,19.827874991359998,1.390612507392,39.82412500864
1.53e-07,19.85912499328,1.390612507392,39.82412500864
1.5350000000000002e-07,19.85912499328,1.393737507584,39.80850000768
1.54e-07,19.85912499328,1.396862507776,39.8397500096
1.5450000000000001e-07,19.85912499328,1.39530000768,39.82412500864
1.55e-07,19.843499992319998,1.39530000768,39.85537501056
1.555e-07,19.827874991359998,1.39530000768,39.85537501056
1.5600000000000002e-07,19.812249990399998,1.396862507776,39.85537501056
1.565e-07,19.843499992319998,1.39530000768,39.8397500096
1.5700000000000002e-07,19.827874991359998,1.396862507776,39.79287500672
1.575e-07,19.796624989439998,1.398425007872,39.77725000576
1.58e-07,19.734124985599998,1.39530000768,39.77725000576
1.5850000000000002e-07,19.749749986559998,1.392175007488,39.77725000576
1.59e-07,19.780999988479998,1.389050007296,39.7616250048
1.5950000000000002e-07,19.843499992319998,1.390612507392,39.7616250048
1.6e-07,19.90599999616,1.390612507392,39.7616250048
1.6050000000000001e-07,19.95287499904,1.390612507392,39.7616250048
1.61e-07,19.9685,1.392175007488,39.77725000576
1.615e-07,19.95287499904,1.393737507584,39.77725000576
