Time (s),VIN,IIN,VOUT
0.0,20.84687499328,1.47857500864,41.80487501056
5e-10,20.7999999904,1.47857500864,41.7892500096
1e-09,20.7218749856,1.475450008448,41.75800000768
1.5000000000000002e-09,20.73749998656,1.475450008448,41.74237500672
2e-09,20.75312498752,1.47857500864,41.74237500672
2.5e-09,20.7999999904,1.477012508544,41.74237500672
3.0000000000000004e-09,20.7999999904,1.475450008448,41.7111250048
3.5000000000000003e-09,20.7999999904,1.472325008256,41.74237500672
4e-09,20.83124999232,1.472325008256,41.75800000768
4.500000000000001e-09,20.86249999424,1.472325008256,41.77362500864
5e-09,20.90937499712,1.473887508352,41.75800000768
5.5000000000000004e-09,20.90937499712,1.472325008256,41.820500011520004
6.000000000000001e-09,20.92499999808,1.475450008448,41.836125012480004
6.5e-09,20.89374999616,1.47857500864,41.820500011520004
7.000000000000001e-09,20.86249999424,1.477012508544,41.80487501056
7.500000000000001e-09,20.81562499136,1.475450008448,41.7892500096
8e-09,20.75312498752,1.475450008448,41.74237500672
8.5e-09,20.76874998848,1.473887508352,41.7111250048
9.000000000000001e-09,20.73749998656,1.473887508352,41.67987500288
9.5e-09,20.73749998656,1.473887508352,41.69550000384
1e-08,20.70624998464,1.472325008256,41.67987500288
1.0500000000000001e-08,20.70624998464,1.473887508352,41.66425000192
1.1000000000000001e-08,20.75312498752,1.47076250816,41.66425000192
1.15e-08,20.81562499136,1.472325008256,41.67987500288
1.2000000000000002e-08,20.90937499712,1.47076250816,41.69550000384
1.2500000000000001e-08,20.97187500096,1.469200008064,41.72675000576
1.3e-08,21.0343750048,1.469200008064,41.72675000576
1.35e-08,21.01875000384,1.467637507968,41.77362500864
1.4000000000000001e-08,20.98750000192,1.469200008064,41.7892500096
1.45e-08,20.94062499904,1.47076250816,41.7892500096
1.5000000000000002e-08,20.86249999424,1.47076250816,41.75800000768
1.55e-08,20.78437498944,1.472325008256,41.74237500672
1.6e-08,20.7218749856,1.472325008256,41.7111250048
1.6500000000000002e-08,20.7218749856,1.47076250816,41.67987500288
1.7e-08,20.7218749856,1.469200008064,41.64862500096
1.75e-08,20.73749998656,1.472325008256,41.633
1.8000000000000002e-08,20.75312498752,1.47076250816,41.57049999616
1.85e-08,20.81562499136,1.472325008256,41.57049999616
1.9e-08,20.86249999424,1.472325008256,41.633
1.9500000000000003e-08,20.89374999616,1.472325008256,41.67987500288
2e-08,20.92499999808,1.472325008256,41.69550000384
2.05e-08,20.94062499904,1.469200008064,41.74237500672
2.1000000000000003e-08,20.97187500096,1.466075007872,41.7111250048
2.15e-08,20.95625,1.469200008064,41.72675000576
2.2000000000000002e-08,20.94062499904,1.47076250816,41.7111250048
2.2500000000000003e-08,20.89374999616,1.472325008256,41.74237500672
2.3e-08,20.81562499136,1.472325008256,41.69550000384
2.3500000000000002e-08,20.75312498752,1.47076250816,41.66425000192
2.4000000000000003e-08,20.7218749856,1.473887508352,41.633
2.45e-08,20.7218749856,1.473887508352,41.61737499904
2.5000000000000002e-08,20.73749998656,1.472325008256,41.633
2.55e-08,20.81562499136,1.47076250816,41.69550000384
2.6e-08,20.86249999424,1.466075007872,41.67987500288
2.6500000000000002e-08,20.8781249952,1.466075007872,41.64862500096
2.7e-08,20.89374999616,1.464512507776,41.66425000192
2.75e-08,20.98750000192,1.467637507968,41.69550000384
2.8000000000000003e-08,21.08125000768,1.467637507968,41.69550000384
2.85e-08,21.05000000576,1.469200008064,41.75800000768
2.9e-08,20.94062499904,1.469200008064,41.75800000768
2.9500000000000003e-08,20.81562499136,1.466075007872,41.75800000768
3.0000000000000004e-08,20.70624998464,1.469200008064,41.7111250048
3.05e-08,20.6437499808,1.47076250816,41.72675000576
3.1e-08,20.67499998272,1.47076250816,41.69550000384
3.1500000000000004e-08,20.7999999904,1.469200008064,41.64862500096
3.2e-08,20.84687499328,1.47076250816,41.60174999808
3.25e-08,20.86249999424,1.472325008256,41.58612499712
3.3000000000000004e-08,20.8781249952,1.469200008064,41.58612499712
3.35e-08,20.89374999616,1.469200008064,41.64862500096
3.4e-08,20.8781249952,1.466075007872,41.67987500288
3.4500000000000005e-08,20.89374999616,1.464512507776,41.67987500288
3.5e-08,20.92499999808,1.464512507776,41.7111250048
3.55e-08,20.90937499712,1.469200008064,41.74237500672
3.6000000000000005e-08,20.90937499712,1.47076250816,41.74237500672
3.65e-08,20.84687499328,1.47076250816,41.75800000768
3.7e-08,20.75312498752,1.469200008064,41.72675000576
3.7500000000000005e-08,20.69062498368,1.469200008064,41.69550000384
3.8e-08,20.75312498752,1.469200008064,41.61737499904
3.85e-08,20.84687499328,1.47076250816,41.58612499712
3.9000000000000005e-08,20.95625,1.473887508352,41.53924999424
3.95e-08,20.95625,1.477012508544,41.58612499712
4e-08,20.86249999424,1.480137508736,41.60174999808
4.0500000000000005e-08,20.75312498752,1.475450008448,41.633
4.1e-08,20.73749998656,1.47076250816,41.633
4.15e-08,20.81562499136,1.469200008064,41.69550000384
4.2000000000000006e-08,20.8781249952,1.469200008064,41.7111250048
4.2500000000000003e-08,20.95625,1.469200008064,41.7111250048
4.3e-08,20.94062499904,1.47076250816,41.74237500672
4.3500000000000006e-08,20.83124999232,1.473887508352,41.75800000768
4.4000000000000004e-08,20.76874998848,1.477012508544,41.7111250048
4.45e-08,20.67499998272,1.475450008448,41.7111250048
4.5000000000000006e-08,20.7218749856,1.473887508352,41.66425000192
4.5500000000000004e-08,20.81562499136,1.475450008448,41.64862500096
4.6e-08,20.94062499904,1.47857500864,41.58612499712
4.6500000000000006e-08,20.94062499904,1.481700008832,41.57049999616
4.7000000000000004e-08,20.83124999232,1.477012508544,41.5548749952
4.75e-08,20.75312498752,1.473887508352,41.5548749952
4.8000000000000006e-08,20.69062498368,1.473887508352,41.58612499712
4.8500000000000004e-08,20.75312498752,1.473887508352,41.633
4.9e-08,20.8781249952,1.472325008256,41.64862500096
4.95e-08,20.92499999808,1.473887508352,41.69550000384
5.0000000000000004e-08,20.84687499328,1.473887508352,41.7111250048
5.05e-08,20.7218749856,1.473887508352,41.72675000576
5.1e-08,20.6437499808,1.473887508352,41.75800000768
5.1500000000000005e-08,20.7218749856,1.473887508352,41.75800000768
5.2e-08,20.83124999232,1.475450008448,41.67987500288
5.25e-08,20.89374999616,1.473887508352,41.61737499904
5.3000000000000005e-08,20.92499999808,1.475450008448,41.60174999808
5.35e-08,20.8781249952,1.47857500864,41.60174999808
5.4e-08,20.8781249952,1.483262508928,41.58612499712
5.4500000000000005e-08,20.84687499328,1.481700008832,41.60174999808
5.5e-08,20.78437498944,1.473887508352,41.57049999616
5.55e-08,20.76874998848,1.469200008064,41.58612499712
5.6000000000000005e-08,20.73749998656,1.47076250816,41.633
5.65e-08,20.7218749856,1.472325008256,41.66425000192
5.7e-08,20.73749998656,1.477012508544,41.67987500288
5.7500000000000005e-08,20.70624998464,1.480137508736,41.7111250048
5.8e-08,20.67499998272,1.481700008832,41.64862500096
5.85e-08,20.67499998272,1.480137508736,41.61737499904
5.9000000000000006e-08,20.7218749856,1.480137508736,41.64862500096
5.9500000000000003e-08,20.7999999904,1.47857500864,41.69550000384
6.000000000000001e-08,20.92499999808,1.47857500864,41.69550000384
6.05e-08,20.94062499904,1.480137508736,41.66425000192
6.1e-08,20.90937499712,1.481700008832,41.60174999808
6.15e-08,20.83124999232,1.480137508736,41.60174999808
6.2e-08,20.81562499136,1.477012508544,41.61737499904
6.250000000000001e-08,20.78437498944,1.473887508352,41.64862500096
6.300000000000001e-08,20.75312498752,1.472325008256,41.66425000192
6.35e-08,20.7218749856,1.473887508352,41.67987500288
6.4e-08,20.65937498176,1.480137508736,41.67987500288
6.45e-08,20.612499978880003,1.480137508736,41.67987500288
6.5e-08,20.612499978880003,1.47857500864,41.67987500288
6.55e-08,20.65937498176,1.47857500864,41.74237500672
6.600000000000001e-08,20.73749998656,1.47857500864,41.66425000192
6.65e-08,20.84687499328,1.481700008832,41.60174999808
6.7e-08,20.89374999616,1.484825009024,41.61737499904
6.75e-08,20.84687499328,1.48638750912,41.633
6.8e-08,20.81562499136,1.483262508928,41.60174999808
6.85e-08,20.78437498944,1.480137508736,41.61737499904
6.900000000000001e-08,20.81562499136,1.480137508736,41.633
6.950000000000001e-08,20.81562499136,1.483262508928,41.66425000192
7e-08,20.76874998848,1.483262508928,41.66425000192
7.05e-08,20.67499998272,1.481700008832,41.72675000576
7.1e-08,20.581249976960002,1.480137508736,41.74237500672
7.15e-08,20.612499978880003,1.483262508928,41.72675000576
7.200000000000001e-08,20.70624998464,1.491075009408,41.7111250048
7.250000000000001e-08,20.7999999904,1.4926375095039999,41.67987500288
7.3e-08,20.7999999904,1.489512509312,41.61737499904
7.35e-08,20.7999999904,1.489512509312,41.64862500096
7.4e-08,20.78437498944,1.489512509312,41.61737499904
7.45e-08,20.81562499136,1.491075009408,41.61737499904
7.500000000000001e-08,20.81562499136,1.489512509312,41.633
7.550000000000001e-08,20.81562499136,1.48638750912,41.64862500096
7.6e-08,20.81562499136,1.484825009024,41.60174999808
7.65e-08,20.76874998848,1.481700008832,41.61737499904
7.7e-08,20.76874998848,1.483262508928,41.67987500288
7.75e-08,20.78437498944,1.48638750912,41.74237500672
7.800000000000001e-08,20.76874998848,1.487950009216,41.72675000576
7.850000000000001e-08,20.69062498368,1.491075009408,41.72675000576
7.9e-08,20.581249976960002,1.48638750912,41.72675000576
7.95e-08,20.612499978880003,1.48638750912,41.72675000576
8e-08,20.7218749856,1.487950009216,41.7111250048
8.05e-08,20.81562499136,1.491075009408,41.7111250048
8.100000000000001e-08,20.81562499136,1.491075009408,41.67987500288
8.150000000000001e-08,20.75312498752,1.491075009408,41.67987500288
8.2e-08,20.7218749856,1.489512509312,41.67987500288
8.25e-08,20.7999999904,1.489512509312,41.67987500288
8.3e-08,20.86249999424,1.48638750912,41.67987500288
8.35e-08,20.8781249952,1.484825009024,41.72675000576
8.400000000000001e-08,20.83124999232,1.484825009024,41.74237500672
8.450000000000001e-08,20.73749998656,1.48638750912,41.72675000576
8.500000000000001e-08,20.67499998272,1.48638750912,41.72675000576
8.55e-08,20.69062498368,1.491075009408,41.77362500864
8.6e-08,20.7218749856,1.491075009408,41.7892500096
8.65e-08,20.7218749856,1.4926375095039999,41.77362500864
8.700000000000001e-08,20.7218749856,1.491075009408,41.74237500672
8.750000000000001e-08,20.7218749856,1.491075009408,41.7111250048
8.800000000000001e-08,20.75312498752,1.491075009408,41.7111250048
8.85e-08,20.84687499328,1.489512509312,41.72675000576
8.9e-08,20.84687499328,1.487950009216,41.7111250048
8.95e-08,20.7999999904,1.489512509312,41.74237500672
9.000000000000001e-08,20.73749998656,1.489512509312,41.75800000768
9.050000000000001e-08,20.73749998656,1.487950009216,41.7111250048
9.100000000000001e-08,20.73749998656,1.489512509312,41.7111250048
9.15e-08,20.70624998464,1.491075009408,41.75800000768
9.2e-08,20.69062498368,1.4926375095039999,41.7892500096
9.25e-08,20.67499998272,1.4926375095039999,41.80487501056
9.300000000000001e-08,20.69062498368,1.4942000095999999,41.7892500096
9.350000000000001e-08,20.7218749856,1.4942000095999999,41.7892500096
9.400000000000001e-08,20.76874998848,1.497325009792,41.75800000768
9.45e-08,20.75312498752,1.4957625096959999,41.74237500672
9.5e-08,20.76874998848,1.491075009408,41.74237500672
9.55e-08,20.76874998848,1.489512509312,41.74237500672
9.600000000000001e-08,20.76874998848,1.489512509312,41.75800000768
9.650000000000001e-08,20.76874998848,1.491075009408,41.75800000768
9.700000000000001e-08,20.7999999904,1.48638750912,41.75800000768
9.75e-08,20.78437498944,1.483262508928,41.80487501056
9.8e-08,20.73749998656,1.484825009024,41.836125012480004
9.85e-08,20.76874998848,1.48638750912,41.820500011520004
9.9e-08,20.7999999904,1.48638750912,41.7892500096
9.950000000000001e-08,20.86249999424,1.489512509312,41.80487501056
1.0000000000000001e-07,20.86249999424,1.491075009408,41.820500011520004
1.005e-07,20.78437498944,1.4926375095039999,41.836125012480004
1.01e-07,20.78437498944,1.4942000095999999,41.80487501056
1.015e-07,20.73749998656,1.491075009408,41.7892500096
1.02e-07,20.70624998464,1.491075009408,41.72675000576
1.0250000000000001e-07,20.67499998272,1.48638750912,41.72675000576
1.0300000000000001e-07,20.69062498368,1.483262508928,41.72675000576
1.0350000000000001e-07,20.69062498368,1.483262508928,41.75800000768
1.04e-07,20.65937498176,1.484825009024,41.77362500864
1.045e-07,20.69062498368,1.48638750912,41.77362500864
1.05e-07,20.7218749856,1.483262508928,41.74237500672
1.0550000000000001e-07,20.76874998848,1.487950009216,41.80487501056
1.0600000000000001e-07,20.7999999904,1.491075009408,41.80487501056
1.0650000000000001e-07,20.84687499328,1.4926375095039999,41.820500011520004
1.07e-07,20.86249999424,1.4926375095039999,41.820500011520004
1.075e-07,20.83124999232,1.491075009408,41.820500011520004
1.08e-07,20.78437498944,1.487950009216,41.80487501056
1.0850000000000001e-07,20.70624998464,1.487950009216,41.77362500864
1.0900000000000001e-07,20.65937498176,1.487950009216,41.77362500864
1.0950000000000001e-07,20.67499998272,1.489512509312,41.80487501056
1.1e-07,20.75312498752,1.487950009216,41.74237500672
1.105e-07,20.76874998848,1.48638750912,41.72675000576
1.11e-07,20.76874998848,1.48638750912,41.7111250048
1.1150000000000001e-07,20.75312498752,1.484825009024,41.74237500672
1.1200000000000001e-07,20.7218749856,1.484825009024,41.77362500864
1.1250000000000001e-07,20.76874998848,1.483262508928,41.77362500864
1.13e-07,20.84687499328,1.483262508928,41.75800000768
1.135e-07,20.94062499904,1.487950009216,41.7892500096
1.14e-07,20.92499999808,1.487950009216,41.80487501056
1.1450000000000001e-07,20.81562499136,1.487950009216,41.820500011520004
1.1500000000000001e-07,20.7218749856,1.489512509312,41.836125012480004
1.1550000000000001e-07,20.70624998464,1.491075009408,41.836125012480004
1.16e-07,20.78437498944,1.491075009408,41.820500011520004
1.165e-07,20.83124999232,1.491075009408,41.80487501056
1.17e-07,20.78437498944,1.489512509312,41.7892500096
1.1750000000000001e-07,20.67499998272,1.491075009408,41.80487501056
1.1800000000000001e-07,20.62812497984,1.489512509312,41.75800000768
1.1850000000000001e-07,20.65937498176,1.491075009408,41.74237500672
1.1900000000000001e-07,20.76874998848,1.489512509312,41.7111250048
1.195e-07,20.8781249952,1.489512509312,41.72675000576
1.2000000000000002e-07,20.81562499136,1.489512509312,41.7892500096
1.205e-07,20.75312498752,1.48638750912,41.836125012480004
1.21e-07,20.73749998656,1.48638750912,41.80487501056
1.215e-07,20.8781249952,1.487950009216,41.80487501056
1.22e-07,20.97187500096,1.487950009216,41.7892500096
1.2250000000000002e-07,20.95625,1.48638750912,41.820500011520004
1.23e-07,20.7999999904,1.481700008832,41.867375014400004
1.2350000000000001e-07,20.6437499808,1.481700008832,41.883000015360004
1.24e-07,20.6437499808,1.483262508928,41.867375014400004
1.245e-07,20.73749998656,1.483262508928,41.836125012480004
1.2500000000000002e-07,20.84687499328,1.483262508928,41.820500011520004
1.255e-07,20.7999999904,1.484825009024,41.820500011520004
1.2600000000000002e-07,20.7218749856,1.484825009024,41.7892500096
1.265e-07,20.70624998464,1.484825009024,41.80487501056
1.27e-07,20.78437498944,1.484825009024,41.80487501056
1.275e-07,20.89374999616,1.487950009216,41.7892500096
1.28e-07,20.92499999808,1.489512509312,41.7892500096
1.2850000000000002e-07,20.8781249952,1.48638750912,41.80487501056
1.29e-07,20.76874998848,1.481700008832,41.7892500096
1.2950000000000001e-07,20.75312498752,1.484825009024,41.80487501056
1.3e-07,20.78437498944,1.487950009216,41.820500011520004
1.305e-07,20.81562499136,1.487950009216,41.820500011520004
1.31e-07,20.7999999904,1.484825009024,41.851750013440004
1.315e-07,20.70624998464,1.484825009024,41.898625016320004
1.3200000000000002e-07,20.65937498176,1.483262508928,41.867375014400004
1.325e-07,20.70624998464,1.484825009024,41.820500011520004
1.33e-07,20.84687499328,1.484825009024,41.7892500096
1.335e-07,20.90937499712,1.484825009024,41.820500011520004
1.34e-07,20.86249999424,1.484825009024,41.836125012480004
1.3450000000000002e-07,20.78437498944,1.481700008832,41.851750013440004
1.35e-07,20.7218749856,1.47857500864,41.820500011520004
1.3550000000000002e-07,20.78437498944,1.480137508736,41.7892500096
1.36e-07,20.84687499328,1.480137508736,41.7892500096
1.365e-07,20.86249999424,1.480137508736,41.851750013440004
1.37e-07,20.83124999232,1.47857500864,41.867375014400004
1.375e-07,20.75312498752,1.480137508736,41.898625016320004
1.3800000000000002e-07,20.7218749856,1.481700008832,41.867375014400004
1.385e-07,20.7999999904,1.481700008832,41.820500011520004
1.3900000000000001e-07,20.86249999424,1.480137508736,41.820500011520004
1.395e-07,20.8781249952,1.47857500864,41.851750013440004
1.4e-07,20.8781249952,1.480137508736,41.867375014400004
1.4050000000000002e-07,20.81562499136,1.483262508928,41.820500011520004
1.41e-07,20.7999999904,1.481700008832,41.77362500864
1.4150000000000002e-07,20.75312498752,1.47857500864,41.75800000768
1.42e-07,20.73749998656,1.477012508544,41.75800000768
1.425e-07,20.7218749856,1.477012508544,41.80487501056
1.43e-07,20.70624998464,1.477012508544,41.820500011520004
1.435e-07,20.7218749856,1.47857500864,41.820500011520004
1.4400000000000002e-07,20.73749998656,1.47857500864,41.820500011520004
1.445e-07,20.78437498944,1.47857500864,41.80487501056
1.4500000000000001e-07,20.84687499328,1.477012508544,41.80487501056
1.455e-07,20.89374999616,1.477012508544,41.836125012480004
1.46e-07,20.89374999616,1.475450008448,41.820500011520004
1.4650000000000002e-07,20.8781249952,1.475450008448,41.7892500096
1.47e-07,20.8781249952,1.475450008448,41.7892500096
1.4750000000000002e-07,20.83124999232,1.477012508544,41.80487501056
1.48e-07,20.78437498944,1.47857500864,41.77362500864
1.485e-07,20.7218749856,1.480137508736,41.75800000768
1.49e-07,20.75312498752,1.480137508736,41.74237500672
1.495e-07,20.75312498752,1.47857500864,41.74237500672
1.5000000000000002e-07,20.81562499136,1.475450008448,41.7111250048
1.505e-07,20.81562499136,1.475450008448,41.72675000576
1.5100000000000002e-07,20.81562499136,1.475450008448,41.72675000576
1.515e-07,20.84687499328,1.475450008448,41.75800000768
1.52e-07,20.86249999424,1.473887508352,41.77362500864
1.5250000000000002e-07,20.89374999616,1.473887508352,41.77362500864
1.53e-07,20.92499999808,1.473887508352,41.820500011520004
1.5350000000000002e-07,20.92499999808,1.477012508544,41.836125012480004
1.54e-07,20.8781249952,1.477012508544,41.820500011520004
1.5450000000000001e-07,20.86249999424,1.477012508544,41.7892500096
1.55e-07,20.83124999232,1.475450008448,41.80487501056
1.555e-07,20.75312498752,1.473887508352,41.7892500096
1.5600000000000002e-07,20.75312498752,1.472325008256,41.72675000576
1.565e-07,20.75312498752,1.472325008256,41.7111250048
1.5700000000000002e-07,20.73749998656,1.475450008448,41.67987500288
1.575e-07,20.70624998464,1.473887508352,41.67987500288
1.58e-07,20.70624998464,1.472325008256,41.67987500288
1.5850000000000002e-07,20.73749998656,1.472325008256,41.67987500288
1.59e-07,20.7999999904,1.472325008256,41.67987500288
1.5950000000000002e-07,20.90937499712,1.469200008064,41.69550000384
1.6e-07,20.97187500096,1.467637507968,41.72675000576
1.6050000000000001e-07,21.01875000384,1.467637507968,41.74237500672
1.61e-07,21.01875000384,1.469200008064,41.77362500864
1.615e-07,20.97187500096,1.47076250816,41.820500011520004
1.6200000000000002e-07,20.94062499904,1.473887508352,41.820500011520004
1.625e-07,20.8781249952,1.475450008448,41.77362500864
1.6300000000000002e-07,20.78437498944,1.475450008448,41.77362500864
1.635e-07,20.73749998656,1.473887508352,41.74237500672
1.64e-07,20.7218749856,1.472325008256,41.69550000384
1.645e-07,20.7218749856,1.473887508352,41.66425000192
1.65e-07,20.7218749856,1.473887508352,41.633
1.6550000000000002e-07,20.75312498752,1.475450008448,41.61737499904
1.66e-07,20.81562499136,1.473887508352,41.60174999808
1.6650000000000002e-07,20.8781249952,1.472325008256,41.633
1.67e-07,20.90937499712,1.47076250816,41.67987500288
1.675e-07,20.92499999808,1.47076250816,41.72675000576
1.6800000000000002e-07,20.94062499904,1.472325008256,41.75800000768
