Time (s),VIN,IIN,VOUT,IOUT,"[""CRTL_A"", ""IN_A"", ""CRTL_B"", ""IN_B"", ""nEN"", ""GATE_1"", ""GATE_2""]"
0.0,22.4857500288,1.4408250069119999,42.28324999424,0.6631749925120001,8960
5e-10,22.54825003264,1.442387507008,42.23637499136,0.6631749925120001,8960
1e-09,22.57950003456,1.442387507008,42.2207499904,0.6631749925120001,8960
1.5000000000000002e-09,22.51700003072,1.4408250069119999,42.25199999232,0.6631749925120001,8960
2e-09,22.454500026879998,1.443950007104,42.2988749952,0.6631749925120001,8960
2.5e-09,22.392000023039998,1.442387507008,42.2988749952,0.6631749925120001,8960
3.0000000000000004e-09,22.438875025919998,1.4408250069119999,42.28324999424,0.6631749925120001,8960
3.5000000000000003e-09,22.50137502976,1.442387507008,42.25199999232,0.6616124924160001,8704
4e-09,22.54825003264,1.4408250069119999,42.23637499136,0.6631749925120001,8704
4.500000000000001e-09,22.53262503168,1.4408250069119999,42.20512498944,0.6662999927040001,8192
5e-09,22.51700003072,1.4408250069119999,42.23637499136,0.6647374926080001,8192
5.5000000000000004e-09,22.53262503168,1.442387507008,42.2207499904,0.6616124924160001,8192
6.000000000000001e-09,22.57950003456,1.442387507008,42.20512498944,0.6616124924160001,8192
6.5e-09,22.6420000384,1.443950007104,42.18949998848,0.6616124924160001,8192
7.000000000000001e-09,22.67325004032,1.442387507008,42.23637499136,0.6600499923200001,8192
7.500000000000001e-09,22.67325004032,1.4408250069119999,42.31449999616,0.6600499923200001,8192
8e-09,22.6420000384,1.442387507008,42.33012499712,0.6600499923200001,8192
8.5e-09,22.61075003648,1.442387507008,42.31449999616,0.656924992128,8192
9.000000000000001e-09,22.5638750336,1.442387507008,42.25199999232,0.655362492032,8192
9.5e-09,22.50137502976,1.4408250069119999,42.2207499904,0.658487492224,8192
1e-08,22.4857500288,1.442387507008,42.23637499136,0.6616124924160001,8192
1.0500000000000001e-08,22.51700003072,1.4408250069119999,42.26762499328,0.6631749925120001,8192
1.1000000000000001e-08,22.59512503552,1.4408250069119999,42.28324999424,0.6631749925120001,8192
1.15e-08,22.67325004032,1.442387507008,42.2988749952,0.6631749925120001,8192
1.2000000000000002e-08,22.67325004032,1.442387507008,42.25199999232,0.6662999927040001,8192
1.2500000000000001e-08,22.6420000384,1.4408250069119999,42.2207499904,0.6662999927040001,8192
1.3e-08,22.61075003648,1.4392625068159999,42.2207499904,0.6647374926080001,8192
1.35e-08,22.6420000384,1.4408250069119999,42.23637499136,0.6616124924160001,8192
1.4000000000000001e-08,22.7201250432,1.442387507008,42.2207499904,0.655362492032,8192
1.45e-08,22.81387504896,1.443950007104,42.2207499904,0.653799991936,8192
1.5000000000000002e-08,22.82950004992,1.443950007104,42.2207499904,0.655362492032,8192
1.55e-08,22.76700004608,1.443950007104,42.28324999424,0.655362492032,8192
1.6e-08,22.65762503936,1.442387507008,42.34574999808,0.656924992128,8192
1.6500000000000002e-08,22.57950003456,1.4408250069119999,42.377,0.656924992128,8192
1.7e-08,22.5638750336,1.4408250069119999,42.34574999808,0.658487492224,8192
1.75e-08,22.54825003264,1.4392625068159999,42.2988749952,0.6631749925120001,8192
1.8000000000000002e-08,22.57950003456,1.4408250069119999,42.23637499136,0.6662999927040001,8192
1.85e-08,22.5638750336,1.442387507008,42.15824998656,0.6678624928,8192
1.9e-08,22.61075003648,1.4408250069119999,42.12699998464,0.6678624928,8192
1.9500000000000003e-08,22.6420000384,1.442387507008,42.12699998464,0.6662999927040001,8192
2e-08,22.68887504128,1.4408250069119999,42.1426249856,0.6662999927040001,8192
2.05e-08,22.76700004608,1.442387507008,42.15824998656,0.6647374926080001,8192
2.1000000000000003e-08,22.81387504896,1.442387507008,42.2207499904,0.6616124924160001,8192
2.15e-08,22.81387504896,1.443950007104,42.28324999424,0.6600499923200001,8192
2.2000000000000002e-08,22.76700004608,1.443950007104,42.31449999616,0.658487492224,8192
2.2500000000000003e-08,22.75137504512,1.443950007104,42.31449999616,0.656924992128,8192
2.3e-08,22.70450004224,1.443950007104,42.28324999424,0.658487492224,8192
2.3500000000000002e-08,22.6420000384,1.443950007104,42.26762499328,0.6616124924160001,8192
2.4000000000000003e-08,22.57950003456,1.4455125072,42.2207499904,0.6647374926080001,8192
2.45e-08,22.5638750336,1.443950007104,42.20512498944,0.6678624928,0
2.5000000000000002e-08,22.59512503552,1.442387507008,42.2207499904,0.670987492992,0
2.55e-08,22.62637503744,1.442387507008,42.23637499136,0.670987492992,0
2.6e-08,22.65762503936,1.4455125072,42.25199999232,0.6678624928,0
2.6500000000000002e-08,22.67325004032,1.4455125072,42.25199999232,0.6662999927040001,0
2.7e-08,22.70450004224,1.443950007104,42.26762499328,0.6662999927040001,0
2.75e-08,22.75137504512,1.443950007104,42.26762499328,0.6631749925120001,0
2.8000000000000003e-08,22.798250048,1.443950007104,42.2207499904,0.658487492224,1024
2.85e-08,22.81387504896,1.443950007104,42.20512498944,0.653799991936,1024
2.9e-08,22.798250048,1.442387507008,42.18949998848,0.655362492032,1024
2.9500000000000003e-08,22.78262504704,1.442387507008,42.2207499904,0.656924992128,1024
3.0000000000000004e-08,22.7201250432,1.4392625068159999,42.25199999232,0.656924992128,3072
3.05e-08,22.67325004032,1.4408250069119999,42.2988749952,0.658487492224,3072
3.1e-08,22.65762503936,1.442387507008,42.2988749952,0.6631749925120001,3072
3.1500000000000004e-08,22.68887504128,1.442387507008,42.2988749952,0.6662999927040001,3072
3.2e-08,22.67325004032,1.4392625068159999,42.2207499904,0.6678624928,3072
3.25e-08,22.6420000384,1.4408250069119999,42.2207499904,0.6662999927040001,3072
3.3000000000000004e-08,22.62637503744,1.4408250069119999,42.18949998848,0.6662999927040001,3072
3.35e-08,22.6420000384,1.4392625068159999,42.20512498944,0.6647374926080001,3072
3.4e-08,22.7201250432,1.4392625068159999,42.18949998848,0.6616124924160001,3072
3.4500000000000005e-08,22.82950004992,1.4392625068159999,42.1426249856,0.656924992128,3072
3.5e-08,22.90762505472,1.4392625068159999,42.1426249856,0.655362492032,3072
3.55e-08,22.89200005376,1.443950007104,42.20512498944,0.655362492032,3072
3.6000000000000005e-08,22.82950004992,1.4455125072,42.26762499328,0.65223749184,3072
3.65e-08,22.76700004608,1.4455125072,42.31449999616,0.653799991936,3072
3.7e-08,22.76700004608,1.442387507008,42.34574999808,0.656924992128,3072
3.7500000000000005e-08,22.76700004608,1.443950007104,42.2988749952,0.6616124924160001,3072
3.8e-08,22.7201250432,1.443950007104,42.20512498944,0.6647374926080001,3072
3.85e-08,22.67325004032,1.443950007104,42.15824998656,0.6662999927040001,3072
3.9000000000000005e-08,22.61075003648,1.443950007104,42.15824998656,0.6678624928,3072
3.95e-08,22.5638750336,1.443950007104,42.23637499136,0.6678624928,3072
4e-08,22.62637503744,1.443950007104,42.25199999232,0.6662999927040001,3072
4.0500000000000005e-08,22.76700004608,1.443950007104,42.2207499904,0.6647374926080001,3072
4.1e-08,22.8763750528,1.443950007104,42.18949998848,0.6631749925120001,3072
4.15e-08,22.8763750528,1.4455125072,42.18949998848,0.6631749925120001,3072
4.2000000000000006e-08,22.90762505472,1.448637507392,42.23637499136,0.6600499923200001,3072
4.2500000000000003e-08,22.92325005568,1.4455125072,42.26762499328,0.658487492224,3072
4.3e-08,22.93887505664,1.443950007104,42.23637499136,0.655362492032,3072
4.3500000000000006e-08,22.97012505856,1.442387507008,42.2207499904,0.65223749184,3072
4.4000000000000004e-08,22.90762505472,1.443950007104,42.20512498944,0.653799991936,3072
4.45e-08,22.86075005184,1.448637507392,42.25199999232,0.6600499923200001,3072
4.5000000000000006e-08,22.78262504704,1.450200007488,42.33012499712,0.6647374926080001,3072
4.5500000000000004e-08,22.70450004224,1.447075007296,42.36137499904,0.6678624928,3072
4.6e-08,22.70450004224,1.4455125072,42.2988749952,0.6678624928,3072
4.6500000000000006e-08,22.75137504512,1.4408250069119999,42.23637499136,0.669424992896,3072
4.7000000000000004e-08,22.798250048,1.4392625068159999,42.15824998656,0.670987492992,3072
4.75e-08,22.84512505088,1.4392625068159999,42.20512498944,0.669424992896,3072
4.8000000000000006e-08,22.82950004992,1.43770000672,42.25199999232,0.6662999927040001,3072
4.8500000000000004e-08,22.82950004992,1.43770000672,42.26762499328,0.6631749925120001,3072
4.9e-08,22.86075005184,1.4392625068159999,42.20512498944,0.656924992128,3072
4.95e-08,22.90762505472,1.4408250069119999,42.17387498752,0.655362492032,3072
5.0000000000000004e-08,22.97012505856,1.447075007296,42.20512498944,0.653799991936,3072
5.05e-08,22.97012505856,1.442387507008,42.26762499328,0.655362492032,3072
5.1e-08,22.90762505472,1.436137506624,42.2988749952,0.655362492032,3072
5.1500000000000005e-08,22.798250048,1.434575006528,42.2988749952,0.655362492032,3072
5.2e-08,22.75137504512,1.43770000672,42.18949998848,0.6616124924160001,19456
5.25e-08,22.75137504512,1.4408250069119999,42.15824998656,0.6647374926080001,19456
5.3000000000000005e-08,22.798250048,1.442387507008,42.2207499904,0.6662999927040001,19456
5.35e-08,22.84512505088,1.447075007296,42.33012499712,0.6662999927040001,19456
5.4e-08,22.89200005376,1.4455125072,42.33012499712,0.6631749925120001,19456
5.4500000000000005e-08,22.89200005376,1.4392625068159999,42.28324999424,0.6600499923200001,19456
5.5e-08,22.82950004992,1.433012506432,42.18949998848,0.655362492032,19456
5.55e-08,22.81387504896,1.434575006528,42.17387498752,0.655362492032,19456
5.6000000000000005e-08,22.798250048,1.43770000672,42.18949998848,0.656924992128,19456
5.65e-08,22.82950004992,1.4408250069119999,42.23637499136,0.655362492032,19456
5.7e-08,22.93887505664,1.443950007104,42.25199999232,0.655362492032,19456
5.7500000000000005e-08,23.00137506048,1.4408250069119999,42.2207499904,0.655362492032,19456
5.8e-08,22.98575005952,1.4408250069119999,42.18949998848,0.656924992128,19456
5.85e-08,22.8763750528,1.43770000672,42.2207499904,0.6616124924160001,19456
5.9000000000000006e-08,22.78262504704,1.433012506432,42.25199999232,0.6631749925120001,19456
5.9500000000000003e-08,22.70450004224,1.431450006336,42.2988749952,0.6616124924160001,19456
6.000000000000001e-08,22.70450004224,1.431450006336,42.28324999424,0.6631749925120001,19456
6.05e-08,22.78262504704,1.436137506624,42.23637499136,0.6647374926080001,19456
6.1e-08,22.81387504896,1.43770000672,42.2207499904,0.6647374926080001,19456
6.15e-08,22.76700004608,1.43770000672,42.2988749952,0.6631749925120001,19456
6.2e-08,22.75137504512,1.4392625068159999,42.2988749952,0.6616124924160001,19456
6.250000000000001e-08,22.78262504704,1.434575006528,42.28324999424,0.655362492032,19456
6.300000000000001e-08,22.86075005184,1.431450006336,42.23637499136,0.65223749184,19456
6.35e-08,22.89200005376,1.433012506432,42.20512498944,0.650674991744,19456
6.4e-08,22.89200005376,1.433012506432,42.18949998848,0.655362492032,19456
6.45e-08,22.86075005184,1.434575006528,42.25199999232,0.658487492224,19456
6.5e-08,22.798250048,1.434575006528,42.28324999424,0.656924992128,19456
6.55e-08,22.76700004608,1.434575006528,42.2988749952,0.656924992128,19456
6.600000000000001e-08,22.798250048,1.436137506624,42.28324999424,0.658487492224,19456
6.65e-08,22.78262504704,1.43770000672,42.23637499136,0.6616124924160001,19456
6.7e-08,22.798250048,1.436137506624,42.18949998848,0.6616124924160001,19456
6.75e-08,22.798250048,1.434575006528,42.18949998848,0.6631749925120001,19456
6.8e-08,22.81387504896,1.431450006336,42.2207499904,0.6616124924160001,19456
6.85e-08,22.81387504896,1.431450006336,42.20512498944,0.658487492224,19456
6.900000000000001e-08,22.798250048,1.431450006336,42.23637499136,0.658487492224,19456
6.950000000000001e-08,22.76700004608,1.434575006528,42.26762499328,0.658487492224,19456
7e-08,22.73575004416,1.436137506624,42.28324999424,0.658487492224,19456
7.05e-08,22.76700004608,1.43770000672,42.31449999616,0.655362492032,19456
7.1e-08,22.81387504896,1.436137506624,42.2988749952,0.65223749184,19456
7.15e-08,22.82950004992,1.431450006336,42.25199999232,0.650674991744,19456
7.200000000000001e-08,22.78262504704,1.42988750624,42.15824998656,0.655362492032,19456
7.250000000000001e-08,22.67325004032,1.433012506432,42.1426249856,0.6616124924160001,19456
7.3e-08,22.62637503744,1.436137506624,42.1426249856,0.6662999927040001,19456
7.35e-08,22.6420000384,1.434575006528,42.18949998848,0.6662999927040001,19456
7.4e-08,22.78262504704,1.436137506624,42.25199999232,0.6647374926080001,19456
7.45e-08,22.92325005568,1.436137506624,42.25199999232,0.6662999927040001,19456
7.500000000000001e-08,22.9545000576,1.434575006528,42.23637499136,0.6631749925120001,19456
7.550000000000001e-08,22.82950004992,1.433012506432,42.23637499136,0.658487492224,19456
7.6e-08,22.67325004032,1.42988750624,42.25199999232,0.655362492032,19456
7.65e-08,22.5638750336,1.431450006336,42.26762499328,0.653799991936,18432
7.7e-08,22.59512503552,1.433012506432,42.28324999424,0.653799991936,18432
7.75e-08,22.70450004224,1.436137506624,42.25199999232,0.656924992128,16384
7.800000000000001e-08,22.78262504704,1.436137506624,42.20512498944,0.6600499923200001,16384
7.850000000000001e-08,22.75137504512,1.431450006336,42.20512498944,0.6631749925120001,16384
7.9e-08,22.7201250432,1.428325006144,42.2207499904,0.6678624928,16384
7.95e-08,22.65762503936,1.425200005952,42.26762499328,0.6662999927040001,16384
8e-08,22.65762503936,1.426762506048,42.20512498944,0.6631749925120001,16384
8.05e-08,22.7201250432,1.42988750624,42.15824998656,0.6616124924160001,16384
8.100000000000001e-08,22.76700004608,1.42988750624,42.1426249856,0.6662999927040001,16384
8.150000000000001e-08,22.75137504512,1.431450006336,42.18949998848,0.6631749925120001,16384
8.2e-08,22.7201250432,1.433012506432,42.25199999232,0.6631749925120001,16384
8.25e-08,22.67325004032,1.433012506432,42.2988749952,0.6631749925120001,16384
8.3e-08,22.6420000384,1.431450006336,42.28324999424,0.6631749925120001,16384
8.35e-08,22.61075003648,1.42988750624,42.26762499328,0.6631749925120001,16384
8.400000000000001e-08,22.5638750336,1.431450006336,42.2207499904,0.6631749925120001,16384
8.450000000000001e-08,22.57950003456,1.431450006336,42.23637499136,0.6647374926080001,16384
8.500000000000001e-08,22.61075003648,1.431450006336,42.26762499328,0.6647374926080001,16384
8.55e-08,22.67325004032,1.431450006336,42.26762499328,0.6647374926080001,16384
8.6e-08,22.68887504128,1.433012506432,42.18949998848,0.6631749925120001,16384
8.65e-08,22.70450004224,1.433012506432,42.18949998848,0.6647374926080001,16384
8.700000000000001e-08,22.70450004224,1.433012506432,42.23637499136,0.6631749925120001,16384
8.750000000000001e-08,22.67325004032,1.433012506432,42.2988749952,0.6647374926080001,16384
8.800000000000001e-08,22.65762503936,1.431450006336,42.2988749952,0.6631749925120001,16384
8.85e-08,22.62637503744,1.431450006336,42.25199999232,0.6616124924160001,16384
8.9e-08,22.57950003456,1.428325006144,42.20512498944,0.6616124924160001,16384
8.95e-08,22.50137502976,1.428325006144,42.2207499904,0.658487492224,16384
9.000000000000001e-08,22.470125027839998,1.428325006144,42.26762499328,0.656924992128,16384
9.050000000000001e-08,22.4857500288,1.433012506432,42.28324999424,0.656924992128,16384
9.100000000000001e-08,22.57950003456,1.434575006528,42.26762499328,0.656924992128,16384
9.15e-08,22.67325004032,1.434575006528,42.26762499328,0.658487492224,16384
9.2e-08,22.73575004416,1.431450006336,42.23637499136,0.6616124924160001,16384
9.25e-08,22.7201250432,1.42988750624,42.23637499136,0.6647374926080001,16384
9.300000000000001e-08,22.6420000384,1.426762506048,42.26762499328,0.6647374926080001,16384
9.350000000000001e-08,22.57950003456,1.426762506048,42.2988749952,0.6647374926080001,16384
9.400000000000001e-08,22.5638750336,1.42988750624,42.26762499328,0.6616124924160001,16384
9.45e-08,22.57950003456,1.434575006528,42.23637499136,0.6600499923200001,16384
9.5e-08,22.5638750336,1.433012506432,42.23637499136,0.6631749925120001,16384
9.55e-08,22.54825003264,1.431450006336,42.26762499328,0.6662999927040001,16384
9.600000000000001e-08,22.50137502976,1.42988750624,42.25199999232,0.670987492992,16384
9.650000000000001e-08,22.438875025919998,1.42988750624,42.28324999424,0.669424992896,16384
9.700000000000001e-08,22.438875025919998,1.42988750624,42.26762499328,0.6678624928,16384
9.75e-08,22.438875025919998,1.433012506432,42.26762499328,0.6647374926080001,0
9.8e-08,22.470125027839998,1.434575006528,42.2988749952,0.6631749925120001,0
9.85e-08,22.51700003072,1.431450006336,42.2988749952,0.6662999927040001,0
9.9e-08,22.53262503168,1.428325006144,42.25199999232,0.6647374926080001,0
9.950000000000001e-08,22.51700003072,1.42988750624,42.23637499136,0.6631749925120001,0
1.0000000000000001e-07,22.50137502976,1.42988750624,42.2207499904,0.6616124924160001,0
1.005e-07,22.470125027839998,1.428325006144,42.2207499904,0.6616124924160001,0
1.01e-07,22.438875025919998,1.428325006144,42.23637499136,0.6600499923200001,256
1.015e-07,22.454500026879998,1.42988750624,42.23637499136,0.6616124924160001,256
1.02e-07,22.4857500288,1.431450006336,42.25199999232,0.6600499923200001,256
1.0250000000000001e-07,22.53262503168,1.431450006336,42.31449999616,0.658487492224,256
1.0300000000000001e-07,22.53262503168,1.42988750624,42.33012499712,0.6616124924160001,256
1.0350000000000001e-07,22.51700003072,1.42988750624,42.377,0.6600499923200001,256
1.04e-07,22.4857500288,1.431450006336,42.34574999808,0.658487492224,768
1.045e-07,22.438875025919998,1.431450006336,42.33012499712,0.656924992128,768
1.05e-07,22.438875025919998,1.42988750624,42.31449999616,0.656924992128,768
1.0550000000000001e-07,22.438875025919998,1.428325006144,42.2988749952,0.656924992128,768
1.0600000000000001e-07,22.50137502976,1.425200005952,42.28324999424,0.658487492224,768
1.0650000000000001e-07,22.50137502976,1.42207500576,42.23637499136,0.6616124924160001,768
1.07e-07,22.51700003072,1.425200005952,42.2207499904,0.6616124924160001,768
1.075e-07,22.50137502976,1.431450006336,42.26762499328,0.6616124924160001,768
1.08e-07,22.53262503168,1.434575006528,42.25199999232,0.6600499923200001,768
1.0850000000000001e-07,22.53262503168,1.433012506432,42.23637499136,0.658487492224,768
1.0900000000000001e-07,22.4857500288,1.426762506048,42.23637499136,0.6600499923200001,768
1.0950000000000001e-07,22.407625023999998,1.425200005952,42.26762499328,0.6600499923200001,768
1.1e-07,22.3295000192,1.426762506048,42.28324999424,0.658487492224,768
1.105e-07,22.29825001728,1.428325006144,42.2988749952,0.655362492032,768
1.11e-07,22.29825001728,1.42988750624,42.26762499328,0.655362492032,768
1.1150000000000001e-07,22.34512502016,1.428325006144,42.23637499136,0.655362492032,768
1.1200000000000001e-07,22.360750021119998,1.426762506048,42.18949998848,0.658487492224,768
1.1250000000000001e-07,22.3295000192,1.428325006144,42.18949998848,0.6616124924160001,768
1.13e-07,22.28262501632,1.428325006144,42.18949998848,0.6616124924160001,768
1.135e-07,22.29825001728,1.42988750624,42.20512498944,0.6600499923200001,768
1.14e-07,22.438875025919998,1.431450006336,42.2207499904,0.6600499923200001,768
1.1450000000000001e-07,22.57950003456,1.433012506432,42.2207499904,0.6616124924160001,768
1.1500000000000001e-07,22.6420000384,1.433012506432,42.25199999232,0.658487492224,768
1.1550000000000001e-07,22.53262503168,1.436137506624,42.2988749952,0.658487492224,768
1.16e-07,22.423250024959998,1.433012506432,42.2988749952,0.6600499923200001,768
1.165e-07,22.31387501824,1.431450006336,42.28324999424,0.6616124924160001,768
1.17e-07,22.29825001728,1.431450006336,42.26762499328,0.6631749925120001,768
1.1750000000000001e-07,22.360750021119998,1.431450006336,42.23637499136,0.6647374926080001,768
1.1800000000000001e-07,22.407625023999998,1.42988750624,42.2207499904,0.6662999927040001,768
1.1850000000000001e-07,22.376375022079998,1.42988750624,42.2207499904,0.6647374926080001,768
1.1900000000000001e-07,22.3295000192,1.42988750624,42.2207499904,0.6647374926080001,768
1.195e-07,22.3295000192,1.428325006144,42.23637499136,0.6631749925120001,768
1.2000000000000002e-07,22.360750021119998,1.426762506048,42.23637499136,0.6631749925120001,768
1.205e-07,22.423250024959998,1.42988750624,42.28324999424,0.6631749925120001,768
