Time (s),VIN,IIN,VOUT
0.0,22.66962498368,1.606325008256,45.63737500864
5e-10,22.544624976,1.606325008256,45.6530000096
1e-09,22.56024997696,1.606325008256,45.5748750048
1.5000000000000002e-09,22.68524998464,1.603200008064,45.51237500096
2e-09,22.76337498944,1.600075007872,45.54362500288
2.5e-09,22.82587499328,1.598512507776,45.5748750048
3.0000000000000004e-09,22.82587499328,1.598512507776,45.60612500672
3.5000000000000003e-09,22.87274999616,1.598512507776,45.62175000768
4e-09,22.93525,1.59695000768,45.63737500864
4.500000000000001e-09,23.0133750048,1.59695000768,45.68425001152
5e-09,23.0133750048,1.600075007872,45.66862501056
5.5000000000000004e-09,22.93525,1.601637507968,45.74675001536
6.000000000000001e-09,22.87274999616,1.603200008064,45.76237501632
6.5e-09,22.79462499136,1.603200008064,45.71550001344
7.000000000000001e-09,22.76337498944,1.603200008064,45.66862501056
7.500000000000001e-09,22.71649998656,1.601637507968,45.62175000768
8e-09,22.65399998272,1.601637507968,45.5748750048
8.5e-09,22.59149997888,1.59695000768,45.59050000576
9.000000000000001e-09,22.6227499808,1.595387507584,45.54362500288
9.5e-09,22.7008749856,1.595387507584,45.48112499904
1e-08,22.79462499136,1.59695000768,45.46549999808
1.0500000000000001e-08,22.88837499712,1.59695000768,45.51237500096
1.1000000000000001e-08,22.88837499712,1.595387507584,45.54362500288
1.15e-08,22.91962499904,1.595387507584,45.59050000576
1.2000000000000002e-08,22.99775000384,1.593825007488,45.59050000576
1.2500000000000001e-08,23.07587500864,1.593825007488,45.62175000768
1.3e-08,23.06025000768,1.595387507584,45.63737500864
1.35e-08,22.93525,1.595387507584,45.69987501248
1.4000000000000001e-08,22.79462499136,1.600075007872,45.7311250144
1.45e-08,22.66962498368,1.601637507968,45.69987501248
1.5000000000000002e-08,22.66962498368,1.600075007872,45.63737500864
1.55e-08,22.68524998464,1.598512507776,45.55925000384
1.6e-08,22.71649998656,1.59695000768,45.49675
1.6500000000000002e-08,22.7789999904,1.59695000768,45.51237500096
1.7e-08,22.82587499328,1.595387507584,45.48112499904
1.75e-08,22.84149999424,1.593825007488,45.46549999808
1.8000000000000002e-08,22.90399999808,1.595387507584,45.4186249952
1.85e-08,22.95087500096,1.595387507584,45.43424999616
1.9e-08,22.95087500096,1.592262507392,45.49675
1.9500000000000003e-08,22.91962499904,1.593825007488,45.59050000576
2e-08,22.8571249952,1.593825007488,45.66862501056
2.05e-08,22.84149999424,1.595387507584,45.69987501248
2.1000000000000003e-08,22.87274999616,1.595387507584,45.6530000096
2.15e-08,22.87274999616,1.595387507584,45.62175000768
2.2000000000000002e-08,22.84149999424,1.59695000768,45.60612500672
2.2500000000000003e-08,22.73212498752,1.59695000768,45.59050000576
2.3e-08,22.71649998656,1.595387507584,45.54362500288
2.3500000000000002e-08,22.74774998848,1.595387507584,45.46549999808
2.4000000000000003e-08,22.7789999904,1.59695000768,45.38737499328
2.45e-08,22.79462499136,1.595387507584,45.44987499712
2.5000000000000002e-08,22.8571249952,1.592262507392,45.49675
2.55e-08,22.95087500096,1.5891375072,45.54362500288
2.6e-08,22.98212500288,1.592262507392,45.55925000384
2.6500000000000002e-08,22.95087500096,1.592262507392,45.55925000384
2.7e-08,22.91962499904,1.592262507392,45.60612500672
2.75e-08,22.91962499904,1.593825007488,45.66862501056
2.8000000000000003e-08,22.91962499904,1.595387507584,45.71550001344
2.85e-08,22.87274999616,1.59695000768,45.69987501248
2.9e-08,22.7789999904,1.59695000768,45.62175000768
2.9500000000000003e-08,22.7008749856,1.595387507584,45.59050000576
3.0000000000000004e-08,22.66962498368,1.59695000768,45.55925000384
3.05e-08,22.68524998464,1.59695000768,45.54362500288
3.1e-08,22.76337498944,1.593825007488,45.49675
3.1500000000000004e-08,22.91962499904,1.590700007296,45.43424999616
3.2e-08,23.02900000576,1.590700007296,45.38737499328
3.25e-08,23.02900000576,1.590700007296,45.40299999424
3.3000000000000004e-08,22.95087500096,1.590700007296,45.46549999808
3.35e-08,22.87274999616,1.592262507392,45.5748750048
3.4e-08,22.76337498944,1.595387507584,45.63737500864
3.4500000000000005e-08,22.76337498944,1.593825007488,45.63737500864
3.5e-08,22.76337498944,1.592262507392,45.62175000768
3.55e-08,22.7789999904,1.595387507584,45.6530000096
3.6000000000000005e-08,22.79462499136,1.59695000768,45.6530000096
3.65e-08,22.82587499328,1.598512507776,45.66862501056
3.7e-08,22.79462499136,1.598512507776,45.55925000384
3.7500000000000005e-08,22.76337498944,1.598512507776,45.46549999808
3.8e-08,22.82587499328,1.59695000768,45.38737499328
3.85e-08,22.90399999808,1.600075007872,45.38737499328
3.9000000000000005e-08,22.99775000384,1.59695000768,45.37174999232
3.95e-08,23.02900000576,1.595387507584,45.38737499328
4e-08,22.93525,1.600075007872,45.4186249952
4.0500000000000005e-08,22.73212498752,1.600075007872,45.52800000192
4.1e-08,22.66962498368,1.598512507776,45.55925000384
4.15e-08,22.66962498368,1.593825007488,45.62175000768
4.2000000000000006e-08,22.74774998848,1.593825007488,45.66862501056
4.2500000000000003e-08,22.8571249952,1.59695000768,45.66862501056
4.3e-08,22.87274999616,1.598512507776,45.6530000096
4.3500000000000006e-08,22.81024999232,1.601637507968,45.60612500672
4.4000000000000004e-08,22.73212498752,1.60476250816,45.5748750048
4.45e-08,22.76337498944,1.60476250816,45.55925000384
4.5000000000000006e-08,22.82587499328,1.601637507968,45.48112499904
4.5500000000000004e-08,22.96650000192,1.598512507776,45.40299999424
4.6e-08,23.07587500864,1.59695000768,45.37174999232
4.6500000000000006e-08,22.98212500288,1.59695000768,45.38737499328
4.7000000000000004e-08,22.81024999232,1.59695000768,45.38737499328
4.75e-08,22.65399998272,1.59695000768,45.44987499712
4.8000000000000006e-08,22.59149997888,1.598512507776,45.48112499904
4.8500000000000004e-08,22.6227499808,1.598512507776,45.55925000384
4.9e-08,22.7008749856,1.595387507584,45.60612500672
4.95e-08,22.73212498752,1.595387507584,45.62175000768
5.0000000000000004e-08,22.7008749856,1.598512507776,45.63737500864
5.05e-08,22.7008749856,1.601637507968,45.62175000768
5.1e-08,22.74774998848,1.600075007872,45.55925000384
5.1500000000000005e-08,22.90399999808,1.595387507584,45.51237500096
5.2e-08,22.95087500096,1.595387507584,45.48112499904
5.25e-08,22.96650000192,1.598512507776,45.4186249952
5.3000000000000005e-08,22.93525,1.600075007872,45.38737499328
5.35e-08,22.93525,1.600075007872,45.43424999616
5.4e-08,22.88837499712,1.601637507968,45.46549999808
5.4500000000000005e-08,22.76337498944,1.600075007872,45.49675
5.5e-08,22.65399998272,1.59695000768,45.52800000192
5.55e-08,22.59149997888,1.59695000768,45.52800000192
5.6000000000000005e-08,22.59149997888,1.598512507776,45.51237500096
5.65e-08,22.6227499808,1.601637507968,45.5748750048
5.7e-08,22.7008749856,1.60476250816,45.5748750048
5.7500000000000005e-08,22.7008749856,1.6078875083520001,45.54362500288
5.8e-08,22.7008749856,1.6078875083520001,45.51237500096
5.85e-08,22.76337498944,1.606325008256,45.48112499904
5.9000000000000006e-08,22.82587499328,1.601637507968,45.43424999616
5.9500000000000003e-08,22.96650000192,1.59695000768,45.44987499712
6.000000000000001e-08,23.04462500672,1.598512507776,45.48112499904
6.05e-08,23.0133750048,1.601637507968,45.49675
6.1e-08,22.90399999808,1.60476250816,45.48112499904
6.15e-08,22.76337498944,1.606325008256,45.49675
6.2e-08,22.68524998464,1.603200008064,45.52800000192
6.250000000000001e-08,22.60712497984,1.601637507968,45.55925000384
6.300000000000001e-08,22.59149997888,1.601637507968,45.59050000576
6.35e-08,22.56024997696,1.60476250816,45.60612500672
6.4e-08,22.544624976,1.6094500084480001,45.59050000576
6.45e-08,22.56024997696,1.6110125085440001,45.62175000768
6.5e-08,22.6227499808,1.6094500084480001,45.55925000384
6.55e-08,22.74774998848,1.6094500084480001,45.48112499904
6.600000000000001e-08,22.88837499712,1.606325008256,45.48112499904
6.65e-08,22.99775000384,1.6078875083520001,45.44987499712
6.7e-08,22.96650000192,1.6078875083520001,45.43424999616
6.75e-08,22.88837499712,1.606325008256,45.46549999808
6.8e-08,22.76337498944,1.60476250816,45.48112499904
6.85e-08,22.73212498752,1.606325008256,45.51237500096
6.900000000000001e-08,22.71649998656,1.6078875083520001,45.51237500096
6.950000000000001e-08,22.68524998464,1.606325008256,45.59050000576
7e-08,22.59149997888,1.6078875083520001,45.63737500864
7.05e-08,22.51337497408,1.606325008256,45.63737500864
7.1e-08,22.52899997504,1.606325008256,45.60612500672
7.15e-08,22.6227499808,1.6094500084480001,45.5748750048
7.200000000000001e-08,22.7789999904,1.6141375087360001,45.54362500288
7.250000000000001e-08,22.81024999232,1.6141375087360001,45.54362500288
7.3e-08,22.82587499328,1.6094500084480001,45.49675
7.35e-08,22.8571249952,1.606325008256,45.44987499712
7.4e-08,22.90399999808,1.606325008256,45.44987499712
7.45e-08,22.88837499712,1.6078875083520001,45.46549999808
7.500000000000001e-08,22.82587499328,1.606325008256,45.48112499904
7.550000000000001e-08,22.73212498752,1.606325008256,45.52800000192
7.6e-08,22.65399998272,1.606325008256,45.54362500288
7.65e-08,22.63837498176,1.6078875083520001,45.5748750048
7.7e-08,22.65399998272,1.6110125085440001,45.55925000384
7.75e-08,22.66962498368,1.6141375087360001,45.60612500672
7.800000000000001e-08,22.63837498176,1.6157000088320002,45.62175000768
7.850000000000001e-08,22.56024997696,1.6125750086400001,45.60612500672
7.9e-08,22.57587497792,1.6125750086400001,45.5748750048
7.95e-08,22.7008749856,1.6110125085440001,45.54362500288
8e-08,22.8571249952,1.6110125085440001,45.49675
8.05e-08,22.87274999616,1.6094500084480001,45.52800000192
8.100000000000001e-08,22.84149999424,1.6078875083520001,45.54362500288
8.150000000000001e-08,22.74774998848,1.6078875083520001,45.54362500288
8.2e-08,22.73212498752,1.6094500084480001,45.55925000384
8.25e-08,22.79462499136,1.6094500084480001,45.59050000576
8.3e-08,22.79462499136,1.6110125085440001,45.60612500672
8.35e-08,22.73212498752,1.6094500084480001,45.60612500672
8.400000000000001e-08,22.65399998272,1.6094500084480001,45.63737500864
8.450000000000001e-08,22.60712497984,1.6141375087360001,45.68425001152
8.500000000000001e-08,22.63837498176,1.6203875091200002,45.63737500864
8.55e-08,22.7008749856,1.621950009216,45.60612500672
8.6e-08,22.73212498752,1.621950009216,45.59050000576
8.65e-08,22.7008749856,1.6188250090240002,45.59050000576
8.700000000000001e-08,22.71649998656,1.6157000088320002,45.59050000576
8.750000000000001e-08,22.76337498944,1.6141375087360001,45.59050000576
8.800000000000001e-08,22.84149999424,1.6157000088320002,45.54362500288
8.85e-08,22.82587499328,1.6125750086400001,45.5748750048
8.9e-08,22.76337498944,1.6110125085440001,45.59050000576
8.95e-08,22.7008749856,1.6094500084480001,45.60612500672
9.000000000000001e-08,22.66962498368,1.6157000088320002,45.6530000096
9.050000000000001e-08,22.7008749856,1.6172625089280002,45.66862501056
9.100000000000001e-08,22.68524998464,1.6188250090240002,45.62175000768
9.15e-08,22.63837498176,1.6188250090240002,45.60612500672
9.2e-08,22.59149997888,1.6203875091200002,45.6530000096
9.25e-08,22.6227499808,1.6203875091200002,45.7311250144
9.300000000000001e-08,22.65399998272,1.6203875091200002,45.69987501248
9.350000000000001e-08,22.73212498752,1.6188250090240002,45.6530000096
9.400000000000001e-08,22.76337498944,1.6203875091200002,45.5748750048
9.45e-08,22.73212498752,1.6172625089280002,45.55925000384
9.5e-08,22.73212498752,1.6157000088320002,45.5748750048
9.55e-08,22.74774998848,1.6141375087360001,45.60612500672
9.600000000000001e-08,22.76337498944,1.6172625089280002,45.60612500672
9.650000000000001e-08,22.74774998848,1.6172625089280002,45.62175000768
9.700000000000001e-08,22.76337498944,1.6157000088320002,45.6530000096
9.75e-08,22.73212498752,1.6125750086400001,45.69987501248
9.8e-08,22.7008749856,1.6157000088320002,45.74675001536
9.85e-08,22.74774998848,1.6172625089280002,45.76237501632
9.9e-08,22.76337498944,1.6188250090240002,45.71550001344
9.950000000000001e-08,22.79462499136,1.6188250090240002,45.6530000096
1.0000000000000001e-07,22.73212498752,1.623512509312,45.66862501056
1.005e-07,22.7008749856,1.621950009216,45.7311250144
1.01e-07,22.7008749856,1.6188250090240002,45.69987501248
1.015e-07,22.7008749856,1.6141375087360001,45.6530000096
1.02e-07,22.68524998464,1.6141375087360001,45.5748750048
1.0250000000000001e-07,22.63837498176,1.6125750086400001,45.54362500288
1.0300000000000001e-07,22.63837498176,1.6110125085440001,45.59050000576
1.0350000000000001e-07,22.63837498176,1.6078875083520001,45.6530000096
1.04e-07,22.66962498368,1.6125750086400001,45.63737500864
1.045e-07,22.66962498368,1.6172625089280002,45.6530000096
1.05e-07,22.71649998656,1.6203875091200002,45.63737500864
1.0550000000000001e-07,22.74774998848,1.6203875091200002,45.68425001152
1.0600000000000001e-07,22.74774998848,1.621950009216,45.7311250144
1.0650000000000001e-07,22.7789999904,1.621950009216,45.7311250144
1.07e-07,22.7789999904,1.621950009216,45.68425001152
1.075e-07,22.74774998848,1.6203875091200002,45.6530000096
1.08e-07,22.68524998464,1.6188250090240002,45.63737500864
1.0850000000000001e-07,22.63837498176,1.6172625089280002,45.68425001152
1.0900000000000001e-07,22.63837498176,1.6141375087360001,45.6530000096
1.0950000000000001e-07,22.7008749856,1.6141375087360001,45.63737500864
1.1e-07,22.7789999904,1.6157000088320002,45.5748750048
1.105e-07,22.7789999904,1.6125750086400001,45.55925000384
1.11e-07,22.7008749856,1.6110125085440001,45.5748750048
1.1150000000000001e-07,22.65399998272,1.6094500084480001,45.62175000768
1.1200000000000001e-07,22.7008749856,1.6110125085440001,45.6530000096
1.1250000000000001e-07,22.81024999232,1.6125750086400001,45.6530000096
1.13e-07,22.91962499904,1.6157000088320002,45.62175000768
1.135e-07,22.88837499712,1.6157000088320002,45.62175000768
1.14e-07,22.74774998848,1.6188250090240002,45.68425001152
1.1450000000000001e-07,22.66962498368,1.6172625089280002,45.7311250144
1.1500000000000001e-07,22.66962498368,1.6172625089280002,45.69987501248
1.1550000000000001e-07,22.79462499136,1.6141375087360001,45.68425001152
1.16e-07,22.84149999424,1.6172625089280002,45.6530000096
1.165e-07,22.7789999904,1.6188250090240002,45.68425001152
1.17e-07,22.6227499808,1.6172625089280002,45.69987501248
1.1750000000000001e-07,22.544624976,1.6141375087360001,45.68425001152
1.1800000000000001e-07,22.6227499808,1.6157000088320002,45.60612500672
1.1850000000000001e-07,22.74774998848,1.6188250090240002,45.54362500288
1.1900000000000001e-07,22.84149999424,1.6203875091200002,45.54362500288
1.195e-07,22.79462499136,1.6172625089280002,45.55925000384
1.2000000000000002e-07,22.66962498368,1.6157000088320002,45.62175000768
1.205e-07,22.6227499808,1.6157000088320002,45.69987501248
1.21e-07,22.74774998848,1.6157000088320002,45.68425001152
1.215e-07,22.87274999616,1.6172625089280002,45.62175000768
1.22e-07,22.90399999808,1.6157000088320002,45.66862501056
1.2250000000000002e-07,22.81024999232,1.6157000088320002,45.7311250144
1.23e-07,22.66962498368,1.6110125085440001,45.76237501632
1.2350000000000001e-07,22.65399998272,1.6094500084480001,45.74675001536
1.24e-07,22.73212498752,1.6110125085440001,45.69987501248
1.245e-07,22.79462499136,1.6110125085440001,45.71550001344
1.2500000000000002e-07,22.76337498944,1.6125750086400001,45.69987501248
1.255e-07,22.7008749856,1.6094500084480001,45.71550001344
1.2600000000000002e-07,22.68524998464,1.6078875083520001,45.68425001152
1.265e-07,22.7008749856,1.6141375087360001,45.6530000096
1.27e-07,22.7789999904,1.6157000088320002,45.63737500864
1.275e-07,22.74774998848,1.6125750086400001,45.62175000768
1.28e-07,22.7008749856,1.6110125085440001,45.66862501056
1.2850000000000002e-07,22.65399998272,1.6094500084480001,45.7311250144
1.29e-07,22.71649998656,1.6094500084480001,45.71550001344
1.2950000000000001e-07,22.79462499136,1.6125750086400001,45.66862501056
1.3e-07,22.82587499328,1.6172625089280002,45.6530000096
1.305e-07,22.81024999232,1.6141375087360001,45.69987501248
1.31e-07,22.7008749856,1.6094500084480001,45.76237501632
1.315e-07,22.6227499808,1.6078875083520001,45.79362501824
1.3200000000000002e-07,22.66962498368,1.6078875083520001,45.7311250144
1.325e-07,22.7789999904,1.6094500084480001,45.68425001152
1.33e-07,22.84149999424,1.6110125085440001,45.6530000096
1.335e-07,22.76337498944,1.6094500084480001,45.69987501248
1.34e-07,22.66962498368,1.6078875083520001,45.7311250144
1.3450000000000002e-07,22.57587497792,1.6078875083520001,45.69987501248
1.35e-07,22.63837498176,1.6078875083520001,45.66862501056
1.3550000000000002e-07,22.73212498752,1.60476250816,45.66862501056
1.36e-07,22.79462499136,1.601637507968,45.68425001152
1.365e-07,22.81024999232,1.598512507776,45.76237501632
1.37e-07,22.81024999232,1.600075007872,45.8092500192
1.375e-07,22.82587499328,1.600075007872,45.76237501632
1.3800000000000002e-07,22.82587499328,1.60476250816,45.71550001344
1.385e-07,22.8571249952,1.606325008256,45.71550001344
1.3900000000000001e-07,22.84149999424,1.603200008064,45.71550001344
1.395e-07,22.7789999904,1.60476250816,45.74675001536
1.4e-07,22.74774998848,1.606325008256,45.7311250144
1.4050000000000002e-07,22.74774998848,1.6078875083520001,45.69987501248
1.41e-07,22.7008749856,1.60476250816,45.62175000768
1.4150000000000002e-07,22.6227499808,1.603200008064,45.6530000096
1.42e-07,22.56024997696,1.598512507776,45.66862501056
1.425e-07,22.544624976,1.59695000768,45.66862501056
1.43e-07,22.65399998272,1.598512507776,45.6530000096
1.435e-07,22.79462499136,1.598512507776,45.66862501056
1.4400000000000002e-07,22.90399999808,1.598512507776,45.69987501248
1.445e-07,22.88837499712,1.600075007872,45.76237501632
1.4500000000000001e-07,22.8571249952,1.600075007872,45.79362501824
1.455e-07,22.87274999616,1.601637507968,45.76237501632
1.46e-07,22.90399999808,1.601637507968,45.71550001344
1.4650000000000002e-07,22.90399999808,1.600075007872,45.68425001152
1.47e-07,22.79462499136,1.600075007872,45.66862501056
1.4750000000000002e-07,22.65399998272,1.600075007872,45.68425001152
1.48e-07,22.52899997504,1.601637507968,45.6530000096
1.485e-07,22.56024997696,1.600075007872,45.60612500672
1.49e-07,22.66962498368,1.600075007872,45.51237500096
1.495e-07,22.74774998848,1.600075007872,45.54362500288
1.5000000000000002e-07,22.81024999232,1.601637507968,45.54362500288
1.505e-07,22.81024999232,1.600075007872,45.60612500672
1.5100000000000002e-07,22.84149999424,1.59695000768,45.63737500864
1.515e-07,22.93525,1.595387507584,45.66862501056
1.52e-07,22.99775000384,1.595387507584,45.66862501056
1.5250000000000002e-07,22.99775000384,1.59695000768,45.69987501248
1.53e-07,22.93525,1.595387507584,45.7311250144
1.5350000000000002e-07,22.8571249952,1.595387507584,45.74675001536
1.54e-07,22.76337498944,1.600075007872,45.7311250144
1.5450000000000001e-07,22.74774998848,1.601637507968,45.68425001152
1.55e-07,22.66962498368,1.600075007872,45.62175000768
1.555e-07,22.60712497984,1.59695000768,45.59050000576
1.5600000000000002e-07,22.57587497792,1.595387507584,45.55925000384
1.565e-07,22.60712497984,1.593825007488,45.55925000384
1.5700000000000002e-07,22.66962498368,1.593825007488,45.49675
1.575e-07,22.7789999904,1.593825007488,45.48112499904
1.58e-07,22.87274999616,1.595387507584,45.48112499904
1.5850000000000002e-07,22.88837499712,1.592262507392,45.55925000384
1.59e-07,22.93525,1.590700007296,45.60612500672
1.5950000000000002e-07,22.99775000384,1.586012507008,45.62175000768
1.6e-07,23.06025000768,1.5891375072,45.62175000768
1.6050000000000001e-07,23.04462500672,1.592262507392,45.66862501056
1.61e-07,22.91962499904,1.59695000768,45.69987501248
1.615e-07,22.76337498944,1.59695000768,45.71550001344
1.6200000000000002e-07,22.66962498368,1.598512507776,45.69987501248
1.625e-07,22.65399998272,1.600075007872,45.62175000768
1.6300000000000002e-07,22.66962498368,1.59695000768,45.54362500288
1.635e-07,22.71649998656,1.595387507584,45.49675
1.64e-07,22.74774998848,1.590700007296,45.49675
1.645e-07,22.82587499328,1.5891375072,45.51237500096
1.65e-07,22.8571249952,1.590700007296,45.44987499712
1.6550000000000002e-07,22.88837499712,1.593825007488,45.43424999616
1.66e-07,22.93525,1.593825007488,45.4186249952
