Time (s),VIN,IIN,VOUT
0.0,26.031624981759997,1.89452501152,52.19375000192
5e-10,26.125374987519997,1.892962511424,52.17812500096
1e-09,26.187874991359998,1.889837511232,52.17812500096
1.5000000000000002e-09,26.219124993279998,1.88671251104,52.27187500672
2e-09,26.234749994239998,1.889837511232,52.28750000768
2.5e-09,26.312874999039998,1.89452501152,52.30312500864
3.0000000000000004e-09,26.4066250048,1.89452501152,52.30312500864
3.5000000000000003e-09,26.42225000576,1.889837511232,52.36562501248
4e-09,26.35975000192,1.889837511232,52.3968750144
4.500000000000001e-09,26.265999996159998,1.89452501152,52.3968750144
5e-09,26.172249990399997,1.900775011904,52.35000001152
5.5000000000000004e-09,26.109749986559997,1.897650011712,52.28750000768
6.000000000000001e-09,26.062874983679997,1.89452501152,52.22500000384
6.5e-09,26.000374979839997,1.891400011328,52.22500000384
7.000000000000001e-09,25.984749978879996,1.888275011136,52.22500000384
7.500000000000001e-09,26.015999980799997,1.888275011136,52.20937500288
8e-09,26.094124985599997,1.888275011136,52.1625
8.5e-09,26.203499992319998,1.889837511232,52.14687499904
9.000000000000001e-09,26.281624997119998,1.88671251104,52.11562499712
9.5e-09,26.3285,1.88671251104,52.17812500096
1e-08,26.3285,1.88671251104,52.22500000384
1.0500000000000001e-08,26.34412500096,1.888275011136,52.28750000768
1.1000000000000001e-08,26.37537500288,1.88671251104,52.30312500864
1.15e-08,26.312874999039998,1.888275011136,52.3187500096
1.2000000000000002e-08,26.234749994239998,1.889837511232,52.30312500864
1.2500000000000001e-08,26.109749986559997,1.889837511232,52.35000001152
1.3e-08,26.094124985599997,1.889837511232,52.35000001152
1.35e-08,26.094124985599997,1.889837511232,52.30312500864
1.4000000000000001e-08,26.156624989439997,1.892962511424,52.20937500288
1.45e-08,26.187874991359998,1.891400011328,52.14687499904
1.5000000000000002e-08,26.187874991359998,1.888275011136,52.09999999616
1.55e-08,26.219124993279998,1.885150010944,52.09999999616
1.6e-08,26.297249998079998,1.88671251104,52.13124999808
1.6500000000000002e-08,26.39100000384,1.888275011136,52.14687499904
1.7e-08,26.37537500288,1.88671251104,52.11562499712
1.75e-08,26.297249998079998,1.883587510848,52.1625
1.8000000000000002e-08,26.187874991359998,1.88671251104,52.20937500288
1.85e-08,26.203499992319998,1.889837511232,52.28750000768
1.9e-08,26.234749994239998,1.891400011328,52.3187500096
1.9500000000000003e-08,26.234749994239998,1.888275011136,52.33437501056
2e-08,26.219124993279998,1.888275011136,52.27187500672
2.05e-08,26.140999988479997,1.891400011328,52.20937500288
2.1000000000000003e-08,26.156624989439997,1.891400011328,52.17812500096
2.15e-08,26.187874991359998,1.891400011328,52.13124999808
2.2000000000000002e-08,26.203499992319998,1.889837511232,52.06874999424
2.2500000000000003e-08,26.187874991359998,1.88671251104,52.06874999424
2.3e-08,26.203499992319998,1.885150010944,52.03749999232
2.3500000000000002e-08,26.265999996159998,1.88671251104,52.0843749952
2.4000000000000003e-08,26.34412500096,1.888275011136,52.1625
2.45e-08,26.39100000384,1.888275011136,52.20937500288
2.5000000000000002e-08,26.4066250048,1.885150010944,52.22500000384
2.55e-08,26.34412500096,1.883587510848,52.27187500672
2.6e-08,26.203499992319998,1.885150010944,52.28750000768
2.6500000000000002e-08,26.125374987519997,1.888275011136,52.35000001152
2.7e-08,26.172249990399997,1.891400011328,52.33437501056
2.75e-08,26.250374995199998,1.892962511424,52.30312500864
2.8000000000000003e-08,26.219124993279998,1.892962511424,52.19375000192
2.85e-08,26.125374987519997,1.892962511424,52.13124999808
2.9e-08,26.125374987519997,1.888275011136,52.0843749952
2.9500000000000003e-08,26.203499992319998,1.885150010944,52.06874999424
3.0000000000000004e-08,26.312874999039998,1.885150010944,52.05312499328
3.05e-08,26.35975000192,1.882025010752,52.05312499328
3.1e-08,26.37537500288,1.880462510656,52.05312499328
3.1500000000000004e-08,26.34412500096,1.882025010752,52.09999999616
3.2e-08,26.281624997119998,1.88671251104,52.20937500288
3.25e-08,26.219124993279998,1.88671251104,52.28750000768
3.3000000000000004e-08,26.109749986559997,1.88671251104,52.33437501056
3.35e-08,26.015999980799997,1.88671251104,52.33437501056
3.4e-08,25.984749978879996,1.88671251104,52.30312500864
3.4500000000000005e-08,26.078499984639997,1.885150010944,52.30312500864
3.5e-08,26.203499992319998,1.888275011136,52.2406250048
3.55e-08,26.297249998079998,1.891400011328,52.17812500096
3.6000000000000005e-08,26.3285,1.89452501152,52.09999999616
3.65e-08,26.297249998079998,1.89452501152,52.03749999232
3.7e-08,26.281624997119998,1.891400011328,51.97499998848
3.7500000000000005e-08,26.312874999039998,1.885150010944,52.0062499904
3.8e-08,26.35975000192,1.885150010944,52.02187499136
3.85e-08,26.35975000192,1.882025010752,52.02187499136
3.9000000000000005e-08,26.312874999039998,1.885150010944,52.0843749952
3.95e-08,26.187874991359998,1.885150010944,52.17812500096
4e-08,26.047249982719997,1.889837511232,52.28750000768
4.0500000000000005e-08,26.000374979839997,1.889837511232,52.35000001152
4.1e-08,26.015999980799997,1.889837511232,52.30312500864
4.15e-08,26.094124985599997,1.88671251104,52.25625000576
4.2000000000000006e-08,26.234749994239998,1.889837511232,52.22500000384
4.2500000000000003e-08,26.37537500288,1.892962511424,52.22500000384
4.3e-08,26.4066250048,1.897650011712,52.17812500096
4.3500000000000006e-08,26.35975000192,1.896087511616,52.11562499712
4.4000000000000004e-08,26.281624997119998,1.89452501152,52.02187499136
4.45e-08,26.234749994239998,1.89452501152,51.99062498944
4.5000000000000006e-08,26.34412500096,1.89452501152,52.02187499136
4.5500000000000004e-08,26.37537500288,1.891400011328,52.06874999424
4.6e-08,26.265999996159998,1.889837511232,52.0843749952
4.6500000000000006e-08,26.031624981759997,1.888275011136,52.14687499904
4.7000000000000004e-08,25.87537497216,1.891400011328,52.1625
4.75e-08,25.87537497216,1.892962511424,52.22500000384
4.8000000000000006e-08,26.000374979839997,1.892962511424,52.3187500096
4.8500000000000004e-08,26.156624989439997,1.891400011328,52.33437501056
4.9e-08,26.234749994239998,1.891400011328,52.20937500288
4.95e-08,26.250374995199998,1.891400011328,52.11562499712
5.0000000000000004e-08,26.297249998079998,1.896087511616,52.03749999232
5.05e-08,26.35975000192,1.896087511616,52.0843749952
5.1e-08,26.35975000192,1.892962511424,52.11562499712
5.1500000000000005e-08,26.3285,1.888275011136,52.0843749952
5.2e-08,26.281624997119998,1.891400011328,52.03749999232
5.25e-08,26.219124993279998,1.892962511424,52.06874999424
5.3000000000000005e-08,26.234749994239998,1.896087511616,52.1625
5.35e-08,26.187874991359998,1.896087511616,52.22500000384
5.4e-08,26.031624981759997,1.896087511616,52.22500000384
5.4500000000000005e-08,25.89099997312,1.89452501152,52.20937500288
5.5e-08,25.90662497408,1.89452501152,52.1625
5.55e-08,26.015999980799997,1.897650011712,52.20937500288
5.6000000000000005e-08,26.140999988479997,1.900775011904,52.22500000384
5.65e-08,26.234749994239998,1.905462512192,52.17812500096
5.7e-08,26.219124993279998,1.903900012096,52.0843749952
5.7500000000000005e-08,26.219124993279998,1.900775011904,52.05312499328
5.8e-08,26.250374995199998,1.900775011904,52.02187499136
5.85e-08,26.312874999039998,1.897650011712,52.0843749952
5.9000000000000006e-08,26.297249998079998,1.89452501152,52.11562499712
5.9500000000000003e-08,26.297249998079998,1.892962511424,52.14687499904
6.000000000000001e-08,26.219124993279998,1.89452501152,52.14687499904
6.05e-08,26.094124985599997,1.902337512,52.20937500288
6.1e-08,26.000374979839997,1.902337512,52.27187500672
6.15e-08,25.937874976,1.900775011904,52.28750000768
6.2e-08,25.95349997696,1.897650011712,52.25625000576
6.250000000000001e-08,25.984749978879996,1.896087511616,52.2406250048
6.300000000000001e-08,26.047249982719997,1.8992125118079999,52.19375000192
6.35e-08,26.109749986559997,1.900775011904,52.20937500288
6.4e-08,26.140999988479997,1.903900012096,52.20937500288
6.45e-08,26.203499992319998,1.903900012096,52.1625
6.5e-08,26.265999996159998,1.903900012096,52.05312499328
6.55e-08,26.34412500096,1.900775011904,52.03749999232
6.600000000000001e-08,26.3285,1.900775011904,52.06874999424
6.65e-08,26.219124993279998,1.897650011712,52.1625
6.7e-08,26.094124985599997,1.896087511616,52.19375000192
6.75e-08,26.031624981759997,1.896087511616,52.22500000384
6.8e-08,26.015999980799997,1.902337512,52.22500000384
6.85e-08,26.031624981759997,1.905462512192,52.25625000576
6.900000000000001e-08,26.062874983679997,1.905462512192,52.30312500864
6.950000000000001e-08,26.031624981759997,1.905462512192,52.28750000768
7e-08,26.031624981759997,1.905462512192,52.19375000192
7.05e-08,26.062874983679997,1.903900012096,52.17812500096
7.1e-08,26.156624989439997,1.902337512,52.14687499904
7.15e-08,26.250374995199998,1.900775011904,52.13124999808
7.200000000000001e-08,26.265999996159998,1.8992125118079999,52.13124999808
7.250000000000001e-08,26.250374995199998,1.896087511616,52.09999999616
7.3e-08,26.234749994239998,1.896087511616,52.05312499328
7.35e-08,26.234749994239998,1.8992125118079999,52.0843749952
7.4e-08,26.140999988479997,1.905462512192,52.1625
7.45e-08,26.047249982719997,1.903900012096,52.2406250048
7.500000000000001e-08,25.96912497792,1.905462512192,52.25625000576
7.550000000000001e-08,25.95349997696,1.905462512192,52.25625000576
7.6e-08,26.015999980799997,1.905462512192,52.2406250048
7.65e-08,26.094124985599997,1.905462512192,52.20937500288
7.7e-08,26.125374987519997,1.905462512192,52.19375000192
7.75e-08,26.094124985599997,1.905462512192,52.17812500096
7.800000000000001e-08,26.078499984639997,1.905462512192,52.11562499712
7.850000000000001e-08,26.109749986559997,1.905462512192,52.09999999616
7.9e-08,26.172249990399997,1.905462512192,52.0843749952
7.95e-08,26.219124993279998,1.905462512192,52.11562499712
8e-08,26.187874991359998,1.905462512192,52.17812500096
8.05e-08,26.109749986559997,1.905462512192,52.22500000384
8.100000000000001e-08,26.062874983679997,1.905462512192,52.20937500288
8.150000000000001e-08,26.078499984639997,1.905462512192,52.22500000384
8.2e-08,26.094124985599997,1.905462512192,52.27187500672
8.25e-08,26.078499984639997,1.905462512192,52.3187500096
8.3e-08,26.047249982719997,1.905462512192,52.28750000768
8.35e-08,26.078499984639997,1.905462512192,52.30312500864
8.400000000000001e-08,26.156624989439997,1.905462512192,52.27187500672
8.450000000000001e-08,26.187874991359998,1.905462512192,52.2406250048
8.500000000000001e-08,26.187874991359998,1.905462512192,52.19375000192
8.55e-08,26.094124985599997,1.905462512192,52.17812500096
8.6e-08,26.078499984639997,1.905462512192,52.1625
8.65e-08,26.109749986559997,1.905462512192,52.22500000384
8.700000000000001e-08,26.156624989439997,1.905462512192,52.25625000576
8.750000000000001e-08,26.140999988479997,1.905462512192,52.25625000576
8.800000000000001e-08,26.078499984639997,1.905462512192,52.27187500672
8.85e-08,26.047249982719997,1.905462512192,52.3187500096
8.9e-08,26.047249982719997,1.905462512192,52.28750000768
8.95e-08,26.094124985599997,1.905462512192,52.27187500672
9.000000000000001e-08,26.109749986559997,1.905462512192,52.25625000576
9.050000000000001e-08,26.078499984639997,1.905462512192,52.28750000768
9.100000000000001e-08,26.000374979839997,1.905462512192,52.27187500672
9.15e-08,26.015999980799997,1.905462512192,52.30312500864
9.2e-08,26.109749986559997,1.905462512192,52.28750000768
9.25e-08,26.156624989439997,1.905462512192,52.2406250048
9.300000000000001e-08,26.125374987519997,1.905462512192,52.22500000384
9.350000000000001e-08,26.062874983679997,1.905462512192,52.20937500288
9.400000000000001e-08,26.047249982719997,1.905462512192,52.22500000384
9.45e-08,26.078499984639997,1.905462512192,52.27187500672
9.5e-08,26.140999988479997,1.905462512192,52.30312500864
9.55e-08,26.140999988479997,1.905462512192,52.30312500864
9.600000000000001e-08,26.094124985599997,1.905462512192,52.3187500096
9.650000000000001e-08,26.125374987519997,1.905462512192,52.38125001344
9.700000000000001e-08,26.172249990399997,1.905462512192,52.36562501248
9.75e-08,26.203499992319998,1.905462512192,52.33437501056
9.8e-08,26.156624989439997,1.905462512192,52.3187500096
9.85e-08,26.125374987519997,1.905462512192,52.35000001152
9.9e-08,26.125374987519997,1.905462512192,52.3187500096
9.950000000000001e-08,26.140999988479997,1.905462512192,52.3187500096
1.0000000000000001e-07,26.125374987519997,1.905462512192,52.27187500672
1.005e-07,26.062874983679997,1.905462512192,52.2406250048
1.01e-07,26.047249982719997,1.905462512192,52.20937500288
1.015e-07,26.000374979839997,1.905462512192,52.20937500288
1.02e-07,26.000374979839997,1.905462512192,52.2406250048
1.0250000000000001e-07,26.015999980799997,1.905462512192,52.30312500864
1.0300000000000001e-07,26.062874983679997,1.905462512192,52.33437501056
1.0350000000000001e-07,26.094124985599997,1.905462512192,52.3187500096
1.04e-07,26.109749986559997,1.905462512192,52.35000001152
1.045e-07,26.109749986559997,1.905462512192,52.3968750144
1.05e-07,26.125374987519997,1.905462512192,52.38125001344
1.0550000000000001e-07,26.172249990399997,1.905462512192,52.36562501248
1.0600000000000001e-07,26.156624989439997,1.905462512192,52.30312500864
1.0650000000000001e-07,26.140999988479997,1.905462512192,52.3187500096
1.07e-07,26.094124985599997,1.905462512192,52.3187500096
1.075e-07,26.031624981759997,1.905462512192,52.33437501056
1.08e-07,26.000374979839997,1.905462512192,52.33437501056
1.0850000000000001e-07,26.000374979839997,1.905462512192,52.28750000768
1.0900000000000001e-07,26.094124985599997,1.905462512192,52.2406250048
1.0950000000000001e-07,26.187874991359998,1.905462512192,52.22500000384
1.1e-07,26.203499992319998,1.905462512192,52.22500000384
1.105e-07,26.094124985599997,1.905462512192,52.25625000576
1.11e-07,26.000374979839997,1.905462512192,52.28750000768
1.1150000000000001e-07,26.031624981759997,1.905462512192,52.30312500864
1.1200000000000001e-07,26.203499992319998,1.905462512192,52.33437501056
1.1250000000000001e-07,26.35975000192,1.905462512192,52.35000001152
1.13e-07,26.312874999039998,1.905462512192,52.33437501056
1.135e-07,26.156624989439997,1.905462512192,52.35000001152
1.14e-07,26.015999980799997,1.905462512192,52.36562501248
1.1450000000000001e-07,26.047249982719997,1.905462512192,52.41250001536
1.1500000000000001e-07,26.140999988479997,1.905462512192,52.38125001344
1.1550000000000001e-07,26.156624989439997,1.905462512192,52.36562501248
1.16e-07,26.094124985599997,1.905462512192,52.33437501056
1.165e-07,25.984749978879996,1.905462512192,52.33437501056
1.17e-07,26.000374979839997,1.905462512192,52.30312500864
1.1750000000000001e-07,26.078499984639997,1.905462512192,52.25625000576
1.1800000000000001e-07,26.140999988479997,1.905462512192,52.17812500096
1.1850000000000001e-07,26.109749986559997,1.905462512192,52.19375000192
1.1900000000000001e-07,26.062874983679997,1.905462512192,52.22500000384
1.195e-07,26.047249982719997,1.905462512192,52.30312500864
1.2000000000000002e-07,26.109749986559997,1.905462512192,52.35000001152
1.205e-07,26.250374995199998,1.905462512192,52.38125001344
1.21e-07,26.265999996159998,1.905462512192,52.33437501056
1.215e-07,26.203499992319998,1.905462512192,52.35000001152
1.22e-07,26.078499984639997,1.903900012096,52.3968750144
1.2250000000000002e-07,26.078499984639997,1.902337512,52.4750000192
1.23e-07,26.140999988479997,1.903900012096,52.42812501632
1.2350000000000001e-07,26.187874991359998,1.905462512192,52.38125001344
1.24e-07,26.187874991359998,1.905462512192,52.3187500096
1.245e-07,26.078499984639997,1.905462512192,52.33437501056
1.2500000000000002e-07,26.047249982719997,1.905462512192,52.35000001152
1.255e-07,26.047249982719997,1.905462512192,52.3187500096
1.2600000000000002e-07,26.078499984639997,1.905462512192,52.2406250048
1.265e-07,26.094124985599997,1.905462512192,52.27187500672
1.27e-07,26.078499984639997,1.903900012096,52.30312500864
1.275e-07,26.062874983679997,1.902337512,52.3968750144
1.28e-07,26.078499984639997,1.902337512,52.45937501824
1.2850000000000002e-07,26.156624989439997,1.903900012096,52.42812501632
1.29e-07,26.187874991359998,1.905462512192,52.33437501056
1.2950000000000001e-07,26.187874991359998,1.905462512192,52.30312500864
1.3e-07,26.125374987519997,1.905462512192,52.35000001152
1.305e-07,26.094124985599997,1.903900012096,52.41250001536
1.31e-07,26.109749986559997,1.903900012096,52.3968750144
1.315e-07,26.125374987519997,1.905462512192,52.35000001152
1.3200000000000002e-07,26.109749986559997,1.905462512192,52.28750000768
1.325e-07,26.094124985599997,1.905462512192,52.28750000768
1.33e-07,26.062874983679997,1.905462512192,52.36562501248
1.335e-07,26.031624981759997,1.902337512,52.38125001344
1.34e-07,26.047249982719997,1.903900012096,52.35000001152
1.3450000000000002e-07,26.078499984639997,1.903900012096,52.35000001152
1.35e-07,26.062874983679997,1.900775011904,52.36562501248
1.3550000000000002e-07,26.094124985599997,1.896087511616,52.42812501632
1.36e-07,26.172249990399997,1.896087511616,52.45937501824
1.365e-07,26.312874999039998,1.897650011712,52.44375001728
1.37e-07,26.34412500096,1.900775011904,52.35000001152
1.375e-07,26.297249998079998,1.900775011904,52.3187500096
1.3800000000000002e-07,26.156624989439997,1.896087511616,52.3187500096
1.385e-07,26.078499984639997,1.89452501152,52.38125001344
1.3900000000000001e-07,26.094124985599997,1.8992125118079999,52.33437501056
1.395e-07,26.140999988479997,1.8992125118079999,52.28750000768
1.4e-07,26.125374987519997,1.900775011904,52.25625000576
1.4050000000000002e-07,26.015999980799997,1.897650011712,52.30312500864
1.41e-07,25.937874976,1.891400011328,52.36562501248
1.4150000000000002e-07,25.937874976,1.891400011328,52.36562501248
1.42e-07,26.078499984639997,1.89452501152,52.28750000768
1.425e-07,26.234749994239998,1.89452501152,52.30312500864
1.43e-07,26.312874999039998,1.89452501152,52.38125001344
1.435e-07,26.281624997119998,1.892962511424,52.44375001728
1.4400000000000002e-07,26.234749994239998,1.896087511616,52.44375001728
1.445e-07,26.265999996159998,1.896087511616,52.41250001536
1.4500000000000001e-07,26.297249998079998,1.897650011712,52.30312500864
1.455e-07,26.250374995199998,1.896087511616,52.27187500672
1.46e-07,26.062874983679997,1.896087511616,52.27187500672
1.4650000000000002e-07,25.92224997504,1.892962511424,52.3187500096
1.47e-07,25.937874976,1.89452501152,52.2406250048
1.4750000000000002e-07,26.031624981759997,1.896087511616,52.19375000192
1.48e-07,26.140999988479997,1.896087511616,52.13124999808
1.485e-07,26.172249990399997,1.891400011328,52.19375000192
1.49e-07,26.203499992319998,1.888275011136,52.28750000768
1.495e-07,26.234749994239998,1.88671251104,52.3187500096
1.5000000000000002e-07,26.312874999039998,1.889837511232,52.30312500864
1.505e-07,26.39100000384,1.892962511424,52.3187500096
1.5100000000000002e-07,26.4066250048,1.89452501152,52.36562501248
1.515e-07,26.35975000192,1.891400011328,52.41250001536
1.52e-07,26.234749994239998,1.889837511232,52.42812501632
1.5250000000000002e-07,26.172249990399997,1.896087511616,52.38125001344
1.53e-07,26.125374987519997,1.897650011712,52.27187500672
1.5350000000000002e-07,26.078499984639997,1.896087511616,52.20937500288
1.54e-07,25.984749978879996,1.889837511232,52.19375000192
1.5450000000000001e-07,25.96912497792,1.888275011136,52.22500000384
1.55e-07,26.015999980799997,1.892962511424,52.17812500096
1.555e-07,26.109749986559997,1.889837511232,52.1625
1.5600000000000002e-07,26.234749994239998,1.88671251104,52.11562499712
1.565e-07,26.281624997119998,1.885150010944,52.14687499904
1.5700000000000002e-07,26.3285,1.885150010944,52.20937500288
1.575e-07,26.34412500096,1.885150010944,52.25625000576
1.58e-07,26.35975000192,1.889837511232,52.27187500672
1.5850000000000002e-07,26.35975000192,1.889837511232,52.3187500096
1.59e-07,26.312874999039998,1.891400011328,52.3187500096
1.5950000000000002e-07,26.219124993279998,1.888275011136,52.3187500096
1.6e-07,26.125374987519997,1.889837511232,52.35000001152
