Time (s),VIN,IIN,VOUT
0.0,26.936749978880002,1.9200375091200002,54.00725
5e-10,27.03049998464,1.9184750090240001,54.03850000192
1e-09,27.10862498944,1.9169125089280001,54.11662500672
1.5000000000000002e-09,27.17112499328,1.9153500088320001,54.14787500864
2e-09,27.21799999616,1.9169125089280001,54.14787500864
2.5e-09,27.24924999808,1.9200375091200002,54.1635000096
3.0000000000000004e-09,27.31175000192,1.9216000092160002,54.17912501056
3.5000000000000003e-09,27.3586250048,1.9200375091200002,54.22600001344
4e-09,27.32737500288,1.9184750090240001,54.25725001536
4.500000000000001e-09,27.24924999808,1.9200375091200002,54.21037501248
5e-09,27.13987499136,1.9247250094080002,54.11662500672
5.5000000000000004e-09,27.09299998848,1.9278500096,54.05412500288
6.000000000000001e-09,27.01487498368,1.9247250094080002,54.03850000192
6.5e-09,26.95237497984,1.9216000092160002,54.03850000192
7.000000000000001e-09,26.92112497792,1.9184750090240001,54.00725
7.500000000000001e-09,26.98362498176,1.9153500088320001,53.97599999808
8e-09,27.0461249856,1.9169125089280001,53.97599999808
8.5e-09,27.13987499136,1.9184750090240001,53.97599999808
9.000000000000001e-09,27.24924999808,1.9153500088320001,54.02287500096
9.5e-09,27.2805,1.910662508544,54.06975000384
1e-08,27.29612500096,1.910662508544,54.10100000576
1.0500000000000001e-08,27.2805,1.9137875087360001,54.1635000096
1.1000000000000001e-08,27.29612500096,1.9169125089280001,54.1635000096
1.15e-08,27.24924999808,1.9169125089280001,54.1635000096
1.2000000000000002e-08,27.17112499328,1.9153500088320001,54.19475001152
1.2500000000000001e-08,27.07737498752,1.9137875087360001,54.19475001152
1.3e-08,27.0461249856,1.9153500088320001,54.13225000768
1.35e-08,27.06174998656,1.9169125089280001,54.05412500288
1.4000000000000001e-08,27.07737498752,1.9169125089280001,54.00725
1.45e-08,27.13987499136,1.9153500088320001,53.94474999616
1.5000000000000002e-08,27.15549999232,1.9137875087360001,53.9291249952
1.55e-08,27.18674999424,1.9122250086400001,53.9291249952
1.6e-08,27.21799999616,1.9137875087360001,53.97599999808
1.6500000000000002e-08,27.29612500096,1.910662508544,53.99162499904
1.7e-08,27.34300000384,1.910662508544,54.02287500096
1.75e-08,27.26487499904,1.907537508352,54.05412500288
1.8000000000000002e-08,27.18674999424,1.910662508544,54.10100000576
1.85e-08,27.1242499904,1.9137875087360001,54.17912501056
1.9e-08,27.17112499328,1.9122250086400001,54.21037501248
1.9500000000000003e-08,27.18674999424,1.9122250086400001,54.14787500864
2e-08,27.17112499328,1.9122250086400001,54.0853750048
2.05e-08,27.07737498752,1.9137875087360001,53.99162499904
2.1000000000000003e-08,27.07737498752,1.9137875087360001,53.94474999616
2.15e-08,27.1242499904,1.9153500088320001,53.9291249952
2.2000000000000002e-08,27.15549999232,1.9153500088320001,53.89787499328
2.2500000000000003e-08,27.15549999232,1.9137875087360001,53.88224999232
2.3e-08,27.1242499904,1.9137875087360001,53.89787499328
2.3500000000000002e-08,27.18674999424,1.910662508544,53.97599999808
2.4000000000000003e-08,27.2805,1.9122250086400001,54.03850000192
2.45e-08,27.3586250048,1.9122250086400001,54.0853750048
2.5000000000000002e-08,27.3586250048,1.910662508544,54.14787500864
2.55e-08,27.29612500096,1.909100008448,54.14787500864
2.6e-08,27.21799999616,1.9137875087360001,54.1635000096
2.6500000000000002e-08,27.09299998848,1.9169125089280001,54.1635000096
2.7e-08,27.07737498752,1.9153500088320001,54.13225000768
2.75e-08,27.15549999232,1.9137875087360001,54.03850000192
2.8000000000000003e-08,27.18674999424,1.9137875087360001,53.97599999808
2.85e-08,27.10862498944,1.9122250086400001,53.9291249952
2.9e-08,27.10862498944,1.9122250086400001,53.91349999424
2.9500000000000003e-08,27.17112499328,1.9122250086400001,53.88224999232
3.0000000000000004e-08,27.24924999808,1.910662508544,53.86662499136
3.05e-08,27.31175000192,1.90441250816,53.86662499136
3.1e-08,27.31175000192,1.902850008064,53.94474999616
3.1500000000000004e-08,27.2805,1.907537508352,54.02287500096
3.2e-08,27.24924999808,1.909100008448,54.11662500672
3.25e-08,27.2023749952,1.910662508544,54.13225000768
3.3000000000000004e-08,27.10862498944,1.910662508544,54.14787500864
3.35e-08,26.99924998272,1.909100008448,54.14787500864
3.4e-08,26.92112497792,1.907537508352,54.11662500672
3.4500000000000005e-08,26.9679999808,1.910662508544,54.06975000384
3.5e-08,27.10862498944,1.9137875087360001,53.99162499904
3.55e-08,27.24924999808,1.9137875087360001,53.91349999424
3.6000000000000005e-08,27.29612500096,1.9169125089280001,53.86662499136
3.65e-08,27.24924999808,1.9153500088320001,53.81974998848
3.7e-08,27.21799999616,1.9169125089280001,53.80412498752
3.7500000000000005e-08,27.26487499904,1.9137875087360001,53.8509999904
3.8e-08,27.26487499904,1.909100008448,53.88224999232
3.85e-08,27.26487499904,1.905975008256,53.89787499328
3.9000000000000005e-08,27.21799999616,1.907537508352,53.97599999808
3.95e-08,27.17112499328,1.9122250086400001,54.06975000384
4e-08,27.0461249856,1.9184750090240001,54.1635000096
4.0500000000000005e-08,26.95237497984,1.9169125089280001,54.14787500864
4.1e-08,26.936749978880002,1.9169125089280001,54.13225000768
4.15e-08,26.98362498176,1.9137875087360001,54.06975000384
4.2000000000000006e-08,27.10862498944,1.9137875087360001,54.03850000192
4.2500000000000003e-08,27.29612500096,1.9153500088320001,53.99162499904
4.3e-08,27.40550000768,1.9184750090240001,53.91349999424
4.3500000000000006e-08,27.3586250048,1.9184750090240001,53.83537498944
4.4000000000000004e-08,27.23362499712,1.9200375091200002,53.81974998848
4.45e-08,27.13987499136,1.9169125089280001,53.8509999904
4.5000000000000006e-08,27.2023749952,1.9153500088320001,53.88224999232
4.5500000000000004e-08,27.31175000192,1.9122250086400001,53.9291249952
4.6e-08,27.26487499904,1.910662508544,53.9291249952
4.6500000000000006e-08,27.0461249856,1.9122250086400001,53.94474999616
4.7000000000000004e-08,26.82737497216,1.9137875087360001,54.03850000192
4.75e-08,26.79612497024,1.9169125089280001,54.0853750048
4.8000000000000006e-08,26.90549997696,1.9200375091200002,54.11662500672
4.8500000000000004e-08,27.06174998656,1.9184750090240001,54.02287500096
4.9e-08,27.13987499136,1.9153500088320001,53.96037499712
4.95e-08,27.18674999424,1.9137875087360001,53.88224999232
5.0000000000000004e-08,27.23362499712,1.9200375091200002,53.89787499328
5.05e-08,27.29612500096,1.9216000092160002,53.91349999424
5.1e-08,27.32737500288,1.9184750090240001,53.89787499328
5.1500000000000005e-08,27.26487499904,1.9122250086400001,53.86662499136
5.2e-08,27.18674999424,1.9137875087360001,53.89787499328
5.25e-08,27.13987499136,1.9153500088320001,53.96037499712
5.3000000000000005e-08,27.17112499328,1.9200375091200002,54.03850000192
5.35e-08,27.17112499328,1.9200375091200002,54.06975000384
5.4e-08,27.0461249856,1.9216000092160002,54.02287500096
5.4500000000000005e-08,26.889874976,1.9200375091200002,53.96037499712
5.5e-08,26.84299997312,1.9216000092160002,53.99162499904
5.55e-08,26.936749978880002,1.9231625093120002,53.99162499904
5.6000000000000005e-08,27.06174998656,1.926287509504,54.00725
5.65e-08,27.17112499328,1.9278500096,53.91349999424
5.7e-08,27.18674999424,1.9278500096,53.86662499136
5.7500000000000005e-08,27.2023749952,1.926287509504,53.8509999904
5.8e-08,27.24924999808,1.926287509504,53.88224999232
5.85e-08,27.26487499904,1.9216000092160002,53.91349999424
5.9000000000000006e-08,27.26487499904,1.9153500088320001,53.9291249952
5.9500000000000003e-08,27.21799999616,1.9153500088320001,53.96037499712
6.000000000000001e-08,27.17112499328,1.9216000092160002,54.03850000192
6.05e-08,27.10862498944,1.929412509696,54.0853750048
6.1e-08,27.03049998464,1.929412509696,54.11662500672
6.15e-08,26.936749978880002,1.9278500096,54.0853750048
6.2e-08,26.90549997696,1.9247250094080002,54.02287500096
6.250000000000001e-08,26.936749978880002,1.9231625093120002,53.97599999808
6.300000000000001e-08,27.01487498368,1.926287509504,54.00725
6.35e-08,27.09299998848,1.9278500096,54.00725
6.4e-08,27.10862498944,1.9278500096,53.97599999808
6.45e-08,27.13987499136,1.926287509504,53.8509999904
6.5e-08,27.13987499136,1.926287509504,53.83537498944
6.55e-08,27.21799999616,1.9247250094080002,53.88224999232
6.600000000000001e-08,27.26487499904,1.9231625093120002,53.96037499712
6.65e-08,27.21799999616,1.9184750090240001,53.99162499904
6.7e-08,27.07737498752,1.9137875087360001,54.00725
6.75e-08,26.95237497984,1.9169125089280001,54.00725
6.8e-08,26.936749978880002,1.926287509504,54.06975000384
6.85e-08,26.99924998272,1.932537509888,54.10100000576
6.900000000000001e-08,27.0461249856,1.93566251008,54.0853750048
6.950000000000001e-08,27.03049998464,1.934100009984,54.02287500096
7e-08,26.98362498176,1.934100009984,53.97599999808
7.05e-08,26.99924998272,1.934100009984,53.94474999616
7.1e-08,27.0461249856,1.934100009984,53.94474999616
7.15e-08,27.17112499328,1.929412509696,53.94474999616
7.200000000000001e-08,27.21799999616,1.929412509696,53.9291249952
7.250000000000001e-08,27.18674999424,1.926287509504,53.88224999232
7.3e-08,27.1242499904,1.926287509504,53.89787499328
7.35e-08,27.10862498944,1.9278500096,53.94474999616
7.4e-08,27.1242499904,1.932537509888,54.03850000192
7.45e-08,27.03049998464,1.934100009984,54.06975000384
7.500000000000001e-08,26.936749978880002,1.930975009792,54.06975000384
7.550000000000001e-08,26.889874976,1.929412509696,54.05412500288
7.6e-08,26.936749978880002,1.93566251008,54.06975000384
7.65e-08,27.0461249856,1.940350010368,54.03850000192
7.7e-08,27.1242499904,1.94347501056,53.99162499904
7.75e-08,27.10862498944,1.940350010368,53.96037499712
7.800000000000001e-08,27.03049998464,1.93566251008,53.91349999424
7.850000000000001e-08,27.03049998464,1.930975009792,53.91349999424
7.9e-08,27.06174998656,1.929412509696,53.96037499712
7.95e-08,27.1242499904,1.929412509696,53.97599999808
8e-08,27.13987499136,1.9278500096,54.00725
8.05e-08,27.07737498752,1.9278500096,54.02287500096
8.100000000000001e-08,27.01487498368,1.930975009792,54.06975000384
8.150000000000001e-08,27.01487498368,1.934100009984,54.10100000576
8.2e-08,27.0461249856,1.937225010176,54.14787500864
8.25e-08,27.03049998464,1.93566251008,54.13225000768
8.3e-08,27.01487498368,1.932537509888,54.10100000576
8.35e-08,26.99924998272,1.932537509888,54.0853750048
8.400000000000001e-08,27.07737498752,1.938787510272,54.10100000576
8.450000000000001e-08,27.13987499136,1.941912510464,54.02287500096
8.500000000000001e-08,27.17112499328,1.94347501056,53.97599999808
8.55e-08,27.07737498752,1.940350010368,54.00725
8.6e-08,26.98362498176,1.937225010176,54.02287500096
8.65e-08,27.01487498368,1.934100009984,54.05412500288
8.700000000000001e-08,27.09299998848,1.934100009984,54.11662500672
8.750000000000001e-08,27.09299998848,1.93566251008,54.0853750048
8.800000000000001e-08,27.0461249856,1.93566251008,54.11662500672
8.85e-08,26.98362498176,1.937225010176,54.11662500672
8.9e-08,26.9679999808,1.940350010368,54.13225000768
8.95e-08,27.03049998464,1.941912510464,54.11662500672
9.000000000000001e-08,27.09299998848,1.945037510656,54.10100000576
9.050000000000001e-08,27.0461249856,1.946600010752,54.10100000576
9.100000000000001e-08,26.99924998272,1.941912510464,54.10100000576
9.15e-08,26.95237497984,1.938787510272,54.10100000576
9.2e-08,27.01487498368,1.94347501056,54.10100000576
9.25e-08,27.10862498944,1.945037510656,54.05412500288
9.300000000000001e-08,27.10862498944,1.945037510656,54.02287500096
9.350000000000001e-08,26.99924998272,1.940350010368,54.05412500288
9.400000000000001e-08,26.92112497792,1.940350010368,54.10100000576
9.45e-08,26.95237497984,1.940350010368,54.10100000576
9.5e-08,27.03049998464,1.940350010368,54.11662500672
9.55e-08,27.07737498752,1.940350010368,54.11662500672
9.600000000000001e-08,27.01487498368,1.938787510272,54.17912501056
9.650000000000001e-08,27.03049998464,1.937225010176,54.21037501248
9.700000000000001e-08,27.09299998848,1.940350010368,54.21037501248
9.75e-08,27.15549999232,1.94347501056,54.17912501056
9.8e-08,27.17112499328,1.945037510656,54.14787500864
9.85e-08,27.07737498752,1.941912510464,54.1635000096
9.9e-08,27.0461249856,1.938787510272,54.1635000096
9.950000000000001e-08,27.07737498752,1.93566251008,54.13225000768
1.0000000000000001e-07,27.07737498752,1.941912510464,54.11662500672
1.005e-07,27.03049998464,1.94347501056,54.05412500288
1.01e-07,26.9679999808,1.941912510464,54.03850000192
1.015e-07,26.92112497792,1.937225010176,54.05412500288
1.02e-07,26.90549997696,1.934100009984,54.11662500672
1.0250000000000001e-07,26.95237497984,1.932537509888,54.13225000768
1.0300000000000001e-07,26.99924998272,1.937225010176,54.14787500864
1.0350000000000001e-07,27.0461249856,1.937225010176,54.13225000768
1.04e-07,27.06174998656,1.940350010368,54.19475001152
1.045e-07,27.07737498752,1.94347501056,54.21037501248
1.05e-07,27.10862498944,1.945037510656,54.22600001344
1.0550000000000001e-07,27.10862498944,1.94347501056,54.1635000096
1.0600000000000001e-07,27.1242499904,1.945037510656,54.13225000768
1.0650000000000001e-07,27.06174998656,1.94347501056,54.14787500864
1.07e-07,27.0461249856,1.937225010176,54.14787500864
1.075e-07,27.01487498368,1.93566251008,54.14787500864
1.08e-07,26.9679999808,1.940350010368,54.13225000768
1.0850000000000001e-07,26.92112497792,1.938787510272,54.06975000384
1.0900000000000001e-07,26.95237497984,1.937225010176,54.03850000192
1.0950000000000001e-07,27.0461249856,1.937225010176,54.05412500288
1.1e-07,27.13987499136,1.938787510272,54.0853750048
1.105e-07,27.13987499136,1.937225010176,54.0853750048
1.11e-07,26.99924998272,1.932537509888,54.11662500672
1.1150000000000001e-07,26.95237497984,1.932537509888,54.13225000768
1.1200000000000001e-07,27.0461249856,1.930975009792,54.1635000096
1.1250000000000001e-07,27.23362499712,1.934100009984,54.14787500864
1.13e-07,27.31175000192,1.937225010176,54.19475001152
1.135e-07,27.21799999616,1.937225010176,54.19475001152
1.14e-07,27.03049998464,1.93566251008,54.21037501248
1.1450000000000001e-07,26.92112497792,1.93566251008,54.22600001344
1.1500000000000001e-07,27.01487498368,1.937225010176,54.21037501248
1.1550000000000001e-07,27.09299998848,1.938787510272,54.17912501056
1.16e-07,27.1242499904,1.94347501056,54.19475001152
1.165e-07,26.99924998272,1.94347501056,54.17912501056
1.17e-07,26.936749978880002,1.945037510656,54.0853750048
1.1750000000000001e-07,26.95237497984,1.94347501056,54.05412500288
1.1800000000000001e-07,27.0461249856,1.941912510464,54.02287500096
1.1850000000000001e-07,27.10862498944,1.938787510272,54.03850000192
1.1900000000000001e-07,27.07737498752,1.937225010176,54.11662500672
1.195e-07,27.03049998464,1.93566251008,54.17912501056
1.2000000000000002e-07,27.03049998464,1.932537509888,54.2416250144
1.205e-07,27.09299998848,1.932537509888,54.21037501248
1.21e-07,27.17112499328,1.93566251008,54.19475001152
1.215e-07,27.15549999232,1.932537509888,54.21037501248
1.22e-07,27.13987499136,1.930975009792,54.25725001536
1.2250000000000002e-07,27.06174998656,1.929412509696,54.28850001728
1.23e-07,27.07737498752,1.926287509504,54.2416250144
1.2350000000000001e-07,27.1242499904,1.929412509696,54.17912501056
1.24e-07,27.1242499904,1.934100009984,54.17912501056
1.245e-07,27.06174998656,1.934100009984,54.19475001152
1.2500000000000002e-07,27.03049998464,1.934100009984,54.1635000096
1.255e-07,27.03049998464,1.930975009792,54.13225000768
1.2600000000000002e-07,27.03049998464,1.930975009792,54.11662500672
1.265e-07,27.0461249856,1.932537509888,54.11662500672
1.27e-07,27.0461249856,1.930975009792,54.19475001152
1.275e-07,27.03049998464,1.9278500096,54.25725001536
1.28e-07,26.99924998272,1.9278500096,54.28850001728
1.2850000000000002e-07,27.0461249856,1.9278500096,54.19475001152
1.29e-07,27.10862498944,1.932537509888,54.1635000096
1.2950000000000001e-07,27.13987499136,1.932537509888,54.14787500864
1.3e-07,27.13987499136,1.934100009984,54.19475001152
1.305e-07,27.09299998848,1.930975009792,54.2416250144
1.31e-07,27.06174998656,1.932537509888,54.22600001344
1.315e-07,27.07737498752,1.934100009984,54.13225000768
1.3200000000000002e-07,27.06174998656,1.932537509888,54.13225000768
1.325e-07,27.03049998464,1.930975009792,54.17912501056
1.33e-07,27.03049998464,1.929412509696,54.19475001152
1.335e-07,27.01487498368,1.926287509504,54.21037501248
1.34e-07,27.01487498368,1.929412509696,54.19475001152
1.3450000000000002e-07,27.01487498368,1.9278500096,54.17912501056
1.35e-07,26.99924998272,1.926287509504,54.21037501248
1.3550000000000002e-07,27.01487498368,1.9216000092160002,54.25725001536
1.36e-07,27.07737498752,1.9200375091200002,54.27287501632
1.365e-07,27.21799999616,1.9231625093120002,54.19475001152
1.37e-07,27.31175000192,1.929412509696,54.1635000096
1.375e-07,27.32737500288,1.930975009792,54.14787500864
1.3800000000000002e-07,27.23362499712,1.9278500096,54.1635000096
1.385e-07,27.07737498752,1.926287509504,54.17912501056
1.3900000000000001e-07,27.03049998464,1.9231625093120002,54.14787500864
1.395e-07,27.07737498752,1.9247250094080002,54.10100000576
1.4e-07,27.10862498944,1.9278500096,54.11662500672
1.4050000000000002e-07,27.0461249856,1.9231625093120002,54.17912501056
1.41e-07,26.92112497792,1.9184750090240001,54.19475001152
1.4150000000000002e-07,26.889874976,1.9169125089280001,54.1635000096
1.42e-07,26.95237497984,1.9231625093120002,54.13225000768
1.425e-07,27.1242499904,1.9231625093120002,54.14787500864
1.43e-07,27.23362499712,1.9216000092160002,54.21037501248
1.435e-07,27.26487499904,1.9169125089280001,54.2416250144
1.4400000000000002e-07,27.21799999616,1.9184750090240001,54.2416250144
1.445e-07,27.18674999424,1.9216000092160002,54.11662500672
1.4500000000000001e-07,27.21799999616,1.926287509504,54.0853750048
1.455e-07,27.2023749952,1.929412509696,54.06975000384
1.46e-07,27.1242499904,1.926287509504,54.11662500672
1.4650000000000002e-07,26.95237497984,1.9231625093120002,54.10100000576
1.47e-07,26.92112497792,1.9216000092160002,54.03850000192
1.4750000000000002e-07,26.95237497984,1.9216000092160002,53.99162499904
1.48e-07,27.0461249856,1.9231625093120002,54.03850000192
1.485e-07,27.1242499904,1.9216000092160002,54.0853750048
1.49e-07,27.18674999424,1.9216000092160002,54.14787500864
1.495e-07,27.2023749952,1.9184750090240001,54.1635000096
1.5000000000000002e-07,27.24924999808,1.9216000092160002,54.1635000096
1.505e-07,27.32737500288,1.9216000092160002,54.19475001152
1.5100000000000002e-07,27.34300000384,1.9216000092160002,54.22600001344
1.515e-07,27.32737500288,1.9216000092160002,54.22600001344
1.52e-07,27.23362499712,1.9200375091200002,54.22600001344
1.5250000000000002e-07,27.13987499136,1.9216000092160002,54.13225000768
1.53e-07,27.07737498752,1.9216000092160002,54.06975000384
1.5350000000000002e-07,27.03049998464,1.9200375091200002,54.02287500096
1.54e-07,26.98362498176,1.9153500088320001,54.03850000192
1.5450000000000001e-07,26.95237497984,1.9153500088320001,54.00725
1.55e-07,26.98362498176,1.9153500088320001,53.99162499904
1.555e-07,27.06174998656,1.9169125089280001,53.94474999616
1.5600000000000002e-07,27.17112499328,1.9169125089280001,53.97599999808
1.565e-07,27.24924999808,1.9153500088320001,54.02287500096
1.5700000000000002e-07,27.29612500096,1.9122250086400001,54.06975000384
1.575e-07,27.29612500096,1.9122250086400001,54.11662500672
1.58e-07,27.31175000192,1.9153500088320001,54.17912501056
1.5850000000000002e-07,27.31175000192,1.9169125089280001,54.1635000096
1.59e-07,27.26487499904,1.9153500088320001,54.1635000096
1.5950000000000002e-07,27.17112499328,1.9122250086400001,54.14787500864
1.6e-07,27.07737498752,1.9169125089280001,54.1635000096
1.6050000000000001e-07,27.0461249856,1.9216000092160002,54.13225000768
1.61e-07,27.06174998656,1.9216000092160002,54.0853750048
1.615e-07,27.09299998848,1.9169125089280001,53.97599999808
1.6200000000000002e-07,27.17112499328,1.9137875087360001,53.9291249952
1.625e-07,27.17112499328,1.910662508544,53.89787499328
1.6300000000000002e-07,27.21799999616,1.9122250086400001,53.9291249952
1.635e-07,27.24924999808,1.9137875087360001,53.94474999616
1.64e-07,27.34300000384,1.9122250086400001,53.99162499904
1.645e-07,27.37425000576,1.909100008448,54.00725
