Time (s),V_PRI,V_SEC,V_IN,V_OUT
0.0,291.87509888,206.3750144,24.62749991168,-0.00894997823999999
5e-10,307.50009983999985,190.75001344,24.61187491072,-0.00894997823999999
1e-09,323.1251007999999,175.12501247999998,24.5806249088,-0.002699978880000009
1.5000000000000002e-09,307.50009983999985,190.75001344,24.5806249088,-0.005824978559999999
2e-09,307.50009983999985,190.75001344,24.5806249088,-0.00894997823999999
2.5e-09,307.50009983999985,206.3750144,24.59624990976,-0.00894997823999999
3.0000000000000004e-09,307.50009983999985,206.3750144,24.61187491072,-0.005824978559999999
3.5000000000000003e-09,291.87509888,206.3750144,24.62749991168,-0.005824978559999999
4e-09,307.50009983999985,222.00001536,24.61187491072,-0.005824978559999999
4.500000000000001e-09,307.50009983999985,206.3750144,24.56499990784,-0.002699978880000009
5e-09,291.87509888,222.00001536,24.56499990784,-0.00894997823999999
5.5000000000000004e-09,307.50009983999985,222.00001536,24.53374990592,-0.005824978559999999
6.000000000000001e-09,323.1251007999999,237.62501632,24.51812490496,-0.005824978559999999
6.5e-09,323.1251007999999,237.62501632,24.502499904,-0.012074977920000007
7.000000000000001e-09,307.50009983999985,237.62501632,24.43999990016,-0.00894997823999999
7.500000000000001e-09,291.87509888,222.00001536,24.45562490112,-0.002699978880000009
8e-09,323.1251007999999,253.25001728,24.47124990208,-0.005824978559999999
8.5e-09,307.50009983999985,237.62501632,24.47124990208,-0.00894997823999999
9.000000000000001e-09,323.1251007999999,222.00001536,24.502499904,-0.002699978880000009
9.5e-09,307.50009983999985,222.00001536,24.54937490688,-0.005824978559999999
1e-08,307.50009983999985,237.62501632,24.5806249088,-0.00894997823999999
1.0500000000000001e-08,307.50009983999985,253.25001728,24.64312491264,-0.005824978559999999
1.1000000000000001e-08,307.50009983999985,253.25001728,24.64312491264,-0.002699978880000009
1.15e-08,276.2500979199999,253.25001728,24.6587499136,-0.002699978880000009
1.2000000000000002e-08,291.87509888,268.87501824,24.61187491072,-0.005824978559999999
1.2500000000000001e-08,276.2500979199999,253.25001728,24.5806249088,-0.005824978559999999
1.3e-08,276.2500979199999,253.25001728,24.5806249088,-0.00894997823999999
1.35e-08,276.2500979199999,253.25001728,24.51812490496,-0.005824978559999999
1.4000000000000001e-08,307.50009983999985,268.87501824,24.51812490496,-0.005824978559999999
1.45e-08,291.87509888,284.5000192,24.502499904,-0.00894997823999999
1.5000000000000002e-08,276.2500979199999,268.87501824,24.47124990208,-0.005824978559999999
1.55e-08,260.62509695999984,268.87501824,24.51812490496,-0.002699978880000009
1.6e-08,260.62509695999984,300.12502015999996,24.53374990592,-0.005824978559999999
1.6500000000000002e-08,260.62509695999984,284.5000192,24.5806249088,-0.00894997823999999
1.7e-08,276.2500979199999,253.25001728,24.59624990976,-0.002699978880000009
1.75e-08,245.00009599999998,253.25001728,24.61187491072,-0.005824978559999999
1.8000000000000002e-08,245.00009599999998,268.87501824,24.64312491264,-0.00894997823999999
1.85e-08,245.00009599999998,268.87501824,24.64312491264,-0.00894997823999999
1.9e-08,245.00009599999998,284.5000192,24.6587499136,-0.005824978559999999
1.9500000000000003e-08,229.3750950399999,268.87501824,24.67437491456,-0.002699978880000009
2e-08,245.00009599999998,268.87501824,24.62749991168,-0.00894997823999999
2.05e-08,229.3750950399999,268.87501824,24.61187491072,-0.002699978880000009
2.1000000000000003e-08,229.3750950399999,284.5000192,24.61187491072,-0.00894997823999999
2.15e-08,229.3750950399999,268.87501824,24.5806249088,-0.005824978559999999
2.2000000000000002e-08,229.3750950399999,284.5000192,24.61187491072,-0.005824978559999999
2.2500000000000003e-08,229.3750950399999,268.87501824,24.62749991168,-0.00894997823999999
2.3e-08,213.75009408000005,284.5000192,24.61187491072,-0.005824978559999999
2.3500000000000002e-08,182.5000921599999,268.87501824,24.6587499136,-0.002699978880000009
2.4000000000000003e-08,198.12509311999997,300.12502015999996,24.67437491456,-0.005824978559999999
2.45e-08,198.12509311999997,268.87501824,24.70562491648,-0.00894997823999999
2.5000000000000002e-08,198.12509311999997,253.25001728,24.72124991744,-0.002699978880000009
2.55e-08,198.12509311999997,253.25001728,24.70562491648,-0.00894997823999999
2.6e-08,198.12509311999997,268.87501824,24.6587499136,-0.00894997823999999
2.6500000000000002e-08,182.5000921599999,268.87501824,24.64312491264,-0.005824978559999999
2.7e-08,166.87509120000004,268.87501824,24.61187491072,-0.002699978880000009
2.75e-08,151.25009023999996,253.25001728,24.62749991168,-0.005824978559999999
2.8000000000000003e-08,182.5000921599999,268.87501824,24.54937490688,-0.005824978559999999
2.85e-08,151.25009023999996,253.25001728,24.54937490688,-0.002699978880000009
2.9e-08,135.62508927999988,253.25001728,24.53374990592,-0.00894997823999999
2.9500000000000003e-08,151.25009023999996,253.25001728,24.51812490496,-0.005824978559999999
3.0000000000000004e-08,151.25009023999996,253.25001728,24.56499990784,-0.005824978559999999
3.05e-08,151.25009023999996,253.25001728,24.64312491264,-0.00894997823999999
3.1e-08,135.62508927999988,253.25001728,24.68999991552,-0.005824978559999999
3.1500000000000004e-08,135.62508927999988,253.25001728,24.75249991936,-0.002699978880000009
3.2e-08,120.00008832000003,268.87501824,24.814999923200002,-0.005824978559999999
3.25e-08,120.00008832000003,237.62501632,24.861874926080002,-0.012074977920000007
3.3000000000000004e-08,120.00008832000003,222.00001536,24.893124928000002,-0.002699978880000009
3.35e-08,88.75008639999987,222.00001536,24.877499927040002,-0.005824978559999999
3.4e-08,104.37508735999995,253.25001728,24.846249925120002,-0.00894997823999999
3.4500000000000005e-08,104.37508735999995,237.62501632,24.830624924160002,-0.005824978559999999
3.5e-08,73.12508544000002,222.00001536,24.75249991936,-0.005824978559999999
3.55e-08,73.12508544000002,237.62501632,24.7368749184,-0.005824978559999999
3.6000000000000005e-08,73.12508544000002,237.62501632,24.67437491456,-0.005824978559999999
3.65e-08,57.50008447999994,222.00001536,24.67437491456,-0.002699978880000009
3.7e-08,26.25008256000001,222.00001536,24.68999991552,-0.012074977920000007
3.7500000000000005e-08,41.87508351999986,206.3750144,24.70562491648,-0.005824978559999999
3.8e-08,41.87508351999986,222.00001536,24.768124920320002,-0.005824978559999999
3.85e-08,41.87508351999986,206.3750144,24.799374922240002,-0.00894997823999999
3.9000000000000005e-08,26.25008256000001,206.3750144,24.799374922240002,-0.005824978559999999
3.95e-08,26.25008256000001,190.75001344,24.814999923200002,-0.005824978559999999
4e-08,26.25008256000001,222.00001536,24.783749921280002,-0.005824978559999999
4.0500000000000005e-08,26.25008256000001,190.75001344,24.72124991744,-0.00894997823999999
4.1e-08,26.25008256000001,175.12501247999998,24.64312491264,-0.002699978880000009
4.15e-08,26.25008256000001,159.50001152,24.59624990976,-0.002699978880000009
4.2000000000000006e-08,-4.999919360000149,159.50001152,24.56499990784,-0.005824978559999999
4.2500000000000003e-08,10.62508159999993,175.12501247999998,24.56499990784,-0.005824978559999999
4.3e-08,-4.999919360000149,159.50001152,24.61187491072,-0.005824978559999999
4.3500000000000006e-08,-20.62492032,175.12501247999998,24.68999991552,-0.002699978880000009
4.4000000000000004e-08,-20.62492032,159.50001152,24.75249991936,-0.005824978559999999
4.45e-08,-20.62492032,159.50001152,24.814999923200002,-0.002699978880000009
4.5000000000000006e-08,-36.24992128000008,143.87501056,24.861874926080002,-0.00894997823999999
4.5500000000000004e-08,-36.24992128000008,143.87501056,24.861874926080002,-0.005824978559999999
4.6e-08,-36.24992128000008,143.87501056,24.861874926080002,-0.005824978559999999
4.6500000000000006e-08,-36.24992128000008,143.87501056,24.814999923200002,-0.00894997823999999
4.7000000000000004e-08,-51.87492223999993,143.87501056,24.70562491648,-0.00894997823999999
4.75e-08,-67.49992320000001,128.2500096,24.64312491264,-0.005824978559999999
4.8000000000000006e-08,-51.87492223999993,143.87501056,24.59624990976,-0.00894997823999999
4.8500000000000004e-08,-67.49992320000001,112.62500864,24.56499990784,-0.00894997823999999
4.9e-08,-51.87492223999993,112.62500864,24.56499990784,-0.002699978880000009
4.95e-08,-67.49992320000001,97.00000768,24.5806249088,-0.002699978880000009
5.0000000000000004e-08,-83.12492416000009,97.00000768,24.62749991168,-0.00894997823999999
5.05e-08,-67.49992320000001,112.62500864,24.68999991552,-0.005824978559999999
5.1e-08,-98.74992511999994,97.00000768,24.7368749184,-0.005824978559999999
5.1500000000000005e-08,-114.37492608000002,97.00000768,24.7368749184,-0.002699978880000009
5.2e-08,-98.74992511999994,81.37500672,24.70562491648,-0.005824978559999999
5.25e-08,-98.74992511999994,65.75000576,24.64312491264,-0.002699978880000009
5.3000000000000005e-08,-129.9999270400001,50.1250048,24.59624990976,-0.00894997823999999
5.35e-08,-129.9999270400001,65.75000576,24.51812490496,-0.005824978559999999
5.4e-08,-114.37492608000002,65.75000576,24.502499904,-0.005824978559999999
5.4500000000000005e-08,-114.37492608000002,65.75000576,24.51812490496,-0.00894997823999999
5.5e-08,-145.62492799999995,50.1250048,24.51812490496,-0.005824978559999999
5.55e-08,-129.9999270400001,34.50000384,24.5806249088,-0.002699978880000009
5.6000000000000005e-08,-145.62492799999995,50.1250048,24.64312491264,-0.002699978880000009
5.65e-08,-145.62492799999995,18.875002879999997,24.72124991744,-0.00894997823999999
5.7e-08,-129.9999270400001,18.875002879999997,24.768124920320002,-0.002699978880000009
5.7500000000000005e-08,-161.24992896000003,3.250001919999999,24.799374922240002,-0.005824978559999999
5.8e-08,-145.62492799999995,34.50000384,24.814999923200002,-0.00894997823999999
5.85e-08,-161.24992896000003,18.875002879999997,24.799374922240002,-0.00894997823999999
5.9000000000000006e-08,-176.8749299200001,18.875002879999997,24.7368749184,-0.005824978559999999
5.9500000000000003e-08,-192.49993087999997,-12.37499904,24.72124991744,-0.002699978880000009
6.000000000000001e-08,-176.8749299200001,3.250001919999999,24.62749991168,-0.005824978559999999
6.05e-08,-192.49993087999997,-28.0,24.59624990976,-0.005824978559999999
6.1e-08,-208.12493184000004,-28.0,24.59624990976,-0.00894997823999999
6.15e-08,-192.49993087999997,-28.0,24.5806249088,-0.005824978559999999
6.2e-08,-176.8749299200001,-12.37499904,24.64312491264,-0.005824978559999999
6.250000000000001e-08,-192.49993087999997,-12.37499904,24.67437491456,-0.012074977920000007
6.300000000000001e-08,-208.12493184000004,-28.0,24.67437491456,-0.00894997823999999
6.35e-08,-208.12493184000004,-59.25000192,24.68999991552,-0.005824978559999999
6.4e-08,-223.74993280000012,-12.37499904,24.68999991552,-0.005824978559999999
6.45e-08,-208.12493184000004,-43.62500096,24.67437491456,-0.00894997823999999
6.5e-08,-192.49993087999997,-59.25000192,24.64312491264,-0.002699978880000009
6.55e-08,-223.74993280000012,-74.87500288,24.62749991168,-0.002699978880000009
6.600000000000001e-08,-223.74993280000012,-74.87500288,24.62749991168,-0.00894997823999999
6.65e-08,-223.74993280000012,-74.87500288,24.64312491264,-0.005824978559999999
6.7e-08,-223.74993280000012,-90.50000384,24.67437491456,-0.002699978880000009
6.75e-08,-254.99993472000006,-74.87500288,24.72124991744,-0.005824978559999999
6.8e-08,-239.37493375999998,-90.50000384,24.768124920320002,-0.005824978559999999
6.85e-08,-239.37493375999998,-106.1250048,24.799374922240002,-0.005824978559999999
6.900000000000001e-08,-270.62493568000014,-106.1250048,24.830624924160002,-0.00894997823999999
6.950000000000001e-08,-239.37493375999998,-106.1250048,24.814999923200002,-0.005824978559999999
7e-08,-239.37493375999998,-106.1250048,24.830624924160002,-0.005824978559999999
7.05e-08,-254.99993472000006,-90.50000384,24.799374922240002,-0.00894997823999999
7.1e-08,-270.62493568000014,-106.1250048,24.7368749184,-0.005824978559999999
7.15e-08,-254.99993472000006,-121.75000576,24.70562491648,-0.005824978559999999
7.200000000000001e-08,-254.99993472000006,-121.75000576,24.68999991552,-0.005824978559999999
7.250000000000001e-08,-270.62493568000014,-137.37500672,24.68999991552,-0.005824978559999999
7.3e-08,-254.99993472000006,-153.00000768,24.72124991744,-0.002699978880000009
7.35e-08,-286.24993664,-153.00000768,24.75249991936,-0.005824978559999999
7.4e-08,-270.62493568000014,-153.00000768,24.799374922240002,-0.012074977920000007
7.45e-08,-270.62493568000014,-153.00000768,24.799374922240002,-0.005824978559999999
7.500000000000001e-08,-286.24993664,-168.62500864,24.814999923200002,-0.005824978559999999
7.550000000000001e-08,-301.87493760000007,-168.62500864,24.814999923200002,-0.002699978880000009
7.6e-08,-286.24993664,-168.62500864,24.75249991936,-0.00894997823999999
7.65e-08,-286.24993664,-184.2500096,24.68999991552,-0.005824978559999999
7.7e-08,-301.87493760000007,-199.87501056,24.64312491264,-0.00894997823999999
7.75e-08,-286.24993664,-184.2500096,24.5806249088,-0.005824978559999999
7.800000000000001e-08,-301.87493760000007,-199.87501056,24.59624990976,-0.005824978559999999
7.850000000000001e-08,-286.24993664,-199.87501056,24.62749991168,-0.012074977920000007
7.9e-08,-301.87493760000007,-199.87501056,24.67437491456,-0.005824978559999999
7.95e-08,-317.49993856000003,-199.87501056,24.75249991936,-0.005824978559999999
8e-08,-301.87493760000007,-184.2500096,24.830624924160002,-0.005824978559999999
8.05e-08,-317.49993856000003,-215.50001152,24.893124928000002,-0.00894997823999999
8.100000000000001e-08,-286.24993664,-231.12501247999998,24.908749928960003,-0.002699978880000009
8.150000000000001e-08,-301.87493760000007,-246.75001344,24.908749928960003,-0.005824978559999999
8.2e-08,-301.87493760000007,-246.75001344,24.861874926080002,-0.005824978559999999
8.25e-08,-301.87493760000007,-231.12501247999998,24.846249925120002,-0.00894997823999999
8.3e-08,-317.49993856000003,-231.12501247999998,24.783749921280002,-0.005824978559999999
8.35e-08,-333.12493952,-246.75001344,24.72124991744,-0.002699978880000009
8.400000000000001e-08,-301.87493760000007,-246.75001344,24.6587499136,-0.005824978559999999
8.450000000000001e-08,-301.87493760000007,-262.3750144,24.62749991168,-0.002699978880000009
8.500000000000001e-08,-317.49993856000003,-262.3750144,24.6587499136,-0.00894997823999999
8.55e-08,-317.49993856000003,-262.3750144,24.67437491456,-0.005824978559999999
8.6e-08,-317.49993856000003,-262.3750144,24.7368749184,-0.005824978559999999
8.65e-08,-317.49993856000003,-262.3750144,24.768124920320002,-0.012074977920000007
8.700000000000001e-08,-333.12493952,-246.75001344,24.75249991936,-0.00894997823999999
8.750000000000001e-08,-333.12493952,-278.00001536,24.768124920320002,-0.002699978880000009
8.800000000000001e-08,-317.49993856000003,-262.3750144,24.75249991936,-0.005824978559999999
8.85e-08,-333.12493952,-278.00001536,24.768124920320002,-0.005824978559999999
8.9e-08,-301.87493760000007,-293.62501632,24.70562491648,-0.002699978880000009
8.95e-08,-333.12493952,-293.62501632,24.64312491264,-0.005824978559999999
9.000000000000001e-08,-317.49993856000003,-293.62501632,24.59624990976,-0.00894997823999999
9.050000000000001e-08,-317.49993856000003,-278.00001536,24.5806249088,-0.005824978559999999
9.100000000000001e-08,-317.49993856000003,-293.62501632,24.59624990976,-0.002699978880000009
9.15e-08,-348.7499404800001,-293.62501632,24.62749991168,-0.002699978880000009
9.2e-08,-317.49993856000003,-278.00001536,24.6587499136,-0.005824978559999999
9.25e-08,-333.12493952,-293.62501632,24.67437491456,-0.002699978880000009
9.300000000000001e-08,-333.12493952,-309.25001728,24.72124991744,-0.005824978559999999
9.350000000000001e-08,-317.49993856000003,-309.25001728,24.75249991936,-0.005824978559999999
9.400000000000001e-08,-317.49993856000003,-293.62501632,24.783749921280002,-0.005824978559999999
9.45e-08,-317.49993856000003,-309.25001728,24.799374922240002,-0.012074977920000007
9.5e-08,-317.49993856000003,-293.62501632,24.75249991936,-0.005824978559999999
9.55e-08,-317.49993856000003,-324.87501824,24.75249991936,-0.005824978559999999
9.600000000000001e-08,-317.49993856000003,-293.62501632,24.72124991744,-0.00894997823999999
9.650000000000001e-08,-317.49993856000003,-309.25001728,24.7368749184,-0.00894997823999999
9.700000000000001e-08,-286.24993664,-324.87501824,24.72124991744,-0.002699978880000009
9.75e-08,-317.49993856000003,-340.5000192,24.70562491648,-0.005824978559999999
9.8e-08,-301.87493760000007,-324.87501824,24.72124991744,-0.00894997823999999
9.85e-08,-286.24993664,-309.25001728,24.7368749184,-0.00894997823999999
9.9e-08,-301.87493760000007,-309.25001728,24.768124920320002,-0.005824978559999999
9.950000000000001e-08,-301.87493760000007,-324.87501824,24.783749921280002,-0.005824978559999999
1.0000000000000001e-07,-270.62493568000014,-309.25001728,24.768124920320002,-0.005824978559999999
1.005e-07,-270.62493568000014,-324.87501824,24.783749921280002,-0.002699978880000009
1.01e-07,-270.62493568000014,-324.87501824,24.783749921280002,-0.00894997823999999
1.015e-07,-270.62493568000014,-324.87501824,24.75249991936,-0.005824978559999999
1.02e-07,-254.99993472000006,-309.25001728,24.783749921280002,-0.005824978559999999
1.0250000000000001e-07,-254.99993472000006,-324.87501824,24.799374922240002,-0.00894997823999999
1.0300000000000001e-07,-254.99993472000006,-309.25001728,24.768124920320002,-0.00894997823999999
1.0350000000000001e-07,-239.37493375999998,-324.87501824,24.814999923200002,-0.002699978880000009
1.04e-07,-254.99993472000006,-293.62501632,24.830624924160002,-0.005824978559999999
1.045e-07,-223.74993280000012,-324.87501824,24.861874926080002,-0.00894997823999999
1.05e-07,-223.74993280000012,-324.87501824,24.877499927040002,-0.002699978880000009
1.0550000000000001e-07,-239.37493375999998,-324.87501824,24.893124928000002,-0.002699978880000009
1.0600000000000001e-07,-223.74993280000012,-324.87501824,24.893124928000002,-0.005824978559999999
1.0650000000000001e-07,-223.74993280000012,-324.87501824,24.893124928000002,-0.005824978559999999
1.07e-07,-223.74993280000012,-324.87501824,24.877499927040002,-0.002699978880000009
1.075e-07,-223.74993280000012,-309.25001728,24.877499927040002,-0.005824978559999999
1.08e-07,-208.12493184000004,-309.25001728,24.846249925120002,-0.005824978559999999
1.0850000000000001e-07,-208.12493184000004,-309.25001728,24.861874926080002,-0.002699978880000009
1.0900000000000001e-07,-208.12493184000004,-324.87501824,24.846249925120002,-0.005824978559999999
1.0950000000000001e-07,-192.49993087999997,-324.87501824,24.830624924160002,-0.00894997823999999
1.1e-07,-161.24992896000003,-309.25001728,24.861874926080002,-0.005824978559999999
1.105e-07,-176.8749299200001,-324.87501824,24.846249925120002,-0.00894997823999999
1.11e-07,-176.8749299200001,-324.87501824,24.830624924160002,-0.005824978559999999
1.1150000000000001e-07,-161.24992896000003,-309.25001728,24.861874926080002,-0.002699978880000009
1.1200000000000001e-07,-161.24992896000003,-309.25001728,24.861874926080002,-0.005824978559999999
1.1250000000000001e-07,-145.62492799999995,-309.25001728,24.861874926080002,-0.00894997823999999
1.13e-07,-129.9999270400001,-309.25001728,24.846249925120002,-0.002699978880000009
1.135e-07,-129.9999270400001,-309.25001728,24.830624924160002,-0.005824978559999999
1.14e-07,-129.9999270400001,-309.25001728,24.861874926080002,-0.00894997823999999
1.1450000000000001e-07,-114.37492608000002,-293.62501632,24.893124928000002,-0.005824978559999999
1.1500000000000001e-07,-129.9999270400001,-293.62501632,24.908749928960003,-0.005824978559999999
1.1550000000000001e-07,-129.9999270400001,-293.62501632,24.971249932800003,-0.005824978559999999
1.16e-07,-98.74992511999994,-293.62501632,24.986874933760003,-0.005824978559999999
1.165e-07,-98.74992511999994,-309.25001728,25.01812493568,-0.002699978880000009
1.17e-07,-114.37492608000002,-309.25001728,25.0493749376,-0.00894997823999999
1.1750000000000001e-07,-83.12492416000009,-278.00001536,25.0493749376,-0.00894997823999999
