Time (s),V_PRI,V_SEC,V_IN,V_OUT
0.0,76.24993791999998,-193.69998336,25.188750055680003,-0.005899978560000019
5e-10,76.24993791999998,-193.69998336,25.188750055680003,-0.009024978240000009
1e-09,69.99993856000003,-187.449984,25.20750005376,-0.005899978560000019
1.5000000000000002e-09,76.24993791999998,-187.449984,25.201250054400003,-0.005899978560000019
2e-09,82.49993728000004,-181.19998464,25.220000052480003,-0.009024978240000009
2.5e-09,82.49993728000004,-187.449984,25.220000052480003,-0.009024978240000009
3.0000000000000004e-09,94.99993600000005,-187.449984,25.220000052480003,-0.0027749788800000286
3.5000000000000003e-09,88.74993663999999,-181.19998464,25.220000052480003,-0.005899978560000019
4e-09,88.74993663999999,-168.69998592,25.220000052480003,-0.009024978240000009
4.500000000000001e-09,94.99993600000005,-168.69998592,25.213750053120002,-0.005899978560000019
5e-09,94.99993600000005,-162.44998655999999,25.220000052480003,-0.005899978560000019
5.5000000000000004e-09,101.24993536,-156.1999872,25.20750005376,-0.0027749788800000286
6.000000000000001e-09,107.49993472000006,-156.1999872,25.20750005376,-0.0027749788800000286
6.5e-09,101.24993536,-149.94998784,25.20750005376,-0.005899978560000019
7.000000000000001e-09,101.24993536,-149.94998784,25.201250054400003,-0.009024978240000009
7.500000000000001e-09,113.74993408,-143.69998848,25.20750005376,-0.005899978560000019
8e-09,113.74993408,-143.69998848,25.19500005504,-0.005899978560000019
8.5e-09,113.74993408,-137.44998912,25.201250054400003,-0.012149977920000027
9.000000000000001e-09,113.74993408,-131.19998976,25.213750053120002,-0.009024978240000009
9.5e-09,113.74993408,-131.19998976,25.220000052480003,-0.005899978560000019
1e-08,119.99993344000006,-118.69999104,25.22625005184,-0.009024978240000009
1.0500000000000001e-08,119.99993344000006,-124.9499904,25.213750053120002,-0.009024978240000009
1.1000000000000001e-08,132.49993216000007,-118.69999104,25.20750005376,-0.0027749788800000286
1.15e-08,126.24993280000001,-118.69999104,25.201250054400003,-0.005899978560000019
1.2000000000000002e-08,132.49993216000007,-112.44999168000001,25.201250054400003,-0.009024978240000009
1.2500000000000001e-08,138.74993152000002,-106.19999232,25.201250054400003,-0.0027749788800000286
1.3e-08,132.49993216000007,-99.94999296,25.20750005376,-0.005899978560000019
1.35e-08,138.74993152000002,-93.6999936,25.201250054400003,-0.005899978560000019
1.4000000000000001e-08,138.74993152000002,-93.6999936,25.20750005376,-0.005899978560000019
1.45e-08,144.99993088000008,-87.44999424000001,25.220000052480003,-0.0027749788800000286
1.5000000000000002e-08,138.74993152000002,-87.44999424000001,25.220000052480003,-0.009024978240000009
1.55e-08,144.99993088000008,-74.94999552,25.220000052480003,-0.005899978560000019
1.6e-08,151.24993024000003,-68.69999616,25.20750005376,-0.005899978560000019
1.6500000000000002e-08,151.24993024000003,-68.69999616,25.213750053120002,-0.012149977920000027
1.7e-08,151.24993024000003,-56.199997440000004,25.22625005184,-0.005899978560000019
1.75e-08,151.24993024000003,-56.199997440000004,25.213750053120002,-0.005899978560000019
1.8000000000000002e-08,157.4999296000001,-49.94999808,25.22625005184,-0.009024978240000009
1.85e-08,163.74992896000003,-49.94999808,25.220000052480003,-0.009024978240000009
1.9e-08,169.99992831999998,-49.94999808,25.220000052480003,-0.0027749788800000286
1.9500000000000003e-08,163.74992896000003,-49.94999808,25.213750053120002,-0.005899978560000019
2e-08,169.99992831999998,-37.44999936,25.213750053120002,-0.009024978240000009
2.05e-08,169.99992831999998,-43.699998719999996,25.19500005504,-0.005899978560000019
2.1000000000000003e-08,169.99992831999998,-24.95000064,25.188750055680003,-0.005899978560000019
2.15e-08,169.99992831999998,-24.95000064,25.15750005888,-0.005899978560000019
2.2000000000000002e-08,182.49992704,-12.450001919999998,25.15750005888,-0.0027749788800000286
2.2500000000000003e-08,182.49992704,-18.70000128,25.151250059520002,-0.0027749788800000286
2.3e-08,182.49992704,-12.450001919999998,25.151250059520002,-0.009024978240000009
2.3500000000000002e-08,188.74992640000005,-6.200002559999998,25.151250059520002,-0.005899978560000019
2.4000000000000003e-08,188.74992640000005,-6.200002559999998,25.12625006208,-0.0027749788800000286
2.45e-08,194.99992576,0.049996800000002395,25.120000062720003,-0.012149977920000027
2.5000000000000002e-08,201.24992512000006,12.54999552,25.120000062720003,-0.005899978560000019
2.55e-08,194.99992576,6.299996160000003,25.11375006336,-0.0027749788800000286
2.6e-08,201.24992512000006,18.799994880000003,25.120000062720003,-0.009024978240000009
2.6500000000000002e-08,201.24992512000006,18.799994880000003,25.11375006336,-0.009024978240000009
2.7e-08,213.74992384000006,18.799994880000003,25.107500064,0.00035002079999998936
2.75e-08,207.49992448,25.049994240000007,25.088750065920003,-0.005899978560000019
2.8000000000000003e-08,207.49992448,25.049994240000007,25.08250006656,-0.009024978240000009
2.85e-08,213.74992384000006,31.299993600000004,25.08250006656,-0.005899978560000019
2.9e-08,213.74992384000006,37.54999296,25.0762500672,-0.005899978560000019
2.9500000000000003e-08,213.74992384000006,50.049991680000005,25.06375006848,-0.0027749788800000286
3.0000000000000004e-08,219.9999232,50.049991680000005,25.070000067840002,-0.005899978560000019
3.05e-08,219.9999232,50.049991680000005,25.08250006656,-0.0027749788800000286
3.1e-08,213.74992384000006,56.299991039999995,25.09500006528,-0.009024978240000009
3.1500000000000004e-08,219.9999232,62.5499904,25.101250064640002,-0.005899978560000019
3.2e-08,219.9999232,68.79998976,25.0762500672,-0.005899978560000019
3.25e-08,219.9999232,75.04998912,25.057500069120003,-0.009024978240000009
3.3000000000000004e-08,213.74992384000006,81.29998848000001,25.0450000704,-0.005899978560000019
3.35e-08,213.74992384000006,81.29998848000001,25.03250007168,-0.0027749788800000286
3.4e-08,219.9999232,93.7999872,25.03250007168,-0.005899978560000019
3.4500000000000005e-08,219.9999232,87.54998784,25.03250007168,-0.009024978240000009
3.5e-08,226.24992256000007,81.29998848000001,25.038750071040003,-0.0027749788800000286
3.55e-08,213.74992384000006,81.29998848000001,25.020000072960002,-0.005899978560000019
3.6000000000000005e-08,213.74992384000006,100.04998656,25.020000072960002,-0.009024978240000009
3.65e-08,213.74992384000006,100.04998656,25.020000072960002,-0.005899978560000019
3.7e-08,207.49992448,106.29998592,25.0450000704,-0.0027749788800000286
3.7500000000000005e-08,201.24992512000006,112.54998528,25.051250069760002,-0.0027749788800000286
3.8e-08,207.49992448,112.54998528,25.070000067840002,-0.005899978560000019
3.85e-08,201.24992512000006,118.79998464,25.0762500672,-0.005899978560000019
3.9000000000000005e-08,194.99992576,118.79998464,25.070000067840002,-0.009024978240000009
3.95e-08,201.24992512000006,131.29998336000003,25.070000067840002,-0.005899978560000019
4e-08,194.99992576,131.29998336000003,25.038750071040003,-0.005899978560000019
4.0500000000000005e-08,188.74992640000005,137.54998272000003,25.038750071040003,-0.012149977920000027
4.1e-08,188.74992640000005,137.54998272000003,25.051250069760002,-0.009024978240000009
4.15e-08,188.74992640000005,137.54998272000003,25.0450000704,-0.005899978560000019
4.2000000000000006e-08,188.74992640000005,150.04998144,25.038750071040003,-0.009024978240000009
4.2500000000000003e-08,182.49992704,143.79998208,25.0450000704,-0.009024978240000009
4.3e-08,188.74992640000005,143.79998208,25.038750071040003,-0.0027749788800000286
4.3500000000000006e-08,176.24992768000004,143.79998208,25.03250007168,-0.005899978560000019
4.4000000000000004e-08,169.99992831999998,156.29998080000001,25.026250072320003,-0.009024978240000009
4.45e-08,169.99992831999998,156.29998080000001,25.020000072960002,-0.009024978240000009
4.5000000000000006e-08,163.74992896000003,162.54998016000002,25.03250007168,-0.005899978560000019
4.5500000000000004e-08,157.4999296000001,162.54998016000002,25.026250072320003,-0.005899978560000019
4.6e-08,163.74992896000003,162.54998016000002,25.03250007168,-0.005899978560000019
4.6500000000000006e-08,151.24993024000003,162.54998016000002,25.051250069760002,-0.0027749788800000286
4.7000000000000004e-08,151.24993024000003,168.79997952000002,25.070000067840002,-0.009024978240000009
4.75e-08,151.24993024000003,175.04997888000003,25.0762500672,-0.005899978560000019
4.8000000000000006e-08,157.4999296000001,175.04997888000003,25.057500069120003,-0.0027749788800000286
4.8500000000000004e-08,144.99993088000008,181.29997824000003,25.06375006848,-0.012149977920000027
4.9e-08,138.74993152000002,181.29997824000003,25.08250006656,-0.009024978240000009
4.95e-08,132.49993216000007,181.29997824000003,25.088750065920003,-0.0027749788800000286
5.0000000000000004e-08,132.49993216000007,193.79997696000004,25.09500006528,-0.005899978560000019
5.05e-08,132.49993216000007,181.29997824000003,25.101250064640002,-0.009024978240000009
5.1e-08,138.74993152000002,181.29997824000003,25.107500064,-0.0027749788800000286
5.1500000000000005e-08,119.99993344000006,181.29997824000003,25.11375006336,-0.005899978560000019
5.2e-08,119.99993344000006,187.54997760000003,25.132500061440002,-0.009024978240000009
5.25e-08,119.99993344000006,193.79997696000004,25.14500006016,-0.005899978560000019
5.3000000000000005e-08,113.74993408,193.79997696000004,25.16375005824,-0.005899978560000019
5.35e-08,107.49993472000006,193.79997696000004,25.16375005824,-0.0027749788800000286
5.4e-08,113.74993408,193.79997696000004,25.17625005696,-0.005899978560000019
5.4500000000000005e-08,101.24993536,200.04997632,25.19500005504,-0.0027749788800000286
5.5e-08,94.99993600000005,193.79997696000004,25.19500005504,-0.009024978240000009
5.55e-08,94.99993600000005,200.04997632,25.182500056320002,-0.005899978560000019
5.6000000000000005e-08,94.99993600000005,200.04997632,25.151250059520002,-0.005899978560000019
5.65e-08,88.74993663999999,200.04997632,25.138750060800003,-0.009024978240000009
5.7e-08,82.49993728000004,206.29997568000002,25.151250059520002,-0.009024978240000009
5.7500000000000005e-08,76.24993791999998,200.04997632,25.15750005888,-0.005899978560000019
5.8e-08,76.24993791999998,212.54997504000002,25.17625005696,-0.005899978560000019
5.85e-08,69.99993856000003,200.04997632,25.17625005696,-0.012149977920000027
5.9000000000000006e-08,76.24993791999998,193.79997696000004,25.182500056320002,-0.0027749788800000286
5.9500000000000003e-08,57.499939840000025,193.79997696000004,25.170000057600003,-0.005899978560000019
6.000000000000001e-08,57.499939840000025,200.04997632,25.17625005696,-0.009024978240000009
6.05e-08,57.499939840000025,200.04997632,25.182500056320002,-0.005899978560000019
6.1e-08,44.99994112000002,200.04997632,25.182500056320002,-0.005899978560000019
6.15e-08,38.74994176000007,200.04997632,25.15750005888,-0.0027749788800000286
6.2e-08,44.99994112000002,206.29997568000002,25.151250059520002,-0.005899978560000019
6.250000000000001e-08,32.49994240000001,200.04997632,25.14500006016,-0.005899978560000019
6.300000000000001e-08,26.249943040000062,193.79997696000004,25.138750060800003,-0.009024978240000009
6.35e-08,26.249943040000062,200.04997632,25.138750060800003,-0.005899978560000019
6.4e-08,26.249943040000062,200.04997632,25.120000062720003,-0.005899978560000019
6.45e-08,26.249943040000062,200.04997632,25.120000062720003,-0.012149977920000027
6.5e-08,19.99994368,200.04997632,25.138750060800003,-0.009024978240000009
6.55e-08,13.749944320000054,193.79997696000004,25.132500061440002,-0.0027749788800000286
6.600000000000001e-08,7.499944959999993,206.29997568000002,25.138750060800003,-0.009024978240000009
6.65e-08,1.2499456000000464,187.54997760000003,25.132500061440002,-0.009024978240000009
6.7e-08,7.499944959999993,187.54997760000003,25.12625006208,-0.0027749788800000286
6.75e-08,7.499944959999993,181.29997824000003,25.11375006336,-0.005899978560000019
6.8e-08,-5.000053760000014,193.79997696000004,25.107500064,-0.005899978560000019
6.85e-08,-5.000053760000014,187.54997760000003,25.101250064640002,-0.005899978560000019
6.900000000000001e-08,-5.000053760000014,187.54997760000003,25.101250064640002,-0.0027749788800000286
6.950000000000001e-08,-17.500052480000022,187.54997760000003,25.09500006528,-0.0027749788800000286
7e-08,-11.250053119999961,181.29997824000003,25.107500064,-0.005899978560000019
7.05e-08,-11.250053119999961,181.29997824000003,25.120000062720003,-0.0027749788800000286
7.1e-08,-23.75005183999997,181.29997824000003,25.132500061440002,-0.009024978240000009
7.15e-08,-30.000051199999973,175.04997888000003,25.132500061440002,-0.005899978560000019
7.200000000000001e-08,-23.75005183999997,175.04997888000003,25.120000062720003,-0.005899978560000019
7.250000000000001e-08,-23.75005183999997,175.04997888000003,25.120000062720003,-0.009024978240000009
7.3e-08,-36.25005055999998,181.29997824000003,25.132500061440002,-0.009024978240000009
7.35e-08,-42.50004991999998,168.79997952000002,25.12625006208,-0.005899978560000019
7.4e-08,-42.50004991999998,175.04997888000003,25.12625006208,-0.009024978240000009
7.45e-08,-42.50004991999998,162.54998016000002,25.120000062720003,-0.005899978560000019
7.500000000000001e-08,-42.50004991999998,150.04998144,25.107500064,0.00035002079999998936
7.550000000000001e-08,-55.00004863999999,150.04998144,25.09500006528,-0.005899978560000019
7.6e-08,-55.00004863999999,156.29998080000001,25.101250064640002,-0.009024978240000009
7.65e-08,-55.00004863999999,156.29998080000001,25.101250064640002,-0.009024978240000009
7.7e-08,-61.25004799999999,150.04998144,25.101250064640002,-0.005899978560000019
7.75e-08,-73.75004672,150.04998144,25.09500006528,-0.0027749788800000286
7.800000000000001e-08,-67.50004736,143.79998208,25.09500006528,-0.0027749788800000286
7.850000000000001e-08,-73.75004672,137.54998272000003,25.101250064640002,-0.0027749788800000286
7.9e-08,-80.00004607999995,131.29998336000003,25.101250064640002,-0.009024978240000009
7.95e-08,-80.00004607999995,137.54998272000003,25.107500064,-0.005899978560000019
8e-08,-80.00004607999995,131.29998336000003,25.088750065920003,-0.005899978560000019
8.05e-08,-86.25004543999995,131.29998336000003,25.088750065920003,-0.009024978240000009
8.100000000000001e-08,-92.50004479999996,131.29998336000003,25.107500064,-0.009024978240000009
8.150000000000001e-08,-98.75004415999996,118.79998464,25.101250064640002,-0.0027749788800000286
8.2e-08,-98.75004415999996,125.04998400000001,25.11375006336,-0.005899978560000019
8.25e-08,-92.50004479999996,112.54998528,25.120000062720003,-0.009024978240000009
8.3e-08,-92.50004479999996,100.04998656,25.12625006208,-0.0027749788800000286
8.35e-08,-105.00004351999996,93.7999872,25.138750060800003,-0.005899978560000019
8.400000000000001e-08,-105.00004351999996,106.29998592,25.151250059520002,-0.009024978240000009
8.450000000000001e-08,-111.25004287999997,93.7999872,25.151250059520002,-0.005899978560000019
8.500000000000001e-08,-117.50004223999997,93.7999872,25.15750005888,-0.0027749788800000286
8.55e-08,-123.75004159999997,87.54998784,25.14500006016,-0.0027749788800000286
8.6e-08,-117.50004223999997,87.54998784,25.151250059520002,-0.005899978560000019
8.65e-08,-123.75004159999997,81.29998848000001,25.15750005888,-0.005899978560000019
8.700000000000001e-08,-123.75004159999997,75.04998912,25.15750005888,-0.009024978240000009
8.750000000000001e-08,-123.75004159999997,75.04998912,25.15750005888,-0.005899978560000019
8.800000000000001e-08,-117.50004223999997,68.79998976,25.14500006016,-0.005899978560000019
8.85e-08,-130.00004095999998,68.79998976,25.14500006016,-0.009024978240000009
8.9e-08,-130.00004095999998,62.5499904,25.15750005888,-0.009024978240000009
8.95e-08,-136.25004031999998,56.299991039999995,25.151250059520002,-0.0027749788800000286
9.000000000000001e-08,-136.25004031999998,62.5499904,25.151250059520002,-0.005899978560000019
9.050000000000001e-08,-136.25004031999998,50.049991680000005,25.14500006016,-0.009024978240000009
9.100000000000001e-08,-130.00004095999998,43.79999232,25.14500006016,-0.0027749788800000286
9.15e-08,-142.50003968,37.54999296,25.132500061440002,-0.005899978560000019
9.2e-08,-142.50003968,37.54999296,25.138750060800003,-0.009024978240000009
9.25e-08,-148.75003904,31.299993600000004,25.151250059520002,-0.005899978560000019
9.300000000000001e-08,-155.0000384,25.049994240000007,25.170000057600003,-0.0027749788800000286
9.350000000000001e-08,-161.25003776,18.799994880000003,25.17625005696,-0.005899978560000019
9.400000000000001e-08,-148.75003904,25.049994240000007,25.20750005376,-0.005899978560000019
9.45e-08,-161.25003776,12.54999552,25.232500051200002,-0.005899978560000019
9.5e-08,-167.50003712,6.299996160000003,25.251250049280003,-0.005899978560000019
9.55e-08,-161.25003776,0.049996800000002395,25.263750048000002,-0.005899978560000019
9.600000000000001e-08,-161.25003776,0.049996800000002395,25.25750004864,-0.005899978560000019
9.650000000000001e-08,-173.75003648,6.299996160000003,25.24500004992,-0.012149977920000027
9.700000000000001e-08,-173.75003648,6.299996160000003,25.251250049280003,-0.005899978560000019
9.75e-08,-173.75003648,-12.450001919999998,25.232500051200002,-0.0027749788800000286
9.8e-08,-180.00003584,-6.200002559999998,25.232500051200002,-0.009024978240000009
9.85e-08,-180.00003584,-18.70000128,25.22625005184,-0.009024978240000009
9.9e-08,-173.75003648,-37.44999936,25.22625005184,-0.0027749788800000286
9.950000000000001e-08,-186.25003519999996,-37.44999936,25.220000052480003,-0.005899978560000019
1.0000000000000001e-07,-192.50003455999996,-31.2,25.220000052480003,-0.005899978560000019
1.005e-07,-186.25003519999996,-43.699998719999996,25.220000052480003,-0.005899978560000019
1.01e-07,-198.75003391999996,-43.699998719999996,25.232500051200002,-0.0027749788800000286
1.015e-07,-198.75003391999996,-56.199997440000004,25.213750053120002,-0.005899978560000019
1.02e-07,-198.75003391999996,-49.94999808,25.20750005376,-0.005899978560000019
1.0250000000000001e-07,-211.25003263999997,-56.199997440000004,25.19500005504,-0.005899978560000019
1.0300000000000001e-07,-211.25003263999997,-62.4499968,25.182500056320002,-0.009024978240000009
1.0350000000000001e-07,-211.25003263999997,-62.4499968,25.17625005696,-0.005899978560000019
1.04e-07,-205.00003327999997,-62.4499968,25.15750005888,-0.0027749788800000286
1.045e-07,-211.25003263999997,-74.94999552,25.16375005824,-0.009024978240000009
1.05e-07,-223.75003135999998,-81.19999488,25.17625005696,-0.009024978240000009
1.0550000000000001e-07,-223.75003135999998,-87.44999424000001,25.170000057600003,-0.0027749788800000286
1.0600000000000001e-07,-223.75003135999998,-81.19999488,25.17625005696,-0.005899978560000019
1.0650000000000001e-07,-223.75003135999998,-93.6999936,25.17625005696,-0.009024978240000009
1.07e-07,-223.75003135999998,-99.94999296,25.201250054400003,-0.0027749788800000286
1.075e-07,-230.00003071999998,-106.19999232,25.20750005376,-0.009024978240000009
1.08e-07,-223.75003135999998,-106.19999232,25.201250054400003,-0.009024978240000009
1.0850000000000001e-07,-217.50003199999998,-112.44999168000001,25.201250054400003,-0.0027749788800000286
1.0900000000000001e-07,-223.75003135999998,-118.69999104,25.188750055680003,-0.0027749788800000286
1.0950000000000001e-07,-230.00003071999998,-118.69999104,25.170000057600003,-0.0027749788800000286
1.1e-07,-217.50003199999998,-118.69999104,25.16375005824,-0.005899978560000019
1.105e-07,-223.75003135999998,-124.9499904,25.15750005888,-0.0027749788800000286
1.11e-07,-230.00003071999998,-137.44998912,25.138750060800003,-0.009024978240000009
1.1150000000000001e-07,-217.50003199999998,-131.19998976,25.138750060800003,-0.009024978240000009
1.1200000000000001e-07,-211.25003263999997,-137.44998912,25.12625006208,-0.005899978560000019
1.1250000000000001e-07,-217.50003199999998,-143.69998848,25.138750060800003,-0.012149977920000027
1.13e-07,-217.50003199999998,-143.69998848,25.15750005888,-0.009024978240000009
1.135e-07,-217.50003199999998,-149.94998784,25.151250059520002,-0.005899978560000019
