Time (s),V_PRI,V_SEC,V_IN,V_OUT
0.0,-25.40005887999996,-185.62497792,19.1032500128,31.536500005759997
5e-10,-25.40005887999996,-201.24997888000001,19.109500012159998,31.54275000512
1e-09,-25.40005887999996,-169.99997696000003,19.12200001088,31.5302500064
1.5000000000000002e-09,-25.40005887999996,-201.24997888000001,19.109500012159998,31.524000007039998
2e-09,-12.900060159999953,-185.62497792,19.109500012159998,31.51150000832
2.5e-09,-12.900060159999953,-216.87497984000004,19.109500012159998,31.50212500928
3.0000000000000004e-09,-6.650060799999892,-216.87497984000004,19.1032500128,31.492750010239998
3.5000000000000003e-09,-6.650060799999892,-216.87497984000004,19.109500012159998,31.489625010559998
4e-09,-6.650060799999892,-201.24997888000001,19.109500012159998,31.492750010239998
4.500000000000001e-09,-0.4000614399999449,-201.24997888000001,19.1032500128,31.4990000096
5e-09,-0.4000614399999449,-216.87497984000004,19.1032500128,31.508375008639998
5.5000000000000004e-09,-0.4000614399999449,-216.87497984000004,19.090750014079997,31.514625008
6.000000000000001e-09,5.849937920000002,-201.24997888000001,19.1032500128,31.51775000768
6.5e-09,5.849937920000002,-201.24997888000001,19.090750014079997,31.514625008
7.000000000000001e-09,5.849937920000002,-201.24997888000001,19.090750014079997,31.524000007039998
7.500000000000001e-09,12.099937280000063,-201.24997888000001,19.07825001536,31.520875007359997
8e-09,18.34993664000001,-216.87497984000004,19.059500017279998,31.51775000768
8.5e-09,18.34993664000001,-216.87497984000004,19.05325001792,31.524000007039998
9.000000000000001e-09,24.59993600000007,-201.24997888000001,19.05325001792,31.524000007039998
9.5e-09,18.34993664000001,-216.87497984000004,19.0407500192,31.51775000768
1e-08,30.849935360000018,-185.62497792,19.03450001984,31.51150000832
1.0500000000000001e-08,30.849935360000018,-216.87497984000004,19.02200002112,31.514625008
1.1000000000000001e-08,37.09993472000008,-216.87497984000004,19.03450001984,31.508375008639998
1.15e-08,30.849935360000018,-232.4999808,19.0407500192,31.51150000832
1.2000000000000002e-08,37.09993472000008,-201.24997888000001,19.04700001856,31.51775000768
1.2500000000000001e-08,43.349934080000025,-185.62497792,19.04700001856,31.520875007359997
1.3e-08,37.09993472000008,-201.24997888000001,19.059500017279998,31.5302500064
1.35e-08,37.09993472000008,-185.62497792,19.059500017279998,31.539625005439998
1.4000000000000001e-08,43.349934080000025,-185.62497792,19.07825001536,31.54900000448
1.45e-08,43.349934080000025,-185.62497792,19.08450001472,31.555250003839998
1.5000000000000002e-08,49.599933440000086,-185.62497792,19.08450001472,31.56775000256
1.55e-08,49.599933440000086,-169.99997696000003,19.090750014079997,31.56775000256
1.6e-08,62.099932160000094,-169.99997696000003,19.07825001536,31.56775000256
1.6500000000000002e-08,55.84993280000003,-169.99997696000003,19.08450001472,31.57400000192
1.7e-08,62.099932160000094,-169.99997696000003,19.090750014079997,31.5771250016
1.75e-08,55.84993280000003,-169.99997696000003,19.090750014079997,31.57400000192
1.8000000000000002e-08,62.099932160000094,-154.374976,19.090750014079997,31.570875002239998
1.85e-08,68.34993152000004,-154.374976,19.08450001472,31.56462500288
1.9e-08,68.34993152000004,-169.99997696000003,19.08450001472,31.5458750048
1.9500000000000003e-08,62.099932160000094,-185.62497792,19.09700001344,31.53337500608
2e-08,68.34993152000004,-154.374976,19.109500012159998,31.524000007039998
2.05e-08,74.5999308800001,-138.74997504000004,19.11575001152,31.514625008
2.1000000000000003e-08,74.5999308800001,-154.374976,19.11575001152,31.51150000832
2.15e-08,68.34993152000004,-138.74997504000004,19.109500012159998,31.505250008959997
2.2000000000000002e-08,80.84993024000005,-138.74997504000004,19.12200001088,31.51150000832
2.2500000000000003e-08,74.5999308800001,-138.74997504000004,19.12200001088,31.51150000832
2.3e-08,80.84993024000005,-138.74997504000004,19.12200001088,31.520875007359997
2.3500000000000002e-08,80.84993024000005,-123.12497408000002,19.12200001088,31.520875007359997
2.4000000000000003e-08,87.09992960000011,-123.12497408000002,19.1032500128,31.520875007359997
2.45e-08,80.84993024000005,-123.12497408000002,19.1032500128,31.52712500672
2.5000000000000002e-08,93.34992896000006,-107.49997311999999,19.109500012159998,31.51775000768
2.55e-08,87.09992960000011,-123.12497408000002,19.11575001152,31.514625008
2.6e-08,93.34992896000006,-91.87497216000003,19.12200001088,31.51150000832
2.6500000000000002e-08,93.34992896000006,-107.49997311999999,19.12825001024,31.505250008959997
2.7e-08,105.84992768000006,-138.74997504000004,19.140750008959998,31.50212500928
2.75e-08,99.59992832,-138.74997504000004,19.14700000832,31.4990000096
2.8000000000000003e-08,99.59992832,-107.49997311999999,19.15325000768,31.492750010239998
2.85e-08,105.84992768000006,-107.49997311999999,19.15950000704,31.489625010559998
2.9e-08,99.59992832,-107.49997311999999,19.172000005759998,31.4833750112
2.9500000000000003e-08,99.59992832,-107.49997311999999,19.15950000704,31.47712501184
3.0000000000000004e-08,112.09992704000001,-107.49997311999999,19.1657500064,31.47712501184
3.05e-08,105.84992768000006,-107.49997311999999,19.15950000704,31.474000012159998
3.1e-08,112.09992704000001,-107.49997311999999,19.1345000096,31.48650001088
3.1500000000000004e-08,118.34992640000007,-91.87497216000003,19.11575001152,31.489625010559998
3.2e-08,124.59992576000002,-76.2499712,19.08450001472,31.4990000096
3.25e-08,124.59992576000002,-91.87497216000003,19.072000016,31.51775000768
3.3000000000000004e-08,124.59992576000002,-76.2499712,19.06575001664,31.52712500672
3.35e-08,124.59992576000002,-91.87497216000003,19.07825001536,31.54275000512
3.4e-08,124.59992576000002,-60.62497024000004,19.072000016,31.55212500416
3.4500000000000005e-08,130.84992512000008,-76.2499712,19.08450001472,31.5615000032
3.5e-08,137.09992448000003,-91.87497216000003,19.08450001472,31.55837500352
3.55e-08,137.09992448000003,-91.87497216000003,19.09700001344,31.5615000032
3.6000000000000005e-08,137.09992448000003,-76.2499712,19.1032500128,31.555250003839998
3.65e-08,143.3499238400001,-60.62497024000004,19.09700001344,31.54900000448
3.7e-08,143.3499238400001,-60.62497024000004,19.09700001344,31.54275000512
3.7500000000000005e-08,137.09992448000003,-60.62497024000004,19.07825001536,31.53337500608
3.8e-08,149.59992320000003,-44.999969280000016,19.07825001536,31.524000007039998
3.85e-08,143.3499238400001,-60.62497024000004,19.072000016,31.51150000832
3.9000000000000005e-08,149.59992320000003,-44.999969280000016,19.06575001664,31.50212500928
3.95e-08,149.59992320000003,-44.999969280000016,19.072000016,31.489625010559998
4e-08,155.8499225600001,-44.999969280000016,19.072000016,31.48025001152
4.0500000000000005e-08,155.8499225600001,-29.374968319999994,19.07825001536,31.4833750112
4.1e-08,155.8499225600001,-29.374968319999994,19.1032500128,31.48025001152
4.15e-08,143.3499238400001,-44.999969280000016,19.1032500128,31.4833750112
4.2000000000000006e-08,155.8499225600001,-13.749967360000028,19.109500012159998,31.489625010559998
4.2500000000000003e-08,155.8499225600001,-29.374968319999994,19.09700001344,31.4990000096
4.3e-08,162.09992192000004,-29.374968319999994,19.090750014079997,31.50212500928
4.3500000000000006e-08,155.8499225600001,-29.374968319999994,19.06575001664,31.514625008
4.4000000000000004e-08,155.8499225600001,-13.749967360000028,19.0407500192,31.520875007359997
4.45e-08,162.09992192000004,-13.749967360000028,19.01575002176,31.520875007359997
4.5000000000000006e-08,155.8499225600001,-13.749967360000028,19.009500022399997,31.51775000768
4.5500000000000004e-08,155.8499225600001,1.875033599999938,18.99075002432,31.508375008639998
4.6e-08,155.8499225600001,1.875033599999938,18.99700002368,31.505250008959997
4.6500000000000006e-08,149.59992320000003,-13.749967360000028,18.99700002368,31.49587500992
4.7000000000000004e-08,149.59992320000003,1.875033599999938,18.98450002496,31.49587500992
4.75e-08,149.59992320000003,17.500034560000017,18.98450002496,31.4833750112
4.8000000000000006e-08,155.8499225600001,1.875033599999938,18.97200002624,31.47712501184
4.8500000000000004e-08,149.59992320000003,17.500034560000017,18.978250025599998,31.48025001152
4.9e-08,149.59992320000003,33.12503551999998,19.00325002304,31.4833750112
4.95e-08,143.3499238400001,17.500034560000017,19.009500022399997,31.49587500992
5.0000000000000004e-08,149.59992320000003,33.12503551999998,19.00325002304,31.508375008639998
5.05e-08,149.59992320000003,17.500034560000017,18.99700002368,31.51775000768
5.1e-08,155.8499225600001,1.875033599999938,19.00325002304,31.514625008
5.1500000000000005e-08,143.3499238400001,1.875033599999938,19.009500022399997,31.520875007359997
5.2e-08,143.3499238400001,33.12503551999998,19.028250020479998,31.52712500672
5.25e-08,143.3499238400001,17.500034560000017,19.02200002112,31.536500005759997
5.3000000000000005e-08,149.59992320000003,33.12503551999998,19.009500022399997,31.5458750048
5.35e-08,130.84992512000008,33.12503551999998,18.99075002432,31.54900000448
5.4e-08,143.3499238400001,48.75003647999995,18.98450002496,31.5458750048
5.4500000000000005e-08,137.09992448000003,48.75003647999995,18.98450002496,31.536500005759997
5.5e-08,130.84992512000008,48.75003647999995,18.97200002624,31.536500005759997
5.55e-08,130.84992512000008,64.37503744000003,18.97200002624,31.52712500672
5.6000000000000005e-08,130.84992512000008,48.75003647999995,18.95325002816,31.520875007359997
5.65e-08,130.84992512000008,48.75003647999995,18.947000028799998,31.51775000768
5.7e-08,124.59992576000002,80.0000384,18.96575002688,31.50212500928
5.7500000000000005e-08,118.34992640000007,64.37503744000003,18.96575002688,31.489625010559998
5.8e-08,124.59992576000002,95.62503935999996,18.978250025599998,31.4833750112
5.85e-08,118.34992640000007,64.37503744000003,18.978250025599998,31.4833750112
5.9000000000000006e-08,124.59992576000002,64.37503744000003,18.99075002432,31.47712501184
5.9500000000000003e-08,105.84992768000006,48.75003647999995,18.98450002496,31.48650001088
6.000000000000001e-08,112.09992704000001,95.62503935999996,18.99075002432,31.489625010559998
6.05e-08,112.09992704000001,80.0000384,19.00325002304,31.4990000096
6.1e-08,99.59992832,95.62503935999996,19.009500022399997,31.508375008639998
6.15e-08,93.34992896000006,95.62503935999996,19.009500022399997,31.51150000832
6.2e-08,99.59992832,95.62503935999996,19.01575002176,31.520875007359997
6.250000000000001e-08,93.34992896000006,95.62503935999996,19.009500022399997,31.520875007359997
6.300000000000001e-08,87.09992960000011,111.25004031999993,19.00325002304,31.520875007359997
6.35e-08,87.09992960000011,111.25004031999993,18.99700002368,31.514625008
6.4e-08,93.34992896000006,111.25004031999993,18.98450002496,31.505250008959997
6.45e-08,87.09992960000011,111.25004031999993,18.99075002432,31.50212500928
6.5e-08,74.5999308800001,126.87504128,19.009500022399997,31.492750010239998
6.55e-08,68.34993152000004,111.25004031999993,19.01575002176,31.4833750112
6.600000000000001e-08,74.5999308800001,126.87504128,19.028250020479998,31.47712501184
6.65e-08,68.34993152000004,111.25004031999993,19.03450001984,31.47712501184
6.7e-08,74.5999308800001,111.25004031999993,19.03450001984,31.47087501248
6.75e-08,55.84993280000003,95.62503935999996,19.02200002112,31.474000012159998
6.8e-08,62.099932160000094,126.87504128,18.99700002368,31.474000012159998
6.85e-08,68.34993152000004,126.87504128,18.978250025599998,31.474000012159998
6.900000000000001e-08,55.84993280000003,126.87504128,18.96575002688,31.47712501184
6.950000000000001e-08,43.349934080000025,126.87504128,18.94075002944,31.48650001088
7e-08,49.599933440000086,126.87504128,18.93450003008,31.50212500928
7.05e-08,43.349934080000025,126.87504128,18.93450003008,31.51150000832
7.1e-08,37.09993472000008,126.87504128,18.95325002816,31.52712500672
7.15e-08,43.349934080000025,142.50004223999997,18.99075002432,31.52712500672
7.200000000000001e-08,43.349934080000025,142.50004223999997,19.009500022399997,31.53337500608
7.250000000000001e-08,37.09993472000008,142.50004223999997,19.0407500192,31.54275000512
7.3e-08,37.09993472000008,142.50004223999997,19.07825001536,31.54275000512
7.35e-08,24.59993600000007,142.50004223999997,19.07825001536,31.539625005439998
7.4e-08,30.849935360000018,173.75004416000002,19.06575001664,31.53337500608
7.45e-08,24.59993600000007,142.50004223999997,19.0407500192,31.52712500672
7.500000000000001e-08,30.849935360000018,126.87504128,19.02200002112,31.514625008
7.550000000000001e-08,24.59993600000007,126.87504128,18.99700002368,31.508375008639998
7.6e-08,18.34993664000001,142.50004223999997,18.978250025599998,31.505250008959997
7.65e-08,18.34993664000001,142.50004223999997,18.96575002688,31.4990000096
7.7e-08,18.34993664000001,142.50004223999997,18.97200002624,31.49587500992
7.75e-08,-0.4000614399999449,158.12504319999994,18.978250025599998,31.49587500992
7.800000000000001e-08,5.849937920000002,158.12504319999994,19.009500022399997,31.505250008959997
7.850000000000001e-08,-0.4000614399999449,142.50004223999997,19.04700001856,31.51150000832
7.9e-08,-6.650060799999892,142.50004223999997,19.06575001664,31.524000007039998
7.95e-08,-0.4000614399999449,173.75004416000002,19.06575001664,31.524000007039998
8e-08,-6.650060799999892,158.12504319999994,19.02200002112,31.524000007039998
8.05e-08,-6.650060799999892,173.75004416000002,19.00325002304,31.524000007039998
8.100000000000001e-08,-12.900060159999953,173.75004416000002,18.978250025599998,31.51775000768
8.150000000000001e-08,-12.900060159999953,142.50004223999997,18.95325002816,31.51150000832
8.2e-08,-19.1500595199999,173.75004416000002,18.928250030719997,31.508375008639998
8.25e-08,-25.40005887999996,158.12504319999994,18.915750032,31.505250008959997
8.3e-08,-19.1500595199999,142.50004223999997,18.92200003136,31.489625010559998
8.35e-08,-25.40005887999996,126.87504128,18.94075002944,31.489625010559998
8.400000000000001e-08,-25.40005887999996,142.50004223999997,18.97200002624,31.489625010559998
8.450000000000001e-08,-31.650058239999908,142.50004223999997,18.99075002432,31.49587500992
8.500000000000001e-08,-37.90005759999997,142.50004223999997,19.02200002112,31.508375008639998
8.55e-08,-37.90005759999997,142.50004223999997,19.02200002112,31.520875007359997
8.6e-08,-37.90005759999997,142.50004223999997,19.03450001984,31.5302500064
8.65e-08,-44.150056959999915,126.87504128,19.03450001984,31.536500005759997
8.700000000000001e-08,-44.150056959999915,126.87504128,19.009500022399997,31.54900000448
8.750000000000001e-08,-44.150056959999915,142.50004223999997,18.99075002432,31.55212500416
8.800000000000001e-08,-44.150056959999915,142.50004223999997,18.95325002816,31.555250003839998
8.85e-08,-44.150056959999915,126.87504128,18.947000028799998,31.55837500352
8.9e-08,-50.400056319999976,142.50004223999997,18.96575002688,31.555250003839998
8.95e-08,-56.65005567999992,126.87504128,18.978250025599998,31.54900000448
9.000000000000001e-08,-50.400056319999976,142.50004223999997,19.00325002304,31.54900000448
9.050000000000001e-08,-56.65005567999992,111.25004031999993,19.028250020479998,31.55212500416
9.100000000000001e-08,-62.900055039999984,95.62503935999996,19.04700001856,31.55212500416
9.15e-08,-62.900055039999984,95.62503935999996,19.05325001792,31.55212500416
9.2e-08,-62.900055039999984,111.25004031999993,19.05325001792,31.55212500416
9.25e-08,-62.900055039999984,95.62503935999996,19.0407500192,31.5458750048
9.300000000000001e-08,-62.900055039999984,111.25004031999993,19.02200002112,31.539625005439998
9.350000000000001e-08,-81.65005311999994,95.62503935999996,18.98450002496,31.5302500064
9.400000000000001e-08,-75.40005375999999,80.0000384,18.97200002624,31.52712500672
9.45e-08,-75.40005375999999,80.0000384,18.95950002752,31.520875007359997
9.5e-08,-81.65005311999994,80.0000384,18.96575002688,31.524000007039998
9.55e-08,-75.40005375999999,95.62503935999996,18.978250025599998,31.524000007039998
9.600000000000001e-08,-75.40005375999999,80.0000384,18.97200002624,31.524000007039998
9.650000000000001e-08,-81.65005311999994,80.0000384,18.99075002432,31.524000007039998
9.700000000000001e-08,-87.90005248,95.62503935999996,19.009500022399997,31.51775000768
9.75e-08,-87.90005248,64.37503744000003,19.028250020479998,31.508375008639998
9.8e-08,-87.90005248,80.0000384,19.0407500192,31.50212500928
9.85e-08,-87.90005248,64.37503744000003,19.0407500192,31.505250008959997
9.9e-08,-87.90005248,48.75003647999995,19.04700001856,31.50212500928
9.950000000000001e-08,-94.15005183999995,48.75003647999995,19.0407500192,31.505250008959997
1.0000000000000001e-07,-94.15005183999995,64.37503744000003,19.0407500192,31.508375008639998
1.005e-07,-94.15005183999995,64.37503744000003,19.0407500192,31.508375008639998
1.01e-07,-100.40005119999995,64.37503744000003,19.059500017279998,31.505250008959997
1.015e-07,-106.65005055999995,48.75003647999995,19.06575001664,31.4990000096
1.02e-07,-106.65005055999995,48.75003647999995,19.09700001344,31.49587500992
1.0250000000000001e-07,-106.65005055999995,33.12503551999998,19.109500012159998,31.48650001088
1.0300000000000001e-07,-112.90004991999996,48.75003647999995,19.109500012159998,31.4833750112
1.0350000000000001e-07,-106.65005055999995,64.37503744000003,19.1032500128,31.474000012159998
1.04e-07,-112.90004991999996,64.37503744000003,19.07825001536,31.474000012159998
1.045e-07,-112.90004991999996,48.75003647999995,19.059500017279998,31.4833750112
1.05e-07,-119.15004927999996,48.75003647999995,19.04700001856,31.49587500992
1.0550000000000001e-07,-125.40004863999997,48.75003647999995,19.0407500192,31.508375008639998
1.0600000000000001e-07,-125.40004863999997,80.0000384,19.0407500192,31.51775000768
1.0650000000000001e-07,-131.65004799999997,48.75003647999995,19.03450001984,31.52712500672
1.07e-07,-125.40004863999997,17.500034560000017,19.0407500192,31.53337500608
1.075e-07,-131.65004799999997,17.500034560000017,19.0407500192,31.54275000512
1.08e-07,-131.65004799999997,33.12503551999998,19.04700001856,31.55212500416
1.0850000000000001e-07,-125.40004863999997,17.500034560000017,19.0407500192,31.55212500416
1.0900000000000001e-07,-137.90004735999997,17.500034560000017,19.0407500192,31.5458750048
1.0950000000000001e-07,-144.15004671999998,33.12503551999998,19.028250020479998,31.53337500608
1.1e-07,-144.15004671999998,33.12503551999998,19.03450001984,31.53337500608
1.105e-07,-150.40004607999992,17.500034560000017,19.028250020479998,31.5302500064
1.11e-07,-156.65004543999993,1.875033599999938,19.0407500192,31.53337500608
1.1150000000000001e-07,-150.40004607999992,1.875033599999938,19.059500017279998,31.524000007039998
1.1200000000000001e-07,-150.40004607999992,17.500034560000017,19.059500017279998,31.51775000768
1.1250000000000001e-07,-156.65004543999993,17.500034560000017,19.06575001664,31.51150000832
1.13e-07,-156.65004543999993,17.500034560000017,19.08450001472,31.508375008639998
1.135e-07,-162.90004479999993,1.875033599999938,19.07825001536,31.508375008639998
1.14e-07,-156.65004543999993,17.500034560000017,19.090750014079997,31.505250008959997
1.1450000000000001e-07,-156.65004543999993,1.875033599999938,19.090750014079997,31.505250008959997
1.1500000000000001e-07,-150.40004607999992,-29.374968319999994,19.109500012159998,31.4990000096
1.1550000000000001e-07,-169.15004415999994,-29.374968319999994,19.1032500128,31.50212500928
1.16e-07,-162.90004479999993,-13.749967360000028,19.090750014079997,31.505250008959997
1.165e-07,-156.65004543999993,-29.374968319999994,19.07825001536,31.51150000832
1.17e-07,-162.90004479999993,-29.374968319999994,19.059500017279998,31.51775000768
1.1750000000000001e-07,-169.15004415999994,-29.374968319999994,19.03450001984,31.51775000768
1.1800000000000001e-07,-156.65004543999993,-29.374968319999994,19.0407500192,31.514625008
1.1850000000000001e-07,-156.65004543999993,-44.999969280000016,19.04700001856,31.508375008639998
1.1900000000000001e-07,-162.90004479999993,-44.999969280000016,19.04700001856,31.508375008639998
