Time (s),V_PRI,V_SEC,V_IN,V_OUT
0.0,-27.000058879999983,-201.24997888000001,20.08450001408,33.3186250048
5e-10,-27.000058879999983,-201.24997888000001,20.08450001408,33.3186250048
1e-09,-20.750059519999922,-201.24997888000001,20.097000012800002,33.312375005439996
1.5000000000000002e-09,-20.750059519999922,-216.87497984000004,20.097000012800002,33.3030000064
2e-09,-14.500060159999975,-185.62497792,20.10325001216,33.29362500736
2.5e-09,-14.500060159999975,-216.87497984000004,20.10325001216,33.28425000832
3.0000000000000004e-09,-8.250060799999915,-216.87497984000004,20.10950001152,33.274875009279995
3.5000000000000003e-09,-8.250060799999915,-232.4999808,20.10325001216,33.27800000896
4e-09,-2.0000614399999677,-216.87497984000004,20.10950001152,33.28425000832
4.500000000000001e-09,-2.0000614399999677,-216.87497984000004,20.10325001216,33.290500007679995
5e-09,-2.0000614399999677,-201.24997888000001,20.10950001152,33.290500007679995
5.5000000000000004e-09,-2.0000614399999677,-216.87497984000004,20.09075001344,33.287375008
6.000000000000001e-09,4.249937919999979,-216.87497984000004,20.09075001344,33.290500007679995
6.5e-09,10.49993728000004,-216.87497984000004,20.078250014720002,33.290500007679995
7.000000000000001e-09,4.249937919999979,-216.87497984000004,20.07200001536,33.296750007039996
7.500000000000001e-09,10.49993728000004,-216.87497984000004,20.065750016000003,33.29362500736
8e-09,16.749936639999987,-216.87497984000004,20.047000017920002,33.296750007039996
8.5e-09,22.999936000000048,-216.87497984000004,20.034500019200003,33.3030000064
9.000000000000001e-09,22.999936000000048,-201.24997888000001,20.04075001856,33.29987500672
9.5e-09,22.999936000000048,-216.87497984000004,20.02825001984,33.29362500736
1e-08,29.249935359999995,-201.24997888000001,20.02200002048,33.29362500736
1.0500000000000001e-08,35.499934720000056,-216.87497984000004,20.015750021120002,33.29362500736
1.1000000000000001e-08,41.74993408,-232.4999808,20.02825001984,33.290500007679995
1.15e-08,29.249935359999995,-232.4999808,20.02825001984,33.29987500672
1.2000000000000002e-08,41.74993408,-201.24997888000001,20.02825001984,33.306125006079995
1.2500000000000001e-08,41.74993408,-216.87497984000004,20.02825001984,33.312375005439996
1.3e-08,41.74993408,-201.24997888000001,20.034500019200003,33.321750004479995
1.35e-08,41.74993408,-201.24997888000001,20.034500019200003,33.32487500416
1.4000000000000001e-08,47.99993344000006,-201.24997888000001,20.05325001728,33.33112500352
1.45e-08,47.99993344000006,-201.24997888000001,20.065750016000003,33.337375002879995
1.5000000000000002e-08,54.24993280000001,-201.24997888000001,20.065750016000003,33.3498750016
1.55e-08,47.99993344000006,-185.62497792,20.065750016000003,33.3498750016
1.6e-08,60.49993216000007,-185.62497792,20.05950001664,33.353000001279995
1.6500000000000002e-08,60.49993216000007,-185.62497792,20.065750016000003,33.359250000639996
1.7e-08,60.49993216000007,-169.99997696000003,20.078250014720002,33.359250000639996
1.75e-08,60.49993216000007,-169.99997696000003,20.07200001536,33.359250000639996
1.8000000000000002e-08,66.74993152000002,-154.374976,20.078250014720002,33.35612500096
1.85e-08,66.74993152000002,-169.99997696000003,20.07200001536,33.343625002239996
1.9e-08,79.24993024000003,-169.99997696000003,20.078250014720002,33.321750004479995
1.9500000000000003e-08,72.99993088000008,-185.62497792,20.09075001344,33.30925000576
2e-08,72.99993088000008,-154.374976,20.097000012800002,33.29987500672
2.05e-08,79.24993024000003,-154.374976,20.10325001216,33.296750007039996
2.1000000000000003e-08,72.99993088000008,-154.374976,20.10325001216,33.296750007039996
2.15e-08,72.99993088000008,-138.74997504000004,20.097000012800002,33.29362500736
2.2000000000000002e-08,85.49992960000009,-138.74997504000004,20.097000012800002,33.296750007039996
2.2500000000000003e-08,79.24993024000003,-138.74997504000004,20.10325001216,33.29362500736
2.3e-08,79.24993024000003,-154.374976,20.10325001216,33.29987500672
2.3500000000000002e-08,85.49992960000009,-138.74997504000004,20.115750010880003,33.29987500672
2.4000000000000003e-08,91.74992896000003,-138.74997504000004,20.10325001216,33.29987500672
2.45e-08,91.74992896000003,-123.12497408000002,20.097000012800002,33.306125006079995
2.5000000000000002e-08,91.74992896000003,-107.49997311999999,20.10950001152,33.29987500672
2.55e-08,91.74992896000003,-123.12497408000002,20.10950001152,33.29362500736
2.6e-08,97.99992831999998,-107.49997311999999,20.115750010880003,33.287375008
2.6500000000000002e-08,97.99992831999998,-107.49997311999999,20.115750010880003,33.287375008
2.7e-08,110.49992703999999,-138.74997504000004,20.128250009600002,33.274875009279995
2.75e-08,104.24992768000004,-138.74997504000004,20.14075000832,33.27800000896
2.8000000000000003e-08,110.49992703999999,-107.49997311999999,20.147000007680003,33.2717500096
2.85e-08,110.49992703999999,-107.49997311999999,20.15325000704,33.26237501056
2.9e-08,110.49992703999999,-107.49997311999999,20.159500006400002,33.2561250112
2.9500000000000003e-08,110.49992703999999,-107.49997311999999,20.147000007680003,33.24987501184
3.0000000000000004e-08,116.74992640000005,-107.49997311999999,20.147000007680003,33.253000011519994
3.05e-08,116.74992640000005,-107.49997311999999,20.14075000832,33.253000011519994
3.1e-08,116.74992640000005,-107.49997311999999,20.12200001024,33.26550001024
3.1500000000000004e-08,116.74992640000005,-91.87497216000003,20.097000012800002,33.274875009279995
3.2e-08,122.99992576,-91.87497216000003,20.078250014720002,33.287375008
3.25e-08,129.24992512000006,-91.87497216000003,20.05325001728,33.3030000064
3.3000000000000004e-08,129.24992512000006,-91.87497216000003,20.05950001664,33.321750004479995
3.35e-08,129.24992512000006,-91.87497216000003,20.065750016000003,33.3342500032
3.4e-08,135.49992448,-76.2499712,20.07200001536,33.34675000192
3.4500000000000005e-08,135.49992448,-107.49997311999999,20.07200001536,33.3498750016
3.5e-08,154.24992256000007,-107.49997311999999,20.07200001536,33.34050000256
3.55e-08,141.74992384000006,-91.87497216000003,20.078250014720002,33.337375002879995
3.6000000000000005e-08,147.9999232,-76.2499712,20.07200001536,33.33112500352
3.65e-08,154.24992256000007,-76.2499712,20.07200001536,33.321750004479995
3.7e-08,147.9999232,-60.62497024000004,20.07200001536,33.31550000512
3.7500000000000005e-08,147.9999232,-60.62497024000004,20.05325001728,33.30925000576
3.8e-08,154.24992256000007,-60.62497024000004,20.05325001728,33.3030000064
3.85e-08,147.9999232,-60.62497024000004,20.047000017920002,33.287375008
3.9000000000000005e-08,147.9999232,-76.2499712,20.047000017920002,33.28112500864
3.95e-08,160.49992192000002,-44.999969280000016,20.05950001664,33.2717500096
4e-08,166.74992128000008,-44.999969280000016,20.065750016000003,33.26237501056
4.0500000000000005e-08,166.74992128000008,-29.374968319999994,20.078250014720002,33.26550001024
4.1e-08,160.49992192000002,-29.374968319999994,20.09075001344,33.268625009919994
4.15e-08,160.49992192000002,-29.374968319999994,20.097000012800002,33.268625009919994
4.2000000000000006e-08,160.49992192000002,1.875033599999938,20.10325001216,33.274875009279995
4.2500000000000003e-08,166.74992128000008,-29.374968319999994,20.08450001408,33.28112500864
4.3e-08,172.99992064000003,-29.374968319999994,20.07200001536,33.287375008
4.3500000000000006e-08,166.74992128000008,-44.999969280000016,20.047000017920002,33.29987500672
4.4000000000000004e-08,166.74992128000008,-13.749967360000028,20.02200002048,33.306125006079995
4.45e-08,172.99992064000003,-13.749967360000028,19.997000023040002,33.29987500672
4.5000000000000006e-08,166.74992128000008,-29.374968319999994,19.99075002368,33.29362500736
4.5500000000000004e-08,160.49992192000002,-13.749967360000028,19.97825002496,33.28112500864
4.6e-08,166.74992128000008,1.875033599999938,19.99075002368,33.27800000896
4.6500000000000006e-08,160.49992192000002,-13.749967360000028,19.97825002496,33.26550001024
4.7000000000000004e-08,154.24992256000007,1.875033599999938,19.965750026240002,33.26550001024
4.75e-08,154.24992256000007,1.875033599999938,19.965750026240002,33.259250010879995
4.8000000000000006e-08,160.49992192000002,17.500034560000017,19.965750026240002,33.253000011519994
4.8500000000000004e-08,160.49992192000002,17.500034560000017,19.97825002496,33.26237501056
4.9e-08,160.49992192000002,17.500034560000017,19.997000023040002,33.2717500096
4.95e-08,154.24992256000007,17.500034560000017,19.997000023040002,33.28425000832
5.0000000000000004e-08,160.49992192000002,33.12503551999998,19.99075002368,33.296750007039996
5.05e-08,154.24992256000007,17.500034560000017,19.997000023040002,33.3030000064
5.1e-08,160.49992192000002,1.875033599999938,20.00950002176,33.29987500672
5.1500000000000005e-08,147.9999232,17.500034560000017,20.02200002048,33.3030000064
5.2e-08,154.24992256000007,33.12503551999998,20.02200002048,33.312375005439996
5.25e-08,147.9999232,33.12503551999998,20.015750021120002,33.321750004479995
5.3000000000000005e-08,154.24992256000007,33.12503551999998,20.00950002176,33.328000003839996
5.35e-08,141.74992384000006,48.75003647999995,19.99075002368,33.328000003839996
5.4e-08,147.9999232,48.75003647999995,19.984500024320003,33.32487500416
5.4500000000000005e-08,141.74992384000006,48.75003647999995,19.984500024320003,33.31550000512
5.5e-08,135.49992448,48.75003647999995,19.9720000256,33.312375005439996
5.55e-08,135.49992448,64.37503744000003,19.965750026240002,33.306125006079995
5.6000000000000005e-08,135.49992448,64.37503744000003,19.94700002816,33.296750007039996
5.65e-08,135.49992448,64.37503744000003,19.94700002816,33.28425000832
5.7e-08,135.49992448,64.37503744000003,19.965750026240002,33.2717500096
5.7500000000000005e-08,122.99992576,64.37503744000003,19.965750026240002,33.259250010879995
5.8e-08,129.24992512000006,95.62503935999996,19.9720000256,33.2561250112
5.85e-08,122.99992576,80.0000384,19.9720000256,33.26237501056
5.9000000000000006e-08,129.24992512000006,64.37503744000003,19.9720000256,33.26237501056
5.9500000000000003e-08,116.74992640000005,48.75003647999995,19.984500024320003,33.2717500096
6.000000000000001e-08,116.74992640000005,95.62503935999996,19.99075002368,33.28112500864
6.05e-08,110.49992703999999,95.62503935999996,19.997000023040002,33.29362500736
6.1e-08,110.49992703999999,95.62503935999996,20.00950002176,33.296750007039996
6.15e-08,104.24992768000004,95.62503935999996,20.00950002176,33.3030000064
6.2e-08,110.49992703999999,95.62503935999996,20.015750021120002,33.306125006079995
6.250000000000001e-08,97.99992831999998,95.62503935999996,20.02200002048,33.296750007039996
6.300000000000001e-08,97.99992831999998,95.62503935999996,20.015750021120002,33.296750007039996
6.35e-08,85.49992960000009,111.25004031999993,20.015750021120002,33.290500007679995
6.4e-08,91.74992896000003,111.25004031999993,19.99075002368,33.27800000896
6.45e-08,85.49992960000009,111.25004031999993,19.997000023040002,33.27800000896
6.5e-08,79.24993024000003,142.50004223999997,20.015750021120002,33.26237501056
6.55e-08,79.24993024000003,126.87504128,20.02200002048,33.253000011519994
6.600000000000001e-08,72.99993088000008,126.87504128,20.034500019200003,33.24675001216
6.65e-08,72.99993088000008,111.25004031999993,20.04075001856,33.24987501184
6.7e-08,79.24993024000003,111.25004031999993,20.047000017920002,33.24675001216
6.75e-08,60.49993216000007,95.62503935999996,20.02825001984,33.253000011519994
6.8e-08,66.74993152000002,126.87504128,20.015750021120002,33.2561250112
6.85e-08,66.74993152000002,142.50004223999997,19.99075002368,33.2561250112
6.900000000000001e-08,54.24993280000001,126.87504128,19.97825002496,33.26550001024
6.950000000000001e-08,41.74993408,111.25004031999993,19.9407500288,33.27800000896
7e-08,47.99993344000006,126.87504128,19.934500029440002,33.29362500736
7.05e-08,47.99993344000006,126.87504128,19.9407500288,33.3030000064
7.1e-08,41.74993408,126.87504128,19.95950002688,33.312375005439996
7.15e-08,41.74993408,142.50004223999997,19.997000023040002,33.312375005439996
7.200000000000001e-08,41.74993408,126.87504128,20.02200002048,33.30925000576
7.250000000000001e-08,41.74993408,142.50004223999997,20.047000017920002,33.31550000512
7.3e-08,35.499934720000056,142.50004223999997,20.07200001536,33.312375005439996
7.35e-08,29.249935359999995,142.50004223999997,20.07200001536,33.30925000576
7.4e-08,29.249935359999995,158.12504319999994,20.065750016000003,33.29987500672
7.45e-08,29.249935359999995,142.50004223999997,20.047000017920002,33.296750007039996
7.500000000000001e-08,29.249935359999995,126.87504128,20.02200002048,33.290500007679995
7.550000000000001e-08,16.749936639999987,142.50004223999997,19.984500024320003,33.29362500736
7.6e-08,22.999936000000048,158.12504319999994,19.95950002688,33.290500007679995
7.65e-08,16.749936639999987,173.75004416000002,19.953250027520003,33.287375008
7.7e-08,10.49993728000004,158.12504319999994,19.95950002688,33.28425000832
7.75e-08,4.249937919999979,158.12504319999994,19.9720000256,33.287375008
7.800000000000001e-08,4.249937919999979,158.12504319999994,20.00950002176,33.29362500736
7.850000000000001e-08,-2.0000614399999677,173.75004416000002,20.04075001856,33.29987500672
7.9e-08,-8.250060799999915,173.75004416000002,20.047000017920002,33.30925000576
7.95e-08,-8.250060799999915,173.75004416000002,20.05325001728,33.306125006079995
8e-08,-8.250060799999915,158.12504319999994,20.02200002048,33.3030000064
8.05e-08,-8.250060799999915,173.75004416000002,19.997000023040002,33.296750007039996
8.100000000000001e-08,-20.750059519999922,173.75004416000002,19.97825002496,33.287375008
8.150000000000001e-08,-20.750059519999922,158.12504319999994,19.9407500288,33.28112500864
8.2e-08,-20.750059519999922,189.37504511999998,19.92200003072,33.27800000896
8.25e-08,-27.000058879999983,173.75004416000002,19.903250032640003,33.2717500096
8.3e-08,-14.500060159999975,158.12504319999994,19.91575003136,33.26237501056
8.35e-08,-27.000058879999983,142.50004223999997,19.92200003072,33.268625009919994
8.400000000000001e-08,-27.000058879999983,158.12504319999994,19.9407500288,33.27800000896
8.450000000000001e-08,-33.25005823999993,158.12504319999994,19.9720000256,33.290500007679995
8.500000000000001e-08,-39.50005759999999,158.12504319999994,19.997000023040002,33.3030000064
8.55e-08,-39.50005759999999,158.12504319999994,20.0032500224,33.312375005439996
8.6e-08,-39.50005759999999,142.50004223999997,20.015750021120002,33.321750004479995
8.65e-08,-45.75005695999994,142.50004223999997,20.0032500224,33.32487500416
8.700000000000001e-08,-52.00005632,142.50004223999997,19.97825002496,33.3342500032
8.750000000000001e-08,-52.00005632,142.50004223999997,19.9720000256,33.33112500352
8.800000000000001e-08,-45.75005695999994,142.50004223999997,19.9407500288,33.328000003839996
8.85e-08,-45.75005695999994,142.50004223999997,19.934500029440002,33.328000003839996
8.9e-08,-58.250055679999946,142.50004223999997,19.95950002688,33.328000003839996
8.95e-08,-58.250055679999946,126.87504128,19.965750026240002,33.33112500352
9.000000000000001e-08,-58.250055679999946,158.12504319999994,19.99075002368,33.3342500032
9.050000000000001e-08,-64.50005504,126.87504128,20.015750021120002,33.343625002239996
9.100000000000001e-08,-64.50005504,95.62503935999996,20.04075001856,33.34050000256
9.15e-08,-70.75005439999995,95.62503935999996,20.047000017920002,33.34050000256
9.2e-08,-64.50005504,111.25004031999993,20.05325001728,33.337375002879995
9.25e-08,-64.50005504,111.25004031999993,20.034500019200003,33.3342500032
9.300000000000001e-08,-70.75005439999995,111.25004031999993,20.00950002176,33.32487500416
9.350000000000001e-08,-77.00005376000001,111.25004031999993,19.9720000256,33.31550000512
9.400000000000001e-08,-77.00005376000001,95.62503935999996,19.95950002688,33.30925000576
9.45e-08,-77.00005376000001,80.0000384,19.94700002816,33.3030000064
9.5e-08,-83.25005311999996,80.0000384,19.953250027520003,33.306125006079995
9.55e-08,-83.25005311999996,95.62503935999996,19.965750026240002,33.30925000576
9.600000000000001e-08,-83.25005311999996,95.62503935999996,19.9720000256,33.306125006079995
9.650000000000001e-08,-89.50005248000002,95.62503935999996,19.984500024320003,33.3030000064
9.700000000000001e-08,-89.50005248000002,80.0000384,20.015750021120002,33.287375008
9.75e-08,-89.50005248000002,64.37503744000003,20.02200002048,33.28112500864
9.8e-08,-95.75005183999997,95.62503935999996,20.02825001984,33.27800000896
9.85e-08,-95.75005183999997,64.37503744000003,20.034500019200003,33.28112500864
9.9e-08,-89.50005248000002,48.75003647999995,20.02825001984,33.28112500864
9.950000000000001e-08,-95.75005183999997,48.75003647999995,20.02825001984,33.28425000832
1.0000000000000001e-07,-102.00005119999997,64.37503744000003,20.02200002048,33.28112500864
1.005e-07,-102.00005119999997,64.37503744000003,20.034500019200003,33.28112500864
1.01e-07,-102.00005119999997,64.37503744000003,20.047000017920002,33.28112500864
1.015e-07,-114.50004991999998,64.37503744000003,20.05950001664,33.27800000896
1.02e-07,-108.25005055999998,48.75003647999995,20.08450001408,33.2717500096
1.0250000000000001e-07,-114.50004991999998,48.75003647999995,20.10950001152,33.26237501056
1.0300000000000001e-07,-120.75004927999998,48.75003647999995,20.115750010880003,33.26237501056
1.0350000000000001e-07,-114.50004991999998,64.37503744000003,20.10950001152,33.2561250112
1.04e-07,-114.50004991999998,48.75003647999995,20.08450001408,33.259250010879995
1.045e-07,-120.75004927999998,48.75003647999995,20.05950001664,33.274875009279995
1.05e-07,-127.00004863999999,64.37503744000003,20.047000017920002,33.28112500864
1.0550000000000001e-07,-133.250048,48.75003647999995,20.02200002048,33.29362500736
1.0600000000000001e-07,-133.250048,64.37503744000003,20.02825001984,33.29987500672
1.0650000000000001e-07,-133.250048,48.75003647999995,20.02825001984,33.312375005439996
1.07e-07,-127.00004863999999,33.12503551999998,20.034500019200003,33.31550000512
1.075e-07,-139.50004736,17.500034560000017,20.02825001984,33.32487500416
1.08e-07,-139.50004736,33.12503551999998,20.04075001856,33.328000003839996
1.0850000000000001e-07,-139.50004736,33.12503551999998,20.047000017920002,33.32487500416
1.0900000000000001e-07,-145.75004672,17.500034560000017,20.05325001728,33.3186250048
1.0950000000000001e-07,-158.25004543999995,33.12503551999998,20.047000017920002,33.312375005439996
1.1e-07,-145.75004672,33.12503551999998,20.04075001856,33.312375005439996
1.105e-07,-152.00004607999995,17.500034560000017,20.034500019200003,33.30925000576
1.11e-07,-164.50004479999996,1.875033599999938,20.034500019200003,33.30925000576
1.1150000000000001e-07,-158.25004543999995,33.12503551999998,20.05325001728,33.3030000064
1.1200000000000001e-07,-158.25004543999995,17.500034560000017,20.05325001728,33.296750007039996
1.1250000000000001e-07,-164.50004479999996,17.500034560000017,20.05325001728,33.296750007039996
1.13e-07,-170.75004415999996,1.875033599999938,20.05950001664,33.287375008
1.135e-07,-170.75004415999996,1.875033599999938,20.05950001664,33.28425000832
1.14e-07,-164.50004479999996,17.500034560000017,20.065750016000003,33.28112500864
1.1450000000000001e-07,-170.75004415999996,1.875033599999938,20.078250014720002,33.28112500864
1.1500000000000001e-07,-164.50004479999996,-13.749967360000028,20.10325001216,33.27800000896
1.1550000000000001e-07,-177.00004351999996,-29.374968319999994,20.10325001216,33.28112500864
1.16e-07,-170.75004415999996,-13.749967360000028,20.08450001408,33.287375008
1.165e-07,-164.50004479999996,-29.374968319999994,20.07200001536,33.29362500736
1.17e-07,-170.75004415999996,-29.374968319999994,20.05950001664,33.29362500736
1.1750000000000001e-07,-177.00004351999996,-29.374968319999994,20.034500019200003,33.290500007679995
1.1800000000000001e-07,-170.75004415999996,-29.374968319999994,20.034500019200003,33.28425000832
1.1850000000000001e-07,-177.00004351999996,-44.999969280000016,20.034500019200003,33.28425000832
1.1900000000000001e-07,-177.00004351999996,-44.999969280000016,20.02200002048,33.28425000832
