Time (s),V_PRI,V_SEC,V_IN,V_OUT
0.0,-19.124908799999957,-201.24997888000001,21.595500010880002,35.977625004800004
5e-10,-34.74990976000004,-216.87497984000004,21.58925001152,35.977625004800004
1e-09,-34.74990976000004,-216.87497984000004,21.60175001024,35.97137500544
1.5000000000000002e-09,-34.74990976000004,-232.4999808,21.62050000832,35.962000006400004
2e-09,-19.124908799999957,-201.24997888000001,21.62050000832,35.952625007360005
2.5e-09,-19.124908799999957,-232.4999808,21.6080000096,35.94950000768
3.0000000000000004e-09,12.125093119999974,-232.4999808,21.6080000096,35.94325000832001
3.5000000000000003e-09,-3.4999078400001054,-263.74998272,21.6080000096,35.94950000768
4e-09,-3.4999078400001054,-232.4999808,21.6080000096,35.952625007360005
4.500000000000001e-09,-3.4999078400001054,-232.4999808,21.61425000896,35.95575000704
5e-09,-3.4999078400001054,-232.4999808,21.6080000096,35.95575000704
5.5000000000000004e-09,-19.124908799999957,-232.4999808,21.58925001152,35.962000006400004
6.000000000000001e-09,27.750094080000054,-216.87497984000004,21.56425001408,35.968250005760005
6.5e-09,-3.4999078400001054,-248.12498176000003,21.57050001344,35.968250005760005
7.000000000000001e-09,-19.124908799999957,-232.4999808,21.56425001408,35.97137500544
7.500000000000001e-09,27.750094080000054,-232.4999808,21.55800001472,35.962000006400004
8e-09,12.125093119999974,-216.87497984000004,21.55175001536,35.962000006400004
8.5e-09,12.125093119999974,-216.87497984000004,21.53300001728,35.962000006400004
9.000000000000001e-09,12.125093119999974,-232.4999808,21.52050001856,35.962000006400004
9.5e-09,12.125093119999974,-232.4999808,21.52675001792,35.95887500672001
1e-08,27.750094080000054,-201.24997888000001,21.52050001856,35.95887500672001
1.0500000000000001e-08,43.375095039999906,-232.4999808,21.514250019200002,35.962000006400004
1.1000000000000001e-08,59.000095999999985,-232.4999808,21.514250019200002,35.96512500608
1.15e-08,27.750094080000054,-248.12498176000003,21.514250019200002,35.98075000448
1.2000000000000002e-08,43.375095039999906,-216.87497984000004,21.514250019200002,35.98700000384
1.2500000000000001e-08,43.375095039999906,-216.87497984000004,21.52050001856,35.99637500288
1.3e-08,43.375095039999906,-201.24997888000001,21.53300001728,36.00262500224
1.35e-08,43.375095039999906,-216.87497984000004,21.53300001728,36.01200000128
1.4000000000000001e-08,59.000095999999985,-201.24997888000001,21.52675001792,36.021375000320006
1.45e-08,59.000095999999985,-201.24997888000001,21.53300001728,36.021375000320006
1.5000000000000002e-08,43.375095039999906,-201.24997888000001,21.53925001664,36.030749999360005
1.55e-08,59.000095999999985,-185.62497792,21.55175001536,36.0245
1.6e-08,59.000095999999985,-201.24997888000001,21.55800001472,36.021375000320006
1.6500000000000002e-08,74.62509695999984,-169.99997696000003,21.55800001472,36.02762499968
1.7e-08,74.62509695999984,-169.99997696000003,21.56425001408,36.01825000064
1.75e-08,43.375095039999906,-169.99997696000003,21.57050001344,36.01825000064
1.8000000000000002e-08,74.62509695999984,-154.374976,21.56425001408,36.00262500224
1.85e-08,74.62509695999984,-169.99997696000003,21.5767500128,35.993250003200004
1.9e-08,90.25009791999992,-185.62497792,21.57050001344,35.977625004800004
1.9500000000000003e-08,74.62509695999984,-185.62497792,21.5767500128,35.97450000512001
2e-08,74.62509695999984,-169.99997696000003,21.58300001216,35.97137500544
2.05e-08,105.87509888,-154.374976,21.58300001216,35.968250005760005
2.1000000000000003e-08,74.62509695999984,-154.374976,21.58300001216,35.96512500608
2.15e-08,74.62509695999984,-154.374976,21.58925001152,35.96512500608
2.2000000000000002e-08,90.25009791999992,-154.374976,21.5767500128,35.96512500608
2.2500000000000003e-08,90.25009791999992,-154.374976,21.58300001216,35.968250005760005
2.3e-08,74.62509695999984,-138.74997504000004,21.595500010880002,35.977625004800004
2.3500000000000002e-08,90.25009791999992,-123.12497408000002,21.595500010880002,35.97450000512001
2.4000000000000003e-08,105.87509888,-138.74997504000004,21.60175001024,35.968250005760005
2.45e-08,105.87509888,-107.49997311999999,21.58925001152,35.96512500608
2.5000000000000002e-08,90.25009791999992,-107.49997311999999,21.58300001216,35.95887500672001
2.55e-08,90.25009791999992,-138.74997504000004,21.58925001152,35.952625007360005
2.6e-08,105.87509888,-91.87497216000003,21.595500010880002,35.946375008000004
2.6500000000000002e-08,105.87509888,-123.12497408000002,21.60175001024,35.94012500864
2.7e-08,121.50009983999985,-138.74997504000004,21.61425000896,35.92450001024
2.75e-08,105.87509888,-138.74997504000004,21.626750007680002,35.92450001024
2.8000000000000003e-08,121.50009983999985,-123.12497408000002,21.64550000576,35.91825001088
2.85e-08,121.50009983999985,-107.49997311999999,21.65175000512,35.915125011200004
2.9e-08,105.87509888,-123.12497408000002,21.65800000448,35.915125011200004
2.9500000000000003e-08,105.87509888,-107.49997311999999,21.65800000448,35.921375010560006
3.0000000000000004e-08,121.50009983999985,-123.12497408000002,21.64550000576,35.930750009600004
3.05e-08,137.12510079999993,-107.49997311999999,21.64550000576,35.94325000832001
3.1e-08,121.50009983999985,-107.49997311999999,21.626750007680002,35.96512500608
3.1500000000000004e-08,121.50009983999985,-107.49997311999999,21.6080000096,35.977625004800004
3.2e-08,137.12510079999993,-91.87497216000003,21.58925001152,35.990125003520006
3.25e-08,137.12510079999993,-91.87497216000003,21.56425001408,36.0088750016
3.3000000000000004e-08,121.50009983999985,-76.2499712,21.55175001536,36.01200000128
3.35e-08,121.50009983999985,-107.49997311999999,21.55800001472,36.01825000064
3.4e-08,137.12510079999993,-76.2499712,21.55800001472,36.015125000960005
3.4500000000000005e-08,137.12510079999993,-91.87497216000003,21.56425001408,36.015125000960005
3.5e-08,152.75010176,-107.49997311999999,21.56425001408,35.999500002560005
3.55e-08,137.12510079999993,-91.87497216000003,21.56425001408,35.990125003520006
3.6000000000000005e-08,168.37510271999986,-76.2499712,21.57050001344,35.983875004160005
3.65e-08,168.37510271999986,-76.2499712,21.57050001344,35.98075000448
3.7e-08,152.75010176,-60.62497024000004,21.56425001408,35.97137500544
3.7500000000000005e-08,137.12510079999993,-60.62497024000004,21.55800001472,35.96512500608
3.8e-08,168.37510271999986,-60.62497024000004,21.545500016000002,35.952625007360005
3.85e-08,168.37510271999986,-60.62497024000004,21.545500016000002,35.94325000832001
3.9000000000000005e-08,168.37510271999986,-60.62497024000004,21.55175001536,35.94325000832001
3.95e-08,168.37510271999986,-44.999969280000016,21.57050001344,35.94012500864
4e-08,184.00010367999994,-29.374968319999994,21.5767500128,35.94325000832001
4.0500000000000005e-08,184.00010367999994,-29.374968319999994,21.57050001344,35.946375008000004
4.1e-08,168.37510271999986,-13.749967360000028,21.56425001408,35.94950000768
4.15e-08,152.75010176,-44.999969280000016,21.58300001216,35.94950000768
4.2000000000000006e-08,168.37510271999986,-13.749967360000028,21.5767500128,35.95887500672001
4.2500000000000003e-08,152.75010176,-29.374968319999994,21.5767500128,35.96512500608
4.3e-08,184.00010367999994,-13.749967360000028,21.56425001408,35.968250005760005
4.3500000000000006e-08,152.75010176,-29.374968319999994,21.53925001664,35.968250005760005
4.4000000000000004e-08,184.00010367999994,-29.374968319999994,21.514250019200002,35.962000006400004
4.45e-08,184.00010367999994,1.875033599999938,21.50175002048,35.946375008000004
4.5000000000000006e-08,168.37510271999986,1.875033599999938,21.49550002112,35.937000008960005
4.5500000000000004e-08,152.75010176,1.875033599999938,21.49550002112,35.92762500992
4.6e-08,168.37510271999986,1.875033599999938,21.47675002304,35.92450001024
4.6500000000000006e-08,152.75010176,1.875033599999938,21.464250024320002,35.91825001088
4.7000000000000004e-08,168.37510271999986,1.875033599999938,21.44550002624,35.921375010560006
4.75e-08,168.37510271999986,17.500034560000017,21.44550002624,35.92450001024
4.8000000000000006e-08,184.00010367999994,17.500034560000017,21.464250024320002,35.93387500928
4.8500000000000004e-08,168.37510271999986,17.500034560000017,21.464250024320002,35.952625007360005
4.9e-08,152.75010176,33.12503551999998,21.47050002368,35.968250005760005
4.95e-08,152.75010176,17.500034560000017,21.4830000224,35.97450000512001
5.0000000000000004e-08,168.37510271999986,48.75003647999995,21.47675002304,35.977625004800004
5.05e-08,152.75010176,33.12503551999998,21.47675002304,35.98075000448
5.1e-08,168.37510271999986,17.500034560000017,21.48925002176,35.977625004800004
5.1500000000000005e-08,152.75010176,17.500034560000017,21.49550002112,35.98700000384
5.2e-08,168.37510271999986,33.12503551999998,21.49550002112,35.999500002560005
5.25e-08,168.37510271999986,48.75003647999995,21.48925002176,36.00262500224
5.3000000000000005e-08,152.75010176,33.12503551999998,21.47675002304,35.993250003200004
5.35e-08,137.12510079999993,48.75003647999995,21.4830000224,35.98700000384
5.4e-08,152.75010176,64.37503744000003,21.47050002368,35.977625004800004
5.4500000000000005e-08,152.75010176,48.75003647999995,21.47050002368,35.968250005760005
5.5e-08,137.12510079999993,48.75003647999995,21.464250024320002,35.96512500608
5.55e-08,137.12510079999993,80.0000384,21.45800002496,35.952625007360005
5.6000000000000005e-08,152.75010176,80.0000384,21.45800002496,35.94012500864
5.65e-08,137.12510079999993,80.0000384,21.43925002688,35.937000008960005
5.7e-08,137.12510079999993,80.0000384,21.43925002688,35.93387500928
5.7500000000000005e-08,137.12510079999993,80.0000384,21.44550002624,35.94012500864
5.8e-08,137.12510079999993,111.25004031999993,21.43925002688,35.946375008000004
5.85e-08,121.50009983999985,95.62503935999996,21.433000027520002,35.952625007360005
5.9000000000000006e-08,137.12510079999993,80.0000384,21.43925002688,35.94950000768
5.9500000000000003e-08,121.50009983999985,95.62503935999996,21.4517500256,35.95887500672001
6.000000000000001e-08,121.50009983999985,95.62503935999996,21.47675002304,35.968250005760005
6.05e-08,121.50009983999985,111.25004031999993,21.49550002112,35.968250005760005
6.1e-08,105.87509888,111.25004031999993,21.514250019200002,35.97137500544
6.15e-08,90.25009791999992,126.87504128,21.514250019200002,35.96512500608
6.2e-08,105.87509888,111.25004031999993,21.50800001984,35.95887500672001
6.250000000000001e-08,90.25009791999992,111.25004031999993,21.50800001984,35.952625007360005
6.300000000000001e-08,74.62509695999984,111.25004031999993,21.49550002112,35.952625007360005
6.35e-08,90.25009791999992,126.87504128,21.47675002304,35.94325000832001
6.4e-08,105.87509888,111.25004031999993,21.47675002304,35.930750009600004
6.45e-08,74.62509695999984,142.50004223999997,21.45800002496,35.921375010560006
6.5e-08,74.62509695999984,142.50004223999997,21.4830000224,35.91200001152
6.55e-08,59.000095999999985,126.87504128,21.514250019200002,35.90887501184
6.600000000000001e-08,74.62509695999984,158.12504319999994,21.53300001728,35.915125011200004
6.65e-08,74.62509695999984,126.87504128,21.53300001728,35.921375010560006
6.7e-08,74.62509695999984,126.87504128,21.53300001728,35.921375010560006
6.75e-08,59.000095999999985,111.25004031999993,21.53300001728,35.93387500928
6.8e-08,59.000095999999985,142.50004223999997,21.514250019200002,35.94325000832001
6.85e-08,59.000095999999985,158.12504319999994,21.49550002112,35.95575000704
6.900000000000001e-08,59.000095999999985,142.50004223999997,21.464250024320002,35.96512500608
6.950000000000001e-08,43.375095039999906,142.50004223999997,21.433000027520002,35.97137500544
7e-08,59.000095999999985,158.12504319999994,21.40800003008,35.97450000512001
7.05e-08,43.375095039999906,142.50004223999997,21.41425002944,35.968250005760005
7.1e-08,27.750094080000054,158.12504319999994,21.433000027520002,35.97137500544
7.15e-08,43.375095039999906,158.12504319999994,21.464250024320002,35.968250005760005
7.200000000000001e-08,43.375095039999906,158.12504319999994,21.50800001984,35.96512500608
7.250000000000001e-08,43.375095039999906,173.75004416000002,21.53300001728,35.97137500544
7.3e-08,27.750094080000054,173.75004416000002,21.56425001408,35.968250005760005
7.35e-08,12.125093119999974,158.12504319999994,21.5767500128,35.96512500608
7.4e-08,27.750094080000054,189.37504511999998,21.57050001344,35.968250005760005
7.45e-08,27.750094080000054,173.75004416000002,21.55800001472,35.97450000512001
7.500000000000001e-08,27.750094080000054,158.12504319999994,21.52050001856,35.968250005760005
7.550000000000001e-08,12.125093119999974,158.12504319999994,21.4830000224,35.97137500544
7.6e-08,12.125093119999974,173.75004416000002,21.45800002496,35.96512500608
7.65e-08,12.125093119999974,173.75004416000002,21.44550002624,35.968250005760005
7.7e-08,-3.4999078400001054,173.75004416000002,21.44550002624,35.968250005760005
7.75e-08,-19.124908799999957,158.12504319999994,21.464250024320002,35.97450000512001
7.800000000000001e-08,12.125093119999974,173.75004416000002,21.47675002304,35.977625004800004
7.850000000000001e-08,-3.4999078400001054,173.75004416000002,21.514250019200002,35.97137500544
7.9e-08,-19.124908799999957,173.75004416000002,21.53925001664,35.96512500608
7.95e-08,-3.4999078400001054,189.37504511999998,21.545500016000002,35.94950000768
8e-08,-3.4999078400001054,158.12504319999994,21.53925001664,35.94012500864
8.05e-08,-19.124908799999957,189.37504511999998,21.49550002112,35.937000008960005
8.100000000000001e-08,-19.124908799999957,189.37504511999998,21.47050002368,35.92762500992
8.150000000000001e-08,-34.74990976000004,173.75004416000002,21.44550002624,35.92762500992
8.2e-08,-34.74990976000004,205.00004607999995,21.41425002944,35.93387500928
8.25e-08,-34.74990976000004,173.75004416000002,21.39550003136,35.946375008000004
8.3e-08,-3.4999078400001054,158.12504319999994,21.389250032,35.95887500672001
8.35e-08,-34.74990976000004,158.12504319999994,21.39550003136,35.97450000512001
8.400000000000001e-08,-34.74990976000004,173.75004416000002,21.41425002944,35.98700000384
8.450000000000001e-08,-34.74990976000004,173.75004416000002,21.44550002624,35.98700000384
8.500000000000001e-08,-65.99991167999997,173.75004416000002,21.47050002368,35.990125003520006
8.55e-08,-81.62491264000005,158.12504319999994,21.50800001984,35.990125003520006
8.6e-08,-34.74990976000004,173.75004416000002,21.50175002048,35.98700000384
8.65e-08,-50.374910720000116,158.12504319999994,21.49550002112,35.983875004160005
8.700000000000001e-08,-65.99991167999997,142.50004223999997,21.48925002176,35.983875004160005
8.750000000000001e-08,-65.99991167999997,173.75004416000002,21.464250024320002,35.977625004800004
8.800000000000001e-08,-65.99991167999997,142.50004223999997,21.4517500256,35.98075000448
8.85e-08,-65.99991167999997,158.12504319999994,21.42675002816,35.993250003200004
8.9e-08,-65.99991167999997,142.50004223999997,21.433000027520002,36.00262500224
8.95e-08,-81.62491264000005,142.50004223999997,21.44550002624,36.01200000128
9.000000000000001e-08,-65.99991167999997,158.12504319999994,21.47050002368,36.015125000960005
9.050000000000001e-08,-81.62491264000005,126.87504128,21.48925002176,36.021375000320006
9.100000000000001e-08,-65.99991167999997,111.25004031999993,21.50800001984,36.01200000128
9.15e-08,-81.62491264000005,126.87504128,21.52050001856,36.015125000960005
9.2e-08,-81.62491264000005,126.87504128,21.514250019200002,36.01200000128
9.25e-08,-97.24991360000013,126.87504128,21.50175002048,35.999500002560005
9.300000000000001e-08,-97.24991360000013,111.25004031999993,21.47675002304,35.98700000384
9.350000000000001e-08,-97.24991360000013,126.87504128,21.45800002496,35.98075000448
9.400000000000001e-08,-81.62491264000005,111.25004031999993,21.4205000288,35.977625004800004
9.45e-08,-112.87491455999998,95.62503935999996,21.41425002944,35.97450000512001
9.5e-08,-112.87491455999998,95.62503935999996,21.4205000288,35.98075000448
9.55e-08,-97.24991360000013,111.25004031999993,21.42675002816,35.968250005760005
9.600000000000001e-08,-97.24991360000013,95.62503935999996,21.4517500256,35.962000006400004
9.650000000000001e-08,-97.24991360000013,95.62503935999996,21.4517500256,35.952625007360005
9.700000000000001e-08,-97.24991360000013,95.62503935999996,21.47050002368,35.946375008000004
9.75e-08,-112.87491455999998,80.0000384,21.48925002176,35.94950000768
9.8e-08,-112.87491455999998,95.62503935999996,21.48925002176,35.94950000768
9.85e-08,-112.87491455999998,80.0000384,21.50175002048,35.94950000768
9.9e-08,-97.24991360000013,64.37503744000003,21.49550002112,35.946375008000004
9.950000000000001e-08,-112.87491455999998,48.75003647999995,21.49550002112,35.94950000768
1.0000000000000001e-07,-112.87491455999998,64.37503744000003,21.49550002112,35.952625007360005
1.005e-07,-112.87491455999998,64.37503744000003,21.50175002048,35.94950000768
1.01e-07,-112.87491455999998,64.37503744000003,21.52050001856,35.94325000832001
1.015e-07,-128.49991552000006,64.37503744000003,21.53925001664,35.937000008960005
1.02e-07,-112.87491455999998,64.37503744000003,21.55800001472,35.930750009600004
1.0250000000000001e-07,-144.12491648000014,64.37503744000003,21.58925001152,35.92762500992
1.0300000000000001e-07,-144.12491648000014,48.75003647999995,21.6080000096,35.93387500928
1.0350000000000001e-07,-128.49991552000006,64.37503744000003,21.60175001024,35.93387500928
1.04e-07,-128.49991552000006,64.37503744000003,21.5767500128,35.94012500864
1.045e-07,-128.49991552000006,64.37503744000003,21.545500016000002,35.952625007360005
1.05e-07,-144.12491648000014,64.37503744000003,21.514250019200002,35.962000006400004
1.0550000000000001e-07,-144.12491648000014,48.75003647999995,21.514250019200002,35.968250005760005
1.0600000000000001e-07,-144.12491648000014,80.0000384,21.50175002048,35.977625004800004
1.0650000000000001e-07,-144.12491648000014,64.37503744000003,21.50175002048,35.983875004160005
1.07e-07,-128.49991552000006,33.12503551999998,21.50800001984,35.98700000384
1.075e-07,-159.74991744,17.500034560000017,21.514250019200002,35.993250003200004
1.08e-07,-159.74991744,33.12503551999998,21.52675001792,36.00262500224
1.0850000000000001e-07,-159.74991744,33.12503551999998,21.545500016000002,35.999500002560005
1.0900000000000001e-07,-159.74991744,33.12503551999998,21.55175001536,35.999500002560005
1.0950000000000001e-07,-190.99991936000015,33.12503551999998,21.55175001536,35.99637500288
1.1e-07,-175.37491840000007,17.500034560000017,21.52675001792,35.993250003200004
1.105e-07,-175.37491840000007,17.500034560000017,21.52050001856,35.983875004160005
1.11e-07,-206.62492032,1.875033599999938,21.52675001792,35.98075000448
1.1150000000000001e-07,-175.37491840000007,17.500034560000017,21.52675001792,35.97137500544
1.1200000000000001e-07,-175.37491840000007,1.875033599999938,21.53925001664,35.962000006400004
1.1250000000000001e-07,-190.99991936000015,17.500034560000017,21.53925001664,35.95575000704
1.13e-07,-190.99991936000015,17.500034560000017,21.53925001664,35.94950000768
1.135e-07,-190.99991936000015,-13.749967360000028,21.55800001472,35.94950000768
1.14e-07,-190.99991936000015,17.500034560000017,21.57050001344,35.94950000768
1.1450000000000001e-07,-190.99991936000015,-13.749967360000028,21.595500010880002,35.95575000704
1.1500000000000001e-07,-175.37491840000007,-29.374968319999994,21.62050000832,35.94950000768
1.1550000000000001e-07,-190.99991936000015,-44.999969280000016,21.62050000832,35.952625007360005
1.16e-07,-190.99991936000015,-29.374968319999994,21.61425000896,35.952625007360005
1.165e-07,-175.37491840000007,-13.749967360000028,21.595500010880002,35.952625007360005
1.17e-07,-175.37491840000007,-29.374968319999994,21.56425001408,35.952625007360005
1.1750000000000001e-07,-206.62492032,-29.374968319999994,21.55175001536,35.952625007360005
1.1800000000000001e-07,-190.99991936000015,-29.374968319999994,21.52675001792,35.952625007360005
1.1850000000000001e-07,-190.99991936000015,-44.999969280000016,21.514250019200002,35.94950000768
1.1900000000000001e-07,-206.62492032,-44.999969280000016,21.50800001984,35.962000006400004
