Time (s),V_PRI,V_SEC,V_IN,V_OUT
0.0,-36.24990976000004,-219.87497984000004,25.537999976960002,43.07075000448
5e-10,-36.24990976000004,-251.12498176000003,25.553624977920002,43.07387500416
1e-09,-20.624908799999957,-266.74998272,25.569249978880002,43.07387500416
1.5000000000000002e-09,-20.624908799999957,-266.74998272,25.553624977920002,43.08012500352
2e-09,-20.624908799999957,-266.74998272,25.553624977920002,43.0832500032
2.5e-09,-4.999907840000105,-266.74998272,25.553624977920002,43.08950000256
3.0000000000000004e-09,-4.999907840000105,-266.74998272,25.569249978880002,43.08950000256
3.5000000000000003e-09,-36.24990976000004,-266.74998272,25.58487497984,43.08950000256
4e-09,-4.999907840000105,-266.74998272,25.553624977920002,43.0832500032
4.500000000000001e-09,-20.624908799999957,-266.74998272,25.537999976960002,43.07700000384
5e-09,-20.624908799999957,-266.74998272,25.522374976000002,43.07700000384
5.5000000000000004e-09,-4.999907840000105,-282.37498368,25.50674997504,43.0676250048
6.000000000000001e-09,10.625093119999974,-282.37498368,25.522374976000002,43.05825000576
6.5e-09,10.625093119999974,-266.74998272,25.50674997504,43.0520000064
7.000000000000001e-09,10.625093119999974,-266.74998272,25.49112497408,43.04575000704
7.500000000000001e-09,10.625093119999974,-282.37498368,25.49112497408,43.04262500736
8e-09,10.625093119999974,-251.12498176000003,25.47549997312,43.04887500672
8.5e-09,26.250094080000054,-266.74998272,25.49112497408,43.06137500544
9.000000000000001e-09,41.875095039999906,-266.74998272,25.47549997312,43.06450000512
9.5e-09,26.250094080000054,-282.37498368,25.45987497216,43.07700000384
1e-08,41.875095039999906,-282.37498368,25.45987497216,43.09262500224
1.0500000000000001e-08,41.875095039999906,-251.12498176000003,25.45987497216,43.10825000064
1.1000000000000001e-08,41.875095039999906,-251.12498176000003,25.4442499712,43.12387499904
1.15e-08,26.250094080000054,-251.12498176000003,25.47549997312,43.13324999808
1.2000000000000002e-08,57.500095999999985,-251.12498176000003,25.4442499712,43.13637499776
1.2500000000000001e-08,41.875095039999906,-251.12498176000003,25.4442499712,43.12387499904
1.3e-08,41.875095039999906,-235.4999808,25.4442499712,43.12699999872
1.35e-08,73.12509695999984,-251.12498176000003,25.42862497024,43.12387499904
1.4000000000000001e-08,73.12509695999984,-251.12498176000003,25.49112497408,43.11762499968
1.45e-08,73.12509695999984,-219.87497984000004,25.49112497408,43.12387499904
1.5000000000000002e-08,73.12509695999984,-219.87497984000004,25.49112497408,43.11762499968
1.55e-08,73.12509695999984,-235.4999808,25.50674997504,43.12699999872
1.6e-08,73.12509695999984,-188.62497792,25.522374976000002,43.13324999808
1.6500000000000002e-08,88.75009791999992,-219.87497984000004,25.537999976960002,43.14262499712
1.7e-08,88.75009791999992,-219.87497984000004,25.553624977920002,43.14262499712
1.75e-08,73.12509695999984,-219.87497984000004,25.537999976960002,43.13949999744
1.8000000000000002e-08,88.75009791999992,-204.24997888000001,25.537999976960002,43.13324999808
1.85e-08,104.37509888,-204.24997888000001,25.537999976960002,43.12387499904
1.9e-08,88.75009791999992,-188.62497792,25.537999976960002,43.11137500032
1.9500000000000003e-08,88.75009791999992,-188.62497792,25.553624977920002,43.10825000064
2e-08,104.37509888,-188.62497792,25.537999976960002,43.10512500096
2.05e-08,88.75009791999992,-188.62497792,25.537999976960002,43.09262500224
2.1000000000000003e-08,88.75009791999992,-188.62497792,25.553624977920002,43.08950000256
2.15e-08,104.37509888,-157.374976,25.553624977920002,43.08012500352
2.2000000000000002e-08,104.37509888,-172.99997696000003,25.58487497984,43.07387500416
2.2500000000000003e-08,104.37509888,-157.374976,25.58487497984,43.07075000448
2.3e-08,104.37509888,-141.74997504000004,25.553624977920002,43.0676250048
2.3500000000000002e-08,104.37509888,-157.374976,25.553624977920002,43.0676250048
2.4000000000000003e-08,120.00009983999985,-141.74997504000004,25.553624977920002,43.07075000448
2.45e-08,120.00009983999985,-157.374976,25.553624977920002,43.07387500416
2.5000000000000002e-08,135.62510079999993,-157.374976,25.537999976960002,43.07075000448
2.55e-08,120.00009983999985,-172.99997696000003,25.537999976960002,43.06450000512
2.6e-08,120.00009983999985,-157.374976,25.537999976960002,43.05512500608
2.6500000000000002e-08,151.25010176,-141.74997504000004,25.553624977920002,43.04575000704
2.7e-08,135.62510079999993,-141.74997504000004,25.569249978880002,43.03950000768
2.75e-08,104.37509888,-141.74997504000004,25.61612498176,43.03325000832
2.8000000000000003e-08,135.62510079999993,-126.12497408000002,25.58487497984,43.03012500864
2.85e-08,135.62510079999993,-141.74997504000004,25.58487497984,43.02387500928
2.9e-08,120.00009983999985,-141.74997504000004,25.58487497984,43.02700000896
2.9500000000000003e-08,151.25010176,-126.12497408000002,25.58487497984,43.03012500864
3.0000000000000004e-08,151.25010176,-126.12497408000002,25.61612498176,43.04262500736
3.05e-08,151.25010176,-110.49997311999999,25.6004999808,43.06450000512
3.1e-08,135.62510079999993,-94.87497216000003,25.553624977920002,43.08012500352
3.1500000000000004e-08,151.25010176,-126.12497408000002,25.537999976960002,43.0988750016
3.2e-08,166.87510271999986,-79.2499712,25.522374976000002,43.1145
3.25e-08,166.87510271999986,-110.49997311999999,25.522374976000002,43.1301249984
3.3000000000000004e-08,182.50010367999994,-126.12497408000002,25.522374976000002,43.1301249984
3.35e-08,151.25010176,-126.12497408000002,25.50674997504,43.13637499776
3.4e-08,166.87510271999986,-110.49997311999999,25.522374976000002,43.12699999872
3.4500000000000005e-08,182.50010367999994,-110.49997311999999,25.50674997504,43.12074999936
3.5e-08,166.87510271999986,-94.87497216000003,25.49112497408,43.11137500032
3.55e-08,166.87510271999986,-94.87497216000003,25.522374976000002,43.10512500096
3.6000000000000005e-08,182.50010367999994,-79.2499712,25.49112497408,43.10512500096
3.65e-08,182.50010367999994,-79.2499712,25.49112497408,43.09262500224
3.7e-08,182.50010367999994,-94.87497216000003,25.49112497408,43.08950000256
3.7500000000000005e-08,182.50010367999994,-63.62497024000004,25.45987497216,43.07387500416
3.8e-08,198.12510464000002,-63.62497024000004,25.50674997504,43.06450000512
3.85e-08,198.12510464000002,-47.999969280000016,25.50674997504,43.06137500544
3.9000000000000005e-08,182.50010367999994,-47.999969280000016,25.49112497408,43.05512500608
3.95e-08,198.12510464000002,-63.62497024000004,25.50674997504,43.0520000064
4e-08,198.12510464000002,-32.374968319999994,25.50674997504,43.05512500608
4.0500000000000005e-08,198.12510464000002,-47.999969280000016,25.522374976000002,43.06450000512
4.1e-08,229.37510655999995,-47.999969280000016,25.522374976000002,43.06450000512
4.15e-08,198.12510464000002,-63.62497024000004,25.537999976960002,43.07075000448
4.2000000000000006e-08,213.75010559999987,-32.374968319999994,25.537999976960002,43.07387500416
4.2500000000000003e-08,213.75010559999987,-16.749967360000028,25.537999976960002,43.07387500416
4.3e-08,213.75010559999987,-16.749967360000028,25.49112497408,43.07075000448
4.3500000000000006e-08,198.12510464000002,-1.124966400000062,25.47549997312,43.0676250048
4.4000000000000004e-08,213.75010559999987,-16.749967360000028,25.42862497024,43.06137500544
4.45e-08,198.12510464000002,-16.749967360000028,25.39737496832,43.04575000704
4.5000000000000006e-08,213.75010559999987,-1.124966400000062,25.38174996736,43.036375008
4.5500000000000004e-08,213.75010559999987,-1.124966400000062,25.38174996736,43.02700000896
4.6e-08,213.75010559999987,-1.124966400000062,25.39737496832,43.02700000896
4.6500000000000006e-08,213.75010559999987,14.500034560000017,25.38174996736,43.03950000768
4.7000000000000004e-08,213.75010559999987,30.125035519999983,25.35049996544,43.04575000704
4.75e-08,198.12510464000002,14.500034560000017,25.39737496832,43.04575000704
4.8000000000000006e-08,198.12510464000002,45.75003647999995,25.41299996928,43.04887500672
4.8500000000000004e-08,198.12510464000002,14.500034560000017,25.42862497024,43.06137500544
4.9e-08,213.75010559999987,-1.124966400000062,25.42862497024,43.07700000384
4.95e-08,182.50010367999994,14.500034560000017,25.42862497024,43.09575000192
5.0000000000000004e-08,198.12510464000002,30.125035519999983,25.42862497024,43.10512500096
5.05e-08,198.12510464000002,30.125035519999983,25.41299996928,43.10200000128
5.1e-08,182.50010367999994,30.125035519999983,25.39737496832,43.0988750016
5.1500000000000005e-08,182.50010367999994,45.75003647999995,25.41299996928,43.10200000128
5.2e-08,198.12510464000002,45.75003647999995,25.38174996736,43.10825000064
5.25e-08,182.50010367999994,45.75003647999995,25.3661249664,43.10200000128
5.3000000000000005e-08,182.50010367999994,61.37503744000003,25.39737496832,43.11137500032
5.35e-08,182.50010367999994,61.37503744000003,25.38174996736,43.08950000256
5.4e-08,182.50010367999994,61.37503744000003,25.41299996928,43.08012500352
5.4500000000000005e-08,182.50010367999994,77.0000384,25.39737496832,43.08012500352
5.5e-08,182.50010367999994,77.0000384,25.3661249664,43.07387500416
5.55e-08,166.87510271999986,77.0000384,25.3661249664,43.07075000448
5.6000000000000005e-08,166.87510271999986,108.25004031999993,25.35049996544,43.06137500544
5.65e-08,166.87510271999986,92.62503935999996,25.33487496448,43.06137500544
5.7e-08,182.50010367999994,92.62503935999996,25.31924996352,43.05512500608
5.7500000000000005e-08,135.62510079999993,77.0000384,25.30362496256,43.0676250048
5.8e-08,151.25010176,108.25004031999993,25.31924996352,43.07387500416
5.85e-08,166.87510271999986,123.87504128,25.33487496448,43.07075000448
5.9000000000000006e-08,135.62510079999993,108.25004031999993,25.3661249664,43.0676250048
5.9500000000000003e-08,135.62510079999993,123.87504128,25.39737496832,43.0676250048
6.000000000000001e-08,151.25010176,123.87504128,25.39737496832,43.07387500416
6.05e-08,120.00009983999985,123.87504128,25.4442499712,43.07700000384
6.1e-08,135.62510079999993,139.50004223999997,25.45987497216,43.07700000384
6.15e-08,120.00009983999985,139.50004223999997,25.45987497216,43.06450000512
6.2e-08,135.62510079999993,139.50004223999997,25.45987497216,43.05512500608
6.250000000000001e-08,120.00009983999985,155.12504319999994,25.42862497024,43.05825000576
6.300000000000001e-08,104.37509888,170.75004416000002,25.3661249664,43.04887500672
6.35e-08,104.37509888,139.50004223999997,25.3661249664,43.03950000768
6.4e-08,104.37509888,186.37504511999998,25.38174996736,43.02700000896
6.45e-08,104.37509888,139.50004223999997,25.38174996736,43.017625009919996
6.5e-08,120.00009983999985,139.50004223999997,25.41299996928,43.01137501056
6.55e-08,104.37509888,139.50004223999997,25.42862497024,43.02387500928
6.600000000000001e-08,88.75009791999992,155.12504319999994,25.4442499712,43.036375008
6.65e-08,104.37509888,170.75004416000002,25.45987497216,43.04262500736
6.7e-08,88.75009791999992,170.75004416000002,25.4442499712,43.04575000704
6.75e-08,73.12509695999984,155.12504319999994,25.4442499712,43.0520000064
6.8e-08,88.75009791999992,186.37504511999998,25.41299996928,43.06137500544
6.85e-08,57.500095999999985,170.75004416000002,25.38174996736,43.06450000512
6.900000000000001e-08,57.500095999999985,186.37504511999998,25.35049996544,43.07075000448
6.950000000000001e-08,57.500095999999985,186.37504511999998,25.31924996352,43.07075000448
7e-08,73.12509695999984,170.75004416000002,25.33487496448,43.0676250048
7.05e-08,57.500095999999985,186.37504511999998,25.3661249664,43.07387500416
7.1e-08,41.875095039999906,186.37504511999998,25.35049996544,43.07075000448
7.15e-08,41.875095039999906,170.75004416000002,25.41299996928,43.07387500416
7.200000000000001e-08,57.500095999999985,217.62504704000003,25.45987497216,43.07387500416
7.250000000000001e-08,41.875095039999906,186.37504511999998,25.50674997504,43.0832500032
7.3e-08,57.500095999999985,186.37504511999998,25.522374976000002,43.08637500288
7.35e-08,26.250094080000054,186.37504511999998,25.50674997504,43.0988750016
7.4e-08,26.250094080000054,202.00004607999995,25.49112497408,43.10200000128
7.45e-08,26.250094080000054,202.00004607999995,25.45987497216,43.10825000064
7.500000000000001e-08,10.625093119999974,202.00004607999995,25.41299996928,43.10512500096
7.550000000000001e-08,10.625093119999974,202.00004607999995,25.38174996736,43.10200000128
7.6e-08,10.625093119999974,217.62504704000003,25.35049996544,43.09575000192
7.65e-08,10.625093119999974,217.62504704000003,25.33487496448,43.08950000256
7.7e-08,-4.999907840000105,217.62504704000003,25.38174996736,43.08637500288
7.75e-08,10.625093119999974,217.62504704000003,25.38174996736,43.07387500416
7.800000000000001e-08,10.625093119999974,217.62504704000003,25.45987497216,43.06137500544
7.850000000000001e-08,10.625093119999974,217.62504704000003,25.49112497408,43.05825000576
7.9e-08,-4.999907840000105,248.87504895999996,25.45987497216,43.04887500672
7.95e-08,-20.624908799999957,202.00004607999995,25.47549997312,43.03950000768
8e-08,-20.624908799999957,248.87504895999996,25.4442499712,43.036375008
8.05e-08,-20.624908799999957,217.62504704000003,25.41299996928,43.04262500736
8.100000000000001e-08,-4.999907840000105,186.37504511999998,25.3661249664,43.04575000704
8.150000000000001e-08,-36.24990976000004,186.37504511999998,25.33487496448,43.06450000512
8.2e-08,-36.24990976000004,202.00004607999995,25.30362496256,43.08012500352
8.25e-08,-36.24990976000004,217.62504704000003,25.30362496256,43.09262500224
8.3e-08,-36.24990976000004,217.62504704000003,25.30362496256,43.0988750016
8.35e-08,-67.49991167999997,186.37504511999998,25.3661249664,43.09575000192
8.400000000000001e-08,-36.24990976000004,217.62504704000003,25.3661249664,43.09575000192
8.450000000000001e-08,-51.874910720000116,217.62504704000003,25.39737496832,43.08950000256
8.500000000000001e-08,-67.49991167999997,202.00004607999995,25.42862497024,43.08950000256
8.55e-08,-67.49991167999997,202.00004607999995,25.42862497024,43.0832500032
8.6e-08,-67.49991167999997,202.00004607999995,25.42862497024,43.08012500352
8.65e-08,-67.49991167999997,202.00004607999995,25.41299996928,43.0832500032
8.700000000000001e-08,-67.49991167999997,217.62504704000003,25.35049996544,43.08950000256
8.750000000000001e-08,-83.12491264000005,186.37504511999998,25.35049996544,43.0988750016
8.800000000000001e-08,-67.49991167999997,202.00004607999995,25.35049996544,43.10825000064
8.85e-08,-83.12491264000005,186.37504511999998,25.33487496448,43.1301249984
8.9e-08,-67.49991167999997,155.12504319999994,25.35049996544,43.14262499712
8.95e-08,-83.12491264000005,155.12504319999994,25.38174996736,43.15512499584
9.000000000000001e-08,-83.12491264000005,170.75004416000002,25.39737496832,43.164499994879996
9.050000000000001e-08,-83.12491264000005,170.75004416000002,25.41299996928,43.15512499584
9.100000000000001e-08,-98.74991360000013,155.12504319999994,25.4442499712,43.14262499712
9.15e-08,-114.37491455999998,155.12504319999994,25.4442499712,43.13324999808
9.2e-08,-83.12491264000005,155.12504319999994,25.41299996928,43.12074999936
9.25e-08,-98.74991360000013,139.50004223999997,25.3661249664,43.0988750016
9.300000000000001e-08,-114.37491455999998,139.50004223999997,25.35049996544,43.09262500224
9.350000000000001e-08,-114.37491455999998,155.12504319999994,25.30362496256,43.07700000384
9.400000000000001e-08,-114.37491455999998,139.50004223999997,25.31924996352,43.0676250048
9.45e-08,-114.37491455999998,139.50004223999997,25.31924996352,43.07387500416
9.5e-08,-98.74991360000013,139.50004223999997,25.31924996352,43.08012500352
9.55e-08,-114.37491455999998,123.87504128,25.35049996544,43.08012500352
9.600000000000001e-08,-114.37491455999998,123.87504128,25.39737496832,43.07387500416
9.650000000000001e-08,-114.37491455999998,108.25004031999993,25.41299996928,43.07387500416
9.700000000000001e-08,-98.74991360000013,92.62503935999996,25.4442499712,43.0676250048
9.75e-08,-129.99991552000006,77.0000384,25.4442499712,43.07387500416
9.8e-08,-129.99991552000006,92.62503935999996,25.4442499712,43.07700000384
9.85e-08,-129.99991552000006,92.62503935999996,25.42862497024,43.07700000384
9.9e-08,-145.62491648000014,92.62503935999996,25.41299996928,43.07075000448
9.950000000000001e-08,-145.62491648000014,92.62503935999996,25.42862497024,43.06450000512
1.0000000000000001e-07,-129.99991552000006,77.0000384,25.41299996928,43.05825000576
1.005e-07,-161.24991744,77.0000384,25.41299996928,43.04887500672
1.01e-07,-161.24991744,77.0000384,25.4442499712,43.04575000704
1.015e-07,-145.62491648000014,108.25004031999993,25.49112497408,43.03325000832
1.02e-07,-161.24991744,77.0000384,25.553624977920002,43.02387500928
1.0250000000000001e-07,-161.24991744,77.0000384,25.58487497984,43.02700000896
1.0300000000000001e-07,-161.24991744,92.62503935999996,25.553624977920002,43.03012500864
1.0350000000000001e-07,-161.24991744,61.37503744000003,25.537999976960002,43.03325000832
1.04e-07,-161.24991744,92.62503935999996,25.50674997504,43.04262500736
1.045e-07,-161.24991744,77.0000384,25.49112497408,43.05825000576
1.05e-07,-145.62491648000014,45.75003647999995,25.4442499712,43.07075000448
1.0550000000000001e-07,-176.87491840000007,45.75003647999995,25.42862497024,43.09262500224
1.0600000000000001e-07,-192.49991936000015,61.37503744000003,25.42862497024,43.11762499968
1.0650000000000001e-07,-176.87491840000007,61.37503744000003,25.4442499712,43.12699999872
1.07e-07,-176.87491840000007,61.37503744000003,25.45987497216,43.13949999744
1.075e-07,-192.49991936000015,61.37503744000003,25.50674997504,43.1457499968
1.08e-07,-192.49991936000015,61.37503744000003,25.50674997504,43.13949999744
1.0850000000000001e-07,-192.49991936000015,61.37503744000003,25.50674997504,43.12699999872
1.0900000000000001e-07,-208.12492032,45.75003647999995,25.49112497408,43.12074999936
1.0950000000000001e-07,-208.12492032,45.75003647999995,25.47549997312,43.10825000064
1.1e-07,-208.12492032,30.125035519999983,25.49112497408,43.09262500224
1.105e-07,-223.74992128000008,45.75003647999995,25.47549997312,43.0832500032
1.11e-07,-208.12492032,30.125035519999983,25.45987497216,43.07075000448
1.1150000000000001e-07,-208.12492032,14.500034560000017,25.45987497216,43.05512500608
1.1200000000000001e-07,-208.12492032,30.125035519999983,25.47549997312,43.04575000704
1.1250000000000001e-07,-208.12492032,14.500034560000017,25.47549997312,43.04887500672
1.13e-07,-208.12492032,-16.749967360000028,25.49112497408,43.0520000064
1.135e-07,-223.74992128000008,-16.749967360000028,25.522374976000002,43.06450000512
1.14e-07,-208.12492032,-1.124966400000062,25.553624977920002,43.0676250048
1.1450000000000001e-07,-223.74992128000008,-1.124966400000062,25.58487497984,43.07075000448
1.1500000000000001e-07,-223.74992128000008,-16.749967360000028,25.58487497984,43.07075000448
1.1550000000000001e-07,-223.74992128000008,-16.749967360000028,25.58487497984,43.07700000384
1.16e-07,-208.12492032,-16.749967360000028,25.537999976960002,43.08637500288
1.165e-07,-223.74992128000008,-32.374968319999994,25.522374976000002,43.08637500288
1.17e-07,-239.37492223999993,-47.999969280000016,25.49112497408,43.08637500288
1.1750000000000001e-07,-223.74992128000008,-32.374968319999994,25.4442499712,43.07387500416
1.1800000000000001e-07,-223.74992128000008,-32.374968319999994,25.45987497216,43.0676250048
1.1850000000000001e-07,-208.12492032,-32.374968319999994,25.4442499712,43.07075000448
1.1900000000000001e-07,-223.74992128000008,-32.374968319999994,25.4442499712,43.06450000512
1.195e-07,-223.74992128000008,-47.999969280000016,25.45987497216,43.0520000064
1.2000000000000002e-07,-223.74992128000008,-32.374968319999994,25.47549997312,43.03012500864
1.205e-07,-223.74992128000008,-63.62497024000004,25.49112497408,43.01137501056
1.21e-07,-192.49991936000015,-79.2499712,25.49112497408,43.002000011519996
1.215e-07,-223.74992128000008,-94.87497216000003,25.49112497408,43.01137501056
1.22e-07,-223.74992128000008,-79.2499712,25.50674997504,43.03012500864
1.2250000000000002e-07,-192.49991936000015,-79.2499712,25.50674997504,43.04887500672
