Time (s),V_PRI,V_SEC,V_IN,V_OUT
0.0,-34.74990976000004,-263.74998272,27.5382499808,46.571000001920005
5e-10,-34.74990976000004,-263.74998272,27.55387498176,46.58350000064
1e-09,-34.74990976000004,-279.37498368,27.55387498176,46.595999999360004
1.5000000000000002e-09,-34.74990976000004,-279.37498368,27.55387498176,46.602249998720005
2e-09,-19.124908799999957,-279.37498368,27.55387498176,46.6053749984
2.5e-09,-19.124908799999957,-279.37498368,27.55387498176,46.602249998720005
3.0000000000000004e-09,-3.4999078400001054,-279.37498368,27.491374977920003,46.586625000320005
3.5000000000000003e-09,-19.124908799999957,-294.99998464,27.491374977920003,46.56787500224
4e-09,12.125093119999974,-279.37498368,27.491374977920003,46.549125004160004
4.500000000000001e-09,-3.4999078400001054,-294.99998464,27.475749976960003,46.5428750048
5e-09,27.750094080000054,-310.6249856,27.460124976000003,46.53037500608
5.5000000000000004e-09,12.125093119999974,-310.6249856,27.444499975040003,46.524125006720006
6.000000000000001e-09,12.125093119999974,-279.37498368,27.460124976000003,46.517875007360004
6.5e-09,12.125093119999974,-279.37498368,27.460124976000003,46.51475000768
7.000000000000001e-09,27.750094080000054,-279.37498368,27.460124976000003,46.524125006720006
7.500000000000001e-09,12.125093119999974,-279.37498368,27.491374977920003,46.5428750048
8e-09,43.375095039999906,-279.37498368,27.444499975040003,46.564750002560004
8.5e-09,27.750094080000054,-294.99998464,27.444499975040003,46.57725000128
9.000000000000001e-09,12.125093119999974,-279.37498368,27.444499975040003,46.59912499904
9.5e-09,27.750094080000054,-279.37498368,27.413249973120003,46.61162499776
1e-08,43.375095039999906,-279.37498368,27.444499975040003,46.6209999968
1.0500000000000001e-08,43.375095039999906,-263.74998272,27.397624972160003,46.62724999616
1.1000000000000001e-08,43.375095039999906,-263.74998272,27.381999971200003,46.62412499648
1.15e-08,43.375095039999906,-279.37498368,27.366374970240003,46.61162499776
1.2000000000000002e-08,59.000095999999985,-248.12498176000003,27.381999971200003,46.595999999360004
1.2500000000000001e-08,59.000095999999985,-263.74998272,27.397624972160003,46.59287499968
1.3e-08,90.25009791999992,-263.74998272,27.413249973120003,46.586625000320005
1.35e-08,74.62509695999984,-263.74998272,27.413249973120003,46.59287499968
1.4000000000000001e-08,74.62509695999984,-263.74998272,27.444499975040003,46.602249998720005
1.45e-08,90.25009791999992,-248.12498176000003,27.475749976960003,46.61162499776
1.5000000000000002e-08,74.62509695999984,-248.12498176000003,27.491374977920003,46.62724999616
1.55e-08,74.62509695999984,-232.4999808,27.52262497984,46.63974999488
1.6e-08,90.25009791999992,-232.4999808,27.506999978880003,46.649124993920005
1.6500000000000002e-08,90.25009791999992,-232.4999808,27.491374977920003,46.6522499936
1.7e-08,90.25009791999992,-232.4999808,27.491374977920003,46.649124993920005
1.75e-08,90.25009791999992,-201.24997888000001,27.460124976000003,46.6366249952
1.8000000000000002e-08,105.87509888,-216.87497984000004,27.491374977920003,46.62412499648
1.85e-08,105.87509888,-201.24997888000001,27.506999978880003,46.61474999744
1.9e-08,90.25009791999992,-185.62497792,27.491374977920003,46.59912499904
1.9500000000000003e-08,105.87509888,-201.24997888000001,27.506999978880003,46.586625000320005
2e-08,105.87509888,-169.99997696000003,27.506999978880003,46.571000001920005
2.05e-08,105.87509888,-201.24997888000001,27.52262497984,46.564750002560004
2.1000000000000003e-08,121.50009983999985,-201.24997888000001,27.5382499808,46.55225000384
2.15e-08,105.87509888,-201.24997888000001,27.52262497984,46.55225000384
2.2000000000000002e-08,121.50009983999985,-185.62497792,27.5382499808,46.55225000384
2.2500000000000003e-08,121.50009983999985,-169.99997696000003,27.5382499808,46.55225000384
2.3e-08,121.50009983999985,-169.99997696000003,27.506999978880003,46.56162500288
2.3500000000000002e-08,105.87509888,-169.99997696000003,27.52262497984,46.5741250016
2.4000000000000003e-08,121.50009983999985,-154.374976,27.506999978880003,46.58350000064
2.45e-08,121.50009983999985,-169.99997696000003,27.491374977920003,46.58350000064
2.5000000000000002e-08,121.50009983999985,-169.99997696000003,27.506999978880003,46.5741250016
2.55e-08,121.50009983999985,-138.74997504000004,27.491374977920003,46.555375003520005
2.6e-08,152.75010176,-154.374976,27.5382499808,46.533500005760004
2.6500000000000002e-08,137.12510079999993,-138.74997504000004,27.56949998272,46.524125006720006
2.7e-08,152.75010176,-123.12497408000002,27.55387498176,46.51475000768
2.75e-08,137.12510079999993,-154.374976,27.56949998272,46.502250008960004
2.8000000000000003e-08,152.75010176,-107.49997311999999,27.56949998272,46.49287500992
2.85e-08,152.75010176,-138.74997504000004,27.58512498368,46.4960000096
2.9e-08,168.37510271999986,-138.74997504000004,27.56949998272,46.502250008960004
2.9500000000000003e-08,152.75010176,-154.374976,27.55387498176,46.52100000704
3.0000000000000004e-08,168.37510271999986,-123.12497408000002,27.55387498176,46.549125004160004
3.05e-08,168.37510271999986,-123.12497408000002,27.5382499808,46.5741250016
3.1e-08,168.37510271999986,-138.74997504000004,27.506999978880003,46.59287499968
3.1500000000000004e-08,152.75010176,-107.49997311999999,27.506999978880003,46.61162499776
3.2e-08,184.00010367999994,-123.12497408000002,27.444499975040003,46.62724999616
3.25e-08,168.37510271999986,-123.12497408000002,27.444499975040003,46.633499995520005
3.3000000000000004e-08,168.37510271999986,-107.49997311999999,27.460124976000003,46.6366249952
3.35e-08,184.00010367999994,-107.49997311999999,27.444499975040003,46.63037499584
3.4e-08,199.62510464000002,-91.87497216000003,27.460124976000003,46.62412499648
3.4500000000000005e-08,184.00010367999994,-91.87497216000003,27.444499975040003,46.6209999968
3.5e-08,184.00010367999994,-76.2499712,27.428874974080003,46.6053749984
3.55e-08,184.00010367999994,-107.49997311999999,27.444499975040003,46.59287499968
3.6000000000000005e-08,199.62510464000002,-76.2499712,27.428874974080003,46.57725000128
3.65e-08,215.25010559999987,-91.87497216000003,27.428874974080003,46.56787500224
3.7e-08,230.87510655999995,-107.49997311999999,27.444499975040003,46.549125004160004
3.7500000000000005e-08,199.62510464000002,-76.2499712,27.444499975040003,46.5428750048
3.8e-08,215.25010559999987,-60.62497024000004,27.460124976000003,46.539750005120005
3.85e-08,230.87510655999995,-60.62497024000004,27.475749976960003,46.53662500544
3.9000000000000005e-08,215.25010559999987,-60.62497024000004,27.475749976960003,46.5428750048
3.95e-08,215.25010559999987,-44.999969280000016,27.491374977920003,46.549125004160004
4e-08,246.50010752000003,-44.999969280000016,27.475749976960003,46.56162500288
4.0500000000000005e-08,215.25010559999987,-60.62497024000004,27.491374977920003,46.571000001920005
4.1e-08,215.25010559999987,-29.374968319999994,27.506999978880003,46.57725000128
4.15e-08,215.25010559999987,-29.374968319999994,27.491374977920003,46.5741250016
4.2000000000000006e-08,230.87510655999995,-13.749967360000028,27.506999978880003,46.571000001920005
4.2500000000000003e-08,215.25010559999987,-13.749967360000028,27.491374977920003,46.571000001920005
4.3e-08,215.25010559999987,-13.749967360000028,27.413249973120003,46.564750002560004
4.3500000000000006e-08,215.25010559999987,-13.749967360000028,27.397624972160003,46.549125004160004
4.4000000000000004e-08,230.87510655999995,17.500034560000017,27.366374970240003,46.53037500608
4.45e-08,230.87510655999995,-13.749967360000028,27.350749969280002,46.517875007360004
4.5000000000000006e-08,230.87510655999995,-13.749967360000028,27.350749969280002,46.502250008960004
4.5500000000000004e-08,215.25010559999987,1.875033599999938,27.350749969280002,46.50537500864
4.6e-08,230.87510655999995,17.500034560000017,27.335124968320002,46.51475000768
4.6500000000000006e-08,230.87510655999995,17.500034560000017,27.335124968320002,46.52100000704
4.7000000000000004e-08,215.25010559999987,1.875033599999938,27.350749969280002,46.524125006720006
4.75e-08,199.62510464000002,17.500034560000017,27.381999971200003,46.5272500064
4.8000000000000006e-08,215.25010559999987,33.12503551999998,27.366374970240003,46.54600000448
4.8500000000000004e-08,215.25010559999987,33.12503551999998,27.381999971200003,46.5741250016
4.9e-08,199.62510464000002,17.500034560000017,27.381999971200003,46.595999999360004
4.95e-08,215.25010559999987,33.12503551999998,27.350749969280002,46.6053749984
5.0000000000000004e-08,215.25010559999987,33.12503551999998,27.381999971200003,46.6053749984
5.05e-08,215.25010559999987,48.75003647999995,27.381999971200003,46.6053749984
5.1e-08,199.62510464000002,64.37503744000003,27.350749969280002,46.60849999808
5.1500000000000005e-08,199.62510464000002,48.75003647999995,27.350749969280002,46.60849999808
5.2e-08,199.62510464000002,80.0000384,27.366374970240003,46.59912499904
5.25e-08,199.62510464000002,64.37503744000003,27.366374970240003,46.58975
5.3000000000000005e-08,215.25010559999987,48.75003647999995,27.366374970240003,46.56787500224
5.35e-08,184.00010367999994,48.75003647999995,27.366374970240003,46.5585000032
5.4e-08,184.00010367999994,64.37503744000003,27.350749969280002,46.55225000384
5.4500000000000005e-08,184.00010367999994,80.0000384,27.335124968320002,46.549125004160004
5.5e-08,168.37510271999986,95.62503935999996,27.303874966400002,46.5428750048
5.55e-08,168.37510271999986,95.62503935999996,27.319499967360002,46.539750005120005
5.6000000000000005e-08,168.37510271999986,95.62503935999996,27.272624964480002,46.54600000448
5.65e-08,168.37510271999986,95.62503935999996,27.256999963520002,46.5585000032
5.7e-08,152.75010176,95.62503935999996,27.272624964480002,46.5741250016
5.7500000000000005e-08,168.37510271999986,126.87504128,27.272624964480002,46.57725000128
5.8e-08,168.37510271999986,126.87504128,27.319499967360002,46.5741250016
5.85e-08,168.37510271999986,126.87504128,27.335124968320002,46.5741250016
5.9000000000000006e-08,137.12510079999993,142.50004223999997,27.319499967360002,46.5741250016
5.9500000000000003e-08,137.12510079999993,126.87504128,27.366374970240003,46.57725000128
6.000000000000001e-08,137.12510079999993,158.12504319999994,27.381999971200003,46.571000001920005
6.05e-08,137.12510079999993,142.50004223999997,27.397624972160003,46.56162500288
6.1e-08,152.75010176,142.50004223999997,27.381999971200003,46.5428750048
6.15e-08,121.50009983999985,142.50004223999997,27.366374970240003,46.53662500544
6.2e-08,121.50009983999985,142.50004223999997,27.350749969280002,46.53037500608
6.250000000000001e-08,121.50009983999985,158.12504319999994,27.335124968320002,46.52100000704
6.300000000000001e-08,121.50009983999985,173.75004416000002,27.319499967360002,46.508500008320006
6.35e-08,90.25009791999992,158.12504319999994,27.350749969280002,46.49287500992
6.4e-08,121.50009983999985,158.12504319999994,27.350749969280002,46.49912500928
6.45e-08,105.87509888,173.75004416000002,27.350749969280002,46.50537500864
6.5e-08,90.25009791999992,173.75004416000002,27.397624972160003,46.524125006720006
6.55e-08,90.25009791999992,173.75004416000002,27.413249973120003,46.5272500064
6.600000000000001e-08,90.25009791999992,158.12504319999994,27.460124976000003,46.533500005760004
6.65e-08,90.25009791999992,189.37504511999998,27.444499975040003,46.54600000448
6.7e-08,74.62509695999984,205.00004607999995,27.381999971200003,46.555375003520005
6.75e-08,59.000095999999985,173.75004416000002,27.366374970240003,46.5585000032
6.8e-08,74.62509695999984,205.00004607999995,27.350749969280002,46.555375003520005
6.85e-08,90.25009791999992,173.75004416000002,27.303874966400002,46.5585000032
6.900000000000001e-08,74.62509695999984,173.75004416000002,27.288249965440002,46.549125004160004
6.950000000000001e-08,43.375095039999906,173.75004416000002,27.256999963520002,46.55225000384
7e-08,59.000095999999985,189.37504511999998,27.272624964480002,46.555375003520005
7.05e-08,59.000095999999985,189.37504511999998,27.319499967360002,46.55225000384
7.1e-08,43.375095039999906,189.37504511999998,27.366374970240003,46.555375003520005
7.15e-08,27.750094080000054,205.00004607999995,27.444499975040003,46.555375003520005
7.200000000000001e-08,43.375095039999906,220.62504704000003,27.460124976000003,46.56787500224
7.250000000000001e-08,43.375095039999906,205.00004607999995,27.506999978880003,46.580375000960004
7.3e-08,27.750094080000054,205.00004607999995,27.491374977920003,46.59287499968
7.35e-08,27.750094080000054,205.00004607999995,27.460124976000003,46.59912499904
7.4e-08,27.750094080000054,236.250048,27.444499975040003,46.59912499904
7.45e-08,12.125093119999974,220.62504704000003,27.397624972160003,46.60849999808
7.500000000000001e-08,12.125093119999974,251.87504895999996,27.319499967360002,46.60849999808
7.550000000000001e-08,12.125093119999974,220.62504704000003,27.272624964480002,46.6053749984
7.6e-08,12.125093119999974,251.87504895999996,27.272624964480002,46.586625000320005
7.65e-08,-3.4999078400001054,236.250048,27.288249965440002,46.57725000128
7.7e-08,12.125093119999974,236.250048,27.319499967360002,46.555375003520005
7.75e-08,-19.124908799999957,220.62504704000003,27.366374970240003,46.54600000448
7.800000000000001e-08,-3.4999078400001054,220.62504704000003,27.413249973120003,46.539750005120005
7.850000000000001e-08,-3.4999078400001054,236.250048,27.428874974080003,46.524125006720006
7.9e-08,-19.124908799999957,236.250048,27.444499975040003,46.517875007360004
7.95e-08,-34.74990976000004,236.250048,27.460124976000003,46.517875007360004
8e-08,-19.124908799999957,236.250048,27.381999971200003,46.53037500608
8.05e-08,-19.124908799999957,251.87504895999996,27.335124968320002,46.549125004160004
8.100000000000001e-08,-50.374910720000116,236.250048,27.319499967360002,46.5741250016
8.150000000000001e-08,-34.74990976000004,236.250048,27.272624964480002,46.58350000064
8.2e-08,-34.74990976000004,220.62504704000003,27.256999963520002,46.58975
8.25e-08,-50.374910720000116,236.250048,27.256999963520002,46.59912499904
8.3e-08,-50.374910720000116,236.250048,27.241374962560002,46.595999999360004
8.35e-08,-50.374910720000116,220.62504704000003,27.288249965440002,46.586625000320005
8.400000000000001e-08,-65.99991167999997,251.87504895999996,27.319499967360002,46.5741250016
8.450000000000001e-08,-65.99991167999997,220.62504704000003,27.366374970240003,46.564750002560004
8.500000000000001e-08,-34.74990976000004,220.62504704000003,27.366374970240003,46.55225000384
8.55e-08,-81.62491264000005,220.62504704000003,27.381999971200003,46.55225000384
8.6e-08,-65.99991167999997,220.62504704000003,27.366374970240003,46.564750002560004
8.65e-08,-65.99991167999997,220.62504704000003,27.350749969280002,46.5741250016
8.700000000000001e-08,-65.99991167999997,205.00004607999995,27.335124968320002,46.586625000320005
8.750000000000001e-08,-97.24991360000013,189.37504511999998,27.335124968320002,46.6053749984
8.800000000000001e-08,-65.99991167999997,189.37504511999998,27.303874966400002,46.6366249952
8.85e-08,-97.24991360000013,205.00004607999995,27.303874966400002,46.65537499328
8.9e-08,-97.24991360000013,189.37504511999998,27.335124968320002,46.67412499136
8.95e-08,-97.24991360000013,205.00004607999995,27.335124968320002,46.67099999168
9.000000000000001e-08,-81.62491264000005,173.75004416000002,27.397624972160003,46.65537499328
9.050000000000001e-08,-97.24991360000013,189.37504511999998,27.381999971200003,46.64287499456
9.100000000000001e-08,-97.24991360000013,189.37504511999998,27.366374970240003,46.62412499648
9.15e-08,-97.24991360000013,158.12504319999994,27.366374970240003,46.6053749984
9.2e-08,-112.87491455999998,173.75004416000002,27.350749969280002,46.58350000064
9.25e-08,-112.87491455999998,142.50004223999997,27.319499967360002,46.564750002560004
9.300000000000001e-08,-97.24991360000013,126.87504128,27.303874966400002,46.54600000448
9.350000000000001e-08,-128.49991552000006,142.50004223999997,27.272624964480002,46.55225000384
9.400000000000001e-08,-128.49991552000006,142.50004223999997,27.272624964480002,46.56162500288
9.45e-08,-128.49991552000006,142.50004223999997,27.288249965440002,46.56787500224
9.5e-08,-128.49991552000006,142.50004223999997,27.303874966400002,46.5741250016
9.55e-08,-144.12491648000014,126.87504128,27.335124968320002,46.5741250016
9.600000000000001e-08,-128.49991552000006,111.25004031999993,27.335124968320002,46.57725000128
9.650000000000001e-08,-144.12491648000014,111.25004031999993,27.350749969280002,46.57725000128
9.700000000000001e-08,-144.12491648000014,111.25004031999993,27.366374970240003,46.580375000960004
9.75e-08,-128.49991552000006,126.87504128,27.366374970240003,46.5741250016
9.8e-08,-128.49991552000006,111.25004031999993,27.397624972160003,46.5585000032
9.85e-08,-159.74991744,111.25004031999993,27.381999971200003,46.5585000032
9.9e-08,-159.74991744,111.25004031999993,27.350749969280002,46.54600000448
9.950000000000001e-08,-159.74991744,95.62503935999996,27.366374970240003,46.53662500544
1.0000000000000001e-07,-144.12491648000014,111.25004031999993,27.366374970240003,46.5272500064
1.005e-07,-159.74991744,95.62503935999996,27.413249973120003,46.52100000704
1.01e-07,-159.74991744,95.62503935999996,27.444499975040003,46.508500008320006
1.015e-07,-159.74991744,95.62503935999996,27.475749976960003,46.508500008320006
1.02e-07,-175.37491840000007,80.0000384,27.491374977920003,46.51475000768
1.0250000000000001e-07,-159.74991744,80.0000384,27.52262497984,46.51475000768
1.0300000000000001e-07,-159.74991744,80.0000384,27.475749976960003,46.517875007360004
1.0350000000000001e-07,-190.99991936000015,95.62503935999996,27.475749976960003,46.53037500608
1.04e-07,-175.37491840000007,64.37503744000003,27.413249973120003,46.55225000384
1.045e-07,-190.99991936000015,80.0000384,27.397624972160003,46.571000001920005
1.05e-07,-206.62492032,64.37503744000003,27.397624972160003,46.59287499968
1.0550000000000001e-07,-190.99991936000015,80.0000384,27.381999971200003,46.60849999808
1.0600000000000001e-07,-190.99991936000015,80.0000384,27.428874974080003,46.6209999968
1.0650000000000001e-07,-190.99991936000015,80.0000384,27.444499975040003,46.63974999488
1.07e-07,-206.62492032,80.0000384,27.444499975040003,46.64599999424
1.075e-07,-206.62492032,48.75003647999995,27.475749976960003,46.63974999488
1.08e-07,-206.62492032,64.37503744000003,27.475749976960003,46.62724999616
1.0850000000000001e-07,-206.62492032,48.75003647999995,27.460124976000003,46.60849999808
1.0900000000000001e-07,-190.99991936000015,33.12503551999998,27.428874974080003,46.586625000320005
1.0950000000000001e-07,-222.24992128000008,33.12503551999998,27.413249973120003,46.57725000128
1.1e-07,-222.24992128000008,33.12503551999998,27.413249973120003,46.56787500224
1.105e-07,-222.24992128000008,33.12503551999998,27.397624972160003,46.55225000384
1.11e-07,-222.24992128000008,33.12503551999998,27.428874974080003,46.53662500544
1.1150000000000001e-07,-237.87492223999993,17.500034560000017,27.444499975040003,46.5272500064
1.1200000000000001e-07,-237.87492223999993,17.500034560000017,27.444499975040003,46.53037500608
1.1250000000000001e-07,-237.87492223999993,1.875033599999938,27.475749976960003,46.539750005120005
1.13e-07,-253.4999232,1.875033599999938,27.52262497984,46.56162500288
1.135e-07,-237.87492223999993,1.875033599999938,27.55387498176,46.56787500224
1.14e-07,-237.87492223999993,1.875033599999938,27.58512498368,46.571000001920005
1.1450000000000001e-07,-253.4999232,-13.749967360000028,27.58512498368,46.580375000960004
1.1500000000000001e-07,-222.24992128000008,1.875033599999938,27.5382499808,46.58350000064
1.1550000000000001e-07,-253.4999232,-29.374968319999994,27.52262497984,46.586625000320005
1.16e-07,-253.4999232,1.875033599999938,27.475749976960003,46.58350000064
1.165e-07,-237.87492223999993,-29.374968319999994,27.444499975040003,46.57725000128
1.17e-07,-222.24992128000008,-44.999969280000016,27.397624972160003,46.5585000032
1.1750000000000001e-07,-253.4999232,-60.62497024000004,27.381999971200003,46.549125004160004
