time	V(gbottom)	V(gtop)	V(n_bot_mid)	V(n_top_mid)	V(n_top_mid)-V(n_bot_mid)	V(sec_r)-V(sec_bot)	I(Cssec)	I(Lspri)
0.000000000000000e+00	1.833597856724075e+00	-1.105922000040576e-02	2.302334470115682e-01	4.069895309311828e+01	4.046871964610671e+01	-5.012287410890861e+01	-1.157727819378240e+00	4.118387941039161e-01
3.042963037309162e-12	1.830775222069416e+00	-1.106283287262662e-02	2.387664275575020e-01	4.069201717660783e+01	4.045325074905033e+01	-5.012288866292538e+01	-1.157779276546529e+00	4.116983775866228e-01
9.128889105151222e-12	1.825282007964643e+00	-1.107010405735480e-02	2.561704178619619e-01	4.067814285215767e+01	4.042197243429571e+01	-5.012291776732794e+01	-1.157882159988397e+00	4.114175163371033e-01
1.881635559169981e-11	1.817177249336401e+00	-1.108169233063707e-02	2.852206160927003e-01	4.065604749249995e+01	4.037082687640725e+01	-5.012296408024455e+01	-1.158045800992754e+00	4.109703284161771e-01
3.819128855802071e-11	1.803333805532901e+00	-1.110491678340741e-02	3.480327342563229e-01	4.061181816284414e+01	4.026378542858782e+01	-5.012305665143289e+01	-1.158372619432987e+00	4.100755016571186e-01
6.895035886374853e-11	1.787573837056070e+00	-1.114189155905929e-02	4.595231923111804e-01	4.054149564124068e+01	4.008197244892950e+01	-5.012320346675279e+01	-1.158890214670720e+00	4.086536032139123e-01
1.039801839669194e-10	1.777575622174440e+00	-1.118413102223888e-02	6.008460001617094e-01	4.046125232683735e+01	3.986040632667564e+01	-5.012337044858688e+01	-1.159477834470796e+00	4.070322324030795e-01
1.390711156938661e-10	1.773110568590288e+00	-1.122656057862014e-02	7.520619799679191e-01	4.038070242847855e+01	3.962864044851063e+01	-5.012353749181682e+01	-1.160064541618417e+00	4.054057433408282e-01
1.847810898297211e-10	1.768134829838242e+00	-1.128198111837250e-02	9.506559277881107e-01	4.027552831315049e+01	3.932487238536238e+01	-5.012375474214053e+01	-1.160825903894559e+00	4.032835485698700e-01
1.947079447949277e-10	1.766583077711924e+00	-1.129404197847194e-02	9.928520391001604e-01	4.025265056389359e+01	3.925979852479343e+01	-5.012380187126426e+01	-1.160990816502019e+00	4.028221471953114e-01
2.043732136379050e-10	1.764687346689371e+00	-1.130579567947904e-02	1.033114452851060e+00	4.023036301831890e+01	3.919724856546785e+01	-5.012384774083547e+01	-1.161151234041665e+00	4.023727282010819e-01
2.136932815758035e-10	1.762424194628907e+00	-1.131713881815088e-02	1.071055000787261e+00	4.020885968575035e+01	3.913780468496309e+01	-5.012389195561001e+01	-1.161305781925690e+00	4.019391980398717e-01
2.323334174448243e-10	1.756296483830430e+00	-1.133985341217956e-02	1.143765966641674e+00	4.016581831810286e+01	3.902205235146119e+01	-5.012398033612957e+01	-1.161614461208465e+00	4.010716707931087e-01
2.696136891964184e-10	1.735869398366723e+00	-1.138540021382128e-02	1.273902655688818e+00	4.007959725840358e+01	3.880569460271477e+01	-5.012415689831047e+01	-1.162230126539607e+00	3.993348418155411e-01
3.176154673469045e-10	1.690377886807244e+00	-1.144432822372351e-02	1.407715716856897e+00	3.996830938042161e+01	3.856059366356471e+01	-5.012438383870478e+01	-1.163019441646541e+00	3.970953238384271e-01
3.667796758042956e-10	1.620552378100386e+00	-1.150510645730870e-02	1.506912480348662e+00	3.985401300752421e+01	3.834710052717555e+01	-5.012461579341646e+01	-1.163823760825691e+00	3.947982955891868e-01
4.159438842616867e-10	1.532054395486486e+00	-1.156638937180904e-02	1.578985003764498e+00	3.973940161277859e+01	3.816041660901409e+01	-5.012484724488720e+01	-1.164623796179019e+00	3.924983750502659e-01
4.651080927190777e-10	1.435107079899544e+00	-1.162818451850831e-02	1.642529002160589e+00	3.962447751794119e+01	3.798194851578061e+01	-5.012507818115837e+01	-1.165419477314921e+00	3.901957969230696e-01
5.142723011764688e-10	1.342425903808785e+00	-1.169042942460728e-02	1.718248273714776e+00	3.950924310590229e+01	3.779099483218751e+01	-5.012530859716556e+01	-1.166210806774625e+00	3.878905400714432e-01
5.634365096270836e-10	1.265577377244027e+00	-1.175301757677636e-02	1.823546233423134e+00	3.939370082185814e+01	3.757015458843500e+01	-5.012553849534810e+01	-1.166997857416792e+00	3.855823366981183e-01
6.126007180844747e-10	1.212560600333519e+00	-1.181584437235739e-02	1.968273383971587e+00	3.927785312840409e+01	3.730957974443250e+01	-5.012576788430058e+01	-1.167780752000669e+00	3.832707439813461e-01
6.617649265418658e-10	1.185825749687938e+00	-1.187885076512206e-02	2.152362435077801e+00	3.916170248902882e+01	3.700934005395102e+01	-5.012599677589375e+01	-1.168559630658581e+00	3.809552582045266e-01
7.109291349992569e-10	1.181336482258401e+00	-1.194204963545800e-02	2.365758453294779e+00	3.904525133984755e+01	3.667949288655277e+01	-5.012622518158663e+01	-1.169334614033202e+00	3.786354440970214e-01
7.567718189165898e-10	1.188959528876261e+00	-1.200122445201125e-02	2.575899250353769e+00	3.893639898101672e+01	3.636049973066295e+01	-5.012643772513609e+01	-1.170053792266021e+00	3.764682286573485e-01
8.059360273739808e-10	1.197653010337135e+00	-1.206505935768746e-02	2.793308219711534e+00	3.881937398476833e+01	3.602606576505679e+01	-5.012666520720369e+01	-1.170821381635958e+00	3.741395485735252e-01
8.551002358313719e-10	1.195035742487354e+00	-1.212939123440244e-02	2.985074420012192e+00	3.870205560903715e+01	3.571698118902496e+01	-5.012689220565910e+01	-1.171585076401772e+00	3.718065030374770e-01
9.042644442887630e-10	1.172408205971583e+00	-1.219430062774462e-02	3.140693640236385e+00	3.858444633007989e+01	3.544375268984350e+01	-5.012711870799073e+01	-1.172344755633231e+00	3.694695046373901e-01
9.534286527461541e-10	1.127039955515657e+00	-1.225980594994428e-02	3.260254285209452e+00	3.846654866233718e+01	3.520629437712773e+01	-5.012734469823727e+01	-1.173100279917279e+00	3.671290308760974e-01
1.002592861203545e-09	1.062867021854129e+00	-1.232586788004864e-02	3.354228342177167e+00	3.834836513947751e+01	3.499413679730034e+01	-5.012757016085017e+01	-1.173851530182239e+00	3.647854879478574e-01
1.051757069654160e-09	9.892959812068939e-01	-1.239241188556648e-02	3.440210709972514e+00	3.822989830266190e+01	3.478968759268939e+01	-5.012779508436779e+01	-1.174598439867581e+00	3.624390978635479e-01
1.100921278111551e-09	9.184697670418240e-01	-1.245936119299162e-02	3.537718556150395e+00	3.811115068118984e+01	3.457343212503945e+01	-5.012801946383512e+01	-1.175341011280423e+00	3.600898410600932e-01
1.150085486568942e-09	8.618000661225135e-01	-1.252666504211104e-02	3.662682061172441e+00	3.799212479529968e+01	3.432944273412724e+01	-5.012824330131856e+01	-1.176079312098103e+00	3.577374686717612e-01
1.199249695026333e-09	8.267572809988923e-01	-1.259431448003540e-02	3.823143939488475e+00	3.787282316066089e+01	3.404967922117241e+01	-5.012846660444377e+01	-1.176813453797841e+00	3.553815782142515e-01
1.248413903483724e-09	8.148218954879695e-01	-1.266234078124347e-02	4.017230744904049e+00	3.775324830998559e+01	3.373601756508154e+01	-5.012868938342803e+01	-1.177543558538257e+00	3.530217297881332e-01
1.297578111941115e-09	8.211586836709757e-01	-1.273080170038382e-02	4.233842800339694e+00	3.763340280405006e+01	3.339956000371036e+01	-5.012891164745901e+01	-1.178269723766747e+00	3.506575702617039e-01
1.346742320391730e-09	8.360941915156694e-01	-1.279976187909503e-02	4.455896795790664e+00	3.751328924235730e+01	3.305739244656663e+01	-5.012913340142475e+01	-1.178991994300720e+00	3.482889312303419e-01
1.395906528849121e-09	8.479646955178172e-01	-1.286927664252718e-02	4.665284886034984e+00	3.739291025305659e+01	3.272762536702161e+01	-5.012935464390706e+01	-1.179710349724618e+00	3.459158732371496e-01
1.445070737306512e-09	8.465045666490323e-01	-1.293938279281285e-02	4.848156590113466e+00	3.727226848108272e+01	3.242411189096925e+01	-5.012957536701020e+01	-1.180424710773760e+00	3.435386633741208e-01
1.494234945763903e-09	8.257811466989251e-01	-1.301009790235345e-02	4.998915830877861e+00	3.715136656693708e+01	3.215245073605922e+01	-5.012979555807137e+01	-1.181134962802542e+00	3.411576929390069e-01
1.543399154221295e-09	7.858205450196536e-01	-1.308142417442552e-02	5.121684897886286e+00	3.703020713882957e+01	3.190852224094329e+01	-5.013001520273118e+01	-1.181840989173563e+00	3.387733602822909e-01
1.592563362671909e-09	7.324629199228343e-01	-1.315335399399353e-02	5.228806388981659e+00	3.690879280983146e+01	3.167998642084980e+01	-5.013023428842594e+01	-1.182542704360480e+00	3.363859546584435e-01
1.641727571129300e-09	6.755153310901642e-01	-1.322587388488275e-02	5.336931799675834e+00	3.678712619217115e+01	3.145019439249532e+01	-5.013045280724764e+01	-1.183240076852751e+00	3.339955758594614e-01
1.690891779586692e-09	6.257721531736504e-01	-1.329896761067080e-02	5.461976506417717e+00	3.666520991102715e+01	3.120323340460942e+01	-5.013067075734013e+01	-1.183933135391000e+00	3.316021123365346e-01
1.740055988044083e-09	5.918027921764955e-01	-1.337261921415536e-02	5.614485502763379e+00	3.654304662119608e+01	3.092856111843270e+01	-5.013088814246965e+01	-1.184621957310917e+00	3.292052820979638e-01
1.789220196501474e-09	5.774647592247090e-01	-1.344681817826631e-02	5.796724627460241e+00	3.642063900971023e+01	3.062391438224999e+01	-5.013110496996048e+01	-1.185306643050244e+00	3.268047221569711e-01
1.838384404958865e-09	5.808714918506381e-01	-1.352156589519125e-02	6.002259735784044e+00	3.629798979241860e+01	3.029573005663456e+01	-5.013132124765141e+01	-1.185987284678053e+00	3.244000989538064e-01
1.887548613409480e-09	5.950974403438257e-01	-1.359688184450004e-02	6.218082811901073e+00	3.617510169810914e+01	2.995701888620806e+01	-5.013153698078842e+01	-1.186663937773462e+00	3.219912070256600e-01
1.936712821866871e-09	6.103754406225694e-01	-1.367280554527057e-02	6.428642961148324e+00	3.605197745541557e+01	2.962333449426724e+01	-5.013175216976676e+01	-1.187336604848548e+00	3.195780271713036e-01
1.985877030324262e-09	6.170939813861782e-01	-1.374939217510329e-02	6.620575839011775e+00	3.592861978095706e+01	2.930804394194528e+01	-5.013196680937509e+01	-1.188005235044906e+00	3.171607275160549e-01
2.035041238781653e-09	6.086730715322889e-01	-1.382670115130444e-02	6.786686119905613e+00	3.580503138077406e+01	2.901834526086845e+01	-5.013218088973973e+01	-1.188669739905079e+00	3.147396081744235e-01
2.084205447239044e-09	5.834538527237811e-01	-1.390478115926903e-02	6.927951101354274e+00	3.568121495747922e+01	2.875326385612495e+01	-5.013239439864769e+01	-1.189330020078815e+00	3.123150075453525e-01
2.133369655696435e-09	5.450542797287585e-01	-1.398365657289302e-02	7.052954083445805e+00	3.555717322575071e+01	2.850421914230490e+01	-5.013260732450534e+01	-1.189985994496416e+00	3.098871999510622e-01
2.182533864147050e-09	5.011172684639444e-01	-1.406332137615299e-02	7.174995614729311e+00	3.543290892317085e+01	2.825791330844154e+01	-5.013281965900779e+01	-1.190637622969052e+00	3.074563163387284e-01
2.231698072604441e-09	4.608654020648999e-01	-1.414374361960817e-02	7.307863509860675e+00	3.530842481703223e+01	2.800056130717156e+01	-5.013303139871030e+01	-1.191284915506818e+00	3.050223115859076e-01
2.280862281061832e-09	4.322334743064634e-01	-1.422488018044459e-02	7.461614522174282e+00	3.518372369908864e+01	2.772210917691436e+01	-5.013324254505995e+01	-1.191927925994607e+00	3.025849866900535e-01
2.330026489519223e-09	4.194692294021882e-01	-1.430669667425107e-02	7.639647104420622e+00	3.505880837571543e+01	2.741916127129481e+01	-5.013345310293403e+01	-1.192566732734408e+00	3.001440570401956e-01
2.379190697976614e-09	4.219341720466472e-01	-1.438918554545480e-02	7.837896581528099e+00	3.493368165342503e+01	2.709578507189693e+01	-5.013366307818343e+01	-1.193201412237168e+00	2.976992443741059e-01
2.428354906434005e-09	4.344487677712552e-01	-1.447237507027553e-02	8.046328052046920e+00	3.480834633037541e+01	2.676201827832849e+01	-5.013387247496213e+01	-1.193832014461848e+00	2.952503636577613e-01
2.477519114884620e-09	4.490348977353859e-01	-1.455632580046655e-02	8.252217546307820e+00	3.468280519323535e+01	2.643058764692753e+01	-5.013408129366512e+01	-1.194458547028956e+00	2.927973784759028e-01
2.526683323342011e-09	4.574739256269679e-01	-1.464111519019346e-02	8.444177425477497e+00	3.455706102419782e+01	2.611288359872032e+01	-5.013428953009072e+01	-1.195080973019099e+00	2.903404087565341e-01
2.575847531799402e-09	4.538600830806883e-01	-1.472681615705732e-02	8.615655470953424e+00	3.443111661118097e+01	2.581546114022755e+01	-5.013449717605164e+01	-1.195699222664338e+00	2.878796897493779e-01
2.625011740256793e-09	4.363553162796365e-01	-1.481347720352138e-02	8.766813378261791e+00	3.430497476010522e+01	2.553816138184343e+01	-5.013470422120234e+01	-1.196313214874646e+00	2.854154964955924e-01
2.674175948714184e-09	4.076235412900124e-01	-1.490111156698369e-02	8.904228511456051e+00	3.417863830092331e+01	2.527440978946726e+01	-5.013491065547257e+01	-1.196922881526363e+00	2.829480586062998e-01
2.723340157171576e-09	3.738461434053157e-01	-1.498969905277335e-02	9.038582025003976e+00	3.405211008811705e+01	2.501352806311308e+01	-5.013511647132198e+01	-1.197528186766002e+00	2.804774925308303e-01
2.772504365622190e-09	3.426640118501454e-01	-1.507919985654638e-02	9.181140471291421e+00	3.392539299291666e+01	2.474425252162524e+01	-5.013532166511236e+01	-1.198129135427743e+00	2.780037720219934e-01
2.821668574079581e-09	3.207204092855760e-01	-1.516957496039749e-02	9.340190093684978e+00	3.379848989334433e+01	2.445829979965935e+01	-5.013552623719873e+01	-1.198725768330349e+00	2.755267446378456e-01
2.870832782536973e-09	3.115923791285146e-01	-1.526080578858844e-02	9.518545663483206e+00	3.367140366368340e+01	2.415285800020020e+01	-5.013573019075938e+01	-1.199318146440069e+00	2.730461873097269e-01
2.919996990994364e-09	3.147590697983763e-01	-1.535290602728512e-02	9.712872399557176e+00	3.354413716979182e+01	2.383126477023465e+01	-5.013593352978049e+01	-1.199906329301916e+00	2.705618820210260e-01
2.969161199451755e-09	3.259077876086353e-01	-1.544592191419475e-02	9.914969880433629e+00	3.341669326948876e+01	2.350172338905513e+01	-5.013613625686111e+01	-1.200490354740535e+00	2.680736870314160e-01
3.018325407909146e-09	3.384393482874660e-01	-1.553992131565527e-02	1.011455283039574e+01	3.328907481943987e+01	2.317452198904412e+01	-5.013633837153735e+01	-1.201070226200075e+00	2.655815812979285e-01
3.067489616359761e-09	3.456516881471554e-01	-1.563497610791989e-02	1.030260362002063e+01	3.316128468346201e+01	2.285868106344138e+01	-5.013653986963938e+01	-1.201645911483614e+00	2.630856688981868e-01
3.116653824817152e-09	3.428799790531428e-01	-1.573114421381413e-02	1.047420687527833e+01	3.303332574073487e+01	2.255911886545653e+01	-5.013674074385047e+01	-1.202217352909685e+00	2.605861433940960e-01
3.165818033274543e-09	3.289105794939466e-01	-1.582845757759514e-02	1.062996615910181e+01	3.290520088919774e+01	2.227523473009594e+01	-5.013694098524794e+01	-1.202784485233729e+00	2.580832249504871e-01
3.214982241731934e-09	3.062412058119530e-01	-1.592691967128831e-02	1.077558826072573e+01	3.277691304488223e+01	2.200132478415650e+01	-5.013714058529563e+01	-1.203347255284921e+00	2.555770914349281e-01
3.264146450189325e-09	2.801410408812770e-01	-1.602651281144441e-02	1.091983439297030e+01	3.264846513633312e+01	2.172863074336281e+01	-5.013733953762969e+01	-1.203905636916649e+00	2.530678259605836e-01
3.313310658646716e-09	2.568494709218265e-01	-1.612721204453355e-02	1.107156554537468e+01	3.251986009793459e+01	2.144829455255991e+01	-5.013753783906905e+01	-1.204459636624308e+00	2.505553971748856e-01
3.362474867097331e-09	2.415207332711148e-01	-1.622900059230334e-02	1.123687497698501e+01	3.239110086324415e+01	2.115422588625914e+01	-5.013773548955520e+01	-1.205009288389288e+00	2.480396773505510e-01
3.411639075554722e-09	2.365896798136302e-01	-1.633188157890761e-02	1.141723076591191e+01	3.226219036175703e+01	2.084495959584512e+01	-5.013793249108335e+01	-1.205554639850266e+00	2.455204909067718e-01
3.460803284012113e-09	2.410794809047290e-01	-1.643588258241730e-02	1.160918826329939e+01	3.213313151857177e+01	2.052394325527238e+01	-5.013812884601083e+01	-1.206095734621053e+00	2.429976764511278e-01
3.509967492469504e-09	2.510479812599299e-01	-1.654105204232719e-02	1.180570697238127e+01	3.200392725769365e+01	2.019822028531238e+01	-5.013832455531480e+01	-1.206632596635231e+00	2.404711417101081e-01
3.559131700926895e-09	2.609875616640833e-01	-1.664744939561480e-02	1.199858814268903e+01	3.187458050638817e+01	1.987599236369914e+01	-5.013851961736680e+01	-1.207165221527049e+00	2.379408937713745e-01
3.608295909384286e-09	2.656850268634867e-01	-1.675513251466624e-02	1.218119978979020e+01	3.174509419998989e+01	1.956389441019969e+01	-5.013871402760346e+01	-1.207693577593124e+00	2.354070357095753e-01
3.657460117834901e-09	2.619146825810164e-01	-1.686414666801087e-02	1.235058483767084e+01	3.161547128476800e+01	1.926488644709716e+01	-5.013890777916698e+01	-1.208217615656821e+00	2.328697319750822e-01
3.706624326292292e-09	2.494159459078507e-01	-1.697451826616742e-02	1.250827806746935e+01	3.148571471911339e+01	1.897743665164404e+01	-5.013910086426798e+01	-1.208737284251494e+00	2.303291551202200e-01
3.755788534749683e-09	2.308609286563827e-01	-1.708625501053053e-02	1.265960828081081e+01	3.135582747214635e+01	1.869621919133554e+01	-5.013929327579427e+01	-1.209252544910178e+00	2.277854321519797e-01
3.804952743207074e-09	2.108579611819086e-01	-1.719935188710105e-02	1.281177516198275e+01	3.122581252113724e+01	1.841403735915448e+01	-5.013948500862539e+01	-1.209763382509936e+00	2.252386082365155e-01
3.854116951664465e-09	1.943520398944005e-01	-1.731380082767938e-02	1.297138752966537e+01	3.109567284776255e+01	1.812428531809718e+01	-5.013967606023073e+01	-1.210269807456530e+00	2.226886390337320e-01
3.903281160121857e-09	1.849717944012219e-01	-1.742960083742912e-02	1.314230062538527e+01	3.096541143482619e+01	1.782311080944092e+01	-5.013986643038356e+01	-1.210771849328917e+00	2.201354129970475e-01
3.952445368572471e-09	1.838747361923516e-01	-1.754676554316734e-02	1.332445616072750e+01	3.083503126352220e+01	1.751057510279470e+01	-5.014005612012229e+01	-1.211269544446992e+00	2.175787949948346e-01
4.001609577029862e-09	1.894595586244955e-01	-1.766532597969362e-02	1.351406883934725e+01	3.070453531247104e+01	1.719046647312380e+01	-5.014024513033441e+01	-1.211762921738358e+00	2.150186759001825e-01
4.050773785487253e-09	1.980110318580413e-01	-1.778532802335111e-02	1.370504462829145e+01	3.057392655818364e+01	1.686888192989220e+01	-5.014043346044888e+01	-1.212251991669343e+00	2.124550114290829e-01
4.099937993944645e-09	2.050265964520123e-01	-1.790682542324842e-02	1.389111152059157e+01	3.044320797742876e+01	1.655209645683719e+01	-5.014062110766733e+01	-1.212736741801128e+00	2.098878377329248e-01
4.149102202402036e-09	2.067535953687888e-01	-1.802987072290115e-02	1.406792348013481e+01	3.031238255043211e+01	1.624445907029730e+01	-5.014080806696845e+01	-1.213217140184885e+00	2.073172594860146e-01
4.198266410859427e-09	2.014136529937799e-01	-1.815450687588193e-02	1.423443205963832e+01	3.018145326451707e+01	1.594702120487874e+01	-5.014099433185264e+01	-1.213693145137147e+00	2.047434155866021e-01
4.247430619310042e-09	1.897160436338894e-01	-1.828076215683615e-02	1.439309170037501e+01	3.005042311661413e+01	1.565733141623912e+01	-5.014117989554638e+01	-1.214164717847139e+00	2.021664349212478e-01
4.296594827767433e-09	1.745150305353693e-01	-1.840864988094919e-02	1.454887571648787e+01	2.991929511411316e+01	1.537041939762529e+01	-5.014136475224245e+01	-1.214631833452636e+00	1.995863975026989e-01
4.345759036224824e-09	1.597582721477859e-01	-1.853817300322467e-02	1.470748445666032e+01	2.978807227314191e+01	1.508058781648159e+01	-5.014154889795659e+01	-1.215094486915156e+00	1.970033138554516e-01
4.394923244682215e-09	1.491068872247887e-01	-1.866933209201714e-02	1.487338569838730e+01	2.965675761491800e+01	1.478337191653070e+01	-5.014173233072820e+01	-1.215552691936303e+00	1.944171288180407e-01
