Time (s),V_PRI,V_SEC,V_IN,V_OUT
0.0,-19.100057600000014,-235.4999808,25.1805000192,34.31400000832
5e-10,-12.850058239999953,-235.4999808,25.168000020479997,34.30775000896
1e-09,-12.850058239999953,-235.4999808,25.168000020479997,34.317125008
1.5000000000000002e-09,-12.850058239999953,-251.12498176000003,25.186750018559998,34.317125008
2e-09,-12.850058239999953,-251.12498176000003,25.1805000192,34.317125008
2.5e-09,-12.850058239999953,-219.87497984000004,25.186750018559998,34.32337500736
3.0000000000000004e-09,-12.850058239999953,-251.12498176000003,25.19300001792,34.32962500672
3.5000000000000003e-09,-6.600058880000006,-266.74998272,25.199250017279997,34.3327500064
4e-09,-6.600058880000006,-266.74998272,25.20550001664,34.33900000576
4.500000000000001e-09,-12.850058239999953,-251.12498176000003,25.211750016,34.335875006079995
5e-09,-6.600058880000006,-251.12498176000003,25.211750016,34.3327500064
5.5000000000000004e-09,-6.600058880000006,-251.12498176000003,25.20550001664,34.335875006079995
6.000000000000001e-09,-6.600058880000006,-251.12498176000003,25.19300001792,34.33900000576
6.5e-09,-0.3500595199999452,-235.4999808,25.19300001792,34.33900000576
7.000000000000001e-09,-0.3500595199999452,-251.12498176000003,25.186750018559998,34.33900000576
7.500000000000001e-09,-6.600058880000006,-251.12498176000003,25.1805000192,34.335875006079995
8e-09,-0.3500595199999452,-235.4999808,25.17425001984,34.32962500672
8.5e-09,5.899939840000002,-235.4999808,25.155500021759998,34.326500007039996
9.000000000000001e-09,5.899939840000002,-235.4999808,25.155500021759998,34.3327500064
9.5e-09,-0.3500595199999452,-235.4999808,25.16175002112,34.3327500064
1e-08,5.899939840000002,-251.12498176000003,25.149250022399997,34.335875006079995
1.0500000000000001e-08,5.899939840000002,-219.87497984000004,25.155500021759998,34.342125005439996
1.1000000000000001e-08,12.149939200000063,-235.4999808,25.149250022399997,34.34525000512
1.15e-08,18.39993856000001,-235.4999808,25.155500021759998,34.34525000512
1.2000000000000002e-08,12.149939200000063,-251.12498176000003,25.149250022399997,34.34525000512
1.2500000000000001e-08,12.149939200000063,-235.4999808,25.155500021759998,34.3483750048
1.3e-08,18.39993856000001,-219.87497984000004,25.155500021759998,34.3483750048
1.35e-08,18.39993856000001,-219.87497984000004,25.155500021759998,34.35462500416
1.4000000000000001e-08,18.39993856000001,-219.87497984000004,25.149250022399997,34.36087500352
1.45e-08,24.649937919999957,-204.24997888000001,25.16175002112,34.37025000256
1.5000000000000002e-08,18.39993856000001,-219.87497984000004,25.16175002112,34.37650000192
1.55e-08,18.39993856000001,-204.24997888000001,25.16175002112,34.382750001279994
1.6e-08,24.649937919999957,-188.62497792,25.168000020479997,34.37650000192
1.6500000000000002e-08,30.899937280000017,-204.24997888000001,25.155500021759998,34.367125002879995
1.7e-08,24.649937919999957,-204.24997888000001,25.16175002112,34.367125002879995
1.75e-08,18.39993856000001,-172.99997696000003,25.1805000192,34.3640000032
1.8000000000000002e-08,24.649937919999957,-204.24997888000001,25.1805000192,34.357750003839996
1.85e-08,24.649937919999957,-172.99997696000003,25.1805000192,34.357750003839996
1.9e-08,24.649937919999957,-188.62497792,25.17425001984,34.36087500352
1.9500000000000003e-08,30.899937280000017,-188.62497792,25.186750018559998,34.351500004479995
2e-08,24.649937919999957,-204.24997888000001,25.1805000192,34.351500004479995
2.05e-08,24.649937919999957,-172.99997696000003,25.186750018559998,34.3483750048
2.1000000000000003e-08,24.649937919999957,-172.99997696000003,25.1805000192,34.34525000512
2.15e-08,30.899937280000017,-172.99997696000003,25.17425001984,34.335875006079995
2.2000000000000002e-08,24.649937919999957,-157.374976,25.155500021759998,34.32962500672
2.2500000000000003e-08,37.149936639999964,-157.374976,25.155500021759998,34.32337500736
2.3e-08,30.899937280000017,-141.74997504000004,25.149250022399997,34.31400000832
2.3500000000000002e-08,30.899937280000017,-157.374976,25.149250022399997,34.31087500864
2.4000000000000003e-08,37.149936639999964,-141.74997504000004,25.149250022399997,34.304625009279995
2.45e-08,37.149936639999964,-141.74997504000004,25.149250022399997,34.29525001024
2.5000000000000002e-08,43.399936000000025,-126.12497408000002,25.155500021759998,34.29525001024
2.55e-08,43.399936000000025,-126.12497408000002,25.17425001984,34.29212501056
2.6e-08,37.149936639999964,-141.74997504000004,25.1805000192,34.2858750112
2.6500000000000002e-08,43.399936000000025,-126.12497408000002,25.186750018559998,34.282750011519994
2.7e-08,43.399936000000025,-141.74997504000004,25.186750018559998,34.2858750112
2.75e-08,49.64993535999997,-141.74997504000004,25.199250017279997,34.282750011519994
2.8000000000000003e-08,49.64993535999997,-157.374976,25.211750016,34.29212501056
2.85e-08,49.64993535999997,-126.12497408000002,25.211750016,34.3015000096
2.9e-08,49.64993535999997,-141.74997504000004,25.20550001664,34.31400000832
2.9500000000000003e-08,49.64993535999997,-141.74997504000004,25.211750016,34.32337500736
3.0000000000000004e-08,49.64993535999997,-126.12497408000002,25.199250017279997,34.32962500672
3.05e-08,55.89993472000003,-126.12497408000002,25.211750016,34.33900000576
3.1e-08,55.89993472000003,-110.49997311999999,25.22425001472,34.34525000512
3.1500000000000004e-08,62.14993407999998,-126.12497408000002,25.218000015359998,34.357750003839996
3.2e-08,68.39993344000004,-126.12497408000002,25.211750016,34.3640000032
3.25e-08,68.39993344000004,-110.49997311999999,25.186750018559998,34.36087500352
3.3000000000000004e-08,62.14993407999998,-94.87497216000003,25.1805000192,34.35462500416
3.35e-08,62.14993407999998,-94.87497216000003,25.1805000192,34.34525000512
3.4e-08,68.39993344000004,-94.87497216000003,25.1805000192,34.335875006079995
3.4500000000000005e-08,68.39993344000004,-79.2499712,25.1805000192,34.33900000576
3.5e-08,80.89993216000005,-79.2499712,25.17425001984,34.33900000576
3.55e-08,87.14993152,-94.87497216000003,25.17425001984,34.32962500672
3.6000000000000005e-08,74.64993279999999,-94.87497216000003,25.17425001984,34.326500007039996
3.65e-08,87.14993152,-79.2499712,25.1805000192,34.317125008
3.7e-08,87.14993152,-63.62497024000004,25.1805000192,34.31087500864
3.7500000000000005e-08,87.14993152,-63.62497024000004,25.17425001984,34.31087500864
3.8e-08,87.14993152,-47.999969280000016,25.14300002304,34.317125008
3.85e-08,99.64993024,-47.999969280000016,25.12425002496,34.32962500672
3.9000000000000005e-08,93.39993088000006,-47.999969280000016,25.118000025599997,34.3327500064
3.95e-08,93.39993088000006,-47.999969280000016,25.13050002432,34.335875006079995
4e-08,93.39993088000006,-32.374968319999994,25.155500021759998,34.32962500672
4.0500000000000005e-08,105.89992960000006,-32.374968319999994,25.155500021759998,34.32337500736
4.1e-08,99.64993024,-32.374968319999994,25.155500021759998,34.32962500672
4.15e-08,99.64993024,-1.124966400000062,25.149250022399997,34.32962500672
4.2000000000000006e-08,99.64993024,-32.374968319999994,25.14300002304,34.3327500064
4.2500000000000003e-08,105.89992960000006,14.500034560000017,25.149250022399997,34.32962500672
4.3e-08,105.89992960000006,-1.124966400000062,25.168000020479997,34.32337500736
4.3500000000000006e-08,112.14992896000001,-16.749967360000028,25.1805000192,34.304625009279995
4.4000000000000004e-08,105.89992960000006,-32.374968319999994,25.1805000192,34.29525001024
4.45e-08,112.14992896000001,-16.749967360000028,25.186750018559998,34.29212501056
4.5000000000000006e-08,112.14992896000001,-1.124966400000062,25.186750018559998,34.298375009919994
4.5500000000000004e-08,112.14992896000001,-1.124966400000062,25.1805000192,34.304625009279995
4.6e-08,105.89992960000006,-1.124966400000062,25.17425001984,34.304625009279995
4.6500000000000006e-08,112.14992896000001,-1.124966400000062,25.1805000192,34.30775000896
4.7000000000000004e-08,112.14992896000001,14.500034560000017,25.17425001984,34.3015000096
4.75e-08,105.89992960000006,-1.124966400000062,25.186750018559998,34.31087500864
4.8000000000000006e-08,112.14992896000001,14.500034560000017,25.19300001792,34.320250007679995
4.8500000000000004e-08,118.39992831999996,30.125035519999983,25.19300001792,34.3327500064
4.9e-08,118.39992831999996,30.125035519999983,25.199250017279997,34.342125005439996
4.95e-08,112.14992896000001,45.75003647999995,25.211750016,34.33900000576
5.0000000000000004e-08,112.14992896000001,14.500034560000017,25.199250017279997,34.32962500672
5.05e-08,112.14992896000001,45.75003647999995,25.19300001792,34.32337500736
5.1e-08,112.14992896000001,30.125035519999983,25.186750018559998,34.32962500672
5.1500000000000005e-08,118.39992831999996,30.125035519999983,25.186750018559998,34.3327500064
5.2e-08,105.89992960000006,30.125035519999983,25.19300001792,34.3327500064
5.25e-08,112.14992896000001,45.75003647999995,25.20550001664,34.326500007039996
5.3000000000000005e-08,118.39992831999996,61.37503744000003,25.218000015359998,34.31400000832
5.35e-08,105.89992960000006,61.37503744000003,25.22425001472,34.30775000896
5.4e-08,105.89992960000006,61.37503744000003,25.218000015359998,34.30775000896
5.4500000000000005e-08,112.14992896000001,77.0000384,25.218000015359998,34.317125008
5.5e-08,105.89992960000006,77.0000384,25.211750016,34.32337500736
5.55e-08,105.89992960000006,77.0000384,25.218000015359998,34.32962500672
5.6000000000000005e-08,105.89992960000006,108.25004031999993,25.23675001344,34.326500007039996
5.65e-08,112.14992896000001,108.25004031999993,25.23675001344,34.32337500736
5.7e-08,105.89992960000006,92.62503935999996,25.249250012159997,34.32962500672
5.7500000000000005e-08,105.89992960000006,123.87504128,25.25550001152,34.32962500672
5.8e-08,99.64993024,108.25004031999993,25.2430000128,34.32962500672
5.85e-08,99.64993024,123.87504128,25.2430000128,34.3327500064
5.9000000000000006e-08,99.64993024,108.25004031999993,25.23675001344,34.3327500064
5.9500000000000003e-08,105.89992960000006,108.25004031999993,25.249250012159997,34.326500007039996
6.000000000000001e-08,99.64993024,92.62503935999996,25.249250012159997,34.31400000832
6.05e-08,93.39993088000006,123.87504128,25.25550001152,34.304625009279995
6.1e-08,93.39993088000006,123.87504128,25.26175001088,34.298375009919994
6.15e-08,93.39993088000006,123.87504128,25.2742500096,34.298375009919994
6.2e-08,87.14993152,155.12504319999994,25.2742500096,34.298375009919994
6.250000000000001e-08,87.14993152,139.50004223999997,25.280500008959997,34.29525001024
6.300000000000001e-08,80.89993216000005,139.50004223999997,25.28675000832,34.282750011519994
6.35e-08,80.89993216000005,123.87504128,25.29300000768,34.273375012479995
6.4e-08,80.89993216000005,139.50004223999997,25.299250007039998,34.2702500128
6.45e-08,93.39993088000006,139.50004223999997,25.299250007039998,34.27962501184
6.5e-08,74.64993279999999,155.12504319999994,25.299250007039998,34.29212501056
6.55e-08,74.64993279999999,155.12504319999994,25.3055000064,34.29525001024
6.600000000000001e-08,68.39993344000004,155.12504319999994,25.299250007039998,34.29525001024
6.65e-08,68.39993344000004,155.12504319999994,25.28675000832,34.29525001024
6.7e-08,68.39993344000004,155.12504319999994,25.28675000832,34.3015000096
6.75e-08,74.64993279999999,155.12504319999994,25.29300000768,34.31400000832
6.8e-08,68.39993344000004,155.12504319999994,25.28675000832,34.326500007039996
6.85e-08,62.14993407999998,155.12504319999994,25.28675000832,34.335875006079995
6.900000000000001e-08,68.39993344000004,170.75004416000002,25.28675000832,34.335875006079995
6.950000000000001e-08,68.39993344000004,155.12504319999994,25.28675000832,34.3327500064
7e-08,62.14993407999998,155.12504319999994,25.2742500096,34.32962500672
7.05e-08,62.14993407999998,186.37504511999998,25.28675000832,34.326500007039996
7.1e-08,62.14993407999998,170.75004416000002,25.280500008959997,34.320250007679995
7.15e-08,55.89993472000003,170.75004416000002,25.268000010239998,34.326500007039996
7.200000000000001e-08,55.89993472000003,186.37504511999998,25.2742500096,34.32337500736
7.250000000000001e-08,62.14993407999998,170.75004416000002,25.268000010239998,34.32337500736
7.3e-08,55.89993472000003,186.37504511999998,25.268000010239998,34.326500007039996
7.35e-08,49.64993535999997,217.62504704000003,25.280500008959997,34.320250007679995
7.4e-08,49.64993535999997,186.37504511999998,25.2742500096,34.31087500864
7.45e-08,49.64993535999997,217.62504704000003,25.268000010239998,34.31087500864
7.500000000000001e-08,49.64993535999997,202.00004607999995,25.25550001152,34.317125008
7.550000000000001e-08,49.64993535999997,186.37504511999998,25.25550001152,34.320250007679995
7.6e-08,49.64993535999997,186.37504511999998,25.25550001152,34.32962500672
7.65e-08,43.399936000000025,202.00004607999995,25.2430000128,34.326500007039996
7.7e-08,49.64993535999997,202.00004607999995,25.23675001344,34.317125008
7.75e-08,37.149936639999964,202.00004607999995,25.230500014079997,34.31400000832
7.800000000000001e-08,37.149936639999964,186.37504511999998,25.22425001472,34.31087500864
7.850000000000001e-08,43.399936000000025,202.00004607999995,25.230500014079997,34.317125008
7.9e-08,37.149936639999964,202.00004607999995,25.218000015359998,34.317125008
7.95e-08,37.149936639999964,186.37504511999998,25.211750016,34.326500007039996
8e-08,37.149936639999964,202.00004607999995,25.218000015359998,34.326500007039996
8.05e-08,43.399936000000025,202.00004607999995,25.211750016,34.32962500672
8.100000000000001e-08,37.149936639999964,202.00004607999995,25.211750016,34.33900000576
8.150000000000001e-08,37.149936639999964,202.00004607999995,25.218000015359998,34.335875006079995
8.2e-08,30.899937280000017,170.75004416000002,25.20550001664,34.3327500064
8.25e-08,30.899937280000017,217.62504704000003,25.19300001792,34.335875006079995
8.3e-08,30.899937280000017,186.37504511999998,25.186750018559998,34.342125005439996
8.35e-08,37.149936639999964,170.75004416000002,25.186750018559998,34.33900000576
8.400000000000001e-08,30.899937280000017,170.75004416000002,25.186750018559998,34.3483750048
8.450000000000001e-08,30.899937280000017,186.37504511999998,25.186750018559998,34.35462500416
8.500000000000001e-08,24.649937919999957,186.37504511999998,25.186750018559998,34.351500004479995
8.55e-08,30.899937280000017,170.75004416000002,25.19300001792,34.34525000512
8.6e-08,18.39993856000001,170.75004416000002,25.1805000192,34.342125005439996
8.65e-08,24.649937919999957,186.37504511999998,25.186750018559998,34.342125005439996
8.700000000000001e-08,18.39993856000001,170.75004416000002,25.19300001792,34.34525000512
8.750000000000001e-08,18.39993856000001,170.75004416000002,25.186750018559998,34.357750003839996
8.800000000000001e-08,24.649937919999957,170.75004416000002,25.186750018559998,34.37025000256
8.85e-08,24.649937919999957,155.12504319999994,25.1805000192,34.382750001279994
8.9e-08,18.39993856000001,170.75004416000002,25.1805000192,34.39212500032
8.95e-08,18.39993856000001,186.37504511999998,25.19300001792,34.382750001279994
9.000000000000001e-08,18.39993856000001,155.12504319999994,25.186750018559998,34.37650000192
9.050000000000001e-08,12.149939200000063,170.75004416000002,25.186750018559998,34.367125002879995
9.100000000000001e-08,12.149939200000063,139.50004223999997,25.1805000192,34.3640000032
9.15e-08,24.649937919999957,139.50004223999997,25.1805000192,34.36087500352
9.2e-08,12.149939200000063,139.50004223999997,25.1805000192,34.367125002879995
9.25e-08,12.149939200000063,123.87504128,25.1805000192,34.3640000032
9.300000000000001e-08,12.149939200000063,139.50004223999997,25.1805000192,34.357750003839996
9.350000000000001e-08,12.149939200000063,123.87504128,25.17425001984,34.351500004479995
9.400000000000001e-08,5.899939840000002,123.87504128,25.16175002112,34.3483750048
9.45e-08,5.899939840000002,123.87504128,25.155500021759998,34.342125005439996
9.5e-08,5.899939840000002,108.25004031999993,25.155500021759998,34.33900000576
9.55e-08,5.899939840000002,108.25004031999993,25.149250022399997,34.33900000576
9.600000000000001e-08,5.899939840000002,108.25004031999993,25.149250022399997,34.3327500064
9.650000000000001e-08,12.149939200000063,92.62503935999996,25.14300002304,34.326500007039996
9.700000000000001e-08,5.899939840000002,108.25004031999993,25.155500021759998,34.32337500736
9.75e-08,-0.3500595199999452,108.25004031999993,25.16175002112,34.320250007679995
9.8e-08,-0.3500595199999452,92.62503935999996,25.155500021759998,34.317125008
9.85e-08,-0.3500595199999452,108.25004031999993,25.155500021759998,34.31087500864
9.9e-08,-0.3500595199999452,77.0000384,25.168000020479997,34.304625009279995
9.950000000000001e-08,5.899939840000002,77.0000384,25.186750018559998,34.29525001024
1.0000000000000001e-07,-6.600058880000006,77.0000384,25.20550001664,34.29525001024
1.005e-07,-6.600058880000006,77.0000384,25.218000015359998,34.29212501056
1.01e-07,-6.600058880000006,77.0000384,25.22425001472,34.29212501056
1.015e-07,-6.600058880000006,77.0000384,25.230500014079997,34.289000010879995
1.02e-07,-12.850058239999953,77.0000384,25.211750016,34.29212501056
1.0250000000000001e-07,-6.600058880000006,77.0000384,25.22425001472,34.298375009919994
1.0300000000000001e-07,-12.850058239999953,77.0000384,25.218000015359998,34.298375009919994
1.0350000000000001e-07,-19.100057600000014,61.37503744000003,25.211750016,34.31087500864
1.04e-07,-19.100057600000014,92.62503935999996,25.199250017279997,34.320250007679995
1.045e-07,-12.850058239999953,77.0000384,25.1805000192,34.335875006079995
1.05e-07,-19.100057600000014,77.0000384,25.168000020479997,34.3483750048
1.0550000000000001e-07,-25.35005695999996,77.0000384,25.17425001984,34.357750003839996
1.0600000000000001e-07,-25.35005695999996,61.37503744000003,25.16175002112,34.35462500416
1.0650000000000001e-07,-31.60005632000002,77.0000384,25.155500021759998,34.3483750048
1.07e-07,-31.60005632000002,45.75003647999995,25.13050002432,34.3483750048
1.075e-07,-25.35005695999996,30.125035519999983,25.12425002496,34.3483750048
1.08e-07,-37.85005567999997,30.125035519999983,25.11175002624,34.3483750048
1.0850000000000001e-07,-37.85005567999997,45.75003647999995,25.11175002624,34.351500004479995
1.0900000000000001e-07,-37.85005567999997,30.125035519999983,25.12425002496,34.34525000512
1.0950000000000001e-07,-37.85005567999997,30.125035519999983,25.12425002496,34.342125005439996
1.1e-07,-50.350054399999976,30.125035519999983,25.118000025599997,34.335875006079995
1.105e-07,-44.10005504000003,45.75003647999995,25.118000025599997,34.32962500672
1.11e-07,-50.350054399999976,-1.124966400000062,25.12425002496,34.320250007679995
1.1150000000000001e-07,-56.60005376000004,-1.124966400000062,25.12425002496,34.32337500736
1.1200000000000001e-07,-56.60005376000004,14.500034560000017,25.14300002304,34.320250007679995
1.1250000000000001e-07,-50.350054399999976,-1.124966400000062,25.14300002304,34.320250007679995
1.13e-07,-56.60005376000004,14.500034560000017,25.14300002304,34.326500007039996
1.135e-07,-62.850053119999984,-1.124966400000062,25.14300002304,34.326500007039996
1.14e-07,-62.850053119999984,-16.749967360000028,25.11175002624,34.32337500736
1.1450000000000001e-07,-62.850053119999984,-1.124966400000062,25.09300002816,34.32337500736
1.1500000000000001e-07,-62.850053119999984,-16.749967360000028,25.08050002944,34.326500007039996
1.1550000000000001e-07,-62.850053119999984,-47.999969280000016,25.086750028799997,34.32337500736
1.16e-07,-69.10005248000004,-47.999969280000016,25.086750028799997,34.32962500672
1.165e-07,-69.10005248000004,-32.374968319999994,25.074250030079998,34.3327500064
1.17e-07,-69.10005248000004,-32.374968319999994,25.06175003136,34.326500007039996
1.1750000000000001e-07,-75.35005183999999,-32.374968319999994,25.055500031999998,34.31087500864
1.1800000000000001e-07,-75.35005183999999,-32.374968319999994,25.04925003264,34.3015000096
1.1850000000000001e-07,-75.35005183999999,-32.374968319999994,25.06175003136,34.29525001024
1.1900000000000001e-07,-75.35005183999999,-47.999969280000016,25.074250030079998,34.29212501056
