Time (s),V_PRI,V_SEC,V_IN,V_OUT
0.0,-33.24990976000004,-248.12498176000003,25.05687497984,41.748625004160004
5e-10,-17.624908799999957,-248.12498176000003,25.05687497984,41.748625004160004
1e-09,-33.24990976000004,-248.12498176000003,25.041249978880003,41.74550000448
1.5000000000000002e-09,-48.874910720000116,-248.12498176000003,25.05687497984,41.74550000448
2e-09,-17.624908799999957,-248.12498176000003,25.025624977920003,41.75175000384
2.5e-09,-17.624908799999957,-263.74998272,25.041249978880003,41.75175000384
3.0000000000000004e-09,-33.24990976000004,-279.37498368,25.041249978880003,41.76112500288
3.5000000000000003e-09,-1.9999078400001054,-263.74998272,25.025624977920003,41.7580000032
4e-09,-1.9999078400001054,-263.74998272,25.05687497984,41.754875003520006
4.500000000000001e-09,-17.624908799999957,-248.12498176000003,25.041249978880003,41.7580000032
5e-09,-1.9999078400001054,-263.74998272,25.025624977920003,41.75175000384
5.5000000000000004e-09,-1.9999078400001054,-263.74998272,25.041249978880003,41.74550000448
6.000000000000001e-09,13.625093119999974,-248.12498176000003,25.025624977920003,41.733000005760005
6.5e-09,13.625093119999974,-279.37498368,25.009999976960003,41.723625006720006
7.000000000000001e-09,29.250094080000054,-279.37498368,24.978749975040003,41.71425000768
7.500000000000001e-09,13.625093119999974,-279.37498368,24.978749975040003,41.717375007360005
8e-09,29.250094080000054,-279.37498368,24.963124974080003,41.72050000704
8.5e-09,29.250094080000054,-248.12498176000003,24.963124974080003,41.72987500608
9.000000000000001e-09,13.625093119999974,-279.37498368,24.963124974080003,41.73612500544
9.5e-09,13.625093119999974,-248.12498176000003,24.963124974080003,41.7423750048
1e-08,29.250094080000054,-248.12498176000003,24.947499973120003,41.754875003520006
1.0500000000000001e-08,44.875095039999906,-248.12498176000003,24.947499973120003,41.770500001920006
1.1000000000000001e-08,44.875095039999906,-248.12498176000003,24.963124974080003,41.786125000320006
1.15e-08,44.875095039999906,-248.12498176000003,24.947499973120003,41.79862499904
1.2000000000000002e-08,60.500095999999985,-248.12498176000003,24.963124974080003,41.8048749984
1.2500000000000001e-08,60.500095999999985,-232.4999808,24.963124974080003,41.80799999808
1.3e-08,44.875095039999906,-232.4999808,24.963124974080003,41.8048749984
1.35e-08,60.500095999999985,-232.4999808,24.978749975040003,41.8048749984
1.4000000000000001e-08,76.12509695999984,-201.24997888000001,24.978749975040003,41.79237499968
1.45e-08,76.12509695999984,-232.4999808,24.978749975040003,41.79237499968
1.5000000000000002e-08,91.75009791999992,-232.4999808,24.978749975040003,41.779875000960004
1.55e-08,60.500095999999985,-248.12498176000003,24.994374976000003,41.78925
1.6e-08,60.500095999999985,-232.4999808,25.009999976960003,41.79862499904
1.6500000000000002e-08,76.12509695999984,-216.87497984000004,25.009999976960003,41.8048749984
1.7e-08,91.75009791999992,-216.87497984000004,25.009999976960003,41.80799999808
1.75e-08,76.12509695999984,-201.24997888000001,25.041249978880003,41.801749998720005
1.8000000000000002e-08,76.12509695999984,-185.62497792,25.025624977920003,41.795499999360004
1.85e-08,91.75009791999992,-201.24997888000001,25.025624977920003,41.786125000320006
1.9e-08,76.12509695999984,-201.24997888000001,25.041249978880003,41.786125000320006
1.9500000000000003e-08,91.75009791999992,-185.62497792,25.025624977920003,41.78300000064
2e-08,107.37509888,-185.62497792,25.05687497984,41.77675000128
2.05e-08,91.75009791999992,-185.62497792,25.05687497984,41.7736250016
2.1000000000000003e-08,107.37509888,-169.99997696000003,25.025624977920003,41.764250002560004
2.15e-08,91.75009791999992,-169.99997696000003,25.041249978880003,41.754875003520006
2.2000000000000002e-08,107.37509888,-154.374976,25.041249978880003,41.75175000384
2.2500000000000003e-08,107.37509888,-154.374976,25.05687497984,41.748625004160004
2.3e-08,138.62510079999993,-169.99997696000003,25.05687497984,41.739250005120006
2.3500000000000002e-08,123.00009983999985,-169.99997696000003,25.041249978880003,41.739250005120006
2.4000000000000003e-08,107.37509888,-154.374976,25.041249978880003,41.7423750048
2.45e-08,123.00009983999985,-138.74997504000004,25.041249978880003,41.74550000448
2.5000000000000002e-08,107.37509888,-138.74997504000004,25.041249978880003,41.74550000448
2.55e-08,107.37509888,-138.74997504000004,25.05687497984,41.73612500544
2.6e-08,123.00009983999985,-138.74997504000004,25.05687497984,41.7267500064
2.6500000000000002e-08,123.00009983999985,-138.74997504000004,25.05687497984,41.71425000768
2.7e-08,123.00009983999985,-138.74997504000004,25.08812498176,41.708000008320006
2.75e-08,123.00009983999985,-123.12497408000002,25.08812498176,41.70487500864
2.8000000000000003e-08,154.25010176,-138.74997504000004,25.11937498368,41.701750008960005
2.85e-08,138.62510079999993,-123.12497408000002,25.10374998272,41.701750008960005
2.9e-08,138.62510079999993,-107.49997311999999,25.08812498176,41.70487500864
2.9500000000000003e-08,123.00009983999985,-123.12497408000002,25.08812498176,41.708000008320006
3.0000000000000004e-08,154.25010176,-107.49997311999999,25.0724999808,41.72050000704
3.05e-08,154.25010176,-123.12497408000002,25.0724999808,41.73612500544
3.1e-08,169.87510271999986,-138.74997504000004,25.05687497984,41.74550000448
3.1500000000000004e-08,138.62510079999993,-138.74997504000004,25.009999976960003,41.764250002560004
3.2e-08,154.25010176,-107.49997311999999,24.994374976000003,41.78300000064
3.25e-08,169.87510271999986,-107.49997311999999,24.994374976000003,41.795499999360004
3.3000000000000004e-08,154.25010176,-107.49997311999999,25.009999976960003,41.801749998720005
3.35e-08,154.25010176,-91.87497216000003,25.041249978880003,41.801749998720005
3.4e-08,169.87510271999986,-91.87497216000003,25.009999976960003,41.79862499904
3.4500000000000005e-08,169.87510271999986,-91.87497216000003,24.994374976000003,41.786125000320006
3.5e-08,169.87510271999986,-107.49997311999999,24.994374976000003,41.78300000064
3.55e-08,169.87510271999986,-91.87497216000003,24.978749975040003,41.779875000960004
3.6000000000000005e-08,185.50010367999994,-91.87497216000003,25.025624977920003,41.7736250016
3.65e-08,185.50010367999994,-76.2499712,24.994374976000003,41.770500001920006
3.7e-08,185.50010367999994,-60.62497024000004,24.978749975040003,41.7580000032
3.7500000000000005e-08,185.50010367999994,-76.2499712,24.978749975040003,41.748625004160004
3.8e-08,185.50010367999994,-60.62497024000004,24.978749975040003,41.739250005120006
3.85e-08,185.50010367999994,-60.62497024000004,24.994374976000003,41.73612500544
3.9000000000000005e-08,216.75010559999987,-60.62497024000004,24.994374976000003,41.72987500608
3.95e-08,185.50010367999994,-60.62497024000004,24.994374976000003,41.7267500064
4e-08,201.12510464000002,-44.999969280000016,24.994374976000003,41.72987500608
4.0500000000000005e-08,201.12510464000002,-44.999969280000016,25.009999976960003,41.733000005760005
4.1e-08,185.50010367999994,-44.999969280000016,25.025624977920003,41.73612500544
4.15e-08,185.50010367999994,-44.999969280000016,25.05687497984,41.7423750048
4.2000000000000006e-08,201.12510464000002,-29.374968319999994,25.041249978880003,41.74550000448
4.2500000000000003e-08,201.12510464000002,-29.374968319999994,25.025624977920003,41.74550000448
4.3e-08,201.12510464000002,-13.749967360000028,25.009999976960003,41.748625004160004
4.3500000000000006e-08,185.50010367999994,-13.749967360000028,24.963124974080003,41.7423750048
4.4000000000000004e-08,216.75010559999987,-13.749967360000028,24.963124974080003,41.733000005760005
4.45e-08,201.12510464000002,1.875033599999938,24.931874972160003,41.72987500608
4.5000000000000006e-08,201.12510464000002,17.500034560000017,24.884999969280003,41.711125008
4.5500000000000004e-08,201.12510464000002,1.875033599999938,24.900624970240003,41.701750008960005
4.6e-08,201.12510464000002,17.500034560000017,24.900624970240003,41.69862500928
4.6500000000000006e-08,201.12510464000002,1.875033599999938,24.900624970240003,41.711125008
4.7000000000000004e-08,216.75010559999987,-13.749967360000028,24.884999969280003,41.711125008
4.75e-08,185.50010367999994,1.875033599999938,24.900624970240003,41.72050000704
4.8000000000000006e-08,201.12510464000002,17.500034560000017,24.916249971200003,41.723625006720006
4.8500000000000004e-08,201.12510464000002,17.500034560000017,24.947499973120003,41.72987500608
4.9e-08,185.50010367999994,33.12503551999998,24.947499973120003,41.74550000448
4.95e-08,185.50010367999994,17.500034560000017,24.947499973120003,41.764250002560004
5.0000000000000004e-08,201.12510464000002,33.12503551999998,24.916249971200003,41.770500001920006
5.05e-08,185.50010367999994,33.12503551999998,24.900624970240003,41.76737500224
5.1e-08,185.50010367999994,33.12503551999998,24.884999969280003,41.770500001920006
5.1500000000000005e-08,185.50010367999994,48.75003647999995,24.884999969280003,41.770500001920006
5.2e-08,201.12510464000002,33.12503551999998,24.884999969280003,41.7736250016
5.25e-08,185.50010367999994,64.37503744000003,24.869374968320002,41.78300000064
5.3000000000000005e-08,185.50010367999994,48.75003647999995,24.884999969280003,41.7736250016
5.35e-08,154.25010176,48.75003647999995,24.900624970240003,41.764250002560004
5.4e-08,169.87510271999986,80.0000384,24.900624970240003,41.754875003520006
5.4500000000000005e-08,169.87510271999986,48.75003647999995,24.916249971200003,41.748625004160004
5.5e-08,185.50010367999994,48.75003647999995,24.884999969280003,41.74550000448
5.55e-08,154.25010176,64.37503744000003,24.869374968320002,41.7423750048
5.6000000000000005e-08,154.25010176,80.0000384,24.853749967360002,41.72987500608
5.65e-08,169.87510271999986,80.0000384,24.853749967360002,41.7267500064
5.7e-08,154.25010176,80.0000384,24.838124966400002,41.72987500608
5.7500000000000005e-08,138.62510079999993,95.62503935999996,24.838124966400002,41.73612500544
5.8e-08,154.25010176,95.62503935999996,24.838124966400002,41.7423750048
5.85e-08,138.62510079999993,95.62503935999996,24.838124966400002,41.739250005120006
5.9000000000000006e-08,138.62510079999993,111.25004031999993,24.853749967360002,41.74550000448
5.9500000000000003e-08,123.00009983999985,126.87504128,24.869374968320002,41.739250005120006
6.000000000000001e-08,138.62510079999993,111.25004031999993,24.916249971200003,41.7423750048
6.05e-08,138.62510079999993,126.87504128,24.931874972160003,41.75175000384
6.1e-08,123.00009983999985,142.50004223999997,24.916249971200003,41.748625004160004
6.15e-08,107.37509888,126.87504128,24.931874972160003,41.733000005760005
6.2e-08,107.37509888,158.12504319999994,24.931874972160003,41.72987500608
6.250000000000001e-08,123.00009983999985,126.87504128,24.916249971200003,41.723625006720006
6.300000000000001e-08,138.62510079999993,142.50004223999997,24.884999969280003,41.717375007360005
6.35e-08,107.37509888,126.87504128,24.853749967360002,41.71425000768
6.4e-08,91.75009791999992,142.50004223999997,24.853749967360002,41.70487500864
6.45e-08,107.37509888,142.50004223999997,24.869374968320002,41.69237500992
6.5e-08,91.75009791999992,142.50004223999997,24.884999969280003,41.69237500992
6.55e-08,91.75009791999992,158.12504319999994,24.931874972160003,41.69237500992
6.600000000000001e-08,91.75009791999992,173.75004416000002,24.916249971200003,41.70487500864
6.65e-08,76.12509695999984,158.12504319999994,24.947499973120003,41.711125008
6.7e-08,76.12509695999984,158.12504319999994,24.947499973120003,41.723625006720006
6.75e-08,76.12509695999984,173.75004416000002,24.916249971200003,41.7267500064
6.8e-08,91.75009791999992,158.12504319999994,24.900624970240003,41.72987500608
6.85e-08,76.12509695999984,158.12504319999994,24.884999969280003,41.7423750048
6.900000000000001e-08,44.875095039999906,189.37504511999998,24.838124966400002,41.74550000448
6.950000000000001e-08,60.500095999999985,158.12504319999994,24.838124966400002,41.7423750048
7e-08,60.500095999999985,189.37504511999998,24.838124966400002,41.739250005120006
7.05e-08,44.875095039999906,173.75004416000002,24.838124966400002,41.7423750048
7.1e-08,76.12509695999984,158.12504319999994,24.853749967360002,41.7423750048
7.15e-08,44.875095039999906,158.12504319999994,24.916249971200003,41.7423750048
7.200000000000001e-08,44.875095039999906,189.37504511999998,24.963124974080003,41.75175000384
7.250000000000001e-08,29.250094080000054,205.00004607999995,24.994374976000003,41.754875003520006
7.3e-08,44.875095039999906,173.75004416000002,25.009999976960003,41.76112500288
7.35e-08,13.625093119999974,173.75004416000002,25.041249978880003,41.76737500224
7.4e-08,13.625093119999974,189.37504511999998,24.994374976000003,41.7736250016
7.45e-08,29.250094080000054,205.00004607999995,24.947499973120003,41.7736250016
7.500000000000001e-08,13.625093119999974,189.37504511999998,24.900624970240003,41.779875000960004
7.550000000000001e-08,13.625093119999974,205.00004607999995,24.853749967360002,41.7736250016
7.6e-08,29.250094080000054,205.00004607999995,24.853749967360002,41.764250002560004
7.65e-08,13.625093119999974,220.62504704000003,24.838124966400002,41.764250002560004
7.7e-08,13.625093119999974,220.62504704000003,24.838124966400002,41.754875003520006
7.75e-08,-1.9999078400001054,205.00004607999995,24.884999969280003,41.748625004160004
7.800000000000001e-08,-1.9999078400001054,236.250048,24.931874972160003,41.7423750048
7.850000000000001e-08,-17.624908799999957,205.00004607999995,24.978749975040003,41.739250005120006
7.9e-08,13.625093119999974,205.00004607999995,24.994374976000003,41.723625006720006
7.95e-08,-17.624908799999957,205.00004607999995,24.978749975040003,41.717375007360005
8e-08,-1.9999078400001054,205.00004607999995,24.947499973120003,41.711125008
8.05e-08,-1.9999078400001054,220.62504704000003,24.916249971200003,41.71425000768
8.100000000000001e-08,-17.624908799999957,189.37504511999998,24.869374968320002,41.72050000704
8.150000000000001e-08,-48.874910720000116,205.00004607999995,24.838124966400002,41.72987500608
8.2e-08,-33.24990976000004,220.62504704000003,24.791249963520002,41.748625004160004
8.25e-08,-48.874910720000116,189.37504511999998,24.791249963520002,41.7580000032
8.3e-08,-48.874910720000116,205.00004607999995,24.775624962560002,41.7736250016
8.35e-08,-48.874910720000116,205.00004607999995,24.806874964480002,41.7736250016
8.400000000000001e-08,-33.24990976000004,189.37504511999998,24.869374968320002,41.76737500224
8.450000000000001e-08,-48.874910720000116,205.00004607999995,24.916249971200003,41.770500001920006
8.500000000000001e-08,-48.874910720000116,220.62504704000003,24.931874972160003,41.764250002560004
8.55e-08,-64.49991167999997,173.75004416000002,24.963124974080003,41.7580000032
8.6e-08,-64.49991167999997,220.62504704000003,24.963124974080003,41.754875003520006
8.65e-08,-64.49991167999997,173.75004416000002,24.931874972160003,41.7580000032
8.700000000000001e-08,-48.874910720000116,158.12504319999994,24.900624970240003,41.76112500288
8.750000000000001e-08,-80.12491264000005,158.12504319999994,24.853749967360002,41.770500001920006
8.800000000000001e-08,-64.49991167999997,173.75004416000002,24.822499965440002,41.78300000064
8.85e-08,-80.12491264000005,189.37504511999998,24.822499965440002,41.795499999360004
8.9e-08,-80.12491264000005,173.75004416000002,24.822499965440002,41.80799999808
8.95e-08,-95.74991360000013,173.75004416000002,24.884999969280003,41.82362499648
9.000000000000001e-08,-80.12491264000005,158.12504319999994,24.884999969280003,41.82987499584
9.050000000000001e-08,-80.12491264000005,142.50004223999997,24.916249971200003,41.826749996160004
9.100000000000001e-08,-95.74991360000013,158.12504319999994,24.963124974080003,41.817374997120005
9.15e-08,-111.37491455999998,142.50004223999997,24.947499973120003,41.801749998720005
9.2e-08,-95.74991360000013,142.50004223999997,24.978749975040003,41.79237499968
9.25e-08,-95.74991360000013,158.12504319999994,24.931874972160003,41.779875000960004
9.300000000000001e-08,-95.74991360000013,158.12504319999994,24.884999969280003,41.76737500224
9.350000000000001e-08,-95.74991360000013,142.50004223999997,24.853749967360002,41.754875003520006
9.400000000000001e-08,-111.37491455999998,158.12504319999994,24.838124966400002,41.74550000448
9.45e-08,-111.37491455999998,126.87504128,24.806874964480002,41.748625004160004
9.5e-08,-80.12491264000005,111.25004031999993,24.806874964480002,41.74550000448
9.55e-08,-111.37491455999998,95.62503935999996,24.838124966400002,41.74550000448
9.600000000000001e-08,-95.74991360000013,95.62503935999996,24.853749967360002,41.74550000448
9.650000000000001e-08,-111.37491455999998,95.62503935999996,24.900624970240003,41.739250005120006
9.700000000000001e-08,-126.99991552000006,111.25004031999993,24.916249971200003,41.73612500544
9.75e-08,-126.99991552000006,111.25004031999993,24.963124974080003,41.73612500544
9.8e-08,-126.99991552000006,95.62503935999996,24.947499973120003,41.74550000448
9.85e-08,-126.99991552000006,80.0000384,24.931874972160003,41.74550000448
9.9e-08,-142.62491648000014,80.0000384,24.931874972160003,41.74550000448
9.950000000000001e-08,-142.62491648000014,95.62503935999996,24.916249971200003,41.7423750048
1.0000000000000001e-07,-142.62491648000014,80.0000384,24.900624970240003,41.733000005760005
1.005e-07,-142.62491648000014,95.62503935999996,24.931874972160003,41.733000005760005
1.01e-07,-142.62491648000014,95.62503935999996,24.931874972160003,41.723625006720006
1.015e-07,-158.24991744,80.0000384,24.978749975040003,41.71425000768
1.02e-07,-158.24991744,95.62503935999996,25.009999976960003,41.70487500864
1.0250000000000001e-07,-142.62491648000014,64.37503744000003,25.041249978880003,41.701750008960005
1.0300000000000001e-07,-126.99991552000006,64.37503744000003,25.025624977920003,41.69862500928
1.0350000000000001e-07,-173.87491840000007,48.75003647999995,25.009999976960003,41.70487500864
1.04e-07,-158.24991744,80.0000384,24.978749975040003,41.71425000768
1.045e-07,-158.24991744,64.37503744000003,24.963124974080003,41.723625006720006
1.05e-07,-158.24991744,64.37503744000003,24.947499973120003,41.739250005120006
1.0550000000000001e-07,-189.49991936000015,80.0000384,24.963124974080003,41.76112500288
1.0600000000000001e-07,-173.87491840000007,64.37503744000003,24.947499973120003,41.779875000960004
1.0650000000000001e-07,-173.87491840000007,64.37503744000003,24.931874972160003,41.78925
1.07e-07,-189.49991936000015,48.75003647999995,24.963124974080003,41.80799999808
1.075e-07,-205.12492032,64.37503744000003,24.963124974080003,41.811124997760004
1.08e-07,-189.49991936000015,48.75003647999995,25.025624977920003,41.80799999808
1.0850000000000001e-07,-189.49991936000015,64.37503744000003,25.009999976960003,41.80799999808
1.0900000000000001e-07,-205.12492032,64.37503744000003,24.994374976000003,41.79237499968
1.0950000000000001e-07,-189.49991936000015,33.12503551999998,24.978749975040003,41.78300000064
1.1e-07,-189.49991936000015,64.37503744000003,24.947499973120003,41.7736250016
1.105e-07,-205.12492032,17.500034560000017,24.947499973120003,41.76112500288
1.11e-07,-189.49991936000015,1.875033599999938,24.963124974080003,41.74550000448
1.1150000000000001e-07,-220.74992128000008,1.875033599999938,24.978749975040003,41.73612500544
1.1200000000000001e-07,-205.12492032,17.500034560000017,24.994374976000003,41.72987500608
1.1250000000000001e-07,-189.49991936000015,17.500034560000017,24.978749975040003,41.7267500064
1.13e-07,-205.12492032,1.875033599999938,25.009999976960003,41.72987500608
1.135e-07,-220.74992128000008,1.875033599999938,25.05687497984,41.733000005760005
1.14e-07,-205.12492032,1.875033599999938,25.0724999808,41.73612500544
1.1450000000000001e-07,-205.12492032,-13.749967360000028,25.0724999808,41.73612500544
1.1500000000000001e-07,-220.74992128000008,-13.749967360000028,25.08812498176,41.7423750048
1.1550000000000001e-07,-220.74992128000008,-13.749967360000028,25.025624977920003,41.74550000448
1.16e-07,-205.12492032,-29.374968319999994,25.041249978880003,41.75175000384
1.165e-07,-205.12492032,-13.749967360000028,25.009999976960003,41.76112500288
