Time (s),V_PRI,V_SEC,V_IN,V_OUT
0.0,-25.35005695999996,-235.4999808,25.171250019200002,44.68737500416
5e-10,-19.100057600000014,-251.12498176000003,25.16500001984,44.6967500032
1e-09,-19.100057600000014,-266.74998272,25.171250019200002,44.6967500032
1.5000000000000002e-09,-25.35005695999996,-266.74998272,25.171250019200002,44.69987500288
2e-09,-12.850058239999953,-266.74998272,25.17750001856,44.70612500224
2.5e-09,-12.850058239999953,-251.12498176000003,25.18375001792,44.70612500224
3.0000000000000004e-09,-19.100057600000014,-251.12498176000003,25.19000001728,44.7123750016
3.5000000000000003e-09,-19.100057600000014,-251.12498176000003,25.17750001856,44.70612500224
4e-09,-12.850058239999953,-251.12498176000003,25.19000001728,44.70300000256
4.500000000000001e-09,-12.850058239999953,-266.74998272,25.19000001728,44.6967500032
5e-09,-12.850058239999953,-266.74998272,25.19000001728,44.70300000256
5.5000000000000004e-09,-6.600058880000006,-251.12498176000003,25.19000001728,44.70612500224
6.000000000000001e-09,-6.600058880000006,-251.12498176000003,25.16500001984,44.70612500224
6.5e-09,-6.600058880000006,-235.4999808,25.16500001984,44.7123750016
7.000000000000001e-09,-6.600058880000006,-235.4999808,25.171250019200002,44.709250001920005
7.500000000000001e-09,-6.600058880000006,-251.12498176000003,25.16500001984,44.709250001920005
8e-09,-0.3500595199999452,-219.87497984000004,25.15875002048,44.7123750016
8.5e-09,-0.3500595199999452,-235.4999808,25.15250002112,44.71862500096
9.000000000000001e-09,12.149939200000063,-266.74998272,25.15250002112,44.71550000128
9.5e-09,-0.3500595199999452,-251.12498176000003,25.1400000224,44.72175000064
1e-08,5.899939840000002,-251.12498176000003,25.1400000224,44.71862500096
1.0500000000000001e-08,12.149939200000063,-235.4999808,25.1400000224,44.71550000128
1.1000000000000001e-08,12.149939200000063,-219.87497984000004,25.1400000224,44.7123750016
1.15e-08,5.899939840000002,-219.87497984000004,25.12750002368,44.709250001920005
1.2000000000000002e-08,18.39993856000001,-219.87497984000004,25.12750002368,44.709250001920005
1.2500000000000001e-08,12.149939200000063,-235.4999808,25.13375002304,44.70612500224
1.3e-08,5.899939840000002,-235.4999808,25.12750002368,44.71862500096
1.35e-08,18.39993856000001,-204.24997888000001,25.12750002368,44.724875000320004
1.4000000000000001e-08,18.39993856000001,-204.24997888000001,25.1087500256,44.73737499904
1.45e-08,18.39993856000001,-204.24997888000001,25.1087500256,44.74987499776
1.5000000000000002e-08,18.39993856000001,-188.62497792,25.121250024320002,44.756124997120004
1.55e-08,18.39993856000001,-204.24997888000001,25.11500002496,44.7592499968
1.6e-08,24.649937919999957,-188.62497792,25.121250024320002,44.756124997120004
1.6500000000000002e-08,24.649937919999957,-204.24997888000001,25.121250024320002,44.7592499968
1.7e-08,30.899937280000017,-204.24997888000001,25.13375002304,44.75299999744
1.75e-08,24.649937919999957,-204.24997888000001,25.13375002304,44.75299999744
1.8000000000000002e-08,24.649937919999957,-188.62497792,25.13375002304,44.74987499776
1.85e-08,30.899937280000017,-172.99997696000003,25.13375002304,44.740499998720004
1.9e-08,24.649937919999957,-172.99997696000003,25.1400000224,44.73112499968
1.9500000000000003e-08,24.649937919999957,-157.374976,25.13375002304,44.72175000064
2e-08,37.149936639999964,-172.99997696000003,25.13375002304,44.71550000128
2.05e-08,30.899937280000017,-157.374976,25.1400000224,44.70300000256
2.1000000000000003e-08,30.899937280000017,-157.374976,25.121250024320002,44.69987500288
2.15e-08,37.149936639999964,-141.74997504000004,25.11500002496,44.693625003520005
2.2000000000000002e-08,43.399936000000025,-157.374976,25.090000027520002,44.68737500416
2.2500000000000003e-08,37.149936639999964,-141.74997504000004,25.08375002816,44.68737500416
2.3e-08,37.149936639999964,-126.12497408000002,25.08375002816,44.6811250048
2.3500000000000002e-08,37.149936639999964,-157.374976,25.08375002816,44.67175000576
2.4000000000000003e-08,49.64993535999997,-110.49997311999999,25.090000027520002,44.6655000064
2.45e-08,49.64993535999997,-126.12497408000002,25.10250002624,44.6655000064
2.5000000000000002e-08,49.64993535999997,-141.74997504000004,25.1087500256,44.662375006720005
2.55e-08,49.64993535999997,-157.374976,25.121250024320002,44.6655000064
2.6e-08,55.89993472000003,-126.12497408000002,25.121250024320002,44.6655000064
2.6500000000000002e-08,55.89993472000003,-126.12497408000002,25.12750002368,44.65925000704
2.7e-08,49.64993535999997,-126.12497408000002,25.14625002176,44.656125007360004
2.75e-08,55.89993472000003,-110.49997311999999,25.14625002176,44.65925000704
2.8000000000000003e-08,62.14993407999998,-126.12497408000002,25.15875002048,44.66862500608
2.85e-08,62.14993407999998,-126.12497408000002,25.17750001856,44.68425000448
2.9e-08,62.14993407999998,-126.12497408000002,25.17750001856,44.69987500288
2.9500000000000003e-08,68.39993344000004,-110.49997311999999,25.17750001856,44.70300000256
3.0000000000000004e-08,74.64993279999999,-126.12497408000002,25.17750001856,44.70612500224
3.05e-08,80.89993216000005,-94.87497216000003,25.19000001728,44.71862500096
3.1e-08,74.64993279999999,-110.49997311999999,25.20875001536,44.724875000320004
3.1500000000000004e-08,74.64993279999999,-126.12497408000002,25.19625001664,44.73737499904
3.2e-08,80.89993216000005,-79.2499712,25.17750001856,44.73424999936
3.25e-08,80.89993216000005,-110.49997311999999,25.16500001984,44.73424999936
3.3000000000000004e-08,93.39993088000006,-126.12497408000002,25.171250019200002,44.71550000128
3.35e-08,87.14993152,-110.49997311999999,25.16500001984,44.7123750016
3.4e-08,93.39993088000006,-94.87497216000003,25.15875002048,44.7123750016
3.4500000000000005e-08,99.64993024,-79.2499712,25.1400000224,44.71550000128
3.5e-08,99.64993024,-79.2499712,25.121250024320002,44.71550000128
3.55e-08,93.39993088000006,-94.87497216000003,25.1087500256,44.709250001920005
3.6000000000000005e-08,105.89992960000006,-63.62497024000004,25.121250024320002,44.69987500288
3.65e-08,105.89992960000006,-79.2499712,25.1400000224,44.68737500416
3.7e-08,105.89992960000006,-79.2499712,25.14625002176,44.68737500416
3.7500000000000005e-08,112.14992896000001,-63.62497024000004,25.1400000224,44.69050000384
3.8e-08,118.39992831999996,-47.999969280000016,25.09625002688,44.6967500032
3.85e-08,118.39992831999996,-32.374968319999994,25.090000027520002,44.709250001920005
3.9000000000000005e-08,118.39992831999996,-16.749967360000028,25.1087500256,44.709250001920005
3.95e-08,118.39992831999996,-47.999969280000016,25.13375002304,44.70300000256
4e-08,124.64992768000002,-32.374968319999994,25.15250002112,44.6967500032
4.0500000000000005e-08,124.64992768000002,-32.374968319999994,25.15875002048,44.6967500032
4.1e-08,137.14992640000003,-32.374968319999994,25.14625002176,44.693625003520005
4.15e-08,124.64992768000002,-47.999969280000016,25.13375002304,44.6967500032
4.2000000000000006e-08,130.89992703999997,-32.374968319999994,25.13375002304,44.69987500288
4.2500000000000003e-08,137.14992640000003,-16.749967360000028,25.1400000224,44.6967500032
4.3e-08,130.89992703999997,-1.124966400000062,25.15250002112,44.68737500416
4.3500000000000006e-08,130.89992703999997,-1.124966400000062,25.14625002176,44.67175000576
4.4000000000000004e-08,143.39992575999997,-1.124966400000062,25.15250002112,44.66862500608
4.45e-08,137.14992640000003,-1.124966400000062,25.16500001984,44.66862500608
4.5000000000000006e-08,130.89992703999997,-1.124966400000062,25.15875002048,44.68425000448
4.5500000000000004e-08,143.39992575999997,14.500034560000017,25.171250019200002,44.68737500416
4.6e-08,137.14992640000003,-1.124966400000062,25.15875002048,44.6811250048
4.6500000000000006e-08,143.39992575999997,14.500034560000017,25.14625002176,44.67487500544
4.7000000000000004e-08,137.14992640000003,14.500034560000017,25.15875002048,44.67487500544
4.75e-08,143.39992575999997,-1.124966400000062,25.16500001984,44.68425000448
4.8000000000000006e-08,143.39992575999997,30.125035519999983,25.171250019200002,44.70612500224
4.8500000000000004e-08,137.14992640000003,14.500034560000017,25.18375001792,44.71550000128
4.9e-08,143.39992575999997,-1.124966400000062,25.19625001664,44.70612500224
4.95e-08,137.14992640000003,14.500034560000017,25.19000001728,44.6967500032
5.0000000000000004e-08,137.14992640000003,30.125035519999983,25.202500016000002,44.69050000384
5.05e-08,137.14992640000003,30.125035519999983,25.19625001664,44.69050000384
5.1e-08,137.14992640000003,45.75003647999995,25.202500016000002,44.70300000256
5.1500000000000005e-08,130.89992703999997,45.75003647999995,25.19000001728,44.70300000256
5.2e-08,143.39992575999997,61.37503744000003,25.21500001472,44.6967500032
5.25e-08,130.89992703999997,61.37503744000003,25.22125001408,44.68425000448
5.3000000000000005e-08,130.89992703999997,45.75003647999995,25.24000001216,44.68425000448
5.35e-08,130.89992703999997,77.0000384,25.252500010880002,44.68425000448
5.4e-08,137.14992640000003,77.0000384,25.22750001344,44.69050000384
5.4500000000000005e-08,137.14992640000003,92.62503935999996,25.21500001472,44.70300000256
5.5e-08,130.89992703999997,92.62503935999996,25.22125001408,44.709250001920005
5.55e-08,130.89992703999997,92.62503935999996,25.22125001408,44.709250001920005
5.6000000000000005e-08,130.89992703999997,108.25004031999993,25.2337500128,44.709250001920005
5.65e-08,130.89992703999997,92.62503935999996,25.2337500128,44.709250001920005
5.7e-08,130.89992703999997,92.62503935999996,25.22750001344,44.69987500288
5.7500000000000005e-08,118.39992831999996,92.62503935999996,25.22125001408,44.70300000256
5.8e-08,124.64992768000002,108.25004031999993,25.21500001472,44.70612500224
5.85e-08,124.64992768000002,123.87504128,25.20875001536,44.709250001920005
5.9000000000000006e-08,118.39992831999996,108.25004031999993,25.20875001536,44.70300000256
5.9500000000000003e-08,112.14992896000001,123.87504128,25.20875001536,44.68425000448
6.000000000000001e-08,112.14992896000001,123.87504128,25.22125001408,44.66862500608
6.05e-08,112.14992896000001,108.25004031999993,25.2337500128,44.662375006720005
6.1e-08,105.89992960000006,123.87504128,25.24625001152,44.67175000576
6.15e-08,105.89992960000006,139.50004223999997,25.25875001024,44.67175000576
6.2e-08,105.89992960000006,123.87504128,25.252500010880002,44.66862500608
6.250000000000001e-08,99.64993024,139.50004223999997,25.24625001152,44.65925000704
6.300000000000001e-08,93.39993088000006,139.50004223999997,25.25875001024,44.646750008320005
6.35e-08,93.39993088000006,139.50004223999997,25.27125000896,44.64362500864
6.4e-08,93.39993088000006,155.12504319999994,25.29000000704,44.656125007360004
6.45e-08,93.39993088000006,139.50004223999997,25.29000000704,44.66862500608
6.5e-08,93.39993088000006,123.87504128,25.283750007680002,44.67175000576
6.55e-08,87.14993152,123.87504128,25.29000000704,44.6811250048
6.600000000000001e-08,87.14993152,139.50004223999997,25.283750007680002,44.678000005120005
6.65e-08,87.14993152,155.12504319999994,25.29000000704,44.6811250048
6.7e-08,80.89993216000005,155.12504319999994,25.29000000704,44.69050000384
6.75e-08,74.64993279999999,155.12504319999994,25.27750000832,44.69987500288
6.8e-08,80.89993216000005,170.75004416000002,25.27750000832,44.70300000256
6.85e-08,74.64993279999999,170.75004416000002,25.27125000896,44.70612500224
6.900000000000001e-08,74.64993279999999,170.75004416000002,25.2650000096,44.71550000128
6.950000000000001e-08,74.64993279999999,170.75004416000002,25.2650000096,44.7123750016
7e-08,74.64993279999999,170.75004416000002,25.24000001216,44.70300000256
7.05e-08,74.64993279999999,186.37504511999998,25.22750001344,44.6967500032
7.1e-08,68.39993344000004,202.00004607999995,25.2337500128,44.693625003520005
7.15e-08,62.14993407999998,170.75004416000002,25.24000001216,44.70300000256
7.200000000000001e-08,62.14993407999998,202.00004607999995,25.24625001152,44.709250001920005
7.250000000000001e-08,62.14993407999998,186.37504511999998,25.25875001024,44.7123750016
7.3e-08,68.39993344000004,186.37504511999998,25.2650000096,44.69987500288
7.35e-08,62.14993407999998,186.37504511999998,25.25875001024,44.69050000384
7.4e-08,62.14993407999998,202.00004607999995,25.252500010880002,44.68425000448
7.45e-08,62.14993407999998,202.00004607999995,25.24000001216,44.6811250048
7.500000000000001e-08,55.89993472000003,186.37504511999998,25.2337500128,44.68425000448
7.550000000000001e-08,55.89993472000003,186.37504511999998,25.21500001472,44.68737500416
7.6e-08,55.89993472000003,217.62504704000003,25.20875001536,44.68737500416
7.65e-08,55.89993472000003,202.00004607999995,25.20875001536,44.68425000448
7.7e-08,49.64993535999997,202.00004607999995,25.202500016000002,44.69050000384
7.75e-08,43.399936000000025,202.00004607999995,25.21500001472,44.69050000384
7.800000000000001e-08,49.64993535999997,202.00004607999995,25.20875001536,44.693625003520005
7.850000000000001e-08,43.399936000000025,202.00004607999995,25.19625001664,44.69987500288
7.9e-08,43.399936000000025,217.62504704000003,25.19625001664,44.70300000256
7.95e-08,37.149936639999964,186.37504511999998,25.19625001664,44.70612500224
8e-08,43.399936000000025,217.62504704000003,25.202500016000002,44.7123750016
8.05e-08,43.399936000000025,186.37504511999998,25.19625001664,44.72175000064
8.100000000000001e-08,43.399936000000025,170.75004416000002,25.19000001728,44.7123750016
8.150000000000001e-08,30.899937280000017,170.75004416000002,25.171250019200002,44.7123750016
8.2e-08,37.149936639999964,186.37504511999998,25.16500001984,44.709250001920005
8.25e-08,30.899937280000017,186.37504511999998,25.16500001984,44.70612500224
8.3e-08,30.899937280000017,186.37504511999998,25.16500001984,44.70612500224
8.35e-08,24.649937919999957,186.37504511999998,25.15250002112,44.70612500224
8.400000000000001e-08,30.899937280000017,186.37504511999998,25.16500001984,44.7123750016
8.450000000000001e-08,24.649937919999957,186.37504511999998,25.16500001984,44.7123750016
8.500000000000001e-08,24.649937919999957,170.75004416000002,25.171250019200002,44.724875000320004
8.55e-08,24.649937919999957,186.37504511999998,25.18375001792,44.72175000064
8.6e-08,30.899937280000017,170.75004416000002,25.17750001856,44.71862500096
8.65e-08,18.39993856000001,186.37504511999998,25.171250019200002,44.724875000320004
8.700000000000001e-08,18.39993856000001,170.75004416000002,25.18375001792,44.724875000320004
8.750000000000001e-08,18.39993856000001,170.75004416000002,25.17750001856,44.740499998720004
8.800000000000001e-08,18.39993856000001,170.75004416000002,25.17750001856,44.756124997120004
8.85e-08,18.39993856000001,155.12504319999994,25.17750001856,44.76549999616
8.9e-08,24.649937919999957,155.12504319999994,25.17750001856,44.76237499648
8.95e-08,18.39993856000001,139.50004223999997,25.16500001984,44.756124997120004
9.000000000000001e-08,18.39993856000001,139.50004223999997,25.16500001984,44.74674999808
9.050000000000001e-08,18.39993856000001,139.50004223999997,25.15250002112,44.740499998720004
9.100000000000001e-08,12.149939200000063,139.50004223999997,25.15875002048,44.740499998720004
9.15e-08,5.899939840000002,123.87504128,25.14625002176,44.740499998720004
9.2e-08,5.899939840000002,123.87504128,25.14625002176,44.73424999936
9.25e-08,5.899939840000002,108.25004031999993,25.14625002176,44.724875000320004
9.300000000000001e-08,-0.3500595199999452,108.25004031999993,25.1400000224,44.72175000064
9.350000000000001e-08,5.899939840000002,123.87504128,25.12750002368,44.71862500096
9.400000000000001e-08,5.899939840000002,108.25004031999993,25.1087500256,44.7123750016
9.45e-08,-0.3500595199999452,123.87504128,25.1087500256,44.71550000128
9.5e-08,-0.3500595199999452,108.25004031999993,25.1087500256,44.709250001920005
9.55e-08,-6.600058880000006,92.62503935999996,25.1087500256,44.70300000256
9.600000000000001e-08,-0.3500595199999452,123.87504128,25.11500002496,44.69987500288
9.650000000000001e-08,-6.600058880000006,92.62503935999996,25.121250024320002,44.69987500288
9.700000000000001e-08,5.899939840000002,77.0000384,25.12750002368,44.69050000384
9.75e-08,-6.600058880000006,61.37503744000003,25.121250024320002,44.69050000384
9.8e-08,-6.600058880000006,77.0000384,25.121250024320002,44.68425000448
9.85e-08,-6.600058880000006,77.0000384,25.12750002368,44.66862500608
9.9e-08,-12.850058239999953,77.0000384,25.1400000224,44.65925000704
9.950000000000001e-08,-19.100057600000014,77.0000384,25.14625002176,44.656125007360004
1.0000000000000001e-07,-12.850058239999953,77.0000384,25.16500001984,44.65300000768
1.005e-07,-12.850058239999953,77.0000384,25.17750001856,44.649875008
1.01e-07,-25.35005695999996,77.0000384,25.18375001792,44.6655000064
1.015e-07,-19.100057600000014,77.0000384,25.19000001728,44.67175000576
1.02e-07,-19.100057600000014,77.0000384,25.17750001856,44.678000005120005
1.0250000000000001e-07,-19.100057600000014,77.0000384,25.171250019200002,44.68737500416
1.0300000000000001e-07,-25.35005695999996,92.62503935999996,25.18375001792,44.69050000384
1.0350000000000001e-07,-31.60005632000002,61.37503744000003,25.171250019200002,44.69987500288
1.04e-07,-31.60005632000002,77.0000384,25.15250002112,44.7123750016
1.045e-07,-37.85005567999997,61.37503744000003,25.1400000224,44.724875000320004
1.05e-07,-31.60005632000002,45.75003647999995,25.14625002176,44.72175000064
1.0550000000000001e-07,-44.10005504000003,45.75003647999995,25.12750002368,44.724875000320004
1.0600000000000001e-07,-44.10005504000003,61.37503744000003,25.12750002368,44.728
1.0650000000000001e-07,-37.85005567999997,61.37503744000003,25.1087500256,44.724875000320004
1.07e-07,-44.10005504000003,45.75003647999995,25.09625002688,44.72175000064
1.075e-07,-56.60005376000004,61.37503744000003,25.0775000288,44.71862500096
1.08e-07,-50.350054399999976,45.75003647999995,25.07125002944,44.72175000064
1.0850000000000001e-07,-56.60005376000004,30.125035519999983,25.08375002816,44.71550000128
1.0900000000000001e-07,-69.10005248000004,30.125035519999983,25.090000027520002,44.71550000128
1.0950000000000001e-07,-62.850053119999984,30.125035519999983,25.09625002688,44.70612500224
1.1e-07,-69.10005248000004,30.125035519999983,25.0775000288,44.6967500032
1.105e-07,-69.10005248000004,30.125035519999983,25.06500003008,44.6967500032
1.11e-07,-69.10005248000004,14.500034560000017,25.06500003008,44.693625003520005
1.1150000000000001e-07,-75.35005183999999,-1.124966400000062,25.0775000288,44.693625003520005
1.1200000000000001e-07,-81.6000512,14.500034560000017,25.090000027520002,44.69987500288
1.1250000000000001e-07,-75.35005183999999,-1.124966400000062,25.09625002688,44.709250001920005
1.13e-07,-69.10005248000004,-16.749967360000028,25.090000027520002,44.70612500224
1.135e-07,-87.85005056,-32.374968319999994,25.06500003008,44.70612500224
1.14e-07,-87.85005056,-32.374968319999994,25.046250032,44.70300000256
1.1450000000000001e-07,-81.6000512,-16.749967360000028,25.046250032,44.6967500032
1.1500000000000001e-07,-94.10004992,-32.374968319999994,25.05250003136,44.69987500288
1.1550000000000001e-07,-100.35004928000001,-16.749967360000028,25.046250032,44.6967500032
1.16e-07,-94.10004992,-32.374968319999994,25.040000032640002,44.6967500032
1.165e-07,-100.35004928000001,-32.374968319999994,25.02125003456,44.6967500032
1.17e-07,-106.60004864000001,-47.999969280000016,25.00250003648,44.68737500416
1.1750000000000001e-07,-100.35004928000001,-32.374968319999994,25.008750035840002,44.67175000576
1.1800000000000001e-07,-94.10004992,-63.62497024000004,25.008750035840002,44.662375006720005
1.1850000000000001e-07,-100.35004928000001,-47.999969280000016,25.0150000352,44.6655000064
1.1900000000000001e-07,-106.60004864000001,-47.999969280000016,25.02750003392,44.66862500608
1.195e-07,-106.60004864000001,-79.2499712,25.0150000352,44.67175000576
1.2000000000000002e-07,-100.35004928000001,-32.374968319999994,25.02125003456,44.67175000576
1.205e-07,-106.60004864000001,-63.62497024000004,25.02750003392,44.66862500608
1.21e-07,-100.35004928000001,-79.2499712,25.040000032640002,44.66862500608
1.215e-07,-106.60004864000001,-79.2499712,25.046250032,44.67487500544
