Time (s),V_PRI,V_SEC,V_IN,V_OUT
0.0,-51.874910720000116,-248.12498176000003,25.07937497792,47.11000000256
5e-10,-51.874910720000116,-248.12498176000003,25.094999978879997,47.11625000192
1e-09,-51.874910720000116,-248.12498176000003,25.094999978879997,47.12562500096
1.5000000000000002e-09,-51.874910720000116,-248.12498176000003,25.094999978879997,47.13187500032
2e-09,-36.24990976000004,-248.12498176000003,25.07937497792,47.14437499904
2.5e-09,-36.24990976000004,-248.12498176000003,25.07937497792,47.14749999872
3.0000000000000004e-09,-36.24990976000004,-263.74998272,25.094999978879997,47.153749998079995
3.5000000000000003e-09,-20.624908799999957,-248.12498176000003,25.048124976,47.138124999679995
4e-09,-4.999907840000105,-263.74998272,25.06374997696,47.12562500096
4.500000000000001e-09,-4.999907840000105,-263.74998272,25.048124976,47.11000000256
5e-09,-4.999907840000105,-263.74998272,25.01687497408,47.09750000384
5.5000000000000004e-09,-4.999907840000105,-263.74998272,25.01687497408,47.08500000512
6.000000000000001e-09,-4.999907840000105,-248.12498176000003,25.00124997312,47.06937500672
6.5e-09,-4.999907840000105,-263.74998272,24.98562497216,47.060000007679996
7.000000000000001e-09,26.250094080000054,-294.99998464,24.98562497216,47.05375000832
7.500000000000001e-09,10.625093119999974,-279.37498368,25.00124997312,47.06312500736
8e-09,10.625093119999974,-263.74998272,25.00124997312,47.08187500544
8.5e-09,26.250094080000054,-263.74998272,24.98562497216,47.10062500352
9.000000000000001e-09,26.250094080000054,-263.74998272,24.9699999712,47.122500001279995
9.5e-09,26.250094080000054,-248.12498176000003,24.9699999712,47.138124999679995
1e-08,41.875095039999906,-248.12498176000003,24.95437497024,47.15687499776
1.0500000000000001e-08,26.250094080000054,-248.12498176000003,24.93874996928,47.1662499968
1.1000000000000001e-08,10.625093119999974,-248.12498176000003,24.95437497024,47.175624995839996
1.15e-08,41.875095039999906,-248.12498176000003,24.93874996928,47.169374996479995
1.2000000000000002e-08,57.500095999999985,-248.12498176000003,24.95437497024,47.15687499776
1.2500000000000001e-08,41.875095039999906,-232.4999808,24.95437497024,47.1506249984
1.3e-08,41.875095039999906,-232.4999808,24.95437497024,47.135
1.35e-08,26.250094080000054,-248.12498176000003,24.98562497216,47.135
1.4000000000000001e-08,57.500095999999985,-201.24997888000001,25.00124997312,47.135
1.45e-08,57.500095999999985,-216.87497984000004,25.01687497408,47.14437499904
1.5000000000000002e-08,73.12509695999984,-232.4999808,25.01687497408,47.14437499904
1.55e-08,57.500095999999985,-232.4999808,25.01687497408,47.16312499712
1.6e-08,73.12509695999984,-232.4999808,25.03249997504,47.184999994879995
1.6500000000000002e-08,88.75009791999992,-201.24997888000001,25.03249997504,47.19437499392
1.7e-08,88.75009791999992,-201.24997888000001,25.01687497408,47.200624993279995
1.75e-08,57.500095999999985,-201.24997888000001,25.03249997504,47.19437499392
1.8000000000000002e-08,104.37509888,-201.24997888000001,25.01687497408,47.1818749952
1.85e-08,73.12509695999984,-185.62497792,25.03249997504,47.1662499968
1.9e-08,88.75009791999992,-201.24997888000001,25.048124976,47.15687499776
1.9500000000000003e-08,88.75009791999992,-169.99997696000003,25.048124976,47.14124999936
2e-08,104.37509888,-185.62497792,25.094999978879997,47.12875000064
2.05e-08,104.37509888,-169.99997696000003,25.07937497792,47.1193750016
2.1000000000000003e-08,104.37509888,-154.374976,25.06374997696,47.106875002879995
2.15e-08,88.75009791999992,-169.99997696000003,25.094999978879997,47.1037500032
2.2000000000000002e-08,104.37509888,-154.374976,25.07937497792,47.1037500032
2.2500000000000003e-08,104.37509888,-169.99997696000003,25.07937497792,47.106875002879995
2.3e-08,135.62510079999993,-169.99997696000003,25.07937497792,47.1037500032
2.3500000000000002e-08,104.37509888,-169.99997696000003,25.06374997696,47.11312500224
2.4000000000000003e-08,120.00009983999985,-138.74997504000004,25.06374997696,47.11625000192
2.45e-08,120.00009983999985,-138.74997504000004,25.06374997696,47.12562500096
2.5000000000000002e-08,120.00009983999985,-138.74997504000004,25.07937497792,47.12562500096
2.55e-08,120.00009983999985,-138.74997504000004,25.110624979839997,47.11312500224
2.6e-08,135.62510079999993,-138.74997504000004,25.094999978879997,47.10062500352
2.6500000000000002e-08,120.00009983999985,-138.74997504000004,25.110624979839997,47.08187500544
2.7e-08,135.62510079999993,-138.74997504000004,25.141874981759997,47.075625006079996
2.75e-08,151.25010176,-123.12497408000002,25.141874981759997,47.06625000704
2.8000000000000003e-08,151.25010176,-138.74997504000004,25.157499982719997,47.056875008
2.85e-08,135.62510079999993,-123.12497408000002,25.141874981759997,47.04750000896
2.9e-08,135.62510079999993,-107.49997311999999,25.094999978879997,47.0412500096
2.9500000000000003e-08,135.62510079999993,-123.12497408000002,25.110624979839997,47.04750000896
3.0000000000000004e-08,166.87510271999986,-91.87497216000003,25.094999978879997,47.06625000704
3.05e-08,166.87510271999986,-123.12497408000002,25.110624979839997,47.08500000512
3.1e-08,182.50010367999994,-138.74997504000004,25.07937497792,47.1037500032
3.1500000000000004e-08,151.25010176,-138.74997504000004,25.06374997696,47.12875000064
3.2e-08,166.87510271999986,-107.49997311999999,25.06374997696,47.1506249984
3.25e-08,182.50010367999994,-107.49997311999999,25.048124976,47.169374996479995
3.3000000000000004e-08,166.87510271999986,-107.49997311999999,25.06374997696,47.1818749952
3.35e-08,166.87510271999986,-91.87497216000003,25.07937497792,47.184999994879995
3.4e-08,182.50010367999994,-91.87497216000003,25.06374997696,47.184999994879995
3.4500000000000005e-08,182.50010367999994,-107.49997311999999,25.03249997504,47.175624995839996
3.5e-08,182.50010367999994,-107.49997311999999,25.03249997504,47.17249999616
3.55e-08,198.12510464000002,-107.49997311999999,25.00124997312,47.15687499776
3.6000000000000005e-08,213.75010559999987,-76.2499712,25.01687497408,47.14749999872
3.65e-08,213.75010559999987,-76.2499712,25.00124997312,47.138124999679995
3.7e-08,198.12510464000002,-60.62497024000004,24.9699999712,47.1193750016
3.7500000000000005e-08,198.12510464000002,-76.2499712,24.98562497216,47.10062500352
3.8e-08,198.12510464000002,-44.999969280000016,25.01687497408,47.091250004479996
3.85e-08,213.75010559999987,-76.2499712,25.048124976,47.08500000512
3.9000000000000005e-08,229.37510655999995,-76.2499712,25.048124976,47.07875000576
3.95e-08,213.75010559999987,-76.2499712,25.07937497792,47.08500000512
4e-08,229.37510655999995,-44.999969280000016,25.07937497792,47.091250004479996
4.0500000000000005e-08,229.37510655999995,-44.999969280000016,25.06374997696,47.10062500352
4.1e-08,213.75010559999987,-29.374968319999994,25.06374997696,47.11000000256
4.15e-08,213.75010559999987,-29.374968319999994,25.07937497792,47.11625000192
4.2000000000000006e-08,245.00010752000003,-29.374968319999994,25.048124976,47.1193750016
4.2500000000000003e-08,229.37510655999995,-29.374968319999994,25.01687497408,47.1193750016
4.3e-08,213.75010559999987,-44.999969280000016,24.98562497216,47.122500001279995
4.3500000000000006e-08,229.37510655999995,-13.749967360000028,24.92312496832,47.11625000192
4.4000000000000004e-08,229.37510655999995,-13.749967360000028,24.92312496832,47.10062500352
4.45e-08,229.37510655999995,-13.749967360000028,24.92312496832,47.091250004479996
4.5000000000000006e-08,229.37510655999995,1.875033599999938,24.90749996736,47.0725000064
4.5500000000000004e-08,213.75010559999987,-13.749967360000028,24.92312496832,47.060000007679996
4.6e-08,245.00010752000003,17.500034560000017,24.93874996928,47.060000007679996
4.6500000000000006e-08,229.37510655999995,17.500034560000017,24.95437497024,47.06625000704
4.7000000000000004e-08,229.37510655999995,-13.749967360000028,24.95437497024,47.06312500736
4.75e-08,229.37510655999995,1.875033599999938,24.95437497024,47.06937500672
4.8000000000000006e-08,213.75010559999987,17.500034560000017,24.9699999712,47.0725000064
4.8500000000000004e-08,229.37510655999995,17.500034560000017,24.95437497024,47.0881250048
4.9e-08,213.75010559999987,33.12503551999998,24.95437497024,47.11312500224
4.95e-08,198.12510464000002,33.12503551999998,24.95437497024,47.13187500032
5.0000000000000004e-08,229.37510655999995,33.12503551999998,24.8918749664,47.14124999936
5.05e-08,213.75010559999987,17.500034560000017,24.87624996544,47.14437499904
5.1e-08,198.12510464000002,33.12503551999998,24.87624996544,47.1506249984
5.1500000000000005e-08,213.75010559999987,48.75003647999995,24.84499996352,47.15687499776
5.2e-08,229.37510655999995,48.75003647999995,24.8918749664,47.16312499712
5.25e-08,213.75010559999987,48.75003647999995,24.87624996544,47.169374996479995
5.3000000000000005e-08,198.12510464000002,64.37503744000003,24.87624996544,47.1506249984
5.35e-08,182.50010367999994,48.75003647999995,24.90749996736,47.13187500032
5.4e-08,198.12510464000002,80.0000384,24.92312496832,47.11625000192
5.4500000000000005e-08,182.50010367999994,64.37503744000003,24.90749996736,47.106875002879995
5.5e-08,198.12510464000002,64.37503744000003,24.90749996736,47.091250004479996
5.55e-08,182.50010367999994,64.37503744000003,24.87624996544,47.08500000512
5.6000000000000005e-08,166.87510271999986,80.0000384,24.86062496448,47.075625006079996
5.65e-08,182.50010367999994,80.0000384,24.82937496256,47.07875000576
5.7e-08,166.87510271999986,80.0000384,24.82937496256,47.0881250048
5.7500000000000005e-08,151.25010176,95.62503935999996,24.84499996352,47.1037500032
5.8e-08,166.87510271999986,111.25004031999993,24.84499996352,47.11625000192
5.85e-08,151.25010176,95.62503935999996,24.87624996544,47.11625000192
5.9000000000000006e-08,151.25010176,111.25004031999993,24.90749996736,47.122500001279995
5.9500000000000003e-08,151.25010176,126.87504128,24.90749996736,47.12875000064
6.000000000000001e-08,151.25010176,111.25004031999993,24.9699999712,47.13187500032
6.05e-08,151.25010176,126.87504128,24.98562497216,47.135
6.1e-08,151.25010176,142.50004223999997,24.9699999712,47.1193750016
6.15e-08,120.00009983999985,126.87504128,24.95437497024,47.10062500352
6.2e-08,135.62510079999993,142.50004223999997,24.93874996928,47.091250004479996
6.250000000000001e-08,120.00009983999985,126.87504128,24.92312496832,47.08187500544
6.300000000000001e-08,151.25010176,111.25004031999993,24.8918749664,47.0725000064
6.35e-08,120.00009983999985,126.87504128,24.87624996544,47.06312500736
6.4e-08,120.00009983999985,142.50004223999997,24.8918749664,47.05375000832
6.45e-08,120.00009983999985,158.12504319999994,24.90749996736,47.05062500864
6.5e-08,120.00009983999985,142.50004223999997,24.92312496832,47.05062500864
6.55e-08,104.37509888,158.12504319999994,24.95437497024,47.060000007679996
6.600000000000001e-08,120.00009983999985,142.50004223999997,24.95437497024,47.075625006079996
6.65e-08,88.75009791999992,158.12504319999994,24.93874996928,47.07875000576
6.7e-08,88.75009791999992,158.12504319999994,24.93874996928,47.09437500416
6.75e-08,88.75009791999992,173.75004416000002,24.90749996736,47.1037500032
6.8e-08,88.75009791999992,158.12504319999994,24.92312496832,47.11000000256
6.85e-08,88.75009791999992,173.75004416000002,24.8918749664,47.11625000192
6.900000000000001e-08,88.75009791999992,189.37504511999998,24.87624996544,47.11312500224
6.950000000000001e-08,73.12509695999984,158.12504319999994,24.87624996544,47.11000000256
7e-08,73.12509695999984,189.37504511999998,24.8918749664,47.11000000256
7.05e-08,73.12509695999984,173.75004416000002,24.92312496832,47.11000000256
7.1e-08,88.75009791999992,158.12504319999994,24.95437497024,47.11000000256
7.15e-08,41.875095039999906,158.12504319999994,24.9699999712,47.11000000256
7.200000000000001e-08,57.500095999999985,173.75004416000002,25.01687497408,47.11312500224
7.250000000000001e-08,57.500095999999985,189.37504511999998,25.01687497408,47.11625000192
7.3e-08,41.875095039999906,189.37504511999998,25.01687497408,47.122500001279995
7.35e-08,26.250094080000054,173.75004416000002,25.03249997504,47.12562500096
7.4e-08,41.875095039999906,205.00004607999995,24.9699999712,47.138124999679995
7.45e-08,26.250094080000054,205.00004607999995,24.93874996928,47.138124999679995
7.500000000000001e-08,10.625093119999974,189.37504511999998,24.92312496832,47.1506249984
7.550000000000001e-08,26.250094080000054,205.00004607999995,24.8918749664,47.14437499904
7.6e-08,26.250094080000054,189.37504511999998,24.92312496832,47.14124999936
7.65e-08,26.250094080000054,220.62504704000003,24.90749996736,47.14124999936
7.7e-08,10.625093119999974,220.62504704000003,24.90749996736,47.12562500096
7.75e-08,-4.999907840000105,189.37504511999998,24.93874996928,47.106875002879995
7.800000000000001e-08,26.250094080000054,236.250048,24.95437497024,47.091250004479996
7.850000000000001e-08,-4.999907840000105,205.00004607999995,24.9699999712,47.08187500544
7.9e-08,10.625093119999974,189.37504511999998,24.93874996928,47.06625000704
7.95e-08,-20.624908799999957,205.00004607999995,24.93874996928,47.06312500736
8e-08,-4.999907840000105,220.62504704000003,24.90749996736,47.06937500672
8.05e-08,-4.999907840000105,220.62504704000003,24.8918749664,47.075625006079996
8.100000000000001e-08,-20.624908799999957,205.00004607999995,24.8918749664,47.09437500416
8.150000000000001e-08,-51.874910720000116,205.00004607999995,24.90749996736,47.11312500224
8.2e-08,-4.999907840000105,220.62504704000003,24.87624996544,47.12562500096
8.25e-08,-20.624908799999957,205.00004607999995,24.8918749664,47.135
8.3e-08,-36.24990976000004,189.37504511999998,24.90749996736,47.14437499904
8.35e-08,-36.24990976000004,205.00004607999995,24.8918749664,47.14124999936
8.400000000000001e-08,-20.624908799999957,205.00004607999995,24.93874996928,47.135
8.450000000000001e-08,-51.874910720000116,220.62504704000003,24.93874996928,47.13187500032
8.500000000000001e-08,-51.874910720000116,205.00004607999995,24.90749996736,47.11625000192
8.55e-08,-67.49991167999997,189.37504511999998,24.92312496832,47.106875002879995
8.6e-08,-51.874910720000116,205.00004607999995,24.90749996736,47.1037500032
8.65e-08,-67.49991167999997,173.75004416000002,24.8918749664,47.11000000256
8.700000000000001e-08,-51.874910720000116,158.12504319999994,24.8918749664,47.11312500224
8.750000000000001e-08,-67.49991167999997,158.12504319999994,24.8918749664,47.13187500032
8.800000000000001e-08,-67.49991167999997,173.75004416000002,24.8918749664,47.153749998079995
8.85e-08,-83.12491264000005,173.75004416000002,24.92312496832,47.17249999616
8.9e-08,-83.12491264000005,173.75004416000002,24.92312496832,47.191249994239996
8.95e-08,-98.74991360000013,173.75004416000002,24.95437497024,47.20374999296
9.000000000000001e-08,-67.49991167999997,158.12504319999994,24.93874996928,47.20999999232
9.050000000000001e-08,-83.12491264000005,142.50004223999997,24.92312496832,47.200624993279995
9.100000000000001e-08,-98.74991360000013,142.50004223999997,24.92312496832,47.19437499392
9.15e-08,-98.74991360000013,158.12504319999994,24.87624996544,47.17874999552
9.2e-08,-98.74991360000013,142.50004223999997,24.8918749664,47.159999997439996
9.25e-08,-98.74991360000013,158.12504319999994,24.8918749664,47.14437499904
9.300000000000001e-08,-98.74991360000013,142.50004223999997,24.86062496448,47.122500001279995
9.350000000000001e-08,-114.37491455999998,126.87504128,24.87624996544,47.11000000256
9.400000000000001e-08,-98.74991360000013,142.50004223999997,24.87624996544,47.10062500352
9.45e-08,-98.74991360000013,126.87504128,24.87624996544,47.1037500032
9.5e-08,-98.74991360000013,111.25004031999993,24.8918749664,47.1037500032
9.55e-08,-114.37491455999998,95.62503935999996,24.92312496832,47.11000000256
9.600000000000001e-08,-114.37491455999998,95.62503935999996,24.90749996736,47.11000000256
9.650000000000001e-08,-114.37491455999998,95.62503935999996,24.92312496832,47.11000000256
9.700000000000001e-08,-129.99991552000006,111.25004031999993,24.92312496832,47.11312500224
9.75e-08,-145.62491648000014,95.62503935999996,24.90749996736,47.11625000192
9.8e-08,-129.99991552000006,111.25004031999993,24.8918749664,47.11625000192
9.85e-08,-145.62491648000014,80.0000384,24.90749996736,47.11312500224
9.9e-08,-161.24991744,80.0000384,24.92312496832,47.11312500224
9.950000000000001e-08,-145.62491648000014,95.62503935999996,24.92312496832,47.1037500032
1.0000000000000001e-07,-145.62491648000014,64.37503744000003,24.9699999712,47.09437500416
1.005e-07,-145.62491648000014,95.62503935999996,24.98562497216,47.0881250048
1.01e-07,-161.24991744,80.0000384,25.00124997312,47.075625006079996
1.015e-07,-161.24991744,64.37503744000003,25.01687497408,47.06937500672
1.02e-07,-161.24991744,95.62503935999996,25.048124976,47.06312500736
1.0250000000000001e-07,-161.24991744,64.37503744000003,25.06374997696,47.06312500736
1.0300000000000001e-07,-161.24991744,48.75003647999995,25.048124976,47.060000007679996
1.0350000000000001e-07,-176.87491840000007,48.75003647999995,25.00124997312,47.0725000064
1.04e-07,-176.87491840000007,64.37503744000003,24.9699999712,47.08187500544
1.045e-07,-176.87491840000007,48.75003647999995,24.95437497024,47.10062500352
1.05e-07,-176.87491840000007,48.75003647999995,24.93874996928,47.1193750016
1.0550000000000001e-07,-192.49991936000015,64.37503744000003,24.98562497216,47.12875000064
1.0600000000000001e-07,-176.87491840000007,64.37503744000003,24.9699999712,47.14437499904
1.0650000000000001e-07,-192.49991936000015,64.37503744000003,25.00124997312,47.153749998079995
1.07e-07,-208.12492032,48.75003647999995,25.01687497408,47.169374996479995
1.075e-07,-208.12492032,48.75003647999995,25.03249997504,47.17249999616
1.08e-07,-208.12492032,48.75003647999995,25.06374997696,47.175624995839996
1.0850000000000001e-07,-208.12492032,48.75003647999995,25.06374997696,47.17249999616
1.0900000000000001e-07,-223.74992128000008,64.37503744000003,25.01687497408,47.16312499712
1.0950000000000001e-07,-223.74992128000008,33.12503551999998,24.98562497216,47.1506249984
1.1e-07,-223.74992128000008,48.75003647999995,24.95437497024,47.138124999679995
1.105e-07,-223.74992128000008,33.12503551999998,24.93874996928,47.13187500032
1.11e-07,-208.12492032,17.500034560000017,24.95437497024,47.11000000256
1.1150000000000001e-07,-239.37492223999993,1.875033599999938,24.98562497216,47.09750000384
1.1200000000000001e-07,-239.37492223999993,17.500034560000017,25.01687497408,47.08500000512
1.1250000000000001e-07,-223.74992128000008,1.875033599999938,25.03249997504,47.075625006079996
1.13e-07,-239.37492223999993,17.500034560000017,25.06374997696,47.08187500544
1.135e-07,-254.9999232,1.875033599999938,25.110624979839997,47.0881250048
1.14e-07,-223.74992128000008,1.875033599999938,25.126249980799997,47.09750000384
1.1450000000000001e-07,-254.9999232,-13.749967360000028,25.126249980799997,47.10062500352
1.1500000000000001e-07,-254.9999232,-13.749967360000028,25.110624979839997,47.11312500224
1.1550000000000001e-07,-254.9999232,-13.749967360000028,25.048124976,47.122500001279995
1.16e-07,-254.9999232,-29.374968319999994,25.048124976,47.13187500032
1.165e-07,-254.9999232,-29.374968319999994,25.01687497408,47.14124999936
1.17e-07,-239.37492223999993,-13.749967360000028,24.9699999712,47.135
1.1750000000000001e-07,-270.6249241600001,-44.999969280000016,24.95437497024,47.1193750016
1.1800000000000001e-07,-254.9999232,1.875033599999938,24.93874996928,47.1037500032
1.1850000000000001e-07,-239.37492223999993,-44.999969280000016,24.93874996928,47.09437500416
1.1900000000000001e-07,-223.74992128000008,-60.62497024000004,24.93874996928,47.07875000576
1.195e-07,-254.9999232,-60.62497024000004,24.9699999712,47.06312500736
1.2000000000000002e-07,-239.37492223999993,-44.999969280000016,24.98562497216,47.04750000896
1.205e-07,-239.37492223999993,-60.62497024000004,25.00124997312,47.03500001024
1.21e-07,-239.37492223999993,-44.999969280000016,25.00124997312,47.038125009919995
1.215e-07,-254.9999232,-60.62497024000004,25.03249997504,47.05062500864
1.22e-07,-239.37492223999993,-60.62497024000004,25.03249997504,47.075625006079996
