Time (s),V_PRI,V_SEC,V_IN,V_OUT
0.0,-53.374910720000116,-232.4999808,25.1327499808,47.90412500224
5e-10,-53.374910720000116,-248.12498176000003,25.14837498176,47.91662500096
1e-09,-53.374910720000116,-263.74998272,25.10149997888,47.92912499968
1.5000000000000002e-09,-37.74990976000004,-232.4999808,25.11712497984,47.93537499904
2e-09,-53.374910720000116,-263.74998272,25.11712497984,47.95099999744
2.5e-09,-6.499907840000105,-263.74998272,25.11712497984,47.94474999808
3.0000000000000004e-09,-22.124908799999957,-279.37498368,25.11712497984,47.938499998720005
3.5000000000000003e-09,-22.124908799999957,-279.37498368,25.085874977920003,47.922875000320005
4e-09,-6.499907840000105,-263.74998272,25.070249976960003,47.89787500288
4.500000000000001e-09,-6.499907840000105,-263.74998272,25.054624976000003,47.885375004160004
5e-09,-22.124908799999957,-263.74998272,25.038999975040003,47.869750005760004
5.5000000000000004e-09,9.125093119999974,-248.12498176000003,25.070249976960003,47.854125007360004
6.000000000000001e-09,-6.499907840000105,-263.74998272,25.038999975040003,47.844750008320005
6.5e-09,9.125093119999974,-263.74998272,25.023374974080003,47.844750008320005
7.000000000000001e-09,9.125093119999974,-263.74998272,25.023374974080003,47.85100000768
7.500000000000001e-09,24.750094080000054,-263.74998272,25.023374974080003,47.8635000064
8e-09,24.750094080000054,-248.12498176000003,25.038999975040003,47.8947500032
8.5e-09,9.125093119999974,-248.12498176000003,25.038999975040003,47.91350000128
9.000000000000001e-09,9.125093119999974,-248.12498176000003,25.007749973120003,47.93224999936
9.5e-09,40.375095039999906,-232.4999808,24.992124972160003,47.94474999808
1e-08,40.375095039999906,-263.74998272,24.976499971200003,47.954124997120005
1.0500000000000001e-08,56.000095999999985,-263.74998272,24.960874970240003,47.954124997120005
1.1000000000000001e-08,40.375095039999906,-263.74998272,24.976499971200003,47.95099999744
1.15e-08,40.375095039999906,-248.12498176000003,24.960874970240003,47.9416249984
1.2000000000000002e-08,56.000095999999985,-232.4999808,24.976499971200003,47.926
1.2500000000000001e-08,56.000095999999985,-232.4999808,24.960874970240003,47.91975000064
1.3e-08,40.375095039999906,-232.4999808,24.976499971200003,47.91662500096
1.35e-08,56.000095999999985,-216.87497984000004,25.038999975040003,47.91975000064
1.4000000000000001e-08,56.000095999999985,-232.4999808,25.023374974080003,47.91975000064
1.45e-08,56.000095999999985,-232.4999808,25.023374974080003,47.93537499904
1.5000000000000002e-08,71.62509695999984,-232.4999808,25.038999975040003,47.95099999744
1.55e-08,71.62509695999984,-216.87497984000004,25.023374974080003,47.96349999616
1.6e-08,71.62509695999984,-201.24997888000001,25.070249976960003,47.9884999936
1.6500000000000002e-08,71.62509695999984,-201.24997888000001,25.070249976960003,47.99787499264
1.7e-08,71.62509695999984,-201.24997888000001,25.023374974080003,47.99162499328
1.75e-08,87.25009791999992,-185.62497792,25.023374974080003,47.98224999424
1.8000000000000002e-08,87.25009791999992,-201.24997888000001,25.023374974080003,47.96662499584
1.85e-08,118.50009983999985,-216.87497984000004,25.023374974080003,47.94787499776
1.9e-08,87.25009791999992,-201.24997888000001,25.038999975040003,47.93224999936
1.9500000000000003e-08,87.25009791999992,-185.62497792,25.054624976000003,47.922875000320005
2e-08,102.87509888,-169.99997696000003,25.054624976000003,47.90412500224
2.05e-08,102.87509888,-169.99997696000003,25.054624976000003,47.8947500032
2.1000000000000003e-08,102.87509888,-154.374976,25.070249976960003,47.885375004160004
2.15e-08,102.87509888,-169.99997696000003,25.11712497984,47.891625003520005
2.2000000000000002e-08,102.87509888,-154.374976,25.085874977920003,47.891625003520005
2.2500000000000003e-08,118.50009983999985,-169.99997696000003,25.085874977920003,47.901000002560004
2.3e-08,118.50009983999985,-154.374976,25.070249976960003,47.90412500224
2.3500000000000002e-08,134.12510079999993,-138.74997504000004,25.054624976000003,47.907250001920005
2.4000000000000003e-08,118.50009983999985,-138.74997504000004,25.085874977920003,47.91975000064
2.45e-08,118.50009983999985,-123.12497408000002,25.070249976960003,47.91662500096
2.5000000000000002e-08,118.50009983999985,-138.74997504000004,25.070249976960003,47.91350000128
2.55e-08,134.12510079999993,-107.49997311999999,25.085874977920003,47.901000002560004
2.6e-08,134.12510079999993,-123.12497408000002,25.085874977920003,47.885375004160004
2.6500000000000002e-08,165.37510271999986,-138.74997504000004,25.11712497984,47.86662500608
2.7e-08,134.12510079999993,-154.374976,25.1327499808,47.860375006720005
2.75e-08,149.75010176,-138.74997504000004,25.14837498176,47.85100000768
2.8000000000000003e-08,165.37510271999986,-123.12497408000002,25.1327499808,47.838500008960004
2.85e-08,149.75010176,-123.12497408000002,25.1327499808,47.82912500992
2.9e-08,134.12510079999993,-123.12497408000002,25.10149997888,47.82912500992
2.9500000000000003e-08,165.37510271999986,-123.12497408000002,25.11712497984,47.844750008320005
3.0000000000000004e-08,165.37510271999986,-107.49997311999999,25.10149997888,47.86662500608
3.05e-08,149.75010176,-123.12497408000002,25.085874977920003,47.88850000384
3.1e-08,165.37510271999986,-107.49997311999999,25.10149997888,47.91350000128
3.1500000000000004e-08,181.00010367999994,-107.49997311999999,25.070249976960003,47.93224999936
3.2e-08,181.00010367999994,-107.49997311999999,25.085874977920003,47.9572499968
3.25e-08,181.00010367999994,-91.87497216000003,25.070249976960003,47.9728749952
3.3000000000000004e-08,181.00010367999994,-123.12497408000002,25.054624976000003,47.97912499456
3.35e-08,181.00010367999994,-76.2499712,25.070249976960003,47.97599999488
3.4e-08,181.00010367999994,-107.49997311999999,25.054624976000003,47.97599999488
3.4500000000000005e-08,212.25010559999987,-107.49997311999999,25.038999975040003,47.96037499648
3.5e-08,181.00010367999994,-107.49997311999999,25.023374974080003,47.95099999744
3.55e-08,196.62510464000002,-91.87497216000003,25.023374974080003,47.9416249984
3.6000000000000005e-08,227.87510655999995,-76.2499712,25.007749973120003,47.926
3.65e-08,212.25010559999987,-76.2499712,24.992124972160003,47.907250001920005
3.7e-08,212.25010559999987,-76.2499712,24.992124972160003,47.88850000384
3.7500000000000005e-08,227.87510655999995,-60.62497024000004,25.023374974080003,47.876000005120005
3.8e-08,212.25010559999987,-76.2499712,25.023374974080003,47.86662500608
3.85e-08,212.25010559999987,-60.62497024000004,25.054624976000003,47.86662500608
3.9000000000000005e-08,212.25010559999987,-60.62497024000004,25.085874977920003,47.86662500608
3.95e-08,243.50010752000003,-60.62497024000004,25.070249976960003,47.869750005760004
4e-08,227.87510655999995,-29.374968319999994,25.10149997888,47.885375004160004
4.0500000000000005e-08,243.50010752000003,-29.374968319999994,25.10149997888,47.89787500288
4.1e-08,227.87510655999995,-44.999969280000016,25.070249976960003,47.907250001920005
4.15e-08,227.87510655999995,-13.749967360000028,25.085874977920003,47.91350000128
4.2000000000000006e-08,227.87510655999995,-29.374968319999994,25.054624976000003,47.91662500096
4.2500000000000003e-08,227.87510655999995,-29.374968319999994,25.038999975040003,47.9103750016
4.3e-08,212.25010559999987,-44.999969280000016,24.992124972160003,47.9103750016
4.3500000000000006e-08,243.50010752000003,-13.749967360000028,24.945249969280002,47.90412500224
4.4000000000000004e-08,243.50010752000003,1.875033599999938,24.913999967360002,47.88225000448
4.45e-08,227.87510655999995,1.875033599999938,24.913999967360002,47.860375006720005
4.5000000000000006e-08,212.25010559999987,1.875033599999938,24.929624968320002,47.847875008
4.5500000000000004e-08,259.1251084799999,17.500034560000017,24.960874970240003,47.844750008320005
4.6e-08,227.87510655999995,1.875033599999938,24.960874970240003,47.847875008
4.6500000000000006e-08,212.25010559999987,1.875033599999938,24.976499971200003,47.85725000704
4.7000000000000004e-08,212.25010559999987,17.500034560000017,24.960874970240003,47.85100000768
4.75e-08,243.50010752000003,17.500034560000017,24.976499971200003,47.854125007360004
4.8000000000000006e-08,212.25010559999987,17.500034560000017,25.007749973120003,47.87287500544
4.8500000000000004e-08,227.87510655999995,33.12503551999998,24.992124972160003,47.8947500032
4.9e-08,212.25010559999987,33.12503551999998,24.960874970240003,47.922875000320005
4.95e-08,227.87510655999995,33.12503551999998,24.929624968320002,47.93537499904
5.0000000000000004e-08,212.25010559999987,33.12503551999998,24.913999967360002,47.9416249984
5.05e-08,227.87510655999995,17.500034560000017,24.898374966400002,47.93537499904
5.1e-08,196.62510464000002,17.500034560000017,24.882749965440002,47.94474999808
5.1500000000000005e-08,212.25010559999987,33.12503551999998,24.867124964480002,47.9572499968
5.2e-08,212.25010559999987,48.75003647999995,24.867124964480002,47.954124997120005
5.25e-08,196.62510464000002,48.75003647999995,24.867124964480002,47.9416249984
5.3000000000000005e-08,181.00010367999994,64.37503744000003,24.898374966400002,47.91975000064
5.35e-08,212.25010559999987,64.37503744000003,24.929624968320002,47.901000002560004
5.4e-08,181.00010367999994,64.37503744000003,24.913999967360002,47.88850000384
5.4500000000000005e-08,165.37510271999986,64.37503744000003,24.913999967360002,47.8791250048
5.5e-08,181.00010367999994,80.0000384,24.913999967360002,47.8635000064
5.55e-08,196.62510464000002,80.0000384,24.867124964480002,47.85725000704
5.6000000000000005e-08,181.00010367999994,80.0000384,24.882749965440002,47.8635000064
5.65e-08,181.00010367999994,95.62503935999996,24.867124964480002,47.869750005760004
5.7e-08,165.37510271999986,80.0000384,24.820249961600002,47.891625003520005
5.7500000000000005e-08,181.00010367999994,111.25004031999993,24.820249961600002,47.90412500224
5.8e-08,165.37510271999986,95.62503935999996,24.851499963520002,47.91350000128
5.85e-08,196.62510464000002,95.62503935999996,24.882749965440002,47.9103750016
5.9000000000000006e-08,149.75010176,95.62503935999996,24.913999967360002,47.91662500096
5.9500000000000003e-08,165.37510271999986,111.25004031999993,24.929624968320002,47.926
6.000000000000001e-08,165.37510271999986,126.87504128,24.945249969280002,47.922875000320005
6.05e-08,149.75010176,126.87504128,24.976499971200003,47.91350000128
6.1e-08,134.12510079999993,126.87504128,24.976499971200003,47.891625003520005
6.15e-08,149.75010176,126.87504128,25.007749973120003,47.876000005120005
6.2e-08,134.12510079999993,126.87504128,24.960874970240003,47.86662500608
6.250000000000001e-08,134.12510079999993,126.87504128,24.929624968320002,47.86662500608
6.300000000000001e-08,134.12510079999993,142.50004223999997,24.913999967360002,47.85100000768
6.35e-08,134.12510079999993,142.50004223999997,24.898374966400002,47.84162500864
6.4e-08,118.50009983999985,158.12504319999994,24.913999967360002,47.838500008960004
6.45e-08,118.50009983999985,158.12504319999994,24.929624968320002,47.838500008960004
6.5e-08,102.87509888,142.50004223999997,24.913999967360002,47.847875008
6.55e-08,102.87509888,173.75004416000002,24.945249969280002,47.85725000704
6.600000000000001e-08,102.87509888,142.50004223999997,24.960874970240003,47.87287500544
6.65e-08,118.50009983999985,126.87504128,24.960874970240003,47.8791250048
6.7e-08,102.87509888,142.50004223999997,24.945249969280002,47.8947500032
6.75e-08,87.25009791999992,173.75004416000002,24.945249969280002,47.90412500224
6.8e-08,102.87509888,158.12504319999994,24.929624968320002,47.90412500224
6.85e-08,87.25009791999992,173.75004416000002,24.898374966400002,47.90412500224
6.900000000000001e-08,71.62509695999984,158.12504319999994,24.882749965440002,47.90412500224
6.950000000000001e-08,71.62509695999984,173.75004416000002,24.929624968320002,47.89787500288
7e-08,56.000095999999985,173.75004416000002,24.913999967360002,47.8947500032
7.05e-08,40.375095039999906,173.75004416000002,24.945249969280002,47.901000002560004
7.1e-08,56.000095999999985,173.75004416000002,24.976499971200003,47.89787500288
7.15e-08,71.62509695999984,158.12504319999994,24.992124972160003,47.901000002560004
7.200000000000001e-08,56.000095999999985,189.37504511999998,25.038999975040003,47.907250001920005
7.250000000000001e-08,40.375095039999906,205.00004607999995,25.070249976960003,47.9103750016
7.3e-08,40.375095039999906,173.75004416000002,25.038999975040003,47.91975000064
7.35e-08,40.375095039999906,220.62504704000003,25.023374974080003,47.926
7.4e-08,24.750094080000054,173.75004416000002,24.992124972160003,47.938499998720005
7.45e-08,40.375095039999906,189.37504511999998,24.976499971200003,47.938499998720005
7.500000000000001e-08,24.750094080000054,173.75004416000002,24.945249969280002,47.9416249984
7.550000000000001e-08,24.750094080000054,205.00004607999995,24.913999967360002,47.938499998720005
7.6e-08,24.750094080000054,205.00004607999995,24.913999967360002,47.92912499968
7.65e-08,9.125093119999974,205.00004607999995,24.913999967360002,47.91662500096
7.7e-08,9.125093119999974,205.00004607999995,24.913999967360002,47.89787500288
7.75e-08,9.125093119999974,220.62504704000003,24.960874970240003,47.88225000448
7.800000000000001e-08,-6.499907840000105,205.00004607999995,24.960874970240003,47.86662500608
7.850000000000001e-08,-6.499907840000105,220.62504704000003,24.976499971200003,47.85725000704
7.9e-08,-6.499907840000105,205.00004607999995,24.960874970240003,47.847875008
7.95e-08,9.125093119999974,220.62504704000003,24.945249969280002,47.844750008320005
8e-08,-6.499907840000105,205.00004607999995,24.960874970240003,47.860375006720005
8.05e-08,-6.499907840000105,220.62504704000003,24.945249969280002,47.87287500544
8.100000000000001e-08,-37.74990976000004,189.37504511999998,24.898374966400002,47.891625003520005
8.150000000000001e-08,-37.74990976000004,220.62504704000003,24.898374966400002,47.91662500096
8.2e-08,-37.74990976000004,205.00004607999995,24.913999967360002,47.93224999936
8.25e-08,-6.499907840000105,189.37504511999998,24.898374966400002,47.93224999936
8.3e-08,-37.74990976000004,189.37504511999998,24.898374966400002,47.93224999936
8.35e-08,-22.124908799999957,205.00004607999995,24.898374966400002,47.92912499968
8.400000000000001e-08,-37.74990976000004,189.37504511999998,24.898374966400002,47.91350000128
8.450000000000001e-08,-37.74990976000004,205.00004607999995,24.898374966400002,47.89787500288
8.500000000000001e-08,-68.99991167999997,189.37504511999998,24.913999967360002,47.88850000384
8.55e-08,-37.74990976000004,189.37504511999998,24.929624968320002,47.88225000448
8.6e-08,-68.99991167999997,189.37504511999998,24.898374966400002,47.88850000384
8.65e-08,-68.99991167999997,189.37504511999998,24.898374966400002,47.90412500224
8.700000000000001e-08,-53.374910720000116,189.37504511999998,24.913999967360002,47.91975000064
8.750000000000001e-08,-68.99991167999997,173.75004416000002,24.898374966400002,47.93537499904
8.800000000000001e-08,-68.99991167999997,173.75004416000002,24.929624968320002,47.96349999616
8.85e-08,-84.62491264000005,189.37504511999998,24.929624968320002,47.98224999424
8.9e-08,-84.62491264000005,158.12504319999994,24.913999967360002,47.99162499328
8.95e-08,-84.62491264000005,173.75004416000002,24.929624968320002,48.004124992
9.000000000000001e-08,-84.62491264000005,142.50004223999997,24.945249969280002,48.000999992320004
9.050000000000001e-08,-68.99991167999997,142.50004223999997,24.929624968320002,47.985374993920004
9.100000000000001e-08,-100.24991360000013,126.87504128,24.913999967360002,47.97599999488
9.15e-08,-84.62491264000005,142.50004223999997,24.882749965440002,47.9572499968
9.2e-08,-84.62491264000005,142.50004223999997,24.898374966400002,47.93537499904
9.25e-08,-115.87491455999998,142.50004223999997,24.882749965440002,47.91662500096
9.300000000000001e-08,-115.87491455999998,142.50004223999997,24.882749965440002,47.8947500032
9.350000000000001e-08,-100.24991360000013,126.87504128,24.913999967360002,47.885375004160004
9.400000000000001e-08,-115.87491455999998,111.25004031999993,24.898374966400002,47.88850000384
9.45e-08,-115.87491455999998,111.25004031999993,24.898374966400002,47.89787500288
9.5e-08,-115.87491455999998,126.87504128,24.913999967360002,47.89787500288
9.55e-08,-115.87491455999998,111.25004031999993,24.913999967360002,47.901000002560004
9.600000000000001e-08,-115.87491455999998,111.25004031999993,24.945249969280002,47.90412500224
9.650000000000001e-08,-131.49991552000006,126.87504128,24.929624968320002,47.90412500224
9.700000000000001e-08,-147.12491648000014,95.62503935999996,24.898374966400002,47.907250001920005
9.75e-08,-131.49991552000006,111.25004031999993,24.898374966400002,47.907250001920005
9.8e-08,-131.49991552000006,80.0000384,24.913999967360002,47.907250001920005
9.85e-08,-131.49991552000006,80.0000384,24.898374966400002,47.89787500288
9.9e-08,-147.12491648000014,64.37503744000003,24.913999967360002,47.8947500032
9.950000000000001e-08,-147.12491648000014,80.0000384,24.929624968320002,47.88850000384
1.0000000000000001e-07,-147.12491648000014,80.0000384,24.960874970240003,47.876000005120005
1.005e-07,-162.74991744,80.0000384,24.960874970240003,47.860375006720005
1.01e-07,-162.74991744,80.0000384,25.007749973120003,47.854125007360004
1.015e-07,-147.12491648000014,80.0000384,25.038999975040003,47.847875008
1.02e-07,-162.74991744,64.37503744000003,25.054624976000003,47.847875008
1.0250000000000001e-07,-178.37491840000007,64.37503744000003,25.038999975040003,47.854125007360004
1.0300000000000001e-07,-162.74991744,80.0000384,25.038999975040003,47.854125007360004
1.0350000000000001e-07,-178.37491840000007,80.0000384,24.992124972160003,47.86662500608
1.04e-07,-178.37491840000007,80.0000384,25.007749973120003,47.885375004160004
1.045e-07,-193.99991936000015,80.0000384,24.992124972160003,47.901000002560004
1.05e-07,-193.99991936000015,48.75003647999995,24.945249969280002,47.91662500096
1.0550000000000001e-07,-193.99991936000015,80.0000384,24.976499971200003,47.92912499968
1.0600000000000001e-07,-193.99991936000015,48.75003647999995,25.007749973120003,47.94474999808
1.0650000000000001e-07,-193.99991936000015,48.75003647999995,25.038999975040003,47.95099999744
1.07e-07,-193.99991936000015,17.500034560000017,25.054624976000003,47.96349999616
1.075e-07,-209.62492032,33.12503551999998,25.038999975040003,47.969749995520004
1.08e-07,-193.99991936000015,33.12503551999998,25.070249976960003,47.96349999616
1.0850000000000001e-07,-209.62492032,33.12503551999998,25.054624976000003,47.954124997120005
1.0900000000000001e-07,-225.24992128000008,48.75003647999995,25.054624976000003,47.9416249984
1.0950000000000001e-07,-209.62492032,33.12503551999998,25.038999975040003,47.92912499968
1.1e-07,-240.87492223999993,17.500034560000017,24.976499971200003,47.91662500096
1.105e-07,-240.87492223999993,17.500034560000017,24.976499971200003,47.9103750016
1.11e-07,-240.87492223999993,17.500034560000017,24.992124972160003,47.885375004160004
1.1150000000000001e-07,-225.24992128000008,17.500034560000017,25.007749973120003,47.86662500608
1.1200000000000001e-07,-240.87492223999993,17.500034560000017,25.038999975040003,47.869750005760004
1.1250000000000001e-07,-240.87492223999993,17.500034560000017,25.070249976960003,47.8635000064
1.13e-07,-256.4999232,-13.749967360000028,25.085874977920003,47.87287500544
1.135e-07,-256.4999232,17.500034560000017,25.11712497984,47.88225000448
1.14e-07,-240.87492223999993,-13.749967360000028,25.1327499808,47.891625003520005
1.1450000000000001e-07,-225.24992128000008,-13.749967360000028,25.16399998272,47.89787500288
1.1500000000000001e-07,-256.4999232,-29.374968319999994,25.14837498176,47.9103750016
1.1550000000000001e-07,-256.4999232,-29.374968319999994,25.10149997888,47.922875000320005
1.16e-07,-256.4999232,-29.374968319999994,25.070249976960003,47.92912499968
1.165e-07,-256.4999232,-44.999969280000016,25.023374974080003,47.922875000320005
1.17e-07,-256.4999232,-29.374968319999994,25.007749973120003,47.91350000128
