Time (s),V_PRI,V_SEC,V_IN,V_OUT
0.0,-19.100057600000014,-248.12498176000003,25.178124972160003,48.65825000256
5e-10,-25.35005695999996,-248.12498176000003,25.193749973120003,48.6676250016
1e-09,-19.100057600000014,-263.74998272,25.193749973120003,48.67075000128
1.5000000000000002e-09,-19.100057600000014,-248.12498176000003,25.193749973120003,48.67075000128
2e-09,-25.35005695999996,-248.12498176000003,25.209374974080003,48.67387500096
2.5e-09,-25.35005695999996,-248.12498176000003,25.224999975040003,48.67700000064
3.0000000000000004e-09,-19.100057600000014,-248.12498176000003,25.193749973120003,48.680125000320004
3.5000000000000003e-09,-19.100057600000014,-248.12498176000003,25.193749973120003,48.67700000064
4e-09,-19.100057600000014,-263.74998272,25.209374974080003,48.680125000320004
4.500000000000001e-09,-19.100057600000014,-248.12498176000003,25.178124972160003,48.67387500096
5e-09,-6.600058880000006,-263.74998272,25.209374974080003,48.67387500096
5.5000000000000004e-09,-12.850058239999953,-232.4999808,25.193749973120003,48.680125000320004
6.000000000000001e-09,-12.850058239999953,-248.12498176000003,25.178124972160003,48.67700000064
6.5e-09,-12.850058239999953,-263.74998272,25.178124972160003,48.680125000320004
7.000000000000001e-09,-6.600058880000006,-232.4999808,25.162499971200003,48.67700000064
7.500000000000001e-09,-6.600058880000006,-248.12498176000003,25.178124972160003,48.68325
8e-09,5.899939840000002,-263.74998272,25.178124972160003,48.68325
8.5e-09,-0.3500595199999452,-263.74998272,25.146874970240003,48.68637499968
9.000000000000001e-09,5.899939840000002,-248.12498176000003,25.146874970240003,48.68325
9.5e-09,5.899939840000002,-248.12498176000003,25.162499971200003,48.68325
1e-08,5.899939840000002,-232.4999808,25.146874970240003,48.67387500096
1.0500000000000001e-08,-0.3500595199999452,-232.4999808,25.162499971200003,48.67700000064
1.1000000000000001e-08,12.149939200000063,-216.87497984000004,25.146874970240003,48.67700000064
1.15e-08,5.899939840000002,-232.4999808,25.131249969280002,48.67075000128
1.2000000000000002e-08,5.899939840000002,-216.87497984000004,25.146874970240003,48.67387500096
1.2500000000000001e-08,18.39993856000001,-232.4999808,25.131249969280002,48.67387500096
1.3e-08,18.39993856000001,-201.24997888000001,25.146874970240003,48.680125000320004
1.35e-08,18.39993856000001,-216.87497984000004,25.146874970240003,48.695749998720004
1.4000000000000001e-08,18.39993856000001,-201.24997888000001,25.115624968320002,48.711374997120004
1.45e-08,18.39993856000001,-232.4999808,25.131249969280002,48.72074999616
1.5000000000000002e-08,18.39993856000001,-185.62497792,25.131249969280002,48.7301249952
1.55e-08,24.649937919999957,-216.87497984000004,25.131249969280002,48.73637499456
1.6e-08,30.899937280000017,-216.87497984000004,25.131249969280002,48.7301249952
1.6500000000000002e-08,24.649937919999957,-201.24997888000001,25.146874970240003,48.7301249952
1.7e-08,30.899937280000017,-201.24997888000001,25.146874970240003,48.73324999488
1.75e-08,24.649937919999957,-185.62497792,25.146874970240003,48.72387499584
1.8000000000000002e-08,30.899937280000017,-169.99997696000003,25.146874970240003,48.711374997120004
1.85e-08,24.649937919999957,-169.99997696000003,25.178124972160003,48.70512499776
1.9e-08,30.899937280000017,-169.99997696000003,25.162499971200003,48.695749998720004
1.9500000000000003e-08,30.899937280000017,-169.99997696000003,25.162499971200003,48.68325
2e-08,37.149936639999964,-154.374976,25.162499971200003,48.67700000064
2.05e-08,43.399936000000025,-154.374976,25.131249969280002,48.67075000128
2.1000000000000003e-08,43.399936000000025,-154.374976,25.162499971200003,48.66137500224
2.15e-08,43.399936000000025,-138.74997504000004,25.146874970240003,48.65825000256
2.2000000000000002e-08,37.149936639999964,-123.12497408000002,25.115624968320002,48.65512500288
2.2500000000000003e-08,43.399936000000025,-154.374976,25.115624968320002,48.648875003520004
2.3e-08,43.399936000000025,-107.49997311999999,25.115624968320002,48.64262500416
2.3500000000000002e-08,43.399936000000025,-138.74997504000004,25.115624968320002,48.63950000448
2.4000000000000003e-08,55.89993472000003,-154.374976,25.115624968320002,48.633250005120004
2.45e-08,49.64993535999997,-154.374976,25.131249969280002,48.6363750048
2.5000000000000002e-08,55.89993472000003,-123.12497408000002,25.131249969280002,48.6363750048
2.55e-08,55.89993472000003,-123.12497408000002,25.131249969280002,48.633250005120004
2.6e-08,55.89993472000003,-123.12497408000002,25.146874970240003,48.62387500608
2.6500000000000002e-08,55.89993472000003,-123.12497408000002,25.178124972160003,48.6207500064
2.7e-08,62.14993407999998,-123.12497408000002,25.162499971200003,48.62387500608
2.75e-08,62.14993407999998,-123.12497408000002,25.178124972160003,48.63012500544
2.8000000000000003e-08,62.14993407999998,-123.12497408000002,25.193749973120003,48.6520000032
2.85e-08,68.39993344000004,-123.12497408000002,25.178124972160003,48.66137500224
2.9e-08,74.64993279999999,-123.12497408000002,25.224999975040003,48.6676250016
2.9500000000000003e-08,74.64993279999999,-107.49997311999999,25.224999975040003,48.67700000064
3.0000000000000004e-08,74.64993279999999,-107.49997311999999,25.209374974080003,48.680125000320004
3.05e-08,74.64993279999999,-123.12497408000002,25.224999975040003,48.68637499968
3.1e-08,87.14993152,-91.87497216000003,25.224999975040003,48.695749998720004
3.1500000000000004e-08,80.89993216000005,-107.49997311999999,25.209374974080003,48.70512499776
3.2e-08,93.39993088000006,-123.12497408000002,25.193749973120003,48.69262499904
3.25e-08,87.14993152,-123.12497408000002,25.178124972160003,48.68949999936
3.3000000000000004e-08,93.39993088000006,-91.87497216000003,25.193749973120003,48.68325
3.35e-08,99.64993024,-91.87497216000003,25.178124972160003,48.68325
3.4e-08,93.39993088000006,-91.87497216000003,25.178124972160003,48.680125000320004
3.4500000000000005e-08,93.39993088000006,-91.87497216000003,25.178124972160003,48.67387500096
3.5e-08,105.89992960000006,-76.2499712,25.131249969280002,48.680125000320004
3.55e-08,112.14992896000001,-76.2499712,25.131249969280002,48.6676250016
3.6000000000000005e-08,105.89992960000006,-60.62497024000004,25.131249969280002,48.6676250016
3.65e-08,118.39992831999996,-60.62497024000004,25.146874970240003,48.6520000032
3.7e-08,124.64992768000002,-60.62497024000004,25.193749973120003,48.648875003520004
3.7500000000000005e-08,124.64992768000002,-44.999969280000016,25.178124972160003,48.65825000256
3.8e-08,124.64992768000002,-29.374968319999994,25.131249969280002,48.67075000128
3.85e-08,130.89992703999997,-44.999969280000016,25.131249969280002,48.67700000064
3.9000000000000005e-08,130.89992703999997,-13.749967360000028,25.131249969280002,48.680125000320004
3.95e-08,137.14992640000003,-29.374968319999994,25.162499971200003,48.680125000320004
4e-08,137.14992640000003,-29.374968319999994,25.162499971200003,48.66137500224
4.0500000000000005e-08,130.89992703999997,-29.374968319999994,25.178124972160003,48.664500001920004
4.1e-08,137.14992640000003,-29.374968319999994,25.162499971200003,48.67075000128
4.15e-08,137.14992640000003,-13.749967360000028,25.178124972160003,48.67075000128
4.2000000000000006e-08,137.14992640000003,-13.749967360000028,25.162499971200003,48.6676250016
4.2500000000000003e-08,137.14992640000003,-13.749967360000028,25.193749973120003,48.66137500224
4.3e-08,143.39992575999997,-13.749967360000028,25.193749973120003,48.6520000032
4.3500000000000006e-08,143.39992575999997,-13.749967360000028,25.178124972160003,48.63950000448
4.4000000000000004e-08,143.39992575999997,-13.749967360000028,25.193749973120003,48.64262500416
4.45e-08,143.39992575999997,17.500034560000017,25.178124972160003,48.64262500416
4.5000000000000006e-08,149.64992512000003,17.500034560000017,25.224999975040003,48.6520000032
4.5500000000000004e-08,149.64992512000003,17.500034560000017,25.209374974080003,48.65825000256
4.6e-08,143.39992575999997,17.500034560000017,25.193749973120003,48.6520000032
4.6500000000000006e-08,143.39992575999997,1.875033599999938,25.209374974080003,48.64575000384
4.7000000000000004e-08,149.64992512000003,33.12503551999998,25.193749973120003,48.648875003520004
4.75e-08,149.64992512000003,17.500034560000017,25.193749973120003,48.66137500224
4.8000000000000006e-08,155.89992447999998,17.500034560000017,25.193749973120003,48.67075000128
4.8500000000000004e-08,143.39992575999997,-13.749967360000028,25.224999975040003,48.680125000320004
4.9e-08,149.64992512000003,33.12503551999998,25.224999975040003,48.680125000320004
4.95e-08,155.89992447999998,33.12503551999998,25.240624976000003,48.6676250016
5.0000000000000004e-08,149.64992512000003,33.12503551999998,25.240624976000003,48.66137500224
5.05e-08,143.39992575999997,48.75003647999995,25.256249976960003,48.66137500224
5.1e-08,149.64992512000003,48.75003647999995,25.256249976960003,48.67075000128
5.1500000000000005e-08,143.39992575999997,33.12503551999998,25.240624976000003,48.67075000128
5.2e-08,137.14992640000003,48.75003647999995,25.271874977920003,48.67075000128
5.25e-08,143.39992575999997,64.37503744000003,25.271874977920003,48.65512500288
5.3000000000000005e-08,143.39992575999997,64.37503744000003,25.33437498176,48.648875003520004
5.35e-08,143.39992575999997,80.0000384,25.3187499808,48.65512500288
5.4e-08,137.14992640000003,80.0000384,25.271874977920003,48.664500001920004
5.4500000000000005e-08,137.14992640000003,64.37503744000003,25.256249976960003,48.67075000128
5.5e-08,137.14992640000003,111.25004031999993,25.256249976960003,48.67387500096
5.55e-08,137.14992640000003,95.62503935999996,25.240624976000003,48.68325
5.6000000000000005e-08,137.14992640000003,80.0000384,25.256249976960003,48.67075000128
5.65e-08,130.89992703999997,80.0000384,25.240624976000003,48.67387500096
5.7e-08,130.89992703999997,111.25004031999993,25.240624976000003,48.67075000128
5.7500000000000005e-08,130.89992703999997,111.25004031999993,25.240624976000003,48.67075000128
5.8e-08,124.64992768000002,95.62503935999996,25.240624976000003,48.67387500096
5.85e-08,118.39992831999996,111.25004031999993,25.256249976960003,48.67387500096
5.9000000000000006e-08,124.64992768000002,111.25004031999993,25.256249976960003,48.664500001920004
5.9500000000000003e-08,124.64992768000002,111.25004031999993,25.256249976960003,48.64262500416
6.000000000000001e-08,118.39992831999996,111.25004031999993,25.28749997888,48.6363750048
6.05e-08,118.39992831999996,126.87504128,25.28749997888,48.63012500544
6.1e-08,118.39992831999996,142.50004223999997,25.3187499808,48.633250005120004
6.15e-08,112.14992896000001,142.50004223999997,25.3187499808,48.63950000448
6.2e-08,105.89992960000006,142.50004223999997,25.28749997888,48.633250005120004
6.250000000000001e-08,105.89992960000006,126.87504128,25.30312497984,48.6207500064
6.300000000000001e-08,105.89992960000006,158.12504319999994,25.30312497984,48.61450000704
6.35e-08,99.64993024,126.87504128,25.33437498176,48.6207500064
6.4e-08,105.89992960000006,126.87504128,25.33437498176,48.62700000576
6.45e-08,99.64993024,126.87504128,25.33437498176,48.64262500416
6.5e-08,99.64993024,158.12504319999994,25.33437498176,48.648875003520004
6.55e-08,93.39993088000006,158.12504319999994,25.34999998272,48.648875003520004
6.600000000000001e-08,93.39993088000006,142.50004223999997,25.34999998272,48.648875003520004
6.65e-08,87.14993152,142.50004223999997,25.36562498368,48.6520000032
6.7e-08,87.14993152,158.12504319999994,25.34999998272,48.65825000256
6.75e-08,80.89993216000005,158.12504319999994,25.3187499808,48.664500001920004
6.8e-08,87.14993152,158.12504319999994,25.3187499808,48.680125000320004
6.85e-08,80.89993216000005,173.75004416000002,25.30312497984,48.680125000320004
6.900000000000001e-08,80.89993216000005,158.12504319999994,25.3187499808,48.680125000320004
6.950000000000001e-08,80.89993216000005,189.37504511999998,25.3187499808,48.68325
7e-08,74.64993279999999,189.37504511999998,25.271874977920003,48.67387500096
7.05e-08,68.39993344000004,173.75004416000002,25.28749997888,48.6676250016
7.1e-08,68.39993344000004,205.00004607999995,25.30312497984,48.67075000128
7.15e-08,68.39993344000004,173.75004416000002,25.30312497984,48.67700000064
7.200000000000001e-08,74.64993279999999,173.75004416000002,25.3187499808,48.67387500096
7.250000000000001e-08,62.14993407999998,173.75004416000002,25.3187499808,48.680125000320004
7.3e-08,68.39993344000004,189.37504511999998,25.3187499808,48.664500001920004
7.35e-08,68.39993344000004,189.37504511999998,25.3187499808,48.65512500288
7.4e-08,62.14993407999998,189.37504511999998,25.30312497984,48.64575000384
7.45e-08,55.89993472000003,189.37504511999998,25.3187499808,48.64575000384
7.500000000000001e-08,55.89993472000003,205.00004607999995,25.256249976960003,48.64575000384
7.550000000000001e-08,55.89993472000003,205.00004607999995,25.240624976000003,48.64575000384
7.6e-08,49.64993535999997,205.00004607999995,25.240624976000003,48.65512500288
7.65e-08,49.64993535999997,205.00004607999995,25.224999975040003,48.65825000256
7.7e-08,55.89993472000003,205.00004607999995,25.271874977920003,48.664500001920004
7.75e-08,49.64993535999997,205.00004607999995,25.28749997888,48.67387500096
7.800000000000001e-08,43.399936000000025,205.00004607999995,25.256249976960003,48.67075000128
7.850000000000001e-08,43.399936000000025,189.37504511999998,25.240624976000003,48.6676250016
7.9e-08,49.64993535999997,220.62504704000003,25.240624976000003,48.67075000128
7.95e-08,49.64993535999997,189.37504511999998,25.224999975040003,48.67700000064
8e-08,49.64993535999997,173.75004416000002,25.224999975040003,48.67387500096
8.05e-08,43.399936000000025,173.75004416000002,25.209374974080003,48.680125000320004
8.100000000000001e-08,43.399936000000025,189.37504511999998,25.209374974080003,48.68325
8.150000000000001e-08,37.149936639999964,189.37504511999998,25.193749973120003,48.67700000064
8.2e-08,37.149936639999964,189.37504511999998,25.193749973120003,48.67387500096
8.25e-08,24.649937919999957,189.37504511999998,25.224999975040003,48.67075000128
8.3e-08,30.899937280000017,205.00004607999995,25.193749973120003,48.67700000064
8.35e-08,30.899937280000017,173.75004416000002,25.193749973120003,48.67387500096
8.400000000000001e-08,30.899937280000017,189.37504511999998,25.209374974080003,48.68325
8.450000000000001e-08,30.899937280000017,173.75004416000002,25.193749973120003,48.68637499968
8.500000000000001e-08,30.899937280000017,173.75004416000002,25.240624976000003,48.68637499968
8.55e-08,24.649937919999957,173.75004416000002,25.240624976000003,48.69262499904
8.6e-08,24.649937919999957,173.75004416000002,25.209374974080003,48.68325
8.65e-08,18.39993856000001,158.12504319999994,25.209374974080003,48.68325
8.700000000000001e-08,18.39993856000001,173.75004416000002,25.193749973120003,48.69262499904
8.750000000000001e-08,24.649937919999957,158.12504319999994,25.193749973120003,48.70824999744
8.800000000000001e-08,24.649937919999957,158.12504319999994,25.193749973120003,48.72074999616
8.85e-08,12.149939200000063,126.87504128,25.193749973120003,48.73637499456
8.9e-08,18.39993856000001,158.12504319999994,25.193749973120003,48.74262499392
8.95e-08,12.149939200000063,158.12504319999994,25.178124972160003,48.7301249952
9.000000000000001e-08,12.149939200000063,142.50004223999997,25.178124972160003,48.72074999616
9.050000000000001e-08,5.899939840000002,142.50004223999997,25.209374974080003,48.7144999968
9.100000000000001e-08,12.149939200000063,142.50004223999997,25.178124972160003,48.711374997120004
9.15e-08,5.899939840000002,111.25004031999993,25.178124972160003,48.70512499776
9.2e-08,5.899939840000002,126.87504128,25.178124972160003,48.70512499776
9.25e-08,5.899939840000002,126.87504128,25.131249969280002,48.695749998720004
9.300000000000001e-08,5.899939840000002,111.25004031999993,25.146874970240003,48.68637499968
9.350000000000001e-08,5.899939840000002,126.87504128,25.162499971200003,48.68637499968
9.400000000000001e-08,-0.3500595199999452,111.25004031999993,25.131249969280002,48.680125000320004
9.45e-08,-0.3500595199999452,111.25004031999993,25.115624968320002,48.680125000320004
9.5e-08,-0.3500595199999452,111.25004031999993,25.115624968320002,48.67387500096
9.55e-08,-6.600058880000006,95.62503935999996,25.115624968320002,48.67387500096
9.600000000000001e-08,-0.3500595199999452,80.0000384,25.131249969280002,48.664500001920004
9.650000000000001e-08,-12.850058239999953,64.37503744000003,25.131249969280002,48.6676250016
9.700000000000001e-08,-6.600058880000006,80.0000384,25.146874970240003,48.66137500224
9.75e-08,-6.600058880000006,95.62503935999996,25.131249969280002,48.6520000032
9.8e-08,-12.850058239999953,80.0000384,25.146874970240003,48.64262500416
9.85e-08,-19.100057600000014,64.37503744000003,25.162499971200003,48.62700000576
9.9e-08,-12.850058239999953,64.37503744000003,25.146874970240003,48.6207500064
9.950000000000001e-08,-19.100057600000014,64.37503744000003,25.162499971200003,48.61450000704
1.0000000000000001e-07,-25.35005695999996,64.37503744000003,25.178124972160003,48.6207500064
1.005e-07,-25.35005695999996,80.0000384,25.193749973120003,48.62700000576
1.01e-07,-19.100057600000014,64.37503744000003,25.209374974080003,48.63950000448
1.015e-07,-25.35005695999996,80.0000384,25.224999975040003,48.65512500288
1.02e-07,-31.60005632000002,80.0000384,25.193749973120003,48.66137500224
1.0250000000000001e-07,-31.60005632000002,64.37503744000003,25.209374974080003,48.66137500224
1.0300000000000001e-07,-31.60005632000002,95.62503935999996,25.193749973120003,48.664500001920004
1.0350000000000001e-07,-31.60005632000002,64.37503744000003,25.178124972160003,48.67075000128
1.04e-07,-31.60005632000002,48.75003647999995,25.178124972160003,48.67387500096
1.045e-07,-44.10005504000003,33.12503551999998,25.146874970240003,48.68325
1.05e-07,-50.350054399999976,64.37503744000003,25.162499971200003,48.68949999936
1.0550000000000001e-07,-50.350054399999976,64.37503744000003,25.131249969280002,48.695749998720004
1.0600000000000001e-07,-50.350054399999976,48.75003647999995,25.115624968320002,48.69262499904
1.0650000000000001e-07,-62.850053119999984,48.75003647999995,25.115624968320002,48.68949999936
1.07e-07,-56.60005376000004,48.75003647999995,25.084374966400002,48.68949999936
1.075e-07,-62.850053119999984,33.12503551999998,25.068749965440002,48.68949999936
1.08e-07,-69.10005248000004,33.12503551999998,25.084374966400002,48.68949999936
1.0850000000000001e-07,-69.10005248000004,33.12503551999998,25.084374966400002,48.68637499968
1.0900000000000001e-07,-69.10005248000004,33.12503551999998,25.115624968320002,48.67387500096
1.0950000000000001e-07,-69.10005248000004,33.12503551999998,25.115624968320002,48.67387500096
1.1e-07,-75.35005183999999,17.500034560000017,25.068749965440002,48.6676250016
1.105e-07,-81.6000512,17.500034560000017,25.068749965440002,48.65825000256
1.11e-07,-87.85005056,17.500034560000017,25.068749965440002,48.66137500224
1.1150000000000001e-07,-81.6000512,-13.749967360000028,25.084374966400002,48.6676250016
1.1200000000000001e-07,-81.6000512,-13.749967360000028,25.099999967360002,48.6676250016
1.1250000000000001e-07,-94.10004992,-29.374968319999994,25.084374966400002,48.67700000064
1.13e-07,-94.10004992,-13.749967360000028,25.084374966400002,48.680125000320004
1.135e-07,-94.10004992,-13.749967360000028,25.053124964480002,48.67700000064
1.14e-07,-100.35004928000001,-29.374968319999994,25.053124964480002,48.6676250016
1.1450000000000001e-07,-100.35004928000001,-29.374968319999994,25.084374966400002,48.66137500224
1.1500000000000001e-07,-100.35004928000001,-29.374968319999994,25.068749965440002,48.664500001920004
1.1550000000000001e-07,-106.60004864000001,-29.374968319999994,25.068749965440002,48.66137500224
1.16e-07,-112.85004800000002,-44.999969280000016,25.053124964480002,48.6676250016
1.165e-07,-112.85004800000002,-44.999969280000016,25.021874962560002,48.65825000256
1.17e-07,-106.60004864000001,-29.374968319999994,25.053124964480002,48.64262500416
1.1750000000000001e-07,-106.60004864000001,-29.374968319999994,25.068749965440002,48.6363750048
