!Keysight Technologies,E5063A,MY54100949,A.07.30
!Date: Fri Dec 26 02:42:20 2025
!Data & Calibration Information:
!Freq	S11:SOLT2(ON)	S21:SOLT2(ON)	S12:SOLT2(ON)	S22:SOLT2(ON)
# Hz S RI R 50
50000.000	1.006276e+000	4.134264e-004	-5.667910e-005	3.009995e-004	1.118786e-004	3.604088e-004	1.006518e+000	-2.131684e-003
99995.000	1.002099e+000	-2.259055e-003	-4.816661e-005	6.858457e-004	1.131609e-006	6.714902e-004	1.001585e+000	-6.696007e-003
149990.000	1.002123e+000	-3.023773e-003	7.504740e-005	8.821309e-004	-4.303969e-005	9.675507e-004	1.001421e+000	-1.023015e-002
199985.000	1.001560e+000	-3.370864e-003	5.027119e-005	1.176817e-003	4.436614e-005	1.351638e-003	1.000732e+000	-1.272879e-002
249980.000	1.002114e+000	-3.628849e-003	4.291270e-005	1.587082e-003	5.140659e-005	1.591619e-003	1.001119e+000	-1.497434e-002
299975.000	1.001779e+000	-3.523356e-003	1.010522e-004	1.817413e-003	1.113325e-004	1.849764e-003	1.000973e+000	-1.727485e-002
349970.000	1.001413e+000	-3.939698e-003	8.989370e-005	2.123979e-003	1.576793e-004	2.150999e-003	1.000461e+000	-1.975519e-002
399965.000	1.001636e+000	-3.916888e-003	7.402806e-005	2.500412e-003	1.619818e-004	2.358936e-003	1.000279e+000	-2.202137e-002
449960.000	1.001581e+000	-4.220478e-003	1.014941e-004	2.756121e-003	2.072871e-004	2.751457e-003	1.000281e+000	-2.495785e-002
499955.000	1.001329e+000	-4.580606e-003	2.028758e-004	3.069190e-003	2.170026e-004	3.023468e-003	9.999930e-001	-2.728192e-002
549950.000	1.001896e+000	-4.791724e-003	1.929602e-004	3.375160e-003	1.567456e-004	3.362051e-003	9.998694e-001	-2.978113e-002
599945.000	1.001454e+000	-5.297274e-003	2.552812e-004	3.678789e-003	2.974555e-004	3.674559e-003	9.994089e-001	-3.210930e-002
649940.000	1.001639e+000	-5.700187e-003	3.332638e-004	3.916426e-003	3.272059e-004	3.962960e-003	9.994492e-001	-3.475079e-002
699935.000	1.001396e+000	-5.897763e-003	3.182233e-004	4.316424e-003	3.094520e-004	4.269027e-003	9.990227e-001	-3.749590e-002
749930.000	1.001385e+000	-6.170747e-003	4.100611e-004	4.628587e-003	4.529958e-004	4.617815e-003	9.985575e-001	-3.982197e-002
799925.000	1.001559e+000	-6.873940e-003	5.334795e-004	4.938707e-003	4.874673e-004	4.841173e-003	9.990245e-001	-4.241780e-002
849920.000	1.001403e+000	-7.201725e-003	6.229321e-004	5.217103e-003	5.841322e-004	5.223263e-003	9.983875e-001	-4.485286e-002
899915.000	1.001496e+000	-7.634537e-003	5.947989e-004	5.451582e-003	5.872667e-004	5.426562e-003	9.981261e-001	-4.764786e-002
949910.000	1.001536e+000	-8.113033e-003	6.753703e-004	5.828640e-003	6.632687e-004	5.835004e-003	9.975891e-001	-5.032630e-002
999905.000	1.001205e+000	-8.182939e-003	7.568626e-004	6.125006e-003	7.001767e-004	6.090959e-003	9.970383e-001	-5.265094e-002
1049900.000	1.001418e+000	-8.727707e-003	7.753903e-004	6.399198e-003	8.031447e-004	6.440527e-003	9.968266e-001	-5.523779e-002
1099895.000	1.001544e+000	-9.399785e-003	8.792839e-004	6.686668e-003	8.937108e-004	6.676695e-003	9.962077e-001	-5.759623e-002
1149890.000	1.001102e+000	-9.603028e-003	9.758310e-004	7.048674e-003	9.513570e-004	7.011352e-003	9.956508e-001	-6.038394e-002
1199885.000	1.001240e+000	-1.003971e-002	1.040279e-003	7.356448e-003	1.000173e-003	7.293693e-003	9.954126e-001	-6.276969e-002
1249880.000	1.000749e+000	-1.042474e-002	1.172460e-003	7.640508e-003	1.177498e-003	7.581047e-003	9.948072e-001	-6.523116e-002
1299875.000	1.001194e+000	-1.084075e-002	1.208929e-003	7.934860e-003	1.290907e-003	7.887692e-003	9.944664e-001	-6.789563e-002
1349870.000	1.001031e+000	-1.139644e-002	1.368768e-003	8.152480e-003	1.342683e-003	8.132912e-003	9.938518e-001	-7.015714e-002
1399865.000	1.000884e+000	-1.164676e-002	1.376882e-003	8.507384e-003	1.372919e-003	8.528518e-003	9.931724e-001	-7.264861e-002
1449860.000	1.000929e+000	-1.214974e-002	1.491322e-003	8.741116e-003	1.556398e-003	8.813152e-003	9.925519e-001	-7.537199e-002
1499855.000	1.000867e+000	-1.237625e-002	1.586266e-003	9.041463e-003	1.625882e-003	9.053255e-003	9.920460e-001	-7.790124e-002
1549850.000	1.000898e+000	-1.312185e-002	1.700689e-003	9.352900e-003	1.690970e-003	9.311475e-003	9.912791e-001	-8.038056e-002
1599845.000	1.001097e+000	-1.346206e-002	1.829764e-003	9.602668e-003	1.807804e-003	9.618171e-003	9.907769e-001	-8.291990e-002
1649840.000	1.000811e+000	-1.384837e-002	1.935530e-003	9.870156e-003	1.938734e-003	9.914114e-003	9.899613e-001	-8.541503e-002
1699835.000	1.000830e+000	-1.418639e-002	2.091409e-003	1.018466e-002	2.028424e-003	1.022271e-002	9.895144e-001	-8.773910e-002
1749830.000	1.001022e+000	-1.460012e-002	2.140486e-003	1.046055e-002	2.192266e-003	1.044587e-002	9.889933e-001	-9.041101e-002
1799825.000	1.000849e+000	-1.513149e-002	2.340121e-003	1.072713e-002	2.314870e-003	1.077141e-002	9.883118e-001	-9.261378e-002
1849820.000	1.000744e+000	-1.548401e-002	2.448033e-003	1.101441e-002	2.467284e-003	1.104381e-002	9.874048e-001	-9.513613e-002
1899815.000	1.000507e+000	-1.583757e-002	2.590434e-003	1.130307e-002	2.537201e-003	1.133549e-002	9.866368e-001	-9.755574e-002
1949810.000	1.000744e+000	-1.636453e-002	2.706057e-003	1.157262e-002	2.694378e-003	1.157225e-002	9.859575e-001	-9.999273e-002
1999805.000	1.000669e+000	-1.670438e-002	2.833245e-003	1.187921e-002	2.855735e-003	1.183680e-002	9.854256e-001	-1.025822e-001
2049800.000	1.000606e+000	-1.706070e-002	2.964151e-003	1.213847e-002	2.971418e-003	1.215148e-002	9.843581e-001	-1.048915e-001
2099795.000	1.000591e+000	-1.779007e-002	3.090472e-003	1.234786e-002	3.112621e-003	1.229504e-002	9.834957e-001	-1.070529e-001
2149790.000	1.000807e+000	-1.817360e-002	3.274434e-003	1.265519e-002	3.261369e-003	1.261850e-002	9.831067e-001	-1.094295e-001
2199785.000	1.000462e+000	-1.859665e-002	3.386801e-003	1.287946e-002	3.464178e-003	1.290532e-002	9.819343e-001	-1.118337e-001
2249780.000	1.000372e+000	-1.892639e-002	3.529294e-003	1.317051e-002	3.564948e-003	1.316596e-002	9.810667e-001	-1.143492e-001
2299775.000	1.000281e+000	-1.933340e-002	3.681720e-003	1.341415e-002	3.725706e-003	1.342510e-002	9.800663e-001	-1.167590e-001
2349770.000	1.000268e+000	-1.988046e-002	3.851271e-003	1.374653e-002	3.852265e-003	1.371610e-002	9.794403e-001	-1.191814e-001
2399765.000	1.000293e+000	-2.025909e-002	3.939188e-003	1.393232e-002	3.951726e-003	1.395344e-002	9.783407e-001	-1.215426e-001
2449760.000	1.000044e+000	-2.065924e-002	4.165230e-003	1.421086e-002	4.169746e-003	1.417697e-002	9.776189e-001	-1.236843e-001
2499755.000	1.000254e+000	-2.102057e-002	4.317684e-003	1.446327e-002	4.334805e-003	1.446733e-002	9.767646e-001	-1.260404e-001
2549750.000	1.000190e+000	-2.135512e-002	4.543349e-003	1.473899e-002	4.508520e-003	1.472517e-002	9.756481e-001	-1.283668e-001
2599745.000	1.000393e+000	-2.197097e-002	4.670462e-003	1.493049e-002	4.644077e-003	1.496293e-002	9.748272e-001	-1.307910e-001
2649740.000	1.000143e+000	-2.236221e-002	4.834945e-003	1.520381e-002	4.819422e-003	1.522524e-002	9.739195e-001	-1.329751e-001
2699735.000	9.999031e-001	-2.255093e-002	4.997976e-003	1.543898e-002	5.072665e-003	1.548596e-002	9.728036e-001	-1.351989e-001
2749730.000	1.000197e+000	-2.329921e-002	5.199064e-003	1.566683e-002	5.210031e-003	1.567534e-002	9.719744e-001	-1.375987e-001
2799725.000	9.998818e-001	-2.369316e-002	5.345015e-003	1.591269e-002	5.364274e-003	1.593175e-002	9.708384e-001	-1.397595e-001
2849720.000	9.999012e-001	-2.390110e-002	5.525154e-003	1.624414e-002	5.539866e-003	1.616065e-002	9.697256e-001	-1.422009e-001
2899715.000	9.998727e-001	-2.450977e-002	5.730220e-003	1.642277e-002	5.685434e-003	1.636380e-002	9.689261e-001	-1.442228e-001
2949710.000	9.999304e-001	-2.489730e-002	5.920025e-003	1.667784e-002	5.918209e-003	1.665630e-002	9.676037e-001	-1.465091e-001
2999705.000	9.997109e-001	-2.533797e-002	6.093739e-003	1.688790e-002	6.179932e-003	1.686682e-002	9.666042e-001	-1.486470e-001
3049700.000	1.000031e+000	-2.585656e-002	6.350267e-003	1.705462e-002	6.310454e-003	1.701917e-002	9.653708e-001	-1.508888e-001
3099695.000	9.997087e-001	-2.615006e-002	6.479161e-003	1.737419e-002	6.479710e-003	1.737109e-002	9.643395e-001	-1.533639e-001
3149690.000	9.995806e-001	-2.652625e-002	6.679030e-003	1.756827e-002	6.628223e-003	1.758838e-002	9.631646e-001	-1.551299e-001
3199685.000	9.996460e-001	-2.693604e-002	6.874436e-003	1.777928e-002	6.897882e-003	1.778918e-002	9.621156e-001	-1.572938e-001
3249680.000	9.992572e-001	-2.736990e-002	7.056178e-003	1.796481e-002	7.099724e-003	1.799119e-002	9.608473e-001	-1.596645e-001
3299675.000	9.994278e-001	-2.778392e-002	7.270787e-003	1.822977e-002	7.282314e-003	1.824279e-002	9.595753e-001	-1.616172e-001
3349670.000	9.994901e-001	-2.811227e-002	7.470521e-003	1.841550e-002	7.505666e-003	1.836665e-002	9.585546e-001	-1.637866e-001
3399665.000	9.992563e-001	-2.868547e-002	7.654193e-003	1.863174e-002	7.755387e-003	1.863240e-002	9.575520e-001	-1.657719e-001
3449660.000	9.994025e-001	-2.914621e-002	7.851602e-003	1.885158e-002	7.916093e-003	1.882980e-002	9.564767e-001	-1.680265e-001
3499655.000	9.991450e-001	-2.967957e-002	8.125975e-003	1.903725e-002	8.201202e-003	1.905909e-002	9.552942e-001	-1.700214e-001
3549650.000	9.988802e-001	-2.991470e-002	8.300782e-003	1.924388e-002	8.380604e-003	1.922669e-002	9.537831e-001	-1.722314e-001
3599645.000	9.989593e-001	-3.035846e-002	8.552445e-003	1.943079e-002	8.631403e-003	1.943400e-002	9.525423e-001	-1.742837e-001
3649640.000	9.993241e-001	-3.066871e-002	8.782338e-003	1.965841e-002	8.787618e-003	1.970941e-002	9.518347e-001	-1.762246e-001
3699635.000	9.990491e-001	-3.115517e-002	8.906063e-003	1.988544e-002	9.014454e-003	1.985560e-002	9.500141e-001	-1.781838e-001
3749630.000	9.988419e-001	-3.156595e-002	9.210718e-003	2.012265e-002	9.261778e-003	2.005246e-002	9.488337e-001	-1.801944e-001
3799625.000	9.987716e-001	-3.192755e-002	9.390793e-003	2.026181e-002	9.487248e-003	2.023722e-002	9.477995e-001	-1.822486e-001
3849620.000	9.988805e-001	-3.251415e-002	9.652851e-003	2.042799e-002	9.751211e-003	2.050303e-002	9.464789e-001	-1.840822e-001
3899615.000	9.988603e-001	-3.290373e-002	9.858931e-003	2.065538e-002	9.974516e-003	2.063557e-002	9.451166e-001	-1.861624e-001
3949610.000	9.985115e-001	-3.325333e-002	1.009323e-002	2.081470e-002	1.018206e-002	2.084904e-002	9.438770e-001	-1.882413e-001
3999605.000	9.984413e-001	-3.355915e-002	1.029886e-002	2.100708e-002	1.037127e-002	2.096632e-002	9.425992e-001	-1.900902e-001
4049600.000	9.983940e-001	-3.408437e-002	1.059935e-002	2.111728e-002	1.062821e-002	2.119288e-002	9.411193e-001	-1.919872e-001
4099595.000	9.982289e-001	-3.445063e-002	1.080672e-002	2.139343e-002	1.086505e-002	2.136991e-002	9.398876e-001	-1.940017e-001
4149590.000	9.982221e-001	-3.490700e-002	1.106129e-002	2.153603e-002	1.105613e-002	2.155183e-002	9.384805e-001	-1.957887e-001
4199585.000	9.981176e-001	-3.527736e-002	1.130645e-002	2.167997e-002	1.134757e-002	2.168121e-002	9.371525e-001	-1.978472e-001
4249580.000	9.982841e-001	-3.589465e-002	1.154689e-002	2.184103e-002	1.156441e-002	2.180848e-002	9.360289e-001	-1.995628e-001
4299575.000	9.981384e-001	-3.613351e-002	1.180023e-002	2.201245e-002	1.175463e-002	2.210053e-002	9.345020e-001	-2.014001e-001
4349570.000	9.978789e-001	-3.645149e-002	1.199536e-002	2.224469e-002	1.202433e-002	2.220750e-002	9.331862e-001	-2.032144e-001
4399565.000	9.978492e-001	-3.703336e-002	1.227057e-002	2.239001e-002	1.226760e-002	2.235579e-002	9.318879e-001	-2.051686e-001
4449560.000	9.979600e-001	-3.750698e-002	1.245602e-002	2.256515e-002	1.256211e-002	2.246577e-002	9.305187e-001	-2.069992e-001
4499555.000	9.979913e-001	-3.785730e-002	1.270690e-002	2.269428e-002	1.279258e-002	2.269553e-002	9.289686e-001	-2.088220e-001
4549550.000	9.977925e-001	-3.804358e-002	1.296806e-002	2.277391e-002	1.301010e-002	2.280892e-002	9.275362e-001	-2.105185e-001
4599545.000	9.977244e-001	-3.871012e-002	1.323564e-002	2.301636e-002	1.326817e-002	2.298206e-002	9.261128e-001	-2.122004e-001
4649540.000	9.977710e-001	-3.908195e-002	1.348238e-002	2.310707e-002	1.346386e-002	2.315468e-002	9.246872e-001	-2.140484e-001
4699535.000	9.976179e-001	-3.932048e-002	1.371612e-002	2.322231e-002	1.371987e-002	2.321374e-002	9.230094e-001	-2.157298e-001
4749530.000	9.974445e-001	-3.973416e-002	1.399005e-002	2.342535e-002	1.401664e-002	2.340117e-002	9.217949e-001	-2.175996e-001
4799525.000	9.974107e-001	-4.027961e-002	1.426435e-002	2.357001e-002	1.428954e-002	2.358120e-002	9.202797e-001	-2.190840e-001
4849520.000	9.974014e-001	-4.090763e-002	1.451274e-002	2.365803e-002	1.450943e-002	2.365942e-002	9.188647e-001	-2.208939e-001
4899515.000	9.972445e-001	-4.096823e-002	1.471600e-002	2.371697e-002	1.472710e-002	2.378566e-002	9.174098e-001	-2.226225e-001
4949510.000	9.971770e-001	-4.145847e-002	1.500806e-002	2.388369e-002	1.503601e-002	2.393454e-002	9.157955e-001	-2.243047e-001
4999505.000	9.971062e-001	-4.173431e-002	1.523980e-002	2.402593e-002	1.531205e-002	2.405456e-002	9.144063e-001	-2.258776e-001
5049500.000	9.971183e-001	-4.229753e-002	1.545128e-002	2.420327e-002	1.556740e-002	2.415898e-002	9.127868e-001	-2.274730e-001
5099495.000	9.969929e-001	-4.262944e-002	1.580124e-002	2.430069e-002	1.578817e-002	2.425279e-002	9.114988e-001	-2.291189e-001
5149490.000	9.971091e-001	-4.292015e-002	1.598569e-002	2.442736e-002	1.610326e-002	2.442117e-002	9.100770e-001	-2.308226e-001
5199485.000	9.969455e-001	-4.348630e-002	1.630234e-002	2.453470e-002	1.630420e-002	2.456518e-002	9.084357e-001	-2.324348e-001
5249480.000	9.967292e-001	-4.373463e-002	1.649751e-002	2.464478e-002	1.662688e-002	2.466567e-002	9.069465e-001	-2.339363e-001
5299475.000	9.964949e-001	-4.440937e-002	1.676131e-002	2.478745e-002	1.683178e-002	2.476816e-002	9.052910e-001	-2.355013e-001
5349470.000	9.965572e-001	-4.471682e-002	1.704742e-002	2.491964e-002	1.706067e-002	2.489291e-002	9.039153e-001	-2.370174e-001
5399465.000	9.962916e-001	-4.510105e-002	1.727764e-002	2.499014e-002	1.738942e-002	2.494292e-002	9.024021e-001	-2.385390e-001
5449460.000	9.963108e-001	-4.558457e-002	1.761277e-002	2.503445e-002	1.761427e-002	2.508287e-002	9.008301e-001	-2.400482e-001
5499455.000	9.964796e-001	-4.607986e-002	1.784313e-002	2.523611e-002	1.794903e-002	2.516393e-002	8.992225e-001	-2.415442e-001
5549450.000	9.960876e-001	-4.646933e-002	1.812355e-002	2.526982e-002	1.817677e-002	2.529298e-002	8.975995e-001	-2.430573e-001
5599445.000	9.959150e-001	-4.655205e-002	1.840276e-002	2.537356e-002	1.844489e-002	2.539096e-002	8.960638e-001	-2.445559e-001
5649440.000	9.959125e-001	-4.697621e-002	1.867365e-002	2.545970e-002	1.869895e-002	2.546127e-002	8.947592e-001	-2.460752e-001
5699435.000	9.957153e-001	-4.733681e-002	1.891170e-002	2.561414e-002	1.894716e-002	2.546509e-002	8.931156e-001	-2.475754e-001
5749430.000	9.958010e-001	-4.781025e-002	1.917364e-002	2.564403e-002	1.922592e-002	2.565313e-002	8.915010e-001	-2.489141e-001
5799425.000	9.958704e-001	-4.836009e-002	1.938020e-002	2.569632e-002	1.950369e-002	2.564751e-002	8.900949e-001	-2.500140e-001
5849420.000	9.956593e-001	-4.863741e-002	1.969036e-002	2.577185e-002	1.973590e-002	2.583071e-002	8.883423e-001	-2.517603e-001
5899415.000	9.955281e-001	-4.897889e-002	1.997195e-002	2.586356e-002	2.009636e-002	2.587102e-002	8.868470e-001	-2.530945e-001
5949410.000	9.956215e-001	-4.950132e-002	2.022177e-002	2.591414e-002	2.034611e-002	2.592192e-002	8.853720e-001	-2.545053e-001
5999405.000	9.954194e-001	-5.001856e-002	2.053672e-002	2.604411e-002	2.061789e-002	2.593884e-002	8.837674e-001	-2.558151e-001
6049400.000	9.956432e-001	-5.024918e-002	2.080813e-002	2.606849e-002	2.088895e-002	2.605239e-002	8.823247e-001	-2.572995e-001
6099395.000	9.952487e-001	-5.072632e-002	2.099957e-002	2.612118e-002	2.109780e-002	2.620187e-002	8.805196e-001	-2.586293e-001
6149390.000	9.951659e-001	-5.095263e-002	2.127705e-002	2.622709e-002	2.138381e-002	2.621553e-002	8.790654e-001	-2.597534e-001
6199385.000	9.950894e-001	-5.137494e-002	2.159492e-002	2.628229e-002	2.164840e-002	2.627794e-002	8.774087e-001	-2.611474e-001
6249380.000	9.950038e-001	-5.201395e-002	2.195652e-002	2.635338e-002	2.194684e-002	2.630244e-002	8.758702e-001	-2.625098e-001
6299375.000	9.948006e-001	-5.197069e-002	2.212800e-002	2.643667e-002	2.215445e-002	2.636707e-002	8.742367e-001	-2.636189e-001
6349370.000	9.947619e-001	-5.251565e-002	2.240538e-002	2.642844e-002	2.250466e-002	2.645931e-002	8.726898e-001	-2.649671e-001
6399365.000	9.946002e-001	-5.313317e-002	2.267555e-002	2.649332e-002	2.276172e-002	2.650146e-002	8.710963e-001	-2.661673e-001
6449360.000	9.945919e-001	-5.340909e-002	2.295909e-002	2.654009e-002	2.306820e-002	2.653928e-002	8.695310e-001	-2.674069e-001
6499355.000	9.945298e-001	-5.381020e-002	2.321272e-002	2.656400e-002	2.336733e-002	2.660896e-002	8.677289e-001	-2.687898e-001
6549350.000	9.944671e-001	-5.407848e-002	2.350897e-002	2.667132e-002	2.361851e-002	2.664250e-002	8.662944e-001	-2.698671e-001
6599345.000	9.942637e-001	-5.439575e-002	2.374139e-002	2.673195e-002	2.381369e-002	2.668738e-002	8.647420e-001	-2.709418e-001
6649340.000	9.941836e-001	-5.493382e-002	2.400868e-002	2.672728e-002	2.412687e-002	2.666130e-002	8.630814e-001	-2.721898e-001
6699335.000	9.941506e-001	-5.519922e-002	2.426758e-002	2.681944e-002	2.440569e-002	2.677599e-002	8.616134e-001	-2.733269e-001
6749330.000	9.940284e-001	-5.562072e-002	2.457923e-002	2.681729e-002	2.463776e-002	2.680587e-002	8.599957e-001	-2.743883e-001
6799325.000	9.938701e-001	-5.600968e-002	2.482242e-002	2.676676e-002	2.493509e-002	2.679468e-002	8.584491e-001	-2.756203e-001
6849320.000	9.936504e-001	-5.646909e-002	2.509501e-002	2.688049e-002	2.521615e-002	2.682404e-002	8.566631e-001	-2.768572e-001
6899315.000	9.938685e-001	-5.695706e-002	2.540346e-002	2.685199e-002	2.549164e-002	2.685377e-002	8.551335e-001	-2.778452e-001
6949310.000	9.936735e-001	-5.722144e-002	2.568343e-002	2.684193e-002	2.571783e-002	2.690545e-002	8.537426e-001	-2.790314e-001
6999305.000	9.936699e-001	-5.762216e-002	2.588882e-002	2.692245e-002	2.594239e-002	2.687842e-002	8.519790e-001	-2.800142e-001
7049300.000	9.936813e-001	-5.800651e-002	2.625572e-002	2.691067e-002	2.626300e-002	2.689845e-002	8.503580e-001	-2.812785e-001
7099295.000	9.935637e-001	-5.846429e-002	2.644219e-002	2.695898e-002	2.649240e-002	2.695776e-002	8.487360e-001	-2.822968e-001
7149290.000	9.935258e-001	-5.870204e-002	2.665636e-002	2.696488e-002	2.678843e-002	2.693039e-002	8.472339e-001	-2.832216e-001
7199285.000	9.933832e-001	-5.919657e-002	2.708500e-002	2.691173e-002	2.704341e-002	2.697597e-002	8.454481e-001	-2.843890e-001
7249280.000	9.932155e-001	-5.959447e-002	2.729974e-002	2.702916e-002	2.737327e-002	2.694702e-002	8.439319e-001	-2.853755e-001
7299275.000	9.932421e-001	-5.986042e-002	2.752010e-002	2.698449e-002	2.765038e-002	2.703182e-002	8.424665e-001	-2.864395e-001
7349270.000	9.930317e-001	-6.043305e-002	2.777981e-002	2.697987e-002	2.784574e-002	2.692366e-002	8.406944e-001	-2.872736e-001
7399265.000	9.929450e-001	-6.063175e-002	2.805228e-002	2.704563e-002	2.814536e-002	2.699418e-002	8.391242e-001	-2.882588e-001
7449260.000	9.929221e-001	-6.097855e-002	2.833528e-002	2.701697e-002	2.844484e-002	2.701816e-002	8.377337e-001	-2.893832e-001
7499255.000	9.927439e-001	-6.137685e-002	2.858942e-002	2.698371e-002	2.867488e-002	2.698310e-002	8.360893e-001	-2.902584e-001
7549250.000	9.926087e-001	-6.186426e-002	2.889140e-002	2.699887e-002	2.894622e-002	2.692424e-002	8.343250e-001	-2.911747e-001
7599245.000	9.923521e-001	-6.213820e-002	2.911508e-002	2.699427e-002	2.921313e-002	2.694950e-002	8.328572e-001	-2.920578e-001
7649240.000	9.921371e-001	-6.243434e-002	2.943359e-002	2.698527e-002	2.952926e-002	2.694644e-002	8.313015e-001	-2.929784e-001
7699235.000	9.926000e-001	-6.301638e-002	2.966594e-002	2.698026e-002	2.974676e-002	2.697094e-002	8.298976e-001	-2.941227e-001
7749230.000	9.921920e-001	-6.342040e-002	2.991459e-002	2.694540e-002	3.000388e-002	2.687839e-002	8.281900e-001	-2.949476e-001
7799225.000	9.921589e-001	-6.364417e-002	3.017650e-002	2.692571e-002	3.025011e-002	2.694266e-002	8.264814e-001	-2.957554e-001
7849220.000	9.920008e-001	-6.404588e-002	3.045924e-002	2.692998e-002	3.052559e-002	2.683092e-002	8.247295e-001	-2.965243e-001
