!Keysight Technologies,E5063A,MY54100949,A.07.30
!Date: Fri Dec 26 02:39:25 2025
!Data & Calibration Information:
!Freq	S11:SOLT2(ON)	S21:SOLT2(ON)	S12:SOLT2(ON)	S22:SOLT2(ON)
# Hz S RI R 50
50000.000	7.819686e-001	-3.775554e-004	2.196272e-001	2.366360e-003	2.200541e-001	2.508606e-003	7.824033e-001	-6.937233e-004
99995.000	7.800404e-001	-2.133554e-003	2.210928e-001	-1.390162e-004	2.212804e-001	-1.443371e-004	7.800503e-001	-2.517053e-003
149990.000	7.798626e-001	-2.941276e-003	2.213083e-001	-1.022808e-003	2.214331e-001	-1.126718e-003	7.798687e-001	-3.783309e-003
199985.000	7.800254e-001	-3.380055e-003	2.214129e-001	-1.602326e-003	2.214449e-001	-1.633124e-003	7.795590e-001	-4.509849e-003
249980.000	7.801501e-001	-3.767724e-003	2.212573e-001	-2.099045e-003	2.213778e-001	-2.199236e-003	7.797075e-001	-5.187758e-003
299975.000	7.799772e-001	-4.249700e-003	2.212267e-001	-2.716719e-003	2.214356e-001	-2.781787e-003	7.797348e-001	-5.824066e-003
349970.000	7.796276e-001	-4.632697e-003	2.213733e-001	-3.217002e-003	2.214760e-001	-3.326564e-003	7.799842e-001	-6.672706e-003
399965.000	7.797951e-001	-5.099018e-003	2.211547e-001	-3.788554e-003	2.214373e-001	-3.884860e-003	7.796597e-001	-7.469796e-003
449960.000	7.799207e-001	-5.360314e-003	2.212341e-001	-4.303048e-003	2.214283e-001	-4.445433e-003	7.797636e-001	-8.188577e-003
499955.000	7.797795e-001	-6.147221e-003	2.212372e-001	-4.712095e-003	2.213454e-001	-5.001153e-003	7.797895e-001	-9.077349e-003
549950.000	7.800799e-001	-6.322135e-003	2.211232e-001	-5.310087e-003	2.213648e-001	-5.466599e-003	7.797037e-001	-9.802860e-003
599945.000	7.798753e-001	-7.093042e-003	2.210068e-001	-5.932032e-003	2.212465e-001	-5.993505e-003	7.795497e-001	-1.065632e-002
649940.000	7.800699e-001	-7.824625e-003	2.211345e-001	-6.262339e-003	2.212731e-001	-6.511414e-003	7.797967e-001	-1.145682e-002
699935.000	7.799081e-001	-8.216834e-003	2.210995e-001	-6.897362e-003	2.212997e-001	-6.908013e-003	7.796170e-001	-1.222727e-002
749930.000	7.798541e-001	-8.821647e-003	2.211055e-001	-7.305481e-003	2.212571e-001	-7.542067e-003	7.796680e-001	-1.317098e-002
799925.000	7.800638e-001	-9.384760e-003	2.210473e-001	-7.898061e-003	2.211965e-001	-7.925662e-003	7.799391e-001	-1.393839e-002
849920.000	7.798771e-001	-9.837996e-003	2.210223e-001	-8.429637e-003	2.212183e-001	-8.551907e-003	7.796292e-001	-1.474981e-002
899915.000	7.799532e-001	-1.065878e-002	2.211121e-001	-9.054693e-003	2.212614e-001	-9.046608e-003	7.795917e-001	-1.557694e-002
949910.000	7.799149e-001	-1.115527e-002	2.209925e-001	-9.550098e-003	2.213115e-001	-9.621465e-003	7.797156e-001	-1.642676e-002
999905.000	7.796658e-001	-1.154557e-002	2.209436e-001	-9.948820e-003	2.210603e-001	-1.002040e-002	7.794076e-001	-1.721797e-002
1049900.000	7.799494e-001	-1.215806e-002	2.209526e-001	-1.051393e-002	2.210812e-001	-1.066952e-002	7.796648e-001	-1.794856e-002
1099895.000	7.798683e-001	-1.278353e-002	2.208858e-001	-1.104978e-002	2.209784e-001	-1.116073e-002	7.795523e-001	-1.880273e-002
1149890.000	7.795047e-001	-1.338844e-002	2.209028e-001	-1.141373e-002	2.210631e-001	-1.167623e-002	7.793707e-001	-1.978330e-002
1199885.000	7.796681e-001	-1.399700e-002	2.208061e-001	-1.205575e-002	2.210403e-001	-1.216468e-002	7.793716e-001	-2.035652e-002
1249880.000	7.795057e-001	-1.453805e-002	2.207373e-001	-1.255041e-002	2.209058e-001	-1.273780e-002	7.791951e-001	-2.151798e-002
1299875.000	7.797534e-001	-1.507509e-002	2.207636e-001	-1.311011e-002	2.209637e-001	-1.326372e-002	7.792490e-001	-2.197168e-002
1349870.000	7.795845e-001	-1.568273e-002	2.207002e-001	-1.360556e-002	2.209526e-001	-1.378061e-002	7.793132e-001	-2.286164e-002
1399865.000	7.794596e-001	-1.614813e-002	2.206408e-001	-1.410403e-002	2.208008e-001	-1.431269e-002	7.789845e-001	-2.367103e-002
1449860.000	7.795337e-001	-1.663760e-002	2.206435e-001	-1.463476e-002	2.209432e-001	-1.483801e-002	7.791147e-001	-2.460893e-002
1499855.000	7.794791e-001	-1.720567e-002	2.207080e-001	-1.518600e-002	2.207681e-001	-1.537015e-002	7.789310e-001	-2.536474e-002
1549850.000	7.794923e-001	-1.798589e-002	2.205595e-001	-1.569368e-002	2.206598e-001	-1.585709e-002	7.787927e-001	-2.630853e-002
1599845.000	7.795783e-001	-1.843008e-002	2.205028e-001	-1.623412e-002	2.207225e-001	-1.638117e-002	7.788051e-001	-2.702646e-002
1649840.000	7.793363e-001	-1.908833e-002	2.204183e-001	-1.668523e-002	2.205878e-001	-1.696820e-002	7.785740e-001	-2.779151e-002
1699835.000	7.794502e-001	-1.938929e-002	2.204582e-001	-1.724613e-002	2.206021e-001	-1.738030e-002	7.785444e-001	-2.866384e-002
1749830.000	7.795648e-001	-1.997838e-002	2.204195e-001	-1.782626e-002	2.205866e-001	-1.788652e-002	7.787108e-001	-2.964554e-002
1799825.000	7.794882e-001	-2.056919e-002	2.203690e-001	-1.830968e-002	2.205735e-001	-1.842781e-002	7.785356e-001	-3.021204e-002
1849820.000	7.792287e-001	-2.110309e-002	2.203542e-001	-1.881060e-002	2.204730e-001	-1.897621e-002	7.784235e-001	-3.105143e-002
1899815.000	7.792377e-001	-2.179339e-002	2.202494e-001	-1.940533e-002	2.204060e-001	-1.956783e-002	7.783867e-001	-3.173846e-002
1949810.000	7.793206e-001	-2.238644e-002	2.202314e-001	-1.983065e-002	2.202824e-001	-1.999777e-002	7.782263e-001	-3.261880e-002
1999805.000	7.791477e-001	-2.289348e-002	2.201330e-001	-2.027641e-002	2.202574e-001	-2.052053e-002	7.782298e-001	-3.354524e-002
2049800.000	7.791082e-001	-2.339257e-002	2.201259e-001	-2.087327e-002	2.202678e-001	-2.098980e-002	7.781481e-001	-3.434241e-002
2099795.000	7.791297e-001	-2.415896e-002	2.199998e-001	-2.135782e-002	2.200929e-001	-2.153298e-002	7.778584e-001	-3.505698e-002
2149790.000	7.791575e-001	-2.466200e-002	2.199599e-001	-2.186486e-002	2.199737e-001	-2.208540e-002	7.780042e-001	-3.589068e-002
2199785.000	7.790151e-001	-2.506265e-002	2.198890e-001	-2.244620e-002	2.200021e-001	-2.255413e-002	7.779182e-001	-3.670808e-002
2249780.000	7.790258e-001	-2.583370e-002	2.197459e-001	-2.290785e-002	2.200444e-001	-2.307008e-002	7.777571e-001	-3.748662e-002
2299775.000	7.789490e-001	-2.633253e-002	2.197565e-001	-2.332268e-002	2.198963e-001	-2.356472e-002	7.777748e-001	-3.830604e-002
2349770.000	7.788043e-001	-2.697027e-002	2.197329e-001	-2.395023e-002	2.198417e-001	-2.409058e-002	7.776426e-001	-3.916420e-002
2399765.000	7.788350e-001	-2.746042e-002	2.196088e-001	-2.448313e-002	2.198258e-001	-2.460712e-002	7.773590e-001	-4.005393e-002
2449760.000	7.788789e-001	-2.805462e-002	2.194482e-001	-2.498491e-002	2.196747e-001	-2.513250e-002	7.773001e-001	-4.072356e-002
2499755.000	7.787237e-001	-2.853425e-002	2.193992e-001	-2.546036e-002	2.197126e-001	-2.569439e-002	7.774536e-001	-4.163347e-002
2549750.000	7.787325e-001	-2.909261e-002	2.193781e-001	-2.599495e-002	2.195468e-001	-2.621577e-002	7.773530e-001	-4.244987e-002
2599745.000	7.788812e-001	-2.979146e-002	2.194591e-001	-2.653101e-002	2.195555e-001	-2.678387e-002	7.771164e-001	-4.323211e-002
2649740.000	7.787112e-001	-3.016066e-002	2.193118e-001	-2.699601e-002	2.194754e-001	-2.726359e-002	7.772419e-001	-4.410055e-002
2699735.000	7.785635e-001	-3.075163e-002	2.192551e-001	-2.754105e-002	2.194774e-001	-2.771486e-002	7.770070e-001	-4.474376e-002
2749730.000	7.784815e-001	-3.151322e-002	2.191616e-001	-2.810486e-002	2.192679e-001	-2.821835e-002	7.768315e-001	-4.563499e-002
2799725.000	7.784060e-001	-3.195254e-002	2.190048e-001	-2.861412e-002	2.192414e-001	-2.883119e-002	7.766854e-001	-4.651269e-002
2849720.000	7.783047e-001	-3.262853e-002	2.190159e-001	-2.906665e-002	2.191528e-001	-2.934701e-002	7.766921e-001	-4.733482e-002
2899715.000	7.783939e-001	-3.302856e-002	2.188142e-001	-2.961240e-002	2.190717e-001	-2.978458e-002	7.765589e-001	-4.799297e-002
2949710.000	7.783515e-001	-3.363473e-002	2.188707e-001	-3.011037e-002	2.189702e-001	-3.025416e-002	7.763113e-001	-4.880778e-002
2999705.000	7.782981e-001	-3.418287e-002	2.186876e-001	-3.059958e-002	2.189373e-001	-3.078811e-002	7.762496e-001	-4.982873e-002
3049700.000	7.782975e-001	-3.500548e-002	2.186831e-001	-3.115913e-002	2.187926e-001	-3.140275e-002	7.761983e-001	-5.048156e-002
3099695.000	7.781900e-001	-3.534366e-002	2.185242e-001	-3.175739e-002	2.187093e-001	-3.187621e-002	7.761162e-001	-5.131627e-002
3149690.000	7.781434e-001	-3.591207e-002	2.184630e-001	-3.220307e-002	2.186454e-001	-3.234378e-002	7.758896e-001	-5.203389e-002
3199685.000	7.778720e-001	-3.660634e-002	2.183508e-001	-3.269332e-002	2.185507e-001	-3.284897e-002	7.757369e-001	-5.292533e-002
3249680.000	7.779508e-001	-3.701757e-002	2.182377e-001	-3.314758e-002	2.184121e-001	-3.336137e-002	7.757371e-001	-5.372626e-002
3299675.000	7.779870e-001	-3.772646e-002	2.181736e-001	-3.371701e-002	2.183107e-001	-3.385525e-002	7.757098e-001	-5.447591e-002
3349670.000	7.778545e-001	-3.827778e-002	2.180951e-001	-3.421856e-002	2.182716e-001	-3.440137e-002	7.753678e-001	-5.535251e-002
3399665.000	7.778500e-001	-3.876815e-002	2.179750e-001	-3.466304e-002	2.181718e-001	-3.489147e-002	7.754169e-001	-5.617582e-002
3449660.000	7.777929e-001	-3.946930e-002	2.179958e-001	-3.529477e-002	2.181205e-001	-3.548486e-002	7.753755e-001	-5.692187e-002
3499655.000	7.777779e-001	-3.992431e-002	2.178158e-001	-3.564972e-002	2.180683e-001	-3.595229e-002	7.750867e-001	-5.772794e-002
3549650.000	7.775463e-001	-4.049701e-002	2.177183e-001	-3.625171e-002	2.178990e-001	-3.639909e-002	7.749601e-001	-5.861276e-002
3599645.000	7.774431e-001	-4.100375e-002	2.176397e-001	-3.669734e-002	2.177818e-001	-3.701376e-002	7.746889e-001	-5.932543e-002
3649640.000	7.776228e-001	-4.164160e-002	2.176443e-001	-3.724857e-002	2.177313e-001	-3.745306e-002	7.748632e-001	-6.022228e-002
3699635.000	7.774862e-001	-4.230818e-002	2.174288e-001	-3.775677e-002	2.176109e-001	-3.806322e-002	7.744684e-001	-6.081188e-002
3749630.000	7.773112e-001	-4.278816e-002	2.173027e-001	-3.822088e-002	2.175398e-001	-3.847898e-002	7.743409e-001	-6.174898e-002
3799625.000	7.772141e-001	-4.322839e-002	2.171574e-001	-3.879664e-002	2.173889e-001	-3.899129e-002	7.742867e-001	-6.259378e-002
3849620.000	7.773403e-001	-4.400853e-002	2.171451e-001	-3.925735e-002	2.172516e-001	-3.947678e-002	7.742975e-001	-6.321422e-002
3899615.000	7.771893e-001	-4.444481e-002	2.170215e-001	-3.978307e-002	2.172087e-001	-4.010051e-002	7.740362e-001	-6.403582e-002
3949610.000	7.770602e-001	-4.500104e-002	2.168808e-001	-4.026645e-002	2.171204e-001	-4.053270e-002	7.738651e-001	-6.495777e-002
3999605.000	7.770564e-001	-4.551408e-002	2.168090e-001	-4.077533e-002	2.169116e-001	-4.099678e-002	7.736271e-001	-6.575173e-002
4049600.000	7.766654e-001	-4.609948e-002	2.166757e-001	-4.124885e-002	2.169222e-001	-4.149805e-002	7.735036e-001	-6.638359e-002
4099595.000	7.768215e-001	-4.668592e-002	2.166693e-001	-4.177764e-002	2.166931e-001	-4.201645e-002	7.733415e-001	-6.722998e-002
4149590.000	7.767521e-001	-4.729802e-002	2.165312e-001	-4.227420e-002	2.165795e-001	-4.250780e-002	7.731804e-001	-6.791453e-002
4199585.000	7.765699e-001	-4.777843e-002	2.163501e-001	-4.280833e-002	2.164888e-001	-4.304238e-002	7.731163e-001	-6.898089e-002
4249580.000	7.766756e-001	-4.837450e-002	2.161672e-001	-4.330381e-002	2.164540e-001	-4.363515e-002	7.729888e-001	-6.966411e-002
4299575.000	7.763627e-001	-4.908626e-002	2.160609e-001	-4.380049e-002	2.162878e-001	-4.406155e-002	7.728003e-001	-7.037962e-002
4349570.000	7.764170e-001	-4.948306e-002	2.159778e-001	-4.430701e-002	2.161221e-001	-4.456409e-002	7.725632e-001	-7.127395e-002
4399565.000	7.762760e-001	-5.012818e-002	2.159282e-001	-4.480337e-002	2.160848e-001	-4.497161e-002	7.724665e-001	-7.206756e-002
4449560.000	7.762853e-001	-5.085368e-002	2.157074e-001	-4.534248e-002	2.159350e-001	-4.561260e-002	7.723045e-001	-7.278626e-002
4499555.000	7.761406e-001	-5.135380e-002	2.156746e-001	-4.578522e-002	2.158165e-001	-4.607628e-002	7.720881e-001	-7.360445e-002
4549550.000	7.760175e-001	-5.172584e-002	2.155353e-001	-4.631012e-002	2.156753e-001	-4.663404e-002	7.719866e-001	-7.457159e-002
4599545.000	7.760148e-001	-5.234701e-002	2.154069e-001	-4.685071e-002	2.156545e-001	-4.709977e-002	7.717723e-001	-7.521376e-002
4649540.000	7.758515e-001	-5.292736e-002	2.152756e-001	-4.728947e-002	2.153961e-001	-4.764311e-002	7.715722e-001	-7.605452e-002
4699535.000	7.756653e-001	-5.351120e-002	2.151753e-001	-4.781994e-002	2.152172e-001	-4.797976e-002	7.711346e-001	-7.682411e-002
4749530.000	7.756679e-001	-5.403508e-002	2.149567e-001	-4.832882e-002	2.151388e-001	-4.853548e-002	7.711407e-001	-7.744602e-002
4799525.000	7.754911e-001	-5.466033e-002	2.148061e-001	-4.889373e-002	2.149847e-001	-4.905621e-002	7.710260e-001	-7.814234e-002
4849520.000	7.755178e-001	-5.512253e-002	2.147905e-001	-4.928057e-002	2.149197e-001	-4.959993e-002	7.708766e-001	-7.919244e-002
4899515.000	7.755929e-001	-5.574725e-002	2.146080e-001	-4.979044e-002	2.147943e-001	-5.006459e-002	7.707194e-001	-7.992798e-002
4949510.000	7.753072e-001	-5.631656e-002	2.144539e-001	-5.031932e-002	2.146876e-001	-5.056776e-002	7.705012e-001	-8.070927e-002
4999505.000	7.752799e-001	-5.680333e-002	2.143693e-001	-5.085579e-002	2.145738e-001	-5.102909e-002	7.701952e-001	-8.146948e-002
5049500.000	7.753986e-001	-5.743427e-002	2.141798e-001	-5.127314e-002	2.143416e-001	-5.155391e-002	7.699485e-001	-8.216482e-002
5099495.000	7.752418e-001	-5.802997e-002	2.140677e-001	-5.180072e-002	2.141465e-001	-5.214359e-002	7.698732e-001	-8.291767e-002
5149490.000	7.751833e-001	-5.848277e-002	2.139791e-001	-5.238636e-002	2.141086e-001	-5.259611e-002	7.696484e-001	-8.382613e-002
5199485.000	7.748551e-001	-5.913117e-002	2.138370e-001	-5.280874e-002	2.140081e-001	-5.306137e-002	7.694499e-001	-8.465969e-002
5249480.000	7.747373e-001	-5.955312e-002	2.136387e-001	-5.323315e-002	2.138066e-001	-5.350737e-002	7.692750e-001	-8.533171e-002
5299475.000	7.746963e-001	-6.014267e-002	2.135135e-001	-5.377938e-002	2.136816e-001	-5.409133e-002	7.691513e-001	-8.613186e-002
5349470.000	7.746008e-001	-6.074457e-002	2.134144e-001	-5.433166e-002	2.135502e-001	-5.455564e-002	7.688646e-001	-8.700416e-002
5399465.000	7.744943e-001	-6.125132e-002	2.131665e-001	-5.475293e-002	2.134037e-001	-5.502933e-002	7.687028e-001	-8.776961e-002
5449460.000	7.743028e-001	-6.186821e-002	2.131098e-001	-5.531241e-002	2.132734e-001	-5.552419e-002	7.686485e-001	-8.850117e-002
5499455.000	7.744594e-001	-6.241333e-002	2.130312e-001	-5.567649e-002	2.131290e-001	-5.602703e-002	7.684200e-001	-8.929260e-002
5549450.000	7.741111e-001	-6.309761e-002	2.128568e-001	-5.628200e-002	2.129726e-001	-5.658158e-002	7.679922e-001	-9.001361e-002
5599445.000	7.742056e-001	-6.337861e-002	2.126830e-001	-5.674088e-002	2.127944e-001	-5.701551e-002	7.678311e-001	-9.077530e-002
5649440.000	7.738634e-001	-6.423543e-002	2.125003e-001	-5.722535e-002	2.126700e-001	-5.749819e-002	7.677867e-001	-9.153367e-002
5699435.000	7.737837e-001	-6.464873e-002	2.123318e-001	-5.772901e-002	2.124789e-001	-5.800696e-002	7.674369e-001	-9.233860e-002
5749430.000	7.737836e-001	-6.525490e-002	2.121591e-001	-5.825815e-002	2.123608e-001	-5.854448e-002	7.672681e-001	-9.309754e-002
5799425.000	7.736262e-001	-6.560340e-002	2.120444e-001	-5.868933e-002	2.121315e-001	-5.892023e-002	7.669961e-001	-9.368643e-002
5849420.000	7.736342e-001	-6.620684e-002	2.119718e-001	-5.910319e-002	2.120325e-001	-5.947333e-002	7.668028e-001	-9.473815e-002
5899415.000	7.734105e-001	-6.688458e-002	2.117401e-001	-5.977328e-002	2.118696e-001	-5.996343e-002	7.665742e-001	-9.546995e-002
5949410.000	7.734005e-001	-6.749049e-002	2.116084e-001	-6.016843e-002	2.116974e-001	-6.042290e-002	7.664376e-001	-9.619541e-002
5999405.000	7.730488e-001	-6.795819e-002	2.114096e-001	-6.070102e-002	2.116331e-001	-6.096970e-002	7.661806e-001	-9.684634e-002
6049400.000	7.733833e-001	-6.855302e-002	2.113329e-001	-6.123176e-002	2.114316e-001	-6.148152e-002	7.660131e-001	-9.774829e-002
6099395.000	7.730333e-001	-6.911491e-002	2.111353e-001	-6.157164e-002	2.112720e-001	-6.190162e-002	7.656504e-001	-9.855774e-002
6149390.000	7.729679e-001	-6.961804e-002	2.109993e-001	-6.214679e-002	2.111444e-001	-6.251140e-002	7.653938e-001	-9.921220e-002
6199385.000	7.727064e-001	-7.014560e-002	2.108069e-001	-6.270203e-002	2.109076e-001	-6.295050e-002	7.652464e-001	-1.000289e-001
6249380.000	7.727174e-001	-7.091252e-002	2.106498e-001	-6.306760e-002	2.108087e-001	-6.340823e-002	7.649949e-001	-1.009385e-001
6299375.000	7.725296e-001	-7.113446e-002	2.105074e-001	-6.357599e-002	2.105888e-001	-6.388903e-002	7.647832e-001	-1.015713e-001
6349370.000	7.723549e-001	-7.197239e-002	2.102137e-001	-6.412263e-002	2.103935e-001	-6.440141e-002	7.645134e-001	-1.022266e-001
6399365.000	7.722206e-001	-7.258639e-002	2.101915e-001	-6.460031e-002	2.102649e-001	-6.481261e-002	7.643759e-001	-1.030437e-001
6449360.000	7.720931e-001	-7.299669e-002	2.099638e-001	-6.504033e-002	2.100912e-001	-6.532150e-002	7.641505e-001	-1.037065e-001
6499355.000	7.721255e-001	-7.350617e-002	2.098693e-001	-6.552938e-002	2.099564e-001	-6.585317e-002	7.637442e-001	-1.047037e-001
6549350.000	7.717628e-001	-7.400115e-002	2.096487e-001	-6.603126e-002	2.097771e-001	-6.628547e-002	7.637293e-001	-1.053949e-001
6599345.000	7.717276e-001	-7.455952e-002	2.094872e-001	-6.646971e-002	2.095968e-001	-6.680877e-002	7.633316e-001	-1.060625e-001
6649340.000	7.716484e-001	-7.498642e-002	2.092221e-001	-6.699088e-002	2.094149e-001	-6.728173e-002	7.631931e-001	-1.068117e-001
6699335.000	7.714858e-001	-7.574413e-002	2.091386e-001	-6.745160e-002	2.092388e-001	-6.773916e-002	7.628715e-001	-1.076582e-001
6749330.000	7.713737e-001	-7.632132e-002	2.089627e-001	-6.793219e-002	2.090836e-001	-6.822662e-002	7.628066e-001	-1.084032e-001
6799325.000	7.713631e-001	-7.687075e-002	2.086811e-001	-6.841366e-002	2.088196e-001	-6.869919e-002	7.624376e-001	-1.090767e-001
6849320.000	7.710693e-001	-7.740015e-002	2.086096e-001	-6.896392e-002	2.086886e-001	-6.914936e-002	7.620035e-001	-1.099526e-001
6899315.000	7.710625e-001	-7.792056e-002	2.083585e-001	-6.938304e-002	2.085014e-001	-6.968098e-002	7.617521e-001	-1.106079e-001
6949310.000	7.707760e-001	-7.847976e-002	2.081787e-001	-6.990577e-002	2.083370e-001	-7.009155e-002	7.616217e-001	-1.112892e-001
6999305.000	7.709230e-001	-7.920261e-002	2.080501e-001	-7.034893e-002	2.080981e-001	-7.057647e-002	7.613548e-001	-1.119717e-001
7049300.000	7.707764e-001	-7.951135e-002	2.079012e-001	-7.085444e-002	2.079260e-001	-7.106079e-002	7.610854e-001	-1.129269e-001
7099295.000	7.707167e-001	-8.028358e-002	2.075961e-001	-7.128383e-002	2.077363e-001	-7.159417e-002	7.607172e-001	-1.136577e-001
7149290.000	7.705384e-001	-8.075817e-002	2.074880e-001	-7.170454e-002	2.074951e-001	-7.206382e-002	7.606889e-001	-1.143804e-001
7199285.000	7.703348e-001	-8.124418e-002	2.072887e-001	-7.225827e-002	2.073686e-001	-7.252804e-002	7.601917e-001	-1.150973e-001
7249280.000	7.701863e-001	-8.169365e-002	2.071010e-001	-7.272698e-002	2.071954e-001	-7.306310e-002	7.600410e-001	-1.157888e-001
7299275.000	7.701125e-001	-8.221092e-002	2.069267e-001	-7.319314e-002	2.069092e-001	-7.344479e-002	7.597410e-001	-1.166335e-001
7349270.000	7.698312e-001	-8.288764e-002	2.066408e-001	-7.363183e-002	2.067462e-001	-7.394609e-002	7.594332e-001	-1.173623e-001
7399265.000	7.697656e-001	-8.339314e-002	2.065705e-001	-7.419382e-002	2.066150e-001	-7.435180e-002	7.593356e-001	-1.181339e-001
7449260.000	7.697549e-001	-8.398428e-002	2.062744e-001	-7.464095e-002	2.064221e-001	-7.492930e-002	7.590714e-001	-1.187681e-001
7499255.000	7.695034e-001	-8.447190e-002	2.061174e-001	-7.514454e-002	2.061624e-001	-7.537118e-002	7.588039e-001	-1.195742e-001
7549250.000	7.693542e-001	-8.504086e-002	2.059546e-001	-7.560916e-002	2.059745e-001	-7.589237e-002	7.584051e-001	-1.201908e-001
7599245.000	7.691812e-001	-8.560303e-002	2.057016e-001	-7.601039e-002	2.057594e-001	-7.629477e-002	7.580656e-001	-1.209922e-001
7649240.000	7.689503e-001	-8.611249e-002	2.055293e-001	-7.650455e-002	2.056479e-001	-7.678416e-002	7.579449e-001	-1.216451e-001
7699235.000	7.690603e-001	-8.672575e-002	2.054303e-001	-7.699409e-002	2.055046e-001	-7.721916e-002	7.576251e-001	-1.225577e-001
