Time (s),VIN,IIN,VOUT
0.0,23.55912503168,1.3302875062400001,42.05575000256
5e-10,23.63725003648,1.3302875062400001,42.062000001920005
1e-09,23.809125047040002,1.3318500063360001,42.07450000064
1.5000000000000002e-09,23.934125054720003,1.3287250061440001,42.0651250016
2e-09,23.840375048960002,1.3256000059520001,42.040125004160004
2.5e-09,23.65287503744,1.3271625060480001,42.015125006720005
3.0000000000000004e-09,23.55912503168,1.3271625060480001,42.02137500608
3.5000000000000003e-09,23.69975004032,1.3287250061440001,42.02762500544
4e-09,23.840375048960002,1.3318500063360001,42.0338750048
4.500000000000001e-09,23.824750048000002,1.3318500063360001,42.046375003520005
5e-09,23.65287503744,1.3302875062400001,42.062000001920005
5.5000000000000004e-09,23.5122500288,1.3302875062400001,42.0651250016
6.000000000000001e-09,23.52787502976,1.3302875062400001,42.06825000128
6.5e-09,23.71537504128,1.3318500063360001,42.06825000128
7.000000000000001e-09,23.887250051840002,1.3287250061440001,42.06825000128
7.500000000000001e-09,23.824750048000002,1.3287250061440001,42.0651250016
8e-09,23.65287503744,1.3287250061440001,42.05887500224
8.5e-09,23.5903750336,1.3302875062400001,42.05262500288
9.000000000000001e-09,23.6685000384,1.3334125064320002,42.040125004160004
9.5e-09,23.793500046080002,1.3302875062400001,42.02762500544
1e-08,23.777875045120002,1.3256000059520001,42.015125006720005
1.0500000000000001e-08,23.5903750336,1.3271625060480001,42.01200000704
1.1000000000000001e-08,23.46537502592,1.3302875062400001,42.024500005760004
1.15e-08,23.54350003072,1.3334125064320002,42.02137500608
1.2000000000000002e-08,23.73100004224,1.3318500063360001,42.008875007360004
1.2500000000000001e-08,23.793500046080002,1.3302875062400001,42.00575000768
1.3e-08,23.73100004224,1.3302875062400001,42.0182500064
1.35e-08,23.62162503552,1.3318500063360001,42.040125004160004
1.4000000000000001e-08,23.65287503744,1.3302875062400001,42.040125004160004
1.45e-08,23.777875045120002,1.3287250061440001,42.03700000448
1.5000000000000002e-08,23.871625050880002,1.3271625060480001,42.0338750048
1.55e-08,23.793500046080002,1.3271625060480001,42.024500005760004
1.6e-08,23.60600003456,1.3302875062400001,42.01200000704
1.6500000000000002e-08,23.52787502976,1.3334125064320002,41.98075001024
1.7e-08,23.55912503168,1.3349750065280002,41.93700001472
1.75e-08,23.68412503936,1.3334125064320002,41.90262501824
1.8000000000000002e-08,23.69975004032,1.3287250061440001,41.90575001792
1.85e-08,23.60600003456,1.3287250061440001,41.9401250144
1.9e-08,23.49662502784,1.3287250061440001,41.98075001024
1.9500000000000003e-08,23.55912503168,1.3318500063360001,41.99637500864
2e-08,23.71537504128,1.3287250061440001,41.99637500864
2.05e-08,23.809125047040002,1.3318500063360001,42.015125006720005
2.1000000000000003e-08,23.76225004416,1.3334125064320002,42.0495000032
2.15e-08,23.65287503744,1.3334125064320002,42.05887500224
2.2000000000000002e-08,23.60600003456,1.3318500063360001,42.02137500608
2.2500000000000003e-08,23.65287503744,1.3318500063360001,41.962000012160004
2.3e-08,23.73100004224,1.3318500063360001,41.93387501504
2.3500000000000002e-08,23.71537504128,1.3318500063360001,41.93387501504
2.4000000000000003e-08,23.5903750336,1.3287250061440001,41.9401250144
2.45e-08,23.49662502784,1.3287250061440001,41.924500016
2.5000000000000002e-08,23.48100002688,1.3302875062400001,41.90575001792
2.55e-08,23.5903750336,1.3302875062400001,41.91200001728
2.6e-08,23.6685000384,1.3287250061440001,41.96825001152
2.6500000000000002e-08,23.69975004032,1.3302875062400001,42.02137500608
2.7e-08,23.6685000384,1.3302875062400001,42.0495000032
2.75e-08,23.68412503936,1.3287250061440001,42.0338750048
2.8000000000000003e-08,23.7466250432,1.3256000059520001,42.008875007360004
2.85e-08,23.793500046080002,1.324037505856,42.01200000704
2.9e-08,23.793500046080002,1.3287250061440001,42.01200000704
2.9500000000000003e-08,23.71537504128,1.3318500063360001,41.9870000096
3.0000000000000004e-08,23.62162503552,1.336537506624,41.93387501504
3.05e-08,23.5903750336,1.336537506624,41.88075002048
3.1e-08,23.55912503168,1.3349750065280002,41.862000022400004
3.1500000000000004e-08,23.55912503168,1.3349750065280002,41.88075002048
3.2e-08,23.60600003456,1.3318500063360001,41.92137501632
3.25e-08,23.68412503936,1.3334125064320002,41.94950001344
3.3000000000000004e-08,23.71537504128,1.336537506624,41.96825001152
3.35e-08,23.7466250432,1.3349750065280002,41.993250008960004
3.4e-08,23.71537504128,1.3349750065280002,42.0338750048
3.4500000000000005e-08,23.69975004032,1.3334125064320002,42.0651250016
3.5e-08,23.69975004032,1.3334125064320002,42.05575000256
3.55e-08,23.69975004032,1.3349750065280002,41.999500008320005
3.6000000000000005e-08,23.65287503744,1.3349750065280002,41.93700001472
3.65e-08,23.5903750336,1.3349750065280002,41.915125016960005
3.7e-08,23.57475003264,1.3318500063360001,41.924500016
3.7500000000000005e-08,23.5903750336,1.3287250061440001,41.9088750176
3.8e-08,23.63725003648,1.3302875062400001,41.87450002112
3.85e-08,23.69975004032,1.3318500063360001,41.85575002304
3.9000000000000005e-08,23.73100004224,1.3318500063360001,41.899500018560005
3.95e-08,23.71537504128,1.3318500063360001,41.97450001088
4e-08,23.68412503936,1.3302875062400001,42.046375003520005
4.0500000000000005e-08,23.69975004032,1.3334125064320002,42.062000001920005
4.1e-08,23.69975004032,1.33810000672,42.040125004160004
4.15e-08,23.71537504128,1.336537506624,42.00575000768
4.2000000000000006e-08,23.68412503936,1.3334125064320002,41.9870000096
4.2500000000000003e-08,23.62162503552,1.3334125064320002,41.977625010560004
4.3e-08,23.57475003264,1.3318500063360001,41.9557500128
4.3500000000000006e-08,23.62162503552,1.3334125064320002,41.90262501824
4.4000000000000004e-08,23.65287503744,1.3318500063360001,41.85575002304
4.45e-08,23.63725003648,1.3318500063360001,41.862000022400004
4.5000000000000006e-08,23.63725003648,1.3302875062400001,41.9088750176
4.5500000000000004e-08,23.62162503552,1.3302875062400001,41.93387501504
4.6e-08,23.63725003648,1.3302875062400001,41.924500016
4.6500000000000006e-08,23.68412503936,1.3318500063360001,41.9088750176
4.7000000000000004e-08,23.68412503936,1.3318500063360001,41.924500016
4.75e-08,23.65287503744,1.3318500063360001,41.9557500128
4.8000000000000006e-08,23.62162503552,1.3318500063360001,41.9713750112
4.8500000000000004e-08,23.69975004032,1.3349750065280002,41.94325001408
4.9e-08,23.71537504128,1.336537506624,41.89012501952
4.95e-08,23.71537504128,1.336537506624,41.852625023360005
5.0000000000000004e-08,23.65287503744,1.336537506624,41.846375024000004
5.05e-08,23.55912503168,1.3349750065280002,41.862000022400004
5.1e-08,23.5903750336,1.3334125064320002,41.862000022400004
5.1500000000000005e-08,23.68412503936,1.3334125064320002,41.837000024960005
5.2e-08,23.71537504128,1.3349750065280002,41.80575002816
5.25e-08,23.65287503744,1.3349750065280002,41.81200002752
5.3000000000000005e-08,23.5903750336,1.3334125064320002,41.86512502208
5.35e-08,23.55912503168,1.3349750065280002,41.915125016960005
5.4e-08,23.60600003456,1.3334125064320002,41.946375013760004
5.4500000000000005e-08,23.71537504128,1.3334125064320002,41.94950001344
5.5e-08,23.71537504128,1.3318500063360001,41.94950001344
5.55e-08,23.62162503552,1.3334125064320002,41.93387501504
5.6000000000000005e-08,23.57475003264,1.3302875062400001,41.92762501568
5.65e-08,23.60600003456,1.3256000059520001,41.915125016960005
5.7e-08,23.68412503936,1.3271625060480001,41.89012501952
5.7500000000000005e-08,23.7466250432,1.3287250061440001,41.852625023360005
5.8e-08,23.71537504128,1.3334125064320002,41.82137502656
5.85e-08,23.60600003456,1.3334125064320002,41.82137502656
5.9000000000000006e-08,23.55912503168,1.3318500063360001,41.846375024000004
5.9500000000000003e-08,23.62162503552,1.3318500063360001,41.877625020800004
6.000000000000001e-08,23.69975004032,1.3349750065280002,41.89637501888
6.05e-08,23.69975004032,1.33810000672,41.899500018560005
6.1e-08,23.62162503552,1.341225006912,41.89012501952
6.15e-08,23.54350003072,1.341225006912,41.89012501952
6.2e-08,23.57475003264,1.336537506624,41.9088750176
6.250000000000001e-08,23.69975004032,1.3349750065280002,41.91825001664
6.300000000000001e-08,23.793500046080002,1.3349750065280002,41.915125016960005
6.35e-08,23.76225004416,1.336537506624,41.88700001984
6.4e-08,23.62162503552,1.3349750065280002,41.87450002112
6.45e-08,23.52787502976,1.3349750065280002,41.883875020160005
6.5e-08,23.54350003072,1.3349750065280002,41.90575001792
6.55e-08,23.62162503552,1.3334125064320002,41.90262501824
6.600000000000001e-08,23.68412503936,1.3318500063360001,41.87450002112
6.65e-08,23.65287503744,1.3334125064320002,41.852625023360005
6.7e-08,23.55912503168,1.3349750065280002,41.877625020800004
6.75e-08,23.55912503168,1.3349750065280002,41.93387501504
6.8e-08,23.68412503936,1.3349750065280002,41.98387500992
6.85e-08,23.824750048000002,1.336537506624,41.99012500928
6.900000000000001e-08,23.856000049920002,1.33810000672,41.94950001344
6.950000000000001e-08,23.793500046080002,1.341225006912,41.92762501568
7e-08,23.68412503936,1.341225006912,41.9557500128
7.05e-08,23.63725003648,1.33810000672,41.98387500992
7.1e-08,23.69975004032,1.3349750065280002,41.96825001152
7.15e-08,23.71537504128,1.3349750065280002,41.91200001728
7.200000000000001e-08,23.6685000384,1.3334125064320002,41.87450002112
7.250000000000001e-08,23.55912503168,1.3334125064320002,41.89012501952
7.3e-08,23.48100002688,1.33810000672,41.93700001472
7.35e-08,23.54350003072,1.33810000672,41.9713750112
7.4e-08,23.68412503936,1.33810000672,41.96825001152
7.45e-08,23.777875045120002,1.341225006912,41.946375013760004
7.500000000000001e-08,23.76225004416,1.341225006912,41.946375013760004
7.550000000000001e-08,23.68412503936,1.33810000672,41.962000012160004
7.6e-08,23.68412503936,1.336537506624,41.9870000096
7.65e-08,23.793500046080002,1.3349750065280002,41.98387500992
7.7e-08,23.856000049920002,1.339662506816,41.94325001408
7.75e-08,23.824750048000002,1.33810000672,41.91825001664
7.800000000000001e-08,23.73100004224,1.339662506816,41.92762501568
7.850000000000001e-08,23.60600003456,1.339662506816,41.95887501248
7.9e-08,23.5903750336,1.336537506624,41.977625010560004
7.95e-08,23.69975004032,1.336537506624,41.9557500128
8e-08,23.76225004416,1.336537506624,41.930750015360005
8.05e-08,23.7466250432,1.339662506816,41.915125016960005
8.100000000000001e-08,23.63725003648,1.339662506816,41.924500016
8.150000000000001e-08,23.5903750336,1.3334125064320002,41.93387501504
8.2e-08,23.60600003456,1.3318500063360001,41.93387501504
8.25e-08,23.73100004224,1.33810000672,41.924500016
8.3e-08,23.777875045120002,1.339662506816,41.924500016
8.35e-08,23.71537504128,1.341225006912,41.93387501504
8.400000000000001e-08,23.62162503552,1.339662506816,41.95262501312
8.450000000000001e-08,23.5903750336,1.33810000672,41.96825001152
8.500000000000001e-08,23.6685000384,1.33810000672,41.96825001152
8.55e-08,23.777875045120002,1.336537506624,41.946375013760004
8.6e-08,23.793500046080002,1.336537506624,41.93387501504
8.65e-08,23.71537504128,1.336537506624,41.924500016
8.700000000000001e-08,23.60600003456,1.336537506624,41.930750015360005
8.750000000000001e-08,23.60600003456,1.339662506816,41.93387501504
8.800000000000001e-08,23.69975004032,1.339662506816,41.93387501504
8.85e-08,23.76225004416,1.341225006912,41.91825001664
8.9e-08,23.68412503936,1.342787507008,41.90262501824
8.95e-08,23.57475003264,1.342787507008,41.883875020160005
9.000000000000001e-08,23.52787502976,1.339662506816,41.88075002048
9.050000000000001e-08,23.62162503552,1.33810000672,41.88700001984
9.100000000000001e-08,23.73100004224,1.33810000672,41.89637501888
9.15e-08,23.7466250432,1.33810000672,41.89637501888
9.2e-08,23.65287503744,1.336537506624,41.8932500192
9.25e-08,23.5903750336,1.3349750065280002,41.91200001728
9.300000000000001e-08,23.60600003456,1.3349750065280002,41.95262501312
9.350000000000001e-08,23.68412503936,1.33810000672,41.98075001024
9.400000000000001e-08,23.73100004224,1.341225006912,41.9713750112
9.45e-08,23.6685000384,1.342787507008,41.93700001472
9.5e-08,23.55912503168,1.341225006912,41.915125016960005
9.55e-08,23.5122500288,1.342787507008,41.9088750176
9.600000000000001e-08,23.57475003264,1.339662506816,41.930750015360005
9.650000000000001e-08,23.6685000384,1.341225006912,41.93387501504
9.700000000000001e-08,23.69975004032,1.342787507008,41.92137501632
9.75e-08,23.69975004032,1.341225006912,41.91200001728
9.8e-08,23.63725003648,1.339662506816,41.93387501504
9.85e-08,23.6685000384,1.341225006912,41.98387500992
9.9e-08,23.7466250432,1.339662506816,42.02762500544
9.950000000000001e-08,23.777875045120002,1.336537506624,42.015125006720005
1.0000000000000001e-07,23.68412503936,1.3318500063360001,41.95887501248
1.005e-07,23.55912503168,1.3318500063360001,41.915125016960005
1.01e-07,23.54350003072,1.336537506624,41.92137501632
1.015e-07,23.5903750336,1.336537506624,41.94950001344
1.02e-07,23.68412503936,1.339662506816,41.962000012160004
1.0250000000000001e-07,23.65287503744,1.341225006912,41.94325001408
1.0300000000000001e-07,23.5903750336,1.339662506816,41.92137501632
1.0350000000000001e-07,23.55912503168,1.33810000672,41.915125016960005
1.04e-07,23.63725003648,1.339662506816,41.962000012160004
1.045e-07,23.76225004416,1.341225006912,42.01200000704
1.05e-07,23.824750048000002,1.344350007104,42.02762500544
1.0550000000000001e-07,23.809125047040002,1.339662506816,42.02137500608
1.0600000000000001e-07,23.71537504128,1.336537506624,42.00575000768
1.0650000000000001e-07,23.6685000384,1.336537506624,42.008875007360004
1.07e-07,23.69975004032,1.3349750065280002,42.024500005760004
1.075e-07,23.7466250432,1.336537506624,42.02762500544
1.08e-07,23.73100004224,1.33810000672,42.0338750048
1.0850000000000001e-07,23.62162503552,1.342787507008,42.0182500064
1.0900000000000001e-07,23.49662502784,1.339662506816,41.97450001088
1.0950000000000001e-07,23.46537502592,1.341225006912,41.930750015360005
1.1e-07,23.60600003456,1.341225006912,41.924500016
1.105e-07,23.777875045120002,1.344350007104,41.94325001408
1.11e-07,23.7466250432,1.341225006912,41.98075001024
1.1150000000000001e-07,23.62162503552,1.336537506624,41.99637500864
1.1200000000000001e-07,23.5903750336,1.3349750065280002,42.002625008
1.1250000000000001e-07,23.73100004224,1.3349750065280002,42.01200000704
1.13e-07,23.902875052800002,1.3349750065280002,42.0495000032
1.135e-07,23.949750055680003,1.3334125064320002,42.08075
1.14e-07,23.7466250432,1.3349750065280002,42.08387499968
1.1450000000000001e-07,23.49662502784,1.33810000672,42.04325000384
1.1500000000000001e-07,23.49662502784,1.33810000672,41.99012500928
1.1550000000000001e-07,23.68412503936,1.339662506816,41.95262501312
1.16e-07,23.809125047040002,1.339662506816,41.95262501312
1.165e-07,23.73100004224,1.341225006912,41.98387500992
1.17e-07,23.55912503168,1.339662506816,41.99637500864
1.1750000000000001e-07,23.49662502784,1.336537506624,41.977625010560004
1.1800000000000001e-07,23.63725003648,1.33810000672,41.95887501248
1.1850000000000001e-07,23.824750048000002,1.33810000672,41.96825001152
1.1900000000000001e-07,23.856000049920002,1.339662506816,42.02137500608
1.195e-07,23.68412503936,1.33810000672,42.062000001920005
1.2000000000000002e-07,23.57475003264,1.336537506624,42.040125004160004
1.205e-07,23.60600003456,1.3349750065280002,41.977625010560004
1.21e-07,23.73100004224,1.336537506624,41.946375013760004
1.215e-07,23.809125047040002,1.336537506624,41.95262501312
1.22e-07,23.6685000384,1.3349750065280002,41.98075001024
1.2250000000000002e-07,23.49662502784,1.3334125064320002,41.96512501184
1.23e-07,23.52787502976,1.3334125064320002,41.92137501632
1.2350000000000001e-07,23.777875045120002,1.336537506624,41.8932500192
1.24e-07,23.934125054720003,1.33810000672,41.9088750176
1.245e-07,23.824750048000002,1.339662506816,41.9713750112
1.2500000000000002e-07,23.5903750336,1.336537506624,42.00575000768
1.255e-07,23.48100002688,1.3349750065280002,41.98387500992
1.2600000000000002e-07,23.62162503552,1.336537506624,41.9557500128
1.265e-07,23.871625050880002,1.33810000672,41.9557500128
1.27e-07,23.918500053760003,1.339662506816,42.00575000768
1.275e-07,23.68412503936,1.339662506816,42.046375003520005
1.28e-07,23.434125024,1.3334125064320002,42.030750005120005
1.2850000000000002e-07,23.46537502592,1.3318500063360001,41.95887501248
1.29e-07,23.6685000384,1.3334125064320002,41.90575001792
1.2950000000000001e-07,23.840375048960002,1.3349750065280002,41.90575001792
1.3e-07,23.76225004416,1.3349750065280002,41.946375013760004
1.305e-07,23.5122500288,1.3334125064320002,41.977625010560004
1.31e-07,23.387250021120003,1.3287250061440001,41.96512501184
1.315e-07,23.57475003264,1.3302875062400001,41.92762501568
1.3200000000000002e-07,23.824750048000002,1.3318500063360001,41.93387501504
1.325e-07,23.918500053760003,1.3349750065280002,41.993250008960004
1.33e-07,23.73100004224,1.3334125064320002,42.0651250016
1.335e-07,23.54350003072,1.3349750065280002,42.077625000320005
1.34e-07,23.54350003072,1.3349750065280002,42.0338750048
1.3450000000000002e-07,23.73100004224,1.33810000672,41.98387500992
1.35e-07,23.887250051840002,1.339662506816,41.95887501248
1.3550000000000002e-07,23.793500046080002,1.339662506816,41.9557500128
1.36e-07,23.57475003264,1.33810000672,41.95887501248
1.365e-07,23.46537502592,1.3334125064320002,41.94325001408
1.37e-07,23.52787502976,1.3318500063360001,41.93387501504
1.375e-07,23.71537504128,1.3334125064320002,41.95262501312
1.3800000000000002e-07,23.809125047040002,1.3318500063360001,41.993250008960004
1.385e-07,23.71537504128,1.3318500063360001,42.0338750048
1.3900000000000001e-07,23.52787502976,1.3318500063360001,42.062000001920005
1.395e-07,23.52787502976,1.3349750065280002,42.062000001920005
1.4e-07,23.71537504128,1.336537506624,42.0651250016
1.4050000000000002e-07,23.902875052800002,1.3349750065280002,42.077625000320005
1.41e-07,23.887250051840002,1.3318500063360001,42.077625000320005
1.4150000000000002e-07,23.68412503936,1.3287250061440001,42.0651250016
1.42e-07,23.5122500288,1.3302875062400001,42.05575000256
1.425e-07,23.57475003264,1.3318500063360001,42.040125004160004
1.43e-07,23.76225004416,1.336537506624,42.02762500544
1.435e-07,23.856000049920002,1.3349750065280002,42.01200000704
1.4400000000000002e-07,23.7466250432,1.3302875062400001,42.008875007360004
1.445e-07,23.54350003072,1.3287250061440001,42.01200000704
1.4500000000000001e-07,23.46537502592,1.3302875062400001,42.02762500544
1.455e-07,23.62162503552,1.3349750065280002,42.046375003520005
1.46e-07,23.824750048000002,1.336537506624,42.062000001920005
1.4650000000000002e-07,23.840375048960002,1.339662506816,42.05887500224
1.47e-07,23.68412503936,1.3349750065280002,42.062000001920005
1.4750000000000002e-07,23.55912503168,1.3334125064320002,42.0651250016
1.48e-07,23.62162503552,1.3318500063360001,42.07137500096
1.485e-07,23.793500046080002,1.3318500063360001,42.08387499968
1.49e-07,23.934125054720003,1.3271625060480001,42.077625000320005
1.495e-07,23.824750048000002,1.3256000059520001,42.0495000032
1.5000000000000002e-07,23.63725003648,1.3271625060480001,42.02137500608
1.505e-07,23.55912503168,1.3287250061440001,42.0182500064
1.5100000000000002e-07,23.69975004032,1.3287250061440001,42.0338750048
1.515e-07,23.856000049920002,1.3287250061440001,42.04325000384
1.52e-07,23.824750048000002,1.324037505856,42.05887500224
1.5250000000000002e-07,23.6685000384,1.3256000059520001,42.07137500096
1.53e-07,23.5122500288,1.3302875062400001,42.077625000320005
1.5350000000000002e-07,23.54350003072,1.3334125064320002,42.077625000320005
1.54e-07,23.76225004416,1.3318500063360001,42.07450000064
1.5450000000000001e-07,23.918500053760003,1.3318500063360001,42.0651250016
1.55e-07,23.856000049920002,1.3287250061440001,42.06825000128
1.555e-07,23.68412503936,1.3287250061440001,42.062000001920005
1.5600000000000002e-07,23.5903750336,1.3302875062400001,42.05262500288
1.565e-07,23.68412503936,1.3318500063360001,42.04325000384
1.5700000000000002e-07,23.809125047040002,1.3302875062400001,42.030750005120005
