Time (s),VIN,IIN,VOUT
0.0,24.91550003456,1.528774995392,46.572500005120006
5e-10,24.85300003072,1.527212495296,46.57875000448
1e-09,24.77487502592,1.524087495104,46.6068750016
1.5000000000000002e-09,24.79050002688,1.527212495296,46.67249999488
2e-09,24.86862503168,1.524087495104,46.744374987520004
2.5e-09,24.93112503552,1.524087495104,46.775624984320004
3.0000000000000004e-09,24.8998750336,1.5256499952,46.75374998656
3.5000000000000003e-09,24.80612502784,1.527212495296,46.7162499904
4e-09,24.79050002688,1.527212495296,46.67874999424
4.500000000000001e-09,24.79050002688,1.527212495296,46.64124999808
5e-09,24.88425003264,1.524087495104,46.613125000960004
5.5000000000000004e-09,24.91550003456,1.522524995008,46.5912500032
6.000000000000001e-09,24.86862503168,1.5256499952,46.603750001920005
6.5e-09,24.79050002688,1.528774995392,46.634999998720005
7.000000000000001e-09,24.79050002688,1.527212495296,46.63187499904
7.500000000000001e-09,24.85300003072,1.527212495296,46.60062500224
8e-09,24.93112503552,1.5256499952,46.56312500608
8.5e-09,24.93112503552,1.527212495296,46.556875006720006
9.000000000000001e-09,24.85300003072,1.528774995392,46.588125003520005
9.5e-09,24.79050002688,1.530337495488,46.650624997120005
1e-08,24.80612502784,1.531899995584,46.68812499328
1.0500000000000001e-08,24.86862503168,1.530337495488,46.67562499456
1.1000000000000001e-08,24.8998750336,1.527212495296,46.6068750016
1.15e-08,24.88425003264,1.524087495104,46.53812500864
1.2000000000000002e-08,24.8217500288,1.524087495104,46.51625001088
1.2500000000000001e-08,24.75925002496,1.527212495296,46.550625007360004
1.3e-08,24.80612502784,1.527212495296,46.597500002560004
1.35e-08,24.88425003264,1.5256499952,46.603750001920005
1.4000000000000001e-08,24.8998750336,1.527212495296,46.5756250048
1.45e-08,24.83737502976,1.528774995392,46.56937500544
1.5000000000000002e-08,24.80612502784,1.530337495488,46.6068750016
1.55e-08,24.80612502784,1.528774995392,46.67249999488
1.6e-08,24.85300003072,1.528774995392,46.7162499904
1.6500000000000002e-08,24.88425003264,1.531899995584,46.700624992
1.7e-08,24.86862503168,1.53346249568,46.64437499776
1.75e-08,24.83737502976,1.531899995584,46.61000000128
1.8000000000000002e-08,24.80612502784,1.530337495488,46.61000000128
1.85e-08,24.8217500288,1.531899995584,46.62562499968
1.9e-08,24.85300003072,1.53346249568,46.597500002560004
1.9500000000000003e-08,24.86862503168,1.531899995584,46.550625007360004
2e-08,24.83737502976,1.530337495488,46.5131250112
2.05e-08,24.80612502784,1.531899995584,46.53187500928
2.1000000000000003e-08,24.83737502976,1.530337495488,46.581875004160004
2.15e-08,24.85300003072,1.531899995584,46.62562499968
2.2000000000000002e-08,24.86862503168,1.531899995584,46.61625000064
2.2500000000000003e-08,24.8217500288,1.530337495488,46.603750001920005
2.3e-08,24.83737502976,1.530337495488,46.60062500224
2.3500000000000002e-08,24.83737502976,1.531899995584,46.6381249984
2.4000000000000003e-08,24.83737502976,1.53346249568,46.68812499328
2.45e-08,24.85300003072,1.535024995776,46.70374999168
2.5000000000000002e-08,24.85300003072,1.535024995776,46.666249995520005
2.55e-08,24.83737502976,1.53346249568,46.61625000064
2.6e-08,24.83737502976,1.531899995584,46.5912500032
2.6500000000000002e-08,24.83737502976,1.53346249568,46.60062500224
2.7e-08,24.8217500288,1.53346249568,46.6068750016
2.75e-08,24.8217500288,1.53346249568,46.5912500032
2.8000000000000003e-08,24.83737502976,1.53346249568,46.54750000768
2.85e-08,24.8217500288,1.53346249568,46.51625001088
2.9e-08,24.85300003072,1.53346249568,46.519375010560005
2.9500000000000003e-08,24.8217500288,1.531899995584,46.55375000704
3.0000000000000004e-08,24.80612502784,1.53346249568,46.588125003520005
3.05e-08,24.75925002496,1.53346249568,46.619375000320005
3.1e-08,24.80612502784,1.53346249568,46.62562499968
3.1500000000000004e-08,24.86862503168,1.531899995584,46.6381249984
3.2e-08,24.88425003264,1.531899995584,46.6693749952
3.25e-08,24.85300003072,1.535024995776,46.69437499264
3.3000000000000004e-08,24.77487502592,1.535024995776,46.681874993920005
3.35e-08,24.75925002496,1.535024995776,46.64124999808
3.4e-08,24.8217500288,1.531899995584,46.597500002560004
3.4500000000000005e-08,24.86862503168,1.531899995584,46.57875000448
3.5e-08,24.86862503168,1.531899995584,46.5756250048
3.55e-08,24.80612502784,1.528774995392,46.56937500544
3.6000000000000005e-08,24.77487502592,1.527212495296,46.55375000704
3.65e-08,24.743625024,1.530337495488,46.53187500928
3.7e-08,24.80612502784,1.531899995584,46.541250008320006
3.7500000000000005e-08,24.85300003072,1.53346249568,46.56312500608
3.8e-08,24.86862503168,1.536587495872,46.597500002560004
3.85e-08,24.8217500288,1.5397124960639998,46.63187499904
3.9000000000000005e-08,24.77487502592,1.5381499959679998,46.63187499904
3.95e-08,24.75925002496,1.535024995776,46.61625000064
4e-08,24.79050002688,1.536587495872,46.619375000320005
4.0500000000000005e-08,24.85300003072,1.5381499959679998,46.634999998720005
4.1e-08,24.86862503168,1.536587495872,46.6381249984
4.15e-08,24.83737502976,1.536587495872,46.619375000320005
4.2000000000000006e-08,24.77487502592,1.535024995776,46.5912500032
4.2500000000000003e-08,24.75925002496,1.535024995776,46.5912500032
4.3e-08,24.79050002688,1.53346249568,46.619375000320005
4.3500000000000006e-08,24.8217500288,1.53346249568,46.65999999616
4.4000000000000004e-08,24.8217500288,1.53346249568,46.6381249984
4.45e-08,24.743625024,1.53346249568,46.5756250048
4.5000000000000006e-08,24.72800002304,1.530337495488,46.52562500992
4.5500000000000004e-08,24.77487502592,1.530337495488,46.535000008960004
4.6e-08,24.86862503168,1.53346249568,46.581875004160004
4.6500000000000006e-08,24.88425003264,1.531899995584,46.61625000064
4.7000000000000004e-08,24.80612502784,1.531899995584,46.59437500288
4.75e-08,24.71237502208,1.531899995584,46.54750000768
4.8000000000000006e-08,24.743625024,1.53346249568,46.541250008320006
4.8500000000000004e-08,24.83737502976,1.53346249568,46.59437500288
4.9e-08,24.91550003456,1.530337495488,46.6537499968
4.95e-08,24.88425003264,1.531899995584,46.67874999424
5.0000000000000004e-08,24.77487502592,1.531899995584,46.6537499968
5.05e-08,24.696750021120003,1.530337495488,46.62562499968
5.1e-08,24.743625024,1.530337495488,46.61625000064
5.1500000000000005e-08,24.85300003072,1.53346249568,46.634999998720005
5.2e-08,24.86862503168,1.536587495872,46.6225
5.25e-08,24.80612502784,1.536587495872,46.56937500544
5.3000000000000005e-08,24.743625024,1.535024995776,46.51625001088
5.35e-08,24.72800002304,1.535024995776,46.50687501184
5.4e-08,24.80612502784,1.535024995776,46.535000008960004
5.4500000000000005e-08,24.83737502976,1.535024995776,46.556875006720006
5.5e-08,24.83737502976,1.53346249568,46.541250008320006
5.55e-08,24.77487502592,1.535024995776,46.519375010560005
5.6000000000000005e-08,24.75925002496,1.535024995776,46.544375008
5.65e-08,24.79050002688,1.535024995776,46.62562499968
5.7e-08,24.8217500288,1.535024995776,46.69437499264
5.7500000000000005e-08,24.85300003072,1.535024995776,46.697499992320004
5.8e-08,24.8217500288,1.53346249568,46.64437499776
5.85e-08,24.77487502592,1.536587495872,46.61625000064
5.9000000000000006e-08,24.77487502592,1.5412749961599999,46.6225
5.9500000000000003e-08,24.79050002688,1.5397124960639998,46.650624997120005
6.000000000000001e-08,24.8217500288,1.5397124960639998,46.63187499904
6.05e-08,24.79050002688,1.5397124960639998,46.56312500608
6.1e-08,24.77487502592,1.5381499959679998,46.503750012160005
6.15e-08,24.77487502592,1.536587495872,46.4975000128
6.2e-08,24.79050002688,1.5381499959679998,46.519375010560005
6.250000000000001e-08,24.80612502784,1.5381499959679998,46.541250008320006
6.300000000000001e-08,24.80612502784,1.53346249568,46.52562500992
6.35e-08,24.80612502784,1.528774995392,46.5131250112
6.4e-08,24.80612502784,1.528774995392,46.550625007360004
6.45e-08,24.8217500288,1.53346249568,46.61625000064
6.5e-08,24.80612502784,1.53346249568,46.666249995520005
6.55e-08,24.8217500288,1.536587495872,46.67249999488
6.600000000000001e-08,24.80612502784,1.536587495872,46.64124999808
6.65e-08,24.79050002688,1.5381499959679998,46.628749999360004
6.7e-08,24.77487502592,1.536587495872,46.63187499904
6.75e-08,24.79050002688,1.535024995776,46.6537499968
6.8e-08,24.80612502784,1.53346249568,46.6537499968
6.85e-08,24.79050002688,1.535024995776,46.61625000064
6.900000000000001e-08,24.80612502784,1.53346249568,46.5600000064
6.950000000000001e-08,24.80612502784,1.53346249568,46.51000001152
7e-08,24.8217500288,1.535024995776,46.50687501184
7.05e-08,24.8217500288,1.536587495872,46.556875006720006
7.1e-08,24.8217500288,1.536587495872,46.6068750016
7.15e-08,24.79050002688,1.535024995776,46.63187499904
7.200000000000001e-08,24.75925002496,1.531899995584,46.628749999360004
7.250000000000001e-08,24.79050002688,1.53346249568,46.62562499968
7.3e-08,24.79050002688,1.535024995776,46.65687499648
7.35e-08,24.79050002688,1.536587495872,46.70687499136
7.4e-08,24.79050002688,1.536587495872,46.7162499904
7.45e-08,24.79050002688,1.535024995776,46.67562499456
7.500000000000001e-08,24.77487502592,1.53346249568,46.59437500288
7.550000000000001e-08,24.80612502784,1.535024995776,46.55375000704
7.6e-08,24.85300003072,1.5381499959679998,46.5600000064
7.65e-08,24.85300003072,1.536587495872,46.59437500288
7.7e-08,24.83737502976,1.53346249568,46.60062500224
7.75e-08,24.80612502784,1.53346249568,46.588125003520005
7.800000000000001e-08,24.79050002688,1.53346249568,46.58500000384
7.850000000000001e-08,24.79050002688,1.535024995776,46.6381249984
7.9e-08,24.8217500288,1.53346249568,46.70687499136
7.95e-08,24.79050002688,1.531899995584,46.75687498624
8e-08,24.75925002496,1.535024995776,46.75687498624
8.05e-08,24.77487502592,1.536587495872,46.7318749888
8.100000000000001e-08,24.77487502592,1.5381499959679998,46.697499992320004
8.150000000000001e-08,24.8217500288,1.5381499959679998,46.66312499584
8.2e-08,24.86862503168,1.5381499959679998,46.628749999360004
8.25e-08,24.8217500288,1.5381499959679998,46.59437500288
8.3e-08,24.72800002304,1.535024995776,46.550625007360004
8.35e-08,24.71237502208,1.535024995776,46.53812500864
8.400000000000001e-08,24.79050002688,1.536587495872,46.535000008960004
8.450000000000001e-08,24.85300003072,1.536587495872,46.53187500928
8.500000000000001e-08,24.85300003072,1.53346249568,46.5131250112
8.55e-08,24.79050002688,1.530337495488,46.51000001152
8.6e-08,24.75925002496,1.528774995392,46.535000008960004
8.65e-08,24.75925002496,1.531899995584,46.58500000384
8.700000000000001e-08,24.8217500288,1.531899995584,46.6225
8.750000000000001e-08,24.8217500288,1.530337495488,46.628749999360004
8.800000000000001e-08,24.80612502784,1.530337495488,46.64437499776
8.85e-08,24.80612502784,1.530337495488,46.6849999936
8.9e-08,24.77487502592,1.528774995392,46.72562498944
8.95e-08,24.79050002688,1.530337495488,46.72562498944
9.000000000000001e-08,24.79050002688,1.535024995776,46.6849999936
9.050000000000001e-08,24.79050002688,1.53346249568,46.6381249984
9.100000000000001e-08,24.79050002688,1.531899995584,46.6225
9.15e-08,24.80612502784,1.531899995584,46.64749999744
9.2e-08,24.79050002688,1.530337495488,46.650624997120005
9.25e-08,24.79050002688,1.53346249568,46.603750001920005
9.300000000000001e-08,24.80612502784,1.528774995392,46.52250001024
9.350000000000001e-08,24.8217500288,1.527212495296,46.47562501504
9.400000000000001e-08,24.83737502976,1.528774995392,46.49437501312
9.45e-08,24.79050002688,1.531899995584,46.535000008960004
9.5e-08,24.80612502784,1.53346249568,46.53812500864
9.55e-08,24.79050002688,1.530337495488,46.51625001088
9.600000000000001e-08,24.79050002688,1.531899995584,46.519375010560005
9.650000000000001e-08,24.8217500288,1.53346249568,46.5756250048
9.700000000000001e-08,24.80612502784,1.53346249568,46.666249995520005
9.75e-08,24.79050002688,1.531899995584,46.7474999872
9.8e-08,24.77487502592,1.531899995584,46.76937498496
9.85e-08,24.79050002688,1.531899995584,46.734999988480006
9.9e-08,24.79050002688,1.528774995392,46.666249995520005
9.950000000000001e-08,24.8217500288,1.528774995392,46.650624997120005
1.0000000000000001e-07,24.83737502976,1.530337495488,46.6693749952
1.005e-07,24.80612502784,1.531899995584,46.67562499456
1.01e-07,24.79050002688,1.528774995392,46.628749999360004
1.015e-07,24.79050002688,1.527212495296,46.541250008320006
1.02e-07,24.8217500288,1.528774995392,46.46312501632
1.0250000000000001e-07,24.85300003072,1.527212495296,46.450625017600004
1.0300000000000001e-07,24.86862503168,1.530337495488,46.4818750144
1.0350000000000001e-07,24.86862503168,1.528774995392,46.52250001024
1.04e-07,24.83737502976,1.528774995392,46.53812500864
1.045e-07,24.80612502784,1.528774995392,46.541250008320006
1.05e-07,24.743625024,1.528774995392,46.556875006720006
1.0550000000000001e-07,24.72800002304,1.530337495488,46.6068750016
1.0600000000000001e-07,24.75925002496,1.528774995392,46.66312499584
1.0650000000000001e-07,24.85300003072,1.5256499952,46.70687499136
1.07e-07,24.93112503552,1.524087495104,46.70374999168
1.075e-07,24.94675003648,1.527212495296,46.6849999936
1.08e-07,24.86862503168,1.530337495488,46.6693749952
1.0850000000000001e-07,24.72800002304,1.535024995776,46.67562499456
1.0900000000000001e-07,24.665500019200003,1.53346249568,46.67562499456
1.0950000000000001e-07,24.696750021120003,1.530337495488,46.64749999744
1.1e-07,24.86862503168,1.528774995392,46.59437500288
1.105e-07,25.02487504128,1.5256499952,46.544375008
1.11e-07,25.04050004224,1.524087495104,46.50687501184
1.1150000000000001e-07,24.86862503168,1.524087495104,46.49125001344
1.1200000000000001e-07,24.649875018240003,1.5256499952,46.488125013760005
1.1250000000000001e-07,24.603000015360003,1.528774995392,46.49437501312
1.13e-07,24.77487502592,1.528774995392,46.51625001088
1.135e-07,25.00925004032,1.528774995392,46.544375008
1.14e-07,25.08737504512,1.5256499952,46.56312500608
1.1450000000000001e-07,24.91550003456,1.527212495296,46.60062500224
1.1500000000000001e-07,24.665500019200003,1.528774995392,46.64437499776
1.1550000000000001e-07,24.587375014400003,1.528774995392,46.70374999168
1.16e-07,24.77487502592,1.527212495296,46.72249998976
1.165e-07,25.00925004032,1.5256499952,46.697499992320004
1.17e-07,25.118625047040002,1.520962494912,46.65687499648
1.1750000000000001e-07,24.91550003456,1.520962494912,46.62562499968
1.1800000000000001e-07,24.665500019200003,1.522524995008,46.61625000064
1.1850000000000001e-07,24.603000015360003,1.522524995008,46.63187499904
1.1900000000000001e-07,24.80612502784,1.524087495104,46.6225
1.195e-07,25.02487504128,1.522524995008,46.572500005120006
1.2000000000000002e-07,25.04050004224,1.524087495104,46.49125001344
1.205e-07,24.85300003072,1.5256499952,46.44437501824
1.21e-07,24.681125020160003,1.5256499952,46.47562501504
1.215e-07,24.71237502208,1.522524995008,46.556875006720006
1.22e-07,24.86862503168,1.524087495104,46.603750001920005
1.2250000000000002e-07,24.9780000384,1.5256499952,46.588125003520005
1.23e-07,24.93112503552,1.527212495296,46.535000008960004
1.2350000000000001e-07,24.80612502784,1.5256499952,46.53187500928
1.24e-07,24.77487502592,1.5256499952,46.588125003520005
1.245e-07,24.83737502976,1.527212495296,46.65999999616
1.2500000000000002e-07,24.93112503552,1.527212495296,46.6849999936
1.255e-07,24.91550003456,1.527212495296,46.65687499648
1.2600000000000002e-07,24.83737502976,1.5256499952,46.62562499968
1.265e-07,24.77487502592,1.5256499952,46.63187499904
1.27e-07,24.83737502976,1.5256499952,46.65687499648
1.275e-07,24.93112503552,1.5256499952,46.65999999616
1.28e-07,24.93112503552,1.520962494912,46.613125000960004
1.2850000000000002e-07,24.83737502976,1.519399994816,46.535000008960004
1.29e-07,24.743625024,1.520962494912,46.49437501312
1.2950000000000001e-07,24.75925002496,1.5256499952,46.51000001152
1.3e-07,24.88425003264,1.527212495296,46.556875006720006
1.305e-07,24.94675003648,1.527212495296,46.56937500544
1.31e-07,24.8998750336,1.527212495296,46.5287500096
1.315e-07,24.80612502784,1.524087495104,46.488125013760005
1.3200000000000002e-07,24.79050002688,1.520962494912,46.4975000128
1.325e-07,24.8217500288,1.524087495104,46.5756250048
1.33e-07,24.91550003456,1.524087495104,46.65999999616
1.335e-07,24.91550003456,1.5256499952,46.68812499328
1.34e-07,24.85300003072,1.524087495104,46.64749999744
1.3450000000000002e-07,24.79050002688,1.522524995008,46.603750001920005
1.35e-07,24.80612502784,1.522524995008,46.597500002560004
1.3550000000000002e-07,24.86862503168,1.522524995008,46.634999998720005
1.36e-07,24.93112503552,1.524087495104,46.67874999424
1.365e-07,24.91550003456,1.5256499952,46.65999999616
1.37e-07,24.80612502784,1.520962494912,46.58500000384
1.375e-07,24.77487502592,1.522524995008,46.52250001024
1.3800000000000002e-07,24.83737502976,1.524087495104,46.503750012160005
1.385e-07,24.91550003456,1.528774995392,46.53187500928
1.3900000000000001e-07,24.91550003456,1.530337495488,46.541250008320006
1.395e-07,24.85300003072,1.528774995392,46.53812500864
1.4e-07,24.80612502784,1.528774995392,46.535000008960004
1.4050000000000002e-07,24.79050002688,1.527212495296,46.55375000704
1.41e-07,24.88425003264,1.524087495104,46.581875004160004
1.4150000000000002e-07,24.91550003456,1.5256499952,46.613125000960004
1.42e-07,24.91550003456,1.524087495104,46.634999998720005
1.425e-07,24.8217500288,1.524087495104,46.67249999488
1.43e-07,24.79050002688,1.522524995008,46.70999999104
1.435e-07,24.80612502784,1.5256499952,46.728749989120004
1.4400000000000002e-07,24.86862503168,1.527212495296,46.70374999168
1.445e-07,24.91550003456,1.528774995392,46.64124999808
1.4500000000000001e-07,24.85300003072,1.524087495104,46.572500005120006
1.455e-07,24.80612502784,1.522524995008,46.52250001024
1.46e-07,24.77487502592,1.520962494912,46.51000001152
1.4650000000000002e-07,24.83737502976,1.520962494912,46.53812500864
1.47e-07,24.8998750336,1.519399994816,46.56312500608
1.4750000000000002e-07,24.91550003456,1.520962494912,46.572500005120006
1.48e-07,24.86862503168,1.520962494912,46.5756250048
1.485e-07,24.79050002688,1.522524995008,46.603750001920005
1.49e-07,24.80612502784,1.522524995008,46.6693749952
1.495e-07,24.85300003072,1.520962494912,46.74124998784
1.5000000000000002e-07,24.93112503552,1.524087495104,46.76937498496
1.505e-07,24.8998750336,1.5256499952,46.750624986880005
1.5100000000000002e-07,24.8217500288,1.528774995392,46.713124990720004
1.515e-07,24.79050002688,1.527212495296,46.67562499456
1.52e-07,24.80612502784,1.5256499952,46.64437499776
1.5250000000000002e-07,24.88425003264,1.527212495296,46.619375000320005
1.53e-07,24.91550003456,1.527212495296,46.5912500032
1.5350000000000002e-07,24.85300003072,1.5256499952,46.603750001920005
1.54e-07,24.79050002688,1.5256499952,46.62562499968
1.5450000000000001e-07,24.77487502592,1.527212495296,46.634999998720005
1.55e-07,24.88425003264,1.528774995392,46.603750001920005
1.555e-07,24.94675003648,1.527212495296,46.566250005760004
1.5600000000000002e-07,24.94675003648,1.527212495296,46.55375000704
1.565e-07,24.83737502976,1.527212495296,46.5912500032
1.5700000000000002e-07,24.77487502592,1.528774995392,46.6537499968
1.575e-07,24.80612502784,1.531899995584,46.69124999296
1.58e-07,24.8998750336,1.531899995584,46.666249995520005
1.5850000000000002e-07,24.8998750336,1.527212495296,46.6068750016
1.59e-07,24.86862503168,1.524087495104,46.541250008320006
1.5950000000000002e-07,24.80612502784,1.5256499952,46.519375010560005
1.6e-07,24.75925002496,1.5256499952,46.55375000704
1.6050000000000001e-07,24.8217500288,1.527212495296,46.597500002560004
1.61e-07,24.88425003264,1.528774995392,46.603750001920005
1.615e-07,24.91550003456,1.530337495488,46.57875000448
1.6200000000000002e-07,24.85300003072,1.527212495296,46.566250005760004
1.625e-07,24.8217500288,1.527212495296,46.6068750016
1.6300000000000002e-07,24.80612502784,1.528774995392,46.67562499456
1.635e-07,24.86862503168,1.530337495488,46.719374990080006
1.64e-07,24.8998750336,1.530337495488,46.697499992320004
1.645e-07,24.86862503168,1.530337495488,46.6381249984
1.65e-07,24.85300003072,1.530337495488,46.613125000960004
