"# Channel 1"
"# Trace 2"
Frequency, Formatted Data, Formatted Data
+5.00000000000E+004, +5.43435450142E-003, +1.35757745143E-004
+5.19950000000E+004, +5.44076146173E-003, +1.13252820427E-004
+5.39900000000E+004, +5.43887434764E-003, +1.08121359234E-004
+5.59850000000E+004, +5.44575510807E-003, +1.10281392409E-004
+5.79800000000E+004, +5.44304837250E-003, +1.08618033480E-004
+5.99750000000E+004, +5.44669048653E-003, +1.11287299678E-004
+6.19700000000E+004, +5.44802906219E-003, +1.15396986207E-004
+6.39650000000E+004, +5.44638008707E-003, +1.10855470630E-004
+6.59600000000E+004, +5.44976763551E-003, +1.06501455877E-004
+6.79550000000E+004, +5.45179145210E-003, +1.08812759172E-004
+6.99500000000E+004, +5.45649522134E-003, +1.10124461995E-004
+7.19450000000E+004, +5.45742837705E-003, +1.12663561633E-004
+7.39400000000E+004, +5.45644973470E-003, +1.06583828218E-004
+7.59350000000E+004, +5.45680303693E-003, +1.14749129989E-004
+7.79300000000E+004, +5.45646587297E-003, +1.12162892805E-004
+7.99250000000E+004, +5.45674477907E-003, +1.09702877817E-004
+8.19200000000E+004, +5.46112444574E-003, +1.12389617596E-004
+8.39150000000E+004, +5.45750394210E-003, +1.13608105520E-004
+8.59100000000E+004, +5.45905840173E-003, +1.13424489468E-004
+8.79050000000E+004, +5.45967532765E-003, +1.16010111047E-004
+8.99000000000E+004, +5.46117886728E-003, +1.14326324260E-004
+9.18950000000E+004, +5.45999771459E-003, +1.17478313778E-004
+9.38900000000E+004, +5.46069848010E-003, +1.19452999513E-004
+9.58850000000E+004, +5.46281902949E-003, +1.14603699474E-004
+9.78800000000E+004, +5.45989989136E-003, +1.17053003219E-004
+9.98750000000E+004, +5.46094680441E-003, +1.20033857592E-004
+1.01870000000E+005, +5.46308930180E-003, +1.20058381769E-004
+1.03865000000E+005, +5.46481429942E-003, +1.18372176090E-004
+1.05860000000E+005, +5.46250847314E-003, +1.21295710536E-004
+1.07855000000E+005, +5.46492402309E-003, +1.23048269702E-004
+1.09850000000E+005, +5.46258385374E-003, +1.24821894504E-004
+1.11845000000E+005, +5.46389039128E-003, +1.24092666235E-004
+1.13840000000E+005, +5.46342827414E-003, +1.24938062410E-004
+1.15835000000E+005, +5.46606507264E-003, +1.26850273710E-004
+1.17830000000E+005, +5.46348633228E-003, +1.25155726693E-004
+1.19825000000E+005, +5.46545369870E-003, +1.29678434477E-004
+1.21820000000E+005, +5.46532252856E-003, +1.30552818246E-004
+1.23815000000E+005, +5.46349031801E-003, +1.31488348167E-004
+1.25810000000E+005, +5.46481696388E-003, +1.28359200363E-004
+1.27805000000E+005, +5.46583343987E-003, +1.33390086525E-004
+1.29800000000E+005, +5.46641431382E-003, +1.31764915983E-004
+1.31795000000E+005, +5.46519806155E-003, +1.32794317899E-004
+1.33790000000E+005, +5.46578558085E-003, +1.36687200262E-004
+1.35785000000E+005, +5.46364392446E-003, +1.38756360379E-004
+1.37780000000E+005, +5.46454090850E-003, +1.36932588495E-004
+1.39775000000E+005, +5.46514835177E-003, +1.40837963282E-004
+1.41770000000E+005, +5.46436651192E-003, +1.43128493737E-004
+1.43765000000E+005, +5.46747399259E-003, +1.42787404751E-004
+1.45760000000E+005, +5.46500299750E-003, +1.44791764207E-004
+1.47755000000E+005, +5.46165891651E-003, +1.45594565597E-004
+1.49750000000E+005, +5.46478164317E-003, +1.45118736917E-004
+1.51745000000E+005, +5.46501804961E-003, +1.45998444403E-004
+1.53740000000E+005, +5.46269690339E-003, +1.46775871411E-004
+1.55735000000E+005, +5.46410676410E-003, +1.50249636642E-004
+1.57730000000E+005, +5.46650041209E-003, +1.51771548452E-004
+1.59725000000E+005, +5.46758847649E-003, +1.52902225430E-004
+1.61720000000E+005, +5.46520688596E-003, +1.53498472289E-004
+1.63715000000E+005, +5.46639617771E-003, +1.54566386500E-004
+1.65710000000E+005, +5.46335105574E-003, +1.55645108314E-004
+1.67705000000E+005, +5.46325181663E-003, +1.54119239732E-004
+1.69700000000E+005, +5.46380865119E-003, +1.58539890104E-004
+1.71695000000E+005, +5.46567259789E-003, +1.59234430957E-004
+1.73690000000E+005, +5.46563953912E-003, +1.60733346412E-004
+1.75685000000E+005, +5.46453382679E-003, +1.62494769343E-004
+1.77680000000E+005, +5.46487550428E-003, +1.64479864339E-004
+1.79675000000E+005, +5.46517766779E-003, +1.67757899557E-004
+1.81670000000E+005, +5.46568444623E-003, +1.66564530134E-004
+1.83665000000E+005, +5.46383227715E-003, +1.68764913530E-004
+1.85660000000E+005, +5.46348316365E-003, +1.70973095672E-004
+1.87655000000E+005, +5.46235206218E-003, +1.71622019338E-004
+1.89650000000E+005, +5.46331528693E-003, +1.76350045479E-004
+1.91645000000E+005, +5.46251174884E-003, +1.74224434653E-004
+1.93640000000E+005, +5.46273331349E-003, +1.75434812006E-004
+1.95635000000E+005, +5.46286212947E-003, +1.75947002817E-004
+1.97630000000E+005, +5.46319570002E-003, +1.79169758270E-004
+1.99625000000E+005, +5.46154555366E-003, +1.80156485709E-004
+2.01620000000E+005, +5.46347362418E-003, +1.79836124733E-004
+2.03615000000E+005, +5.46288229391E-003, +1.82231209991E-004
+2.05610000000E+005, +5.46308268380E-003, +1.83292345864E-004
+2.07605000000E+005, +5.46369901922E-003, +1.84715602720E-004
+2.09600000000E+005, +5.46315619563E-003, +1.85382402755E-004
+2.11595000000E+005, +5.46142672869E-003, +1.89667769711E-004
+2.13590000000E+005, +5.46058048416E-003, +1.89555400811E-004
+2.15585000000E+005, +5.46483378160E-003, +1.90136542189E-004
+2.17580000000E+005, +5.46187194180E-003, +1.89997427211E-004
+2.19575000000E+005, +5.46199759535E-003, +1.93542134395E-004
+2.21570000000E+005, +5.46154841088E-003, +1.94305736403E-004
+2.23565000000E+005, +5.46121691912E-003, +1.96065049189E-004
+2.25560000000E+005, +5.46176733588E-003, +1.99043515391E-004
+2.27555000000E+005, +5.46106283322E-003, +2.00280828679E-004
+2.29550000000E+005, +5.46044054353E-003, +1.99710157226E-004
+2.31545000000E+005, +5.46066141564E-003, +2.01146742618E-004
+2.33540000000E+005, +5.46033270948E-003, +2.04428163580E-004
+2.35535000000E+005, +5.46104926173E-003, +2.04370491401E-004
+2.37530000000E+005, +5.46070994401E-003, +2.07606976783E-004
+2.39525000000E+005, +5.45970122417E-003, +2.08252942256E-004
+2.41520000000E+005, +5.46040685902E-003, +2.08659875332E-004
+2.43515000000E+005, +5.45959148550E-003, +2.10686819657E-004
+2.45510000000E+005, +5.46058365673E-003, +2.14531934183E-004
+2.47505000000E+005, +5.45997981884E-003, +2.13627976944E-004
+2.49500000000E+005, +5.45993976240E-003, +2.15485631925E-004
+2.51495000000E+005, +5.45934051121E-003, +2.17087319468E-004
+2.53490000000E+005, +5.46089336058E-003, +2.19007390714E-004
+2.55485000000E+005, +5.46077138855E-003, +2.17712880462E-004
+2.57480000000E+005, +5.46112320752E-003, +2.23272343219E-004
+2.59475000000E+005, +5.45929186129E-003, +2.24810925530E-004
+2.61470000000E+005, +5.45913298986E-003, +2.23893577101E-004
+2.63465000000E+005, +5.45926442887E-003, +2.26668822448E-004
+2.65460000000E+005, +5.45910493787E-003, +2.28134750530E-004
+2.67455000000E+005, +5.45839690151E-003, +2.27773195558E-004
+2.69450000000E+005, +5.45840419960E-003, +2.31004828163E-004
+2.71445000000E+005, +5.45804036240E-003, +2.31685231859E-004
+2.73440000000E+005, +5.45754615895E-003, +2.34919437591E-004
+2.75435000000E+005, +5.45871849208E-003, +2.36395047765E-004
+2.77430000000E+005, +5.45752537576E-003, +2.36137004278E-004
+2.79425000000E+005, +5.45822172510E-003, +2.38449460837E-004
+2.81420000000E+005, +5.45842669433E-003, +2.38239210683E-004
+2.83415000000E+005, +5.45754016424E-003, +2.40360171099E-004
+2.85410000000E+005, +5.45655123553E-003, +2.42553030980E-004
+2.87405000000E+005, +5.45958031264E-003, +2.43417922320E-004
+2.89400000000E+005, +5.45813122849E-003, +2.45433552408E-004
+2.91395000000E+005, +5.45780069327E-003, +2.47767847979E-004
+2.93390000000E+005, +5.45742034494E-003, +2.48382717754E-004
+2.95385000000E+005, +5.45589674167E-003, +2.50070032170E-004
+2.97380000000E+005, +5.45464658491E-003, +2.53456600337E-004
+2.99375000000E+005, +5.45545950490E-003, +2.54803744745E-004
+3.01370000000E+005, +5.45620640249E-003, +2.53077817101E-004
+3.03365000000E+005, +5.45670159703E-003, +2.56338113377E-004
+3.05360000000E+005, +5.45378403267E-003, +2.58632221970E-004
+3.07355000000E+005, +5.45560345357E-003, +2.59660656530E-004
+3.09350000000E+005, +5.45439011308E-003, +2.59759824882E-004
+3.11345000000E+005, +5.45601041123E-003, +2.62616482410E-004
+3.13340000000E+005, +5.45511992742E-003, +2.63402971261E-004
+3.15335000000E+005, +5.45572103427E-003, +2.65951586168E-004
+3.17330000000E+005, +5.45592107835E-003, +2.66059482195E-004
+3.19325000000E+005, +5.45577541897E-003, +2.68166265069E-004
+3.21320000000E+005, +5.45510023468E-003, +2.69815809997E-004
+3.23315000000E+005, +5.45478150095E-003, +2.70752266944E-004
+3.25310000000E+005, +5.45531566300E-003, +2.74045212434E-004
+3.27305000000E+005, +5.45374109009E-003, +2.73671493676E-004
+3.29300000000E+005, +5.45407421798E-003, +2.75033537286E-004
+3.31295000000E+005, +5.45278029157E-003, +2.78660070991E-004
+3.33290000000E+005, +5.45547777586E-003, +2.78958623877E-004
+3.35285000000E+005, +5.45264740200E-003, +2.79245547586E-004
+3.37280000000E+005, +5.45204282899E-003, +2.82933201379E-004
+3.39275000000E+005, +5.45332771230E-003, +2.83414204825E-004
+3.41270000000E+005, +5.45320155667E-003, +2.86619481490E-004
+3.43265000000E+005, +5.45412313200E-003, +2.85159628319E-004
+3.45260000000E+005, +5.45471533648E-003, +2.87282225639E-004
+3.47255000000E+005, +5.45148872080E-003, +2.86850023789E-004
+3.49250000000E+005, +5.45185158655E-003, +2.90526994453E-004
+3.51245000000E+005, +5.45402920308E-003, +2.92535105897E-004
+3.53240000000E+005, +5.45233911592E-003, +2.92454490269E-004
+3.55235000000E+005, +5.45282559794E-003, +2.94524651246E-004
+3.57230000000E+005, +5.45058655017E-003, +2.97051847399E-004
+3.59225000000E+005, +5.45037432874E-003, +2.97800066930E-004
+3.61220000000E+005, +5.44985082433E-003, +2.99287178267E-004
+3.63215000000E+005, +5.44909103692E-003, +3.00569570504E-004
+3.65210000000E+005, +5.44878272828E-003, +3.04141282799E-004
+3.67205000000E+005, +5.44927606128E-003, +3.04150410134E-004
+3.69200000000E+005, +5.44858380115E-003, +3.06702907571E-004
+3.71195000000E+005, +5.44842829836E-003, +3.07555417471E-004
+3.73190000000E+005, +5.44931234579E-003, +3.09564336578E-004
+3.75185000000E+005, +5.45039223357E-003, +3.11414956359E-004
+3.77180000000E+005, +5.44748644409E-003, +3.13108746572E-004
+3.79175000000E+005, +5.44940573721E-003, +3.14360281718E-004
+3.81170000000E+005, +5.45039507502E-003, +3.16234450709E-004
+3.83165000000E+005, +5.44951401804E-003, +3.17093177319E-004
+3.85160000000E+005, +5.44895644271E-003, +3.17773472106E-004
+3.87155000000E+005, +5.44876657023E-003, +3.18096573173E-004
+3.89150000000E+005, +5.44856645555E-003, +3.20640915380E-004
+3.91145000000E+005, +5.44737386049E-003, +3.23631859532E-004
+3.93140000000E+005, +5.44830264309E-003, +3.25374453610E-004
+3.95135000000E+005, +5.44530065284E-003, +3.27304599714E-004
+3.97130000000E+005, +5.44587477083E-003, +3.27451809411E-004
+3.99125000000E+005, +5.44628218633E-003, +3.28483353133E-004
+4.01120000000E+005, +5.44519619855E-003, +3.30220011149E-004
+4.03115000000E+005, +5.44635661281E-003, +3.32048486747E-004
+4.05110000000E+005, +5.44700492019E-003, +3.33582636769E-004
+4.07105000000E+005, +5.44709045646E-003, +3.35372345659E-004
+4.09100000000E+005, +5.44572610163E-003, +3.37945513429E-004
+4.11095000000E+005, +5.44567985696E-003, +3.39023153499E-004
+4.13090000000E+005, +5.44378425404E-003, +3.41030690385E-004
+4.15085000000E+005, +5.44396308547E-003, +3.42004347180E-004
+4.17080000000E+005, +5.44436098214E-003, +3.43734092080E-004
+4.19075000000E+005, +5.44467874892E-003, +3.44611328238E-004
+4.21070000000E+005, +5.44429531933E-003, +3.45996161307E-004
+4.23065000000E+005, +5.44351108148E-003, +3.47554741661E-004
+4.25060000000E+005, +5.44552554925E-003, +3.47283489646E-004
+4.27055000000E+005, +5.44488941983E-003, +3.48853230675E-004
+4.29050000000E+005, +5.44322662279E-003, +3.51322838802E-004
+4.31045000000E+005, +5.44307962589E-003, +3.53302242033E-004
+4.33040000000E+005, +5.44399746734E-003, +3.53905240990E-004
+4.35035000000E+005, +5.44390321947E-003, +3.57107644876E-004
+4.37030000000E+005, +5.44127313701E-003, +3.57465256331E-004
+4.39025000000E+005, +5.44117479501E-003, +3.58874643414E-004
+4.41020000000E+005, +5.44110482450E-003, +3.61927033689E-004
+4.43015000000E+005, +5.44195745623E-003, +3.63737821708E-004
+4.45010000000E+005, +5.44263921218E-003, +3.64761480289E-004
+4.47005000000E+005, +5.44077425340E-003, +3.65425802935E-004
+4.49000000000E+005, +5.44183602360E-003, +3.67387418945E-004
+4.50995000000E+005, +5.44082389563E-003, +3.69214038455E-004
+4.52990000000E+005, +5.44021252036E-003, +3.69453836653E-004
+4.54985000000E+005, +5.44137938982E-003, +3.71263078046E-004
+4.56980000000E+005, +5.44115576572E-003, +3.73740303156E-004
+4.58975000000E+005, +5.44047548740E-003, +3.74817577038E-004
+4.60970000000E+005, +5.44062938023E-003, +3.75608367726E-004
+4.62965000000E+005, +5.43878332205E-003, +3.78623812097E-004
+4.64960000000E+005, +5.43939930753E-003, +3.81680055413E-004
+4.66955000000E+005, +5.43960444517E-003, +3.79470686951E-004
+4.68950000000E+005, +5.43909155065E-003, +3.82761569675E-004
+4.70945000000E+005, +5.43872284403E-003, +3.83643029117E-004
+4.72940000000E+005, +5.43752243396E-003, +3.86737232639E-004
+4.74935000000E+005, +5.43749812238E-003, +3.86720035049E-004
+4.76930000000E+005, +5.43816260816E-003, +3.89396239394E-004
+4.78925000000E+005, +5.43830109284E-003, +3.90612080776E-004
+4.80920000000E+005, +5.43760113303E-003, +3.92143924974E-004
+4.82915000000E+005, +5.43910458518E-003, +3.94354151192E-004
+4.84910000000E+005, +5.43759873649E-003, +3.96278875428E-004
+4.86905000000E+005, +5.43779577094E-003, +3.96035633253E-004
+4.88900000000E+005, +5.43729999052E-003, +3.97634171977E-004
+4.90895000000E+005, +5.43473532732E-003, +3.99119242869E-004
+4.92890000000E+005, +5.43732162085E-003, +4.02216569482E-004
+4.94885000000E+005, +5.43597630254E-003, +4.01508349226E-004
+4.96880000000E+005, +5.43467780807E-003, +4.04570378834E-004
+4.98875000000E+005, +5.43385440480E-003, +4.06504250941E-004
+5.00870000000E+005, +5.43568880637E-003, +4.06069763584E-004
+5.02865000000E+005, +5.43314103680E-003, +4.09884064545E-004
+5.04860000000E+005, +5.43510281613E-003, +4.10973528711E-004
+5.06855000000E+005, +5.43463626790E-003, +4.11113811348E-004
+5.08850000000E+005, +5.43396186652E-003, +4.13469067448E-004
+5.10845000000E+005, +5.43361238509E-003, +4.14808668283E-004
+5.12840000000E+005, +5.43373192520E-003, +4.15772472775E-004
+5.14835000000E+005, +5.43242635734E-003, +4.18235039797E-004
+5.16830000000E+005, +5.43281734306E-003, +4.20588319135E-004
+5.18825000000E+005, +5.43219615802E-003, +4.22299683868E-004
+5.20820000000E+005, +5.43150099002E-003, +4.22816004456E-004
+5.22815000000E+005, +5.43198910152E-003, +4.23917785747E-004
+5.24810000000E+005, +5.43376591149E-003, +4.25647394648E-004
+5.26805000000E+005, +5.43231726501E-003, +4.26723446461E-004
+5.28800000000E+005, +5.43016263418E-003, +4.27567000780E-004
+5.30795000000E+005, +5.43056352732E-003, +4.30264896009E-004
+5.32790000000E+005, +5.42973876417E-003, +4.33262319955E-004
+5.34785000000E+005, +5.43052204564E-003, +4.34224401237E-004
+5.36780000000E+005, +5.42908058901E-003, +4.34641986453E-004
+5.38775000000E+005, +5.42941128532E-003, +4.35907867516E-004
+5.40770000000E+005, +5.42738365047E-003, +4.38757414479E-004
+5.42765000000E+005, +5.42804882162E-003, +4.39474769945E-004
+5.44760000000E+005, +5.42817105972E-003, +4.42540024624E-004
+5.46755000000E+005, +5.42938915771E-003, +4.42293871685E-004
+5.48750000000E+005, +5.42778522931E-003, +4.44526592016E-004
+5.50745000000E+005, +5.42699346609E-003, +4.45415586481E-004
+5.52740000000E+005, +5.42768266611E-003, +4.47785139617E-004
+5.54735000000E+005, +5.42729634746E-003, +4.48754491326E-004
+5.56730000000E+005, +5.42835252706E-003, +4.50102183057E-004
+5.58725000000E+005, +5.42704591452E-003, +4.51505044181E-004
+5.60720000000E+005, +5.42583916943E-003, +4.52042934783E-004
+5.62715000000E+005, +5.42761418241E-003, +4.56791247504E-004
+5.64710000000E+005, +5.42683575270E-003, +4.55984877269E-004
+5.66705000000E+005, +5.42550433200E-003, +4.58469432593E-004
+5.68700000000E+005, +5.42539995613E-003, +4.59000129515E-004
+5.70695000000E+005, +5.42658338827E-003, +4.59932591600E-004
+5.72690000000E+005, +5.42472527416E-003, +4.63394717853E-004
+5.74685000000E+005, +5.42469367218E-003, +4.62900031317E-004
+5.76680000000E+005, +5.42275750181E-003, +4.66349200251E-004
+5.78675000000E+005, +5.42337449027E-003, +4.68961879949E-004
+5.80670000000E+005, +5.42432285119E-003, +4.70862694021E-004
+5.82665000000E+005, +5.42230569333E-003, +4.71745415108E-004
+5.84660000000E+005, +5.42326672464E-003, +4.72422800787E-004
+5.86655000000E+005, +5.42208521521E-003, +4.73455505229E-004
+5.88650000000E+005, +5.42315278127E-003, +4.76315186086E-004
+5.90645000000E+005, +5.42223937734E-003, +4.76182579072E-004
+5.92640000000E+005, +5.42486500679E-003, +4.77875302803E-004
+5.94635000000E+005, +5.42214644634E-003, +4.80304006109E-004
+5.96630000000E+005, +5.42278142745E-003, +4.81873109078E-004
+5.98625000000E+005, +5.42065295321E-003, +4.84474532236E-004
+6.00620000000E+005, +5.41905970481E-003, +4.83680950835E-004
+6.02615000000E+005, +5.41953570233E-003, +4.87105705599E-004
+6.04610000000E+005, +5.41933326695E-003, +4.88720506712E-004
+6.06605000000E+005, +5.41979380625E-003, +4.88848069321E-004
+6.08600000000E+005, +5.41964320608E-003, +4.90185663150E-004
+6.10595000000E+005, +5.42069344889E-003, +4.92059558180E-004
+6.12590000000E+005, +5.41799675116E-003, +4.95099175884E-004
+6.14585000000E+005, +5.41923155550E-003, +4.97369432521E-004
+6.16580000000E+005, +5.41905393328E-003, +4.97121959344E-004
+6.18575000000E+005, +5.41749293074E-003, +4.98210722958E-004
+6.20570000000E+005, +5.41684686523E-003, +4.99787046605E-004
+6.22565000000E+005, +5.41760747323E-003, +5.02497727054E-004
+6.24560000000E+005, +5.41724923792E-003, +5.04181906261E-004
+6.26555000000E+005, +5.41695914215E-003, +5.04745217391E-004
+6.28550000000E+005, +5.41868137681E-003, +5.05492469942E-004
+6.30545000000E+005, +5.41685052547E-003, +5.08304404007E-004
+6.32540000000E+005, +5.41676212280E-003, +5.09436112146E-004
+6.34535000000E+005, +5.41471317309E-003, +5.10590771293E-004
+6.36530000000E+005, +5.41554452437E-003, +5.12813254685E-004
+6.38525000000E+005, +5.41527462494E-003, +5.12395139189E-004
+6.40520000000E+005, +5.41545728565E-003, +5.15758521487E-004
+6.42515000000E+005, +5.41411025933E-003, +5.17000830944E-004
+6.44510000000E+005, +5.41410972891E-003, +5.19487778610E-004
+6.46505000000E+005, +5.41507306180E-003, +5.19655891897E-004
+6.48500000000E+005, +5.41521739355E-003, +5.20904968538E-004
+6.50495000000E+005, +5.41480283085E-003, +5.24518092807E-004
+6.52490000000E+005, +5.41282470541E-003, +5.24286623558E-004
+6.54485000000E+005, +5.41308342331E-003, +5.23780625449E-004
+6.56480000000E+005, +5.41370502110E-003, +5.29436674770E-004
+6.58475000000E+005, +5.41196349559E-003, +5.29147174927E-004
+6.60470000000E+005, +5.41125605334E-003, +5.30797808164E-004
+6.62465000000E+005, +5.41088884909E-003, +5.31796598670E-004
+6.64460000000E+005, +5.41098302042E-003, +5.33892576766E-004
+6.66455000000E+005, +5.41007808489E-003, +5.34420668293E-004
+6.68450000000E+005, +5.41031236359E-003, +5.36850477537E-004
+6.70445000000E+005, +5.40995449943E-003, +5.40179430849E-004
+6.72440000000E+005, +5.41007314481E-003, +5.41326626586E-004
+6.74435000000E+005, +5.40960491056E-003, +5.42426901571E-004
+6.76430000000E+005, +5.40917345182E-003, +5.43540597355E-004
+6.78425000000E+005, +5.40819477261E-003, +5.44600030478E-004
+6.80420000000E+005, +5.40806646410E-003, +5.46606852173E-004
+6.82415000000E+005, +5.40734017891E-003, +5.48815001589E-004
+6.84410000000E+005, +5.40589112587E-003, +5.50911656828E-004
+6.86405000000E+005, +5.40622582033E-003, +5.52665994715E-004
+6.88400000000E+005, +5.40517610420E-003, +5.53393691079E-004
