"# Channel 1"
"# Trace 1"
Frequency, Formatted Data, Formatted Data
+5.00000000000E+004, -7.57254254597E+003, -1.99612507969E+002
+5.19950000000E+004, -2.17184744416E+004, -3.17489973056E+003
+5.39900000000E+004, -3.34386558435E+004, +3.62729315939E+002
+5.59850000000E+004, -4.22735270607E+004, -4.21911819876E+003
+5.79800000000E+004, -4.98497278906E+004, -1.11364478208E+004
+5.99750000000E+004, -5.76406757543E+004, -1.43990581563E+004
+6.19700000000E+004, -5.54261373247E+004, -1.99956719121E+004
+6.39650000000E+004, -6.33195734594E+004, -1.81893195506E+004
+6.59600000000E+004, -6.10324247896E+004, -3.81102395255E+004
+6.79550000000E+004, -3.87970747000E+004, -1.18749522978E+004
+6.99500000000E+004, -4.22632744488E+004, -1.60290552412E+004
+7.19450000000E+004, -4.44952645940E+004, -3.02897119209E+004
+7.39400000000E+004, -4.40567711862E+004, -2.50580807973E+004
+7.59350000000E+004, -4.93259253458E+004, -3.31997665311E+004
+7.79300000000E+004, -4.79500807435E+004, -2.83310230454E+004
+7.99250000000E+004, -5.24597663112E+004, -4.82222078826E+004
+8.19200000000E+004, -3.71506495126E+004, -5.38466344922E+004
+8.39150000000E+004, -4.19919211940E+004, -3.43292584487E+004
+8.59100000000E+004, -3.82660968634E+004, -3.43309997474E+004
+8.79050000000E+004, -4.07068352727E+004, -4.11278205436E+004
+8.99000000000E+004, -3.58781863842E+004, -3.25003709383E+004
+9.18950000000E+004, -2.99974334009E+004, -3.87956263204E+004
+9.38900000000E+004, -3.12977098757E+004, -3.55379697188E+004
+9.58850000000E+004, -3.36559923517E+004, -3.17341971716E+004
+9.78800000000E+004, -2.96097392006E+004, -3.76715532474E+004
+9.98750000000E+004, -3.23364438805E+004, -3.07950067652E+004
+1.01870000000E+005, -3.22584730982E+004, -3.19893666524E+004
+1.03865000000E+005, -3.00093589020E+004, -3.30706448561E+004
+1.05860000000E+005, -2.64988057589E+004, -3.00804774023E+004
+1.07855000000E+005, -2.89493694168E+004, -2.88881470955E+004
+1.09850000000E+005, -2.60259131389E+004, -3.65744424450E+004
+1.11845000000E+005, -2.23667182224E+004, -3.50235790803E+004
+1.13840000000E+005, -2.27961093730E+004, -3.01156735506E+004
+1.15835000000E+005, -2.44199986421E+004, -3.41787674193E+004
+1.17830000000E+005, -2.31982807829E+004, -3.66527119165E+004
+1.19825000000E+005, -2.02962078015E+004, -3.17678449701E+004
+1.21820000000E+005, -2.29479113841E+004, -3.12961873046E+004
+1.23815000000E+005, -2.14678143120E+004, -3.47325172676E+004
+1.25810000000E+005, -2.05644456068E+004, -3.58325549187E+004
+1.27805000000E+005, -1.99275807567E+004, -3.38879073046E+004
+1.29800000000E+005, -1.93471660594E+004, -3.14920116706E+004
+1.31795000000E+005, -1.83639847254E+004, -3.16655360810E+004
+1.33790000000E+005, -2.31144570166E+004, -2.82730956186E+004
+1.35785000000E+005, -1.91963532741E+004, -2.70198233475E+004
+1.37780000000E+005, -1.72298263688E+004, -2.56252300889E+004
+1.39775000000E+005, -1.86845334519E+004, -2.87140547518E+004
+1.41770000000E+005, -2.00033622329E+004, -3.01609928938E+004
+1.43765000000E+005, -1.76454360592E+004, -2.65422669013E+004
+1.45760000000E+005, -1.80735217982E+004, -3.03956794312E+004
+1.47755000000E+005, -1.50464408540E+004, -2.94493241991E+004
+1.49750000000E+005, -1.62742879673E+004, -2.91514525964E+004
+1.51745000000E+005, -1.40719212902E+004, -3.08859425160E+004
+1.53740000000E+005, -1.33412722322E+004, -3.26119920992E+004
+1.55735000000E+005, -1.20959857976E+004, -3.19133824650E+004
+1.57730000000E+005, -1.78716328875E+004, -3.27784969859E+004
+1.59725000000E+005, -1.60558391950E+004, -3.02374346591E+004
+1.61720000000E+005, -1.41062178592E+004, -3.04611663578E+004
+1.63715000000E+005, -1.44873081020E+004, -2.90975715264E+004
+1.65710000000E+005, -1.32739624237E+004, -2.68929455738E+004
+1.67705000000E+005, -1.50600162969E+004, -2.88757373407E+004
+1.69700000000E+005, -1.41096647767E+004, -2.77331758976E+004
+1.71695000000E+005, -1.52767302158E+004, -2.99433063094E+004
+1.73690000000E+005, -1.26314173057E+004, -2.81950449467E+004
+1.75685000000E+005, -1.35245475634E+004, -2.94143345169E+004
+1.77680000000E+005, -1.49675485178E+004, -2.87473195276E+004
+1.79675000000E+005, -1.21414725477E+004, -2.74054458770E+004
+1.81670000000E+005, -1.30404073175E+004, -2.82268113439E+004
+1.83665000000E+005, -1.36083950008E+004, -2.84705093861E+004
+1.85660000000E+005, -1.13813889001E+004, -2.77210172246E+004
+1.87655000000E+005, -1.31686577668E+004, -2.78469862873E+004
+1.89650000000E+005, -1.23521724109E+004, -2.70398318404E+004
+1.91645000000E+005, -1.12524148630E+004, -3.00093389132E+004
+1.93640000000E+005, -8.90173262120E+003, -2.75881172679E+004
+1.95635000000E+005, -1.00550080394E+004, -2.74814088781E+004
+1.97630000000E+005, -9.93599545634E+003, -2.85044894282E+004
+1.99625000000E+005, -1.16729931682E+004, -2.69013970370E+004
+2.01620000000E+005, -1.27157391997E+004, -2.37589579133E+004
+2.03615000000E+005, -1.17299338330E+004, -2.47674143454E+004
+2.05610000000E+005, -1.10252844813E+004, -2.38094753697E+004
+2.07605000000E+005, -1.15835441661E+004, -2.66073701111E+004
+2.09600000000E+005, -1.02682983296E+004, -2.72541685387E+004
+2.11595000000E+005, -1.03646491176E+004, -2.51815949251E+004
+2.13590000000E+005, -1.08741182611E+004, -2.59580873379E+004
+2.15585000000E+005, -1.02553245917E+004, -2.44456700549E+004
+2.17580000000E+005, -1.01926325412E+004, -2.50565520506E+004
+2.19575000000E+005, -1.00623348930E+004, -2.51072129868E+004
+2.21570000000E+005, -9.66406294339E+003, -2.39403576794E+004
+2.23565000000E+005, -8.70011918544E+003, -2.63267982574E+004
+2.25560000000E+005, -8.42768468514E+003, -2.45703891495E+004
+2.27555000000E+005, -8.95000364971E+003, -2.59251533281E+004
+2.29550000000E+005, -9.36084440912E+003, -2.61613498183E+004
+2.31545000000E+005, -1.08692411006E+004, -2.51549346390E+004
+2.33540000000E+005, -8.82052753227E+003, -2.51709464179E+004
+2.35535000000E+005, -8.56907143248E+003, -2.49917159278E+004
+2.37530000000E+005, -8.88130753233E+003, -2.49886364554E+004
+2.39525000000E+005, -8.10579868196E+003, -2.45296868215E+004
+2.41520000000E+005, -8.34139422844E+003, -2.45707314881E+004
+2.43515000000E+005, -8.60659983955E+003, -2.37948738371E+004
+2.45510000000E+005, -8.22211935038E+003, -2.44457334347E+004
+2.47505000000E+005, -7.72473396051E+003, -2.40251061978E+004
+2.49500000000E+005, -7.54369993240E+003, -2.40505722517E+004
+2.51495000000E+005, -7.42809341159E+003, -2.37274135665E+004
+2.53490000000E+005, -7.10503382492E+003, -2.43943322078E+004
+2.55485000000E+005, -7.42062501374E+003, -2.31693475409E+004
+2.57480000000E+005, -7.67900884660E+003, -2.49362702542E+004
+2.59475000000E+005, -6.48954092137E+003, -2.41790731456E+004
+2.61470000000E+005, -7.46439502596E+003, -2.30924936288E+004
+2.63465000000E+005, -6.44985782364E+003, -2.27571163341E+004
+2.65460000000E+005, -7.82994482364E+003, -2.23414668280E+004
+2.67455000000E+005, -7.87632610253E+003, -2.22647085842E+004
+2.69450000000E+005, -7.81325431866E+003, -2.18934986568E+004
+2.71445000000E+005, -7.94472332011E+003, -2.17905754093E+004
+2.73440000000E+005, -7.46315347891E+003, -2.25951171324E+004
+2.75435000000E+005, -7.21499904055E+003, -2.19145874299E+004
+2.77430000000E+005, -7.84795925317E+003, -2.15740587426E+004
+2.79425000000E+005, -7.30659507929E+003, -2.17397277384E+004
+2.81420000000E+005, -7.30220554695E+003, -2.20732061570E+004
+2.83415000000E+005, -6.86387433809E+003, -2.19699088252E+004
+2.85410000000E+005, -6.60868337082E+003, -2.17036274318E+004
+2.87405000000E+005, -6.63872304928E+003, -2.15272282982E+004
+2.89400000000E+005, -6.63321926019E+003, -2.08746428099E+004
+2.91395000000E+005, -5.83121141214E+003, -2.13713729212E+004
+2.93390000000E+005, -6.24535056843E+003, -2.09006100920E+004
+2.95385000000E+005, -5.68962662319E+003, -2.07357543469E+004
+2.97380000000E+005, -6.88804325932E+003, -2.12336153524E+004
+2.99375000000E+005, -4.48155711041E+003, -2.08727846068E+004
+3.01370000000E+005, -5.01185976750E+003, -2.06786603267E+004
+3.03365000000E+005, -5.58889976998E+003, -2.10669224156E+004
+3.05360000000E+005, -4.66758831106E+003, -2.05183087218E+004
+3.07355000000E+005, -5.90888816004E+003, -1.99155996239E+004
+3.09350000000E+005, -5.35380282614E+003, -2.01185020665E+004
+3.11345000000E+005, -5.79335310473E+003, -2.05648865686E+004
+3.13340000000E+005, -5.17508539399E+003, -2.04245391834E+004
+3.15335000000E+005, -5.58048352954E+003, -2.09275768174E+004
+3.17330000000E+005, -5.05752221504E+003, -2.03420512615E+004
+3.19325000000E+005, -5.14292596687E+003, -2.00408605969E+004
+3.21320000000E+005, -5.05312735746E+003, -1.94868074309E+004
+3.23315000000E+005, -4.84586123194E+003, -1.97257632633E+004
+3.25310000000E+005, -4.15073839401E+003, -2.02991822727E+004
+3.27305000000E+005, -5.46134238204E+003, -2.06152259267E+004
+3.29300000000E+005, -5.33313349232E+003, -2.01831246004E+004
+3.31295000000E+005, -4.77861645441E+003, -1.97799723408E+004
+3.33290000000E+005, -4.29192594897E+003, -1.95945773776E+004
+3.35285000000E+005, -4.39095732305E+003, -1.94582421954E+004
+3.37280000000E+005, -4.46969106732E+003, -1.94987702841E+004
+3.39275000000E+005, -4.09463292350E+003, -1.94113929789E+004
+3.41270000000E+005, -4.81239840840E+003, -2.01553168108E+004
+3.43265000000E+005, -3.42862649356E+003, -1.88060883499E+004
+3.45260000000E+005, -3.42232560984E+003, -1.91221243306E+004
+3.47255000000E+005, -3.80629622858E+003, -1.86059598171E+004
+3.49250000000E+005, -4.04012735312E+003, -1.86798556835E+004
+3.51245000000E+005, -4.04255172606E+003, -1.90043358881E+004
+3.53240000000E+005, -4.80666493263E+003, -1.85036350888E+004
+3.55235000000E+005, -4.34137003785E+003, -1.87183886096E+004
+3.57230000000E+005, -3.72070235138E+003, -1.88363406510E+004
+3.59225000000E+005, -3.93711547836E+003, -1.83841369925E+004
+3.61220000000E+005, -3.89391561372E+003, -1.80009548446E+004
+3.63215000000E+005, -4.19808652529E+003, -1.81660054354E+004
+3.65210000000E+005, -3.45831755142E+003, -1.84964524488E+004
+3.67205000000E+005, -3.85848683665E+003, -1.81635532642E+004
+3.69200000000E+005, -4.19459678481E+003, -1.84745427470E+004
+3.71195000000E+005, -4.07933209573E+003, -1.78432871945E+004
+3.73190000000E+005, -3.42424563060E+003, -1.78447817956E+004
+3.75185000000E+005, -3.47769244219E+003, -1.80198047327E+004
+3.77180000000E+005, -4.02635169303E+003, -1.77617678452E+004
+3.79175000000E+005, -3.56645437173E+003, -1.70448809690E+004
+3.81170000000E+005, -3.11961453635E+003, -1.75734820826E+004
+3.83165000000E+005, -3.13311379162E+003, -1.79350423035E+004
+3.85160000000E+005, -3.55964599057E+003, -1.74048036793E+004
+3.87155000000E+005, -3.68402828543E+003, -1.74004695487E+004
+3.89150000000E+005, -3.79029027033E+003, -1.70363517812E+004
+3.91145000000E+005, -3.76517148974E+003, -1.70348205505E+004
+3.93140000000E+005, -3.65060764529E+003, -1.69767821544E+004
+3.95135000000E+005, -2.69759274617E+003, -1.63923765942E+004
+3.97130000000E+005, -3.62144298039E+003, -1.65600582484E+004
+3.99125000000E+005, -3.49948875579E+003, -1.67214311750E+004
+4.01120000000E+005, -4.38219907317E+003, -1.58095580995E+004
+4.03115000000E+005, -4.15658676432E+003, -1.63699761940E+004
+4.05110000000E+005, -3.68626864086E+003, -1.66545729627E+004
+4.07105000000E+005, -4.31069272461E+003, -1.59320506566E+004
+4.09100000000E+005, -3.47406684256E+003, -1.59852148767E+004
+4.11095000000E+005, -4.01004889525E+003, -1.60700769377E+004
+4.13090000000E+005, -3.64750391429E+003, -1.64184106035E+004
+4.15085000000E+005, -3.28248899731E+003, -1.59164388670E+004
+4.17080000000E+005, -3.50955011713E+003, -1.60601083603E+004
+4.19075000000E+005, -2.75851837305E+003, -1.61945827341E+004
+4.21070000000E+005, -3.19055643488E+003, -1.60504834733E+004
+4.23065000000E+005, -3.18918616560E+003, -1.59186222749E+004
+4.25060000000E+005, -2.92163900213E+003, -1.57438299664E+004
+4.27055000000E+005, -3.25212812343E+003, -1.55288484371E+004
+4.29050000000E+005, -3.18118911728E+003, -1.59186955540E+004
+4.31045000000E+005, -2.89773750133E+003, -1.54669782140E+004
+4.33040000000E+005, -2.90549481977E+003, -1.55705294843E+004
+4.35035000000E+005, -3.21403665651E+003, -1.55744428082E+004
+4.37030000000E+005, -2.59669259047E+003, -1.56144596763E+004
+4.39025000000E+005, -2.68917340183E+003, -1.55656768600E+004
+4.41020000000E+005, -2.93666437222E+003, -1.55431731738E+004
+4.43015000000E+005, -2.74193670793E+003, -1.52205152559E+004
+4.45010000000E+005, -2.81259234184E+003, -1.48419716264E+004
+4.47005000000E+005, -2.76017412451E+003, -1.51215312696E+004
+4.49000000000E+005, -2.92512227431E+003, -1.50360294532E+004
+4.50995000000E+005, -2.34635266048E+003, -1.48617949294E+004
+4.52990000000E+005, -2.39869287167E+003, -1.52254642701E+004
+4.54985000000E+005, -2.44298633995E+003, -1.49828014410E+004
+4.56980000000E+005, -2.64720123829E+003, -1.47546882119E+004
+4.58975000000E+005, -2.47456342363E+003, -1.46833156412E+004
+4.60970000000E+005, -2.77459056465E+003, -1.46442202157E+004
+4.62965000000E+005, -2.93263738004E+003, -1.46088839174E+004
+4.64960000000E+005, -2.45835534951E+003, -1.48610244980E+004
+4.66955000000E+005, -2.50256966485E+003, -1.45608415660E+004
+4.68950000000E+005, -2.25629153492E+003, -1.44506544907E+004
+4.70945000000E+005, -2.69149919301E+003, -1.48945085501E+004
+4.72940000000E+005, -2.62133761317E+003, -1.41273363595E+004
+4.74935000000E+005, -2.35698243623E+003, -1.44162305616E+004
+4.76930000000E+005, -2.52179410577E+003, -1.41365609899E+004
+4.78925000000E+005, -2.47386869568E+003, -1.43231675505E+004
+4.80920000000E+005, -2.18595315130E+003, -1.42566983795E+004
+4.82915000000E+005, -2.43074556628E+003, -1.41350746494E+004
+4.84910000000E+005, -2.01342089155E+003, -1.36610412763E+004
+4.86905000000E+005, -2.04143712419E+003, -1.42941768215E+004
+4.88900000000E+005, -1.79525256874E+003, -1.41324798417E+004
+4.90895000000E+005, -2.51534329285E+003, -1.38912644888E+004
+4.92890000000E+005, -2.42625942397E+003, -1.39111074617E+004
+4.94885000000E+005, -1.86352403050E+003, -1.41495065130E+004
+4.96880000000E+005, -2.13104208053E+003, -1.37416221038E+004
+4.98875000000E+005, -2.23738840684E+003, -1.38548108249E+004
+5.00870000000E+005, -2.54906787507E+003, -1.38219582820E+004
+5.02865000000E+005, -2.24008766794E+003, -1.34052966922E+004
+5.04860000000E+005, -1.88583436607E+003, -1.33465772024E+004
+5.06855000000E+005, -1.95335659210E+003, -1.35309605839E+004
+5.08850000000E+005, -2.04867112571E+003, -1.35242214232E+004
+5.10845000000E+005, -2.02560330554E+003, -1.34210752475E+004
+5.12840000000E+005, -1.90996267253E+003, -1.31802177326E+004
+5.14835000000E+005, -2.10021028953E+003, -1.35531731852E+004
+5.16830000000E+005, -1.77751431136E+003, -1.32349052415E+004
+5.18825000000E+005, -1.86955916267E+003, -1.33270827128E+004
+5.20820000000E+005, -1.85273402564E+003, -1.32457021590E+004
+5.22815000000E+005, -2.07252531478E+003, -1.33770650159E+004
+5.24810000000E+005, -1.99417025494E+003, -1.32669254756E+004
+5.26805000000E+005, -2.20021923276E+003, -1.32500486969E+004
+5.28800000000E+005, -1.66190612136E+003, -1.31481358229E+004
+5.30795000000E+005, -2.67057213504E+003, -1.27780410410E+004
+5.32790000000E+005, -2.48045094077E+003, -1.25380036886E+004
+5.34785000000E+005, -2.18404797061E+003, -1.27456234640E+004
+5.36780000000E+005, -2.35607813277E+003, -1.25396125080E+004
+5.38775000000E+005, -2.15166606765E+003, -1.26378765752E+004
+5.40770000000E+005, -1.87000005667E+003, -1.25615874566E+004
+5.42765000000E+005, -1.88129738993E+003, -1.27250787152E+004
+5.44760000000E+005, -2.06858994184E+003, -1.27704326098E+004
+5.46755000000E+005, -2.19548637795E+003, -1.24388846544E+004
+5.48750000000E+005, -2.03139974097E+003, -1.23015690152E+004
+5.50745000000E+005, -1.93088293811E+003, -1.25559204458E+004
+5.52740000000E+005, -1.67340751911E+003, -1.24454152732E+004
+5.54735000000E+005, -2.07267755682E+003, -1.23714342789E+004
+5.56730000000E+005, -1.66225743718E+003, -1.24902165595E+004
+5.58725000000E+005, -1.80722776605E+003, -1.22965439450E+004
+5.60720000000E+005, -1.73401135442E+003, -1.22528478067E+004
+5.62715000000E+005, -1.61673017321E+003, -1.20136448231E+004
+5.64710000000E+005, -1.81524592435E+003, -1.20531478456E+004
+5.66705000000E+005, -1.78552461972E+003, -1.24141242765E+004
+5.68700000000E+005, -1.74679281381E+003, -1.22000775007E+004
+5.70695000000E+005, -1.81045443195E+003, -1.18567224042E+004
+5.72690000000E+005, -1.68492065540E+003, -1.20144319562E+004
+5.74685000000E+005, -1.71693734973E+003, -1.19752802616E+004
+5.76680000000E+005, -1.50026541432E+003, -1.19598403344E+004
+5.78675000000E+005, -1.42808498446E+003, -1.18074897970E+004
+5.80670000000E+005, -1.71226594456E+003, -1.17451085515E+004
+5.82665000000E+005, -1.71480601744E+003, -1.18878576220E+004
+5.84660000000E+005, -1.52043310351E+003, -1.18579901199E+004
+5.86655000000E+005, -1.47766784271E+003, -1.17951532553E+004
+5.88650000000E+005, -1.71013184205E+003, -1.16091582965E+004
+5.90645000000E+005, -1.62283627419E+003, -1.17351757647E+004
+5.92640000000E+005, -1.69583448109E+003, -1.15755500569E+004
+5.94635000000E+005, -1.43822413315E+003, -1.14705027018E+004
+5.96630000000E+005, -1.28846115743E+003, -1.15943844245E+004
+5.98625000000E+005, -1.50335299132E+003, -1.17111845009E+004
+6.00620000000E+005, -1.45285208243E+003, -1.12743176638E+004
+6.02615000000E+005, -1.44286148628E+003, -1.17066959176E+004
+6.04610000000E+005, -1.56203798224E+003, -1.13935582224E+004
+6.06605000000E+005, -1.61333844795E+003, -1.14569746709E+004
+6.08600000000E+005, -1.46533012463E+003, -1.13044193034E+004
+6.10595000000E+005, -1.33915877379E+003, -1.13913250535E+004
+6.12590000000E+005, -1.39137801541E+003, -1.12548622354E+004
+6.14585000000E+005, -1.29821182196E+003, -1.10676097513E+004
+6.16580000000E+005, -1.47679562640E+003, -1.11939197928E+004
+6.18575000000E+005, -1.47204832585E+003, -1.11268589246E+004
+6.20570000000E+005, -1.41519908926E+003, -1.12445436147E+004
+6.22565000000E+005, -1.32685615422E+003, -1.11392292531E+004
+6.24560000000E+005, -1.32844901663E+003, -1.10355304759E+004
+6.26555000000E+005, -1.33650679035E+003, -1.11676841165E+004
+6.28550000000E+005, -1.48205742522E+003, -1.10379644074E+004
+6.30545000000E+005, -1.33375221354E+003, -1.10080333121E+004
+6.32540000000E+005, -1.26069702640E+003, -1.10495694068E+004
+6.34535000000E+005, -1.28459052150E+003, -1.07719602909E+004
+6.36530000000E+005, -1.45040550543E+003, -1.07634458781E+004
+6.38525000000E+005, -1.14661925245E+003, -1.09038706335E+004
+6.40520000000E+005, -2.02216726008E+003, -1.07329940864E+004
+6.42515000000E+005, -1.52358703369E+003, -1.05429224532E+004
+6.44510000000E+005, -1.67319220079E+003, -1.05103841980E+004
+6.46505000000E+005, -1.33661854751E+003, -1.07832927473E+004
+6.48500000000E+005, -1.48325534790E+003, -1.05233309304E+004
+6.50495000000E+005, -1.35748568831E+003, -1.07254605042E+004
+6.52490000000E+005, -1.60739582286E+003, -1.05298926807E+004
+6.54485000000E+005, -1.42580689089E+003, -1.03393807668E+004
+6.56480000000E+005, -1.31650137644E+003, -1.06666881766E+004
+6.58475000000E+005, -1.30471337862E+003, -1.02654868259E+004
+6.60470000000E+005, -1.21547053356E+003, -1.04723883569E+004
+6.62465000000E+005, -1.28740185664E+003, -1.06510603842E+004
+6.64460000000E+005, -1.32030689152E+003, -1.05558791166E+004
+6.66455000000E+005, -1.15843873062E+003, -1.03708981309E+004
+6.68450000000E+005, -1.32724782616E+003, -1.04831845184E+004
+6.70445000000E+005, -1.24759567466E+003, -1.03141739016E+004
+6.72440000000E+005, -1.22621048981E+003, -1.01939669904E+004
+6.74435000000E+005, -1.34610857872E+003, -1.03253518636E+004
+6.76430000000E+005, -1.17308715659E+003, -1.03134902261E+004
+6.78425000000E+005, -1.20913046616E+003, -1.02207099805E+004
+6.80420000000E+005, -1.27364986195E+003, -1.01384478156E+004
+6.82415000000E+005, -1.02456075875E+003, -1.01939321565E+004
+6.84410000000E+005, -1.07059367637E+003, -1.00686916505E+004
+6.86405000000E+005, -1.21343928482E+003, -1.03456268755E+004
+6.88400000000E+005, -1.17004173990E+003, -9.97048187339E+003
