Time (s),V_PRI,V_SEC,V_IN,V_OUT
0.0,-25.400026879999984,-192.10000384,19.60475001984,31.17450000704
5e-10,-19.15002751999998,-192.10000384,19.58600002176,31.16200000832
1e-09,-19.15002751999998,-185.85000448,19.59225002112,31.15887500864
1.5000000000000002e-09,-19.15002751999998,-198.3500032,19.60475001984,31.15575000896
2e-09,-16.02502783999995,-198.3500032,19.61725001856,31.165125008
2.5e-09,-9.775028479999946,-198.3500032,19.61725001856,31.16200000832
3.0000000000000004e-09,-9.775028479999946,-192.10000384,19.60475001984,31.16200000832
3.5000000000000003e-09,-12.900028159999977,-198.3500032,19.60475001984,31.16825000768
4e-09,-16.02502783999995,-192.10000384,19.61725001856,31.16825000768
4.500000000000001e-09,-9.775028479999946,-198.3500032,19.62350001792,31.17762500672
5e-09,-9.775028479999946,-192.10000384,19.62975001728,31.1807500064
5.5000000000000004e-09,-6.650028799999973,-198.3500032,19.62350001792,31.19012500544
6.000000000000001e-09,-9.775028479999946,-204.60000256,19.62350001792,31.18387500608
6.5e-09,-3.5250291199999424,-204.60000256,19.62350001792,31.187000005759998
7.000000000000001e-09,-3.5250291199999424,-192.10000384,19.61725001856,31.18387500608
7.500000000000001e-09,-3.5250291199999424,-198.3500032,19.61725001856,31.18387500608
8e-09,-3.5250291199999424,-198.3500032,19.611000019200002,31.18387500608
8.5e-09,2.7249702400000615,-192.10000384,19.59225002112,31.17450000704
9.000000000000001e-09,-0.40002943999996887,-185.85000448,19.58600002176,31.17450000704
9.5e-09,-0.40002943999996887,-192.10000384,19.58600002176,31.16825000768
1e-08,2.7249702400000615,-198.3500032,19.5797500224,31.171375007359998
1.0500000000000001e-08,5.849969920000035,-185.85000448,19.59225002112,31.171375007359998
1.1000000000000001e-08,5.849969920000035,-185.85000448,19.57350002304,31.1807500064
1.15e-08,8.974969600000065,-185.85000448,19.56725002368,31.18387500608
1.2000000000000002e-08,5.849969920000035,-173.35000576,19.5797500224,31.187000005759998
1.2500000000000001e-08,8.974969600000065,-179.60000512,19.56725002368,31.187000005759998
1.3e-08,8.974969600000065,-173.35000576,19.57350002304,31.19012500544
1.35e-08,12.099969280000039,-179.60000512,19.57350002304,31.19325000512
1.4000000000000001e-08,8.974969600000065,-173.35000576,19.5797500224,31.19325000512
1.45e-08,8.974969600000065,-179.60000512,19.5797500224,31.1963750048
1.5000000000000002e-08,12.099969280000039,-173.35000576,19.58600002176,31.20262500416
1.55e-08,12.099969280000039,-167.10000639999998,19.5797500224,31.20575000384
1.6e-08,12.099969280000039,-167.10000639999998,19.58600002176,31.20575000384
1.6500000000000002e-08,15.224968960000012,-160.85000703999998,19.57350002304,31.20887500352
1.7e-08,18.349968640000043,-167.10000639999998,19.58600002176,31.2120000032
1.75e-08,15.224968960000012,-154.60000767999998,19.59225002112,31.20887500352
1.8000000000000002e-08,18.349968640000043,-154.60000767999998,19.58600002176,31.20887500352
1.85e-08,21.474968320000016,-148.35000831999997,19.59850002048,31.19950000448
1.9e-08,21.474968320000016,-142.10000896,19.58600002176,31.1963750048
1.9500000000000003e-08,21.474968320000016,-142.10000896,19.58600002176,31.19950000448
2e-08,21.474968320000016,-135.8500096,19.59850002048,31.1963750048
2.05e-08,24.599968000000047,-142.10000896,19.59225002112,31.19325000512
2.1000000000000003e-08,24.599968000000047,-129.60001024,19.59225002112,31.19012500544
2.15e-08,27.72496768000002,-129.60001024,19.58600002176,31.19325000512
2.2000000000000002e-08,24.599968000000047,-135.8500096,19.5797500224,31.18387500608
2.2500000000000003e-08,27.72496768000002,-123.35001087999999,19.5797500224,31.18387500608
2.3e-08,27.72496768000002,-117.10001151999998,19.5797500224,31.1807500064
2.3500000000000002e-08,27.72496768000002,-117.10001151999998,19.5797500224,31.16825000768
2.4000000000000003e-08,27.72496768000002,-117.10001151999998,19.5797500224,31.15575000896
2.45e-08,33.974967040000024,-110.85001215999999,19.56725002368,31.15262500928
2.5000000000000002e-08,33.974967040000024,-110.85001215999999,19.5797500224,31.14637500992
2.55e-08,33.974967040000024,-110.85001215999999,19.59225002112,31.14325001024
2.6e-08,33.974967040000024,-110.85001215999999,19.59850002048,31.14637500992
2.6500000000000002e-08,33.974967040000024,-104.60001279999999,19.611000019200002,31.14012501056
2.7e-08,37.099966720000054,-104.60001279999999,19.60475001984,31.13700001088
2.75e-08,40.22496640000003,-104.60001279999999,19.61725001856,31.14012501056
2.8000000000000003e-08,37.099966720000054,-92.10001408,19.63600001664,31.14012501056
2.85e-08,43.34996608000006,-104.60001279999999,19.63600001664,31.14012501056
2.9e-08,43.34996608000006,-92.10001408,19.63600001664,31.14325001024
2.9500000000000003e-08,49.59996544000006,-98.35001344,19.62975001728,31.1495000096
3.0000000000000004e-08,46.47496576000003,-92.10001408,19.62350001792,31.1495000096
3.05e-08,49.59996544000006,-98.35001344,19.611000019200002,31.15887500864
3.1e-08,52.724965120000036,-92.10001408,19.61725001856,31.171375007359998
3.1500000000000004e-08,52.724965120000036,-92.10001408,19.61725001856,31.1807500064
3.2e-08,52.724965120000036,-92.10001408,19.61725001856,31.19012500544
3.25e-08,62.09996416000001,-79.60001535999999,19.59850002048,31.19325000512
3.3000000000000004e-08,58.97496448000004,-85.85001471999999,19.60475001984,31.1963750048
3.35e-08,58.97496448000004,-79.60001535999999,19.611000019200002,31.19325000512
3.4e-08,65.22496384000004,-92.10001408,19.611000019200002,31.1963750048
3.4500000000000005e-08,68.34996352000002,-73.35001599999998,19.61725001856,31.19325000512
3.5e-08,71.47496320000005,-73.35001599999998,19.59850002048,31.19325000512
3.55e-08,71.47496320000005,-67.10001663999998,19.58600002176,31.1963750048
3.6000000000000005e-08,68.34996352000002,-60.850017279999975,19.59225002112,31.19012500544
3.65e-08,74.59996288000002,-60.850017279999975,19.59225002112,31.17762500672
3.7e-08,74.59996288000002,-48.350018559999995,19.59850002048,31.16200000832
3.7500000000000005e-08,80.84996224000002,-54.60001792,19.59225002112,31.15575000896
3.8e-08,80.84996224000002,-54.60001792,19.58600002176,31.15887500864
3.85e-08,80.84996224000002,-54.60001792,19.57350002304,31.16825000768
3.9000000000000005e-08,87.09996160000003,-42.10001919999999,19.561000024320002,31.17762500672
3.95e-08,83.97496192000006,-42.10001919999999,19.55475002496,31.17450000704
4e-08,83.97496192000006,-42.10001919999999,19.5797500224,31.16825000768
4.0500000000000005e-08,87.09996160000003,-29.600020479999984,19.5797500224,31.16200000832
4.1e-08,90.22496128000006,-23.35002111999998,19.59225002112,31.165125008
4.15e-08,87.09996160000003,-23.35002111999998,19.59225002112,31.171375007359998
4.2000000000000006e-08,90.22496128000006,-17.100021759999976,19.58600002176,31.18387500608
4.2500000000000003e-08,96.47496064000006,-17.100021759999976,19.59225002112,31.187000005759998
4.3e-08,96.47496064000006,-17.100021759999976,19.58600002176,31.18387500608
4.3500000000000006e-08,93.34996096000003,-4.600023039999968,19.59850002048,31.17450000704
4.4000000000000004e-08,93.34996096000003,-4.600023039999968,19.62350001792,31.15887500864
4.45e-08,96.47496064000006,-10.850022399999972,19.62350001792,31.1495000096
4.5000000000000006e-08,96.47496064000006,7.899975680000011,19.61725001856,31.15262500928
4.5500000000000004e-08,99.59996032000004,1.6499763200000075,19.59850002048,31.15262500928
4.6e-08,96.47496064000006,-4.600023039999968,19.60475001984,31.1495000096
4.6500000000000006e-08,99.59996032000004,1.6499763200000075,19.60475001984,31.14637500992
4.7000000000000004e-08,96.47496064000006,1.6499763200000075,19.61725001856,31.14637500992
4.75e-08,96.47496064000006,1.6499763200000075,19.61725001856,31.14637500992
4.8000000000000006e-08,96.47496064000006,1.6499763200000075,19.611000019200002,31.15575000896
4.8500000000000004e-08,99.59996032000004,14.149975040000015,19.60475001984,31.165125008
4.9e-08,96.47496064000006,14.149975040000015,19.62350001792,31.171375007359998
4.95e-08,93.34996096000003,14.149975040000015,19.63600001664,31.17450000704
5.0000000000000004e-08,96.47496064000006,14.149975040000015,19.642250016000002,31.17450000704
5.05e-08,96.47496064000006,26.649973759999995,19.63600001664,31.16825000768
5.1e-08,99.59996032000004,20.39997440000002,19.611000019200002,31.16825000768
5.1500000000000005e-08,99.59996032000004,26.649973759999995,19.59850002048,31.17762500672
5.2e-08,93.34996096000003,39.14997248,19.611000019200002,31.1807500064
5.25e-08,96.47496064000006,32.89997312,19.62350001792,31.1807500064
5.3000000000000005e-08,99.59996032000004,45.399971840000006,19.63600001664,31.171375007359998
5.35e-08,99.59996032000004,45.399971840000006,19.63600001664,31.165125008
5.4e-08,96.47496064000006,39.14997248,19.642250016000002,31.15575000896
5.4500000000000005e-08,96.47496064000006,39.14997248,19.642250016000002,31.16200000832
5.5e-08,96.47496064000006,51.64997120000001,19.642250016000002,31.171375007359998
5.55e-08,96.47496064000006,57.899970560000014,19.642250016000002,31.17762500672
5.6000000000000005e-08,90.22496128000006,64.14996992000002,19.66100001408,31.171375007359998
5.65e-08,93.34996096000003,64.14996992000002,19.65475001472,31.16200000832
5.7e-08,90.22496128000006,70.39996928000002,19.6735000128,31.16200000832
5.7500000000000005e-08,87.09996160000003,70.39996928000002,19.6735000128,31.16200000832
5.8e-08,87.09996160000003,76.64996864000003,19.66725001344,31.171375007359998
5.85e-08,90.22496128000006,82.89996800000003,19.67975001216,31.17762500672
5.9000000000000006e-08,87.09996160000003,82.89996800000003,19.66725001344,31.1807500064
5.9500000000000003e-08,83.97496192000006,89.14996736000003,19.65475001472,31.1807500064
6.000000000000001e-08,80.84996224000002,95.39996672000004,19.66725001344,31.171375007359998
6.05e-08,77.72496256000005,82.89996800000003,19.6735000128,31.165125008
6.1e-08,77.72496256000005,101.64996608000004,19.67975001216,31.165125008
6.15e-08,80.84996224000002,95.39996672000004,19.68600001152,31.16825000768
6.2e-08,74.59996288000002,89.14996736000003,19.692250010880002,31.165125008
6.250000000000001e-08,77.72496256000005,89.14996736000003,19.69850001024,31.15887500864
6.300000000000001e-08,74.59996288000002,95.39996672000004,19.69850001024,31.15575000896
6.35e-08,71.47496320000005,101.64996608000004,19.7047500096,31.13700001088
6.4e-08,68.34996352000002,101.64996608000004,19.71100000896,31.13075001152
6.45e-08,71.47496320000005,101.64996608000004,19.7047500096,31.13075001152
6.5e-08,65.22496384000004,101.64996608000004,19.7047500096,31.14012501056
6.55e-08,62.09996416000001,101.64996608000004,19.7047500096,31.13700001088
6.600000000000001e-08,65.22496384000004,107.89996544000005,19.7047500096,31.14637500992
6.65e-08,68.34996352000002,107.89996544000005,19.71100000896,31.13700001088
6.7e-08,65.22496384000004,120.39996416,19.69850001024,31.1338750112
6.75e-08,62.09996416000001,114.14996480000005,19.69850001024,31.14325001024
6.8e-08,58.97496448000004,120.39996416,19.7047500096,31.15575000896
6.85e-08,58.97496448000004,114.14996480000005,19.692250010880002,31.171375007359998
6.900000000000001e-08,58.97496448000004,126.64996352,19.692250010880002,31.1807500064
6.950000000000001e-08,58.97496448000004,120.39996416,19.69850001024,31.18387500608
7e-08,52.724965120000036,120.39996416,19.69850001024,31.1807500064
7.05e-08,52.724965120000036,120.39996416,19.7047500096,31.1807500064
7.1e-08,52.724965120000036,126.64996352,19.69850001024,31.18387500608
7.15e-08,52.724965120000036,126.64996352,19.692250010880002,31.18387500608
7.200000000000001e-08,49.59996544000006,126.64996352,19.67975001216,31.18387500608
7.250000000000001e-08,52.724965120000036,139.14996224,19.6735000128,31.1807500064
7.3e-08,46.47496576000003,139.14996224,19.68600001152,31.1807500064
7.35e-08,43.34996608000006,145.3999616,19.692250010880002,31.16825000768
7.4e-08,43.34996608000006,139.14996224,19.692250010880002,31.165125008
7.45e-08,46.47496576000003,145.3999616,19.692250010880002,31.15262500928
7.500000000000001e-08,46.47496576000003,145.3999616,19.68600001152,31.1495000096
7.550000000000001e-08,40.22496640000003,151.64996096000002,19.67975001216,31.15262500928
7.6e-08,40.22496640000003,157.89996032000002,19.68600001152,31.15887500864
7.65e-08,40.22496640000003,145.3999616,19.6735000128,31.16200000832
7.7e-08,40.22496640000003,151.64996096000002,19.67975001216,31.165125008
7.75e-08,43.34996608000006,151.64996096000002,19.66725001344,31.16825000768
7.800000000000001e-08,40.22496640000003,145.3999616,19.6735000128,31.165125008
7.850000000000001e-08,37.099966720000054,145.3999616,19.6735000128,31.171375007359998
7.9e-08,40.22496640000003,151.64996096000002,19.66100001408,31.17450000704
7.95e-08,33.974967040000024,151.64996096000002,19.65475001472,31.171375007359998
8e-08,30.84996736000005,145.3999616,19.65475001472,31.17450000704
8.05e-08,30.84996736000005,151.64996096000002,19.62975001728,31.17450000704
8.100000000000001e-08,30.84996736000005,145.3999616,19.62975001728,31.17450000704
8.150000000000001e-08,27.72496768000002,139.14996224,19.642250016000002,31.171375007359998
8.2e-08,24.599968000000047,145.3999616,19.63600001664,31.17450000704
8.25e-08,27.72496768000002,145.3999616,19.642250016000002,31.16825000768
8.3e-08,24.599968000000047,145.3999616,19.62350001792,31.165125008
8.35e-08,24.599968000000047,145.3999616,19.62350001792,31.16825000768
8.400000000000001e-08,21.474968320000016,145.3999616,19.62975001728,31.17450000704
8.450000000000001e-08,21.474968320000016,132.89996288,19.62975001728,31.18387500608
8.500000000000001e-08,21.474968320000016,139.14996224,19.62350001792,31.19012500544
8.55e-08,21.474968320000016,132.89996288,19.62350001792,31.19950000448
8.6e-08,18.349968640000043,126.64996352,19.62350001792,31.19950000448
8.65e-08,18.349968640000043,126.64996352,19.62975001728,31.19950000448
8.700000000000001e-08,18.349968640000043,132.89996288,19.63600001664,31.1963750048
8.750000000000001e-08,12.099969280000039,132.89996288,19.62975001728,31.19325000512
8.800000000000001e-08,12.099969280000039,120.39996416,19.63600001664,31.19325000512
8.85e-08,15.224968960000012,126.64996352,19.611000019200002,31.1963750048
8.9e-08,15.224968960000012,120.39996416,19.611000019200002,31.19950000448
8.95e-08,8.974969600000065,114.14996480000005,19.61725001856,31.20262500416
9.000000000000001e-08,12.099969280000039,114.14996480000005,19.61725001856,31.20887500352
9.050000000000001e-08,15.224968960000012,114.14996480000005,19.62975001728,31.20575000384
9.100000000000001e-08,15.224968960000012,107.89996544000005,19.61725001856,31.20575000384
9.15e-08,12.099969280000039,107.89996544000005,19.611000019200002,31.20887500352
9.2e-08,8.974969600000065,114.14996480000005,19.62350001792,31.20887500352
9.25e-08,8.974969600000065,95.39996672000004,19.61725001856,31.20262500416
9.300000000000001e-08,8.974969600000065,101.64996608000004,19.611000019200002,31.19950000448
9.350000000000001e-08,12.099969280000039,89.14996736000003,19.59850002048,31.20262500416
9.400000000000001e-08,8.974969600000065,76.64996864000003,19.59225002112,31.19325000512
9.45e-08,5.849969920000035,82.89996800000003,19.5797500224,31.19325000512
9.5e-08,5.849969920000035,82.89996800000003,19.57350002304,31.19325000512
9.55e-08,2.7249702400000615,76.64996864000003,19.56725002368,31.19012500544
9.600000000000001e-08,2.7249702400000615,70.39996928000002,19.57350002304,31.18387500608
9.650000000000001e-08,5.849969920000035,70.39996928000002,19.561000024320002,31.17762500672
9.700000000000001e-08,-0.40002943999996887,64.14996992000002,19.56725002368,31.17450000704
9.75e-08,-0.40002943999996887,64.14996992000002,19.57350002304,31.171375007359998
9.8e-08,-0.40002943999996887,64.14996992000002,19.5797500224,31.17450000704
9.85e-08,-0.40002943999996887,64.14996992000002,19.59850002048,31.16825000768
9.9e-08,-0.40002943999996887,57.899970560000014,19.59850002048,31.16200000832
9.950000000000001e-08,-3.5250291199999424,57.899970560000014,19.611000019200002,31.15575000896
1.0000000000000001e-07,-6.650028799999973,64.14996992000002,19.62975001728,31.1495000096
1.005e-07,-9.775028479999946,51.64997120000001,19.62975001728,31.14325001024
1.01e-07,-9.775028479999946,64.14996992000002,19.63600001664,31.14325001024
1.015e-07,-6.650028799999973,51.64997120000001,19.63600001664,31.1495000096
1.02e-07,-12.900028159999977,51.64997120000001,19.63600001664,31.14637500992
1.0250000000000001e-07,-12.900028159999977,45.399971840000006,19.63600001664,31.14325001024
1.0300000000000001e-07,-16.02502783999995,51.64997120000001,19.63600001664,31.14637500992
1.0350000000000001e-07,-19.15002751999998,45.399971840000006,19.62975001728,31.14637500992
1.04e-07,-25.400026879999984,45.399971840000006,19.62975001728,31.14637500992
1.045e-07,-19.15002751999998,45.399971840000006,19.61725001856,31.15575000896
1.05e-07,-22.275027199999954,39.14997248,19.61725001856,31.16825000768
1.0550000000000001e-07,-28.525026559999958,39.14997248,19.61725001856,31.1807500064
1.0600000000000001e-07,-28.525026559999958,39.14997248,19.60475001984,31.19325000512
1.0650000000000001e-07,-28.525026559999958,39.14997248,19.59225002112,31.19325000512
1.07e-07,-34.77502591999996,32.89997312,19.5797500224,31.187000005759998
1.075e-07,-34.77502591999996,32.89997312,19.56725002368,31.19012500544
1.08e-07,-37.900025599999964,32.89997312,19.56725002368,31.187000005759998
1.0850000000000001e-07,-41.025025279999966,32.89997312,19.56725002368,31.18387500608
1.0900000000000001e-07,-37.900025599999964,32.89997312,19.55475002496,31.187000005759998
1.0950000000000001e-07,-41.025025279999966,26.649973759999995,19.55475002496,31.187000005759998
1.1e-07,-44.15002495999997,14.149975040000015,19.56725002368,31.1807500064
1.105e-07,-47.27502463999997,7.899975680000011,19.56725002368,31.18387500608
1.11e-07,-47.27502463999997,14.149975040000015,19.57350002304,31.1807500064
1.1150000000000001e-07,-53.52502399999997,7.899975680000011,19.57350002304,31.17450000704
1.1200000000000001e-07,-56.650023679999975,1.6499763200000075,19.58600002176,31.171375007359998
1.1250000000000001e-07,-50.40002431999997,7.899975680000011,19.58600002176,31.16825000768
1.13e-07,-56.650023679999975,1.6499763200000075,19.59225002112,31.16825000768
1.135e-07,-59.77502335999998,-10.850022399999972,19.60475001984,31.16200000832
1.14e-07,-56.650023679999975,-17.100021759999976,19.58600002176,31.171375007359998
1.1450000000000001e-07,-62.90002303999995,-17.100021759999976,19.57350002304,31.16825000768
1.1500000000000001e-07,-62.90002303999995,-23.35002111999998,19.54225002624,31.17450000704
1.1550000000000001e-07,-62.90002303999995,-17.100021759999976,19.53600002688,31.17762500672
1.16e-07,-66.02502271999995,-17.100021759999976,19.5485000256,31.17762500672
1.165e-07,-66.02502271999995,-35.85001983999999,19.54225002624,31.17762500672
1.17e-07,-66.02502271999995,-29.600020479999984,19.54225002624,31.17450000704
1.1750000000000001e-07,-62.90002303999995,-35.85001983999999,19.529750027520002,31.16825000768
1.1800000000000001e-07,-69.15002239999995,-48.350018559999995,19.51100002944,31.15887500864
1.1850000000000001e-07,-66.02502271999995,-48.350018559999995,19.51100002944,31.15887500864
1.1900000000000001e-07,-66.02502271999995,-42.10001919999999,19.52350002816,31.15575000896
1.195e-07,-69.15002239999995,-48.350018559999995,19.53600002688,31.15262500928
1.2000000000000002e-07,-72.27502207999996,-48.350018559999995,19.54225002624,31.1495000096
1.205e-07,-66.02502271999995,-48.350018559999995,19.529750027520002,31.14325001024
1.21e-07,-69.15002239999995,-48.350018559999995,19.529750027520002,31.14325001024
1.215e-07,-72.27502207999996,-54.60001792,19.54225002624,31.14012501056
1.22e-07,-72.27502207999996,-60.850017279999975,19.54225002624,31.14637500992
1.2250000000000002e-07,-72.27502207999996,-54.60001792,19.5485000256,31.15575000896
1.23e-07,-69.15002239999995,-60.850017279999975,19.54225002624,31.16200000832
1.2350000000000001e-07,-72.27502207999996,-60.850017279999975,19.529750027520002,31.16825000768
