Time (s),V_PRI,V_SEC,V_IN,V_OUT
0.0,-34.74990976000004,-248.12498176000003,23.56600001216,39.5626250048
5e-10,-19.124908799999957,-232.4999808,23.559750012800002,39.556375005439996
1e-09,-19.124908799999957,-216.87497984000004,23.559750012800002,39.55325000576
1.5000000000000002e-09,-19.124908799999957,-248.12498176000003,23.56600001216,39.5470000064
2e-09,-19.124908799999957,-248.12498176000003,23.559750012800002,39.5470000064
2.5e-09,-19.124908799999957,-216.87497984000004,23.56600001216,39.54387500672
3.0000000000000004e-09,-19.124908799999957,-248.12498176000003,23.57225001152,39.550125006079995
3.5000000000000003e-09,12.125093119999974,-248.12498176000003,23.57225001152,39.55325000576
4e-09,-3.4999078400001054,-263.74998272,23.57225001152,39.55950000512
4.500000000000001e-09,-3.4999078400001054,-248.12498176000003,23.559750012800002,39.565750004479995
5e-09,-3.4999078400001054,-248.12498176000003,23.54100001472,39.565750004479995
5.5000000000000004e-09,-3.4999078400001054,-263.74998272,23.54725001408,39.565750004479995
6.000000000000001e-09,-3.4999078400001054,-248.12498176000003,23.528500016000002,39.556375005439996
6.5e-09,12.125093119999974,-248.12498176000003,23.52225001664,39.5470000064
7.000000000000001e-09,-3.4999078400001054,-248.12498176000003,23.51600001728,39.540750007039996
7.500000000000001e-09,12.125093119999974,-248.12498176000003,23.50350001856,39.540750007039996
8e-09,12.125093119999974,-248.12498176000003,23.497250019200003,39.53762500736
8.5e-09,27.750094080000054,-248.12498176000003,23.48475002048,39.53762500736
9.000000000000001e-09,27.750094080000054,-232.4999808,23.478500021120002,39.54387500672
9.5e-09,27.750094080000054,-232.4999808,23.49100001984,39.54387500672
1e-08,43.375095039999906,-248.12498176000003,23.48475002048,39.550125006079995
1.0500000000000001e-08,43.375095039999906,-216.87497984000004,23.478500021120002,39.565750004479995
1.1000000000000001e-08,43.375095039999906,-248.12498176000003,23.478500021120002,39.58450000256
1.15e-08,59.000095999999985,-248.12498176000003,23.478500021120002,39.59075000192
1.2000000000000002e-08,43.375095039999906,-263.74998272,23.478500021120002,39.603250000639996
1.2500000000000001e-08,43.375095039999906,-232.4999808,23.478500021120002,39.612624999679994
1.3e-08,43.375095039999906,-232.4999808,23.478500021120002,39.61574999936
1.35e-08,59.000095999999985,-232.4999808,23.49100001984,39.612624999679994
1.4000000000000001e-08,43.375095039999906,-216.87497984000004,23.48475002048,39.612624999679994
1.45e-08,59.000095999999985,-201.24997888000001,23.509750017920002,39.6095
1.5000000000000002e-08,59.000095999999985,-216.87497984000004,23.51600001728,39.60012500096
1.55e-08,59.000095999999985,-216.87497984000004,23.528500016000002,39.60012500096
1.6e-08,74.62509695999984,-201.24997888000001,23.54100001472,39.60637500032
1.6500000000000002e-08,74.62509695999984,-216.87497984000004,23.54100001472,39.60637500032
1.7e-08,74.62509695999984,-185.62497792,23.54725001408,39.618874999039996
1.75e-08,74.62509695999984,-185.62497792,23.55350001344,39.60637500032
1.8000000000000002e-08,74.62509695999984,-201.24997888000001,23.54100001472,39.603250000639996
1.85e-08,74.62509695999984,-169.99997696000003,23.54725001408,39.59075000192
1.9e-08,90.25009791999992,-169.99997696000003,23.54725001408,39.58450000256
1.9500000000000003e-08,105.87509888,-185.62497792,23.559750012800002,39.5782500032
2e-08,74.62509695999984,-201.24997888000001,23.56600001216,39.5782500032
2.05e-08,90.25009791999992,-169.99997696000003,23.56600001216,39.57512500352
2.1000000000000003e-08,105.87509888,-169.99997696000003,23.56600001216,39.572000003839996
2.15e-08,90.25009791999992,-154.374976,23.56600001216,39.565750004479995
2.2000000000000002e-08,74.62509695999984,-154.374976,23.56600001216,39.565750004479995
2.2500000000000003e-08,105.87509888,-154.374976,23.578500010880003,39.5626250048
2.3e-08,105.87509888,-169.99997696000003,23.578500010880003,39.556375005439996
2.3500000000000002e-08,105.87509888,-154.374976,23.56600001216,39.55950000512
2.4000000000000003e-08,90.25009791999992,-138.74997504000004,23.559750012800002,39.55325000576
2.45e-08,121.50009983999985,-154.374976,23.54725001408,39.550125006079995
2.5000000000000002e-08,105.87509888,-123.12497408000002,23.54100001472,39.550125006079995
2.55e-08,105.87509888,-123.12497408000002,23.559750012800002,39.54387500672
2.6e-08,105.87509888,-138.74997504000004,23.559750012800002,39.52825000832
2.6500000000000002e-08,105.87509888,-107.49997311999999,23.578500010880003,39.52200000896
2.7e-08,121.50009983999985,-123.12497408000002,23.59725000896,39.518875009279995
2.75e-08,152.75010176,-138.74997504000004,23.609750007680002,39.50950001024
2.8000000000000003e-08,121.50009983999985,-138.74997504000004,23.6222500064,39.5157500096
2.85e-08,121.50009983999985,-123.12497408000002,23.62850000576,39.518875009279995
2.9e-08,137.12510079999993,-107.49997311999999,23.62850000576,39.518875009279995
2.9500000000000003e-08,137.12510079999993,-123.12497408000002,23.62850000576,39.52200000896
3.0000000000000004e-08,121.50009983999985,-123.12497408000002,23.60350000832,39.52825000832
3.05e-08,137.12510079999993,-123.12497408000002,23.59725000896,39.54387500672
3.1e-08,121.50009983999985,-123.12497408000002,23.578500010880003,39.55325000576
3.1500000000000004e-08,137.12510079999993,-123.12497408000002,23.54725001408,39.572000003839996
3.2e-08,152.75010176,-107.49997311999999,23.53475001536,39.58450000256
3.25e-08,152.75010176,-107.49997311999999,23.509750017920002,39.5938750016
3.3000000000000004e-08,152.75010176,-91.87497216000003,23.51600001728,39.60637500032
3.35e-08,152.75010176,-76.2499712,23.53475001536,39.60637500032
3.4e-08,152.75010176,-107.49997311999999,23.53475001536,39.60637500032
3.4500000000000005e-08,168.37510271999986,-76.2499712,23.528500016000002,39.60012500096
3.5e-08,152.75010176,-91.87497216000003,23.53475001536,39.587625002239996
3.55e-08,184.00010367999994,-91.87497216000003,23.54100001472,39.57512500352
3.6000000000000005e-08,168.37510271999986,-91.87497216000003,23.54100001472,39.57512500352
3.65e-08,184.00010367999994,-76.2499712,23.528500016000002,39.572000003839996
3.7e-08,168.37510271999986,-60.62497024000004,23.52225001664,39.56887500416
3.7500000000000005e-08,168.37510271999986,-76.2499712,23.51600001728,39.556375005439996
3.8e-08,168.37510271999986,-60.62497024000004,23.497250019200003,39.550125006079995
3.85e-08,199.62510464000002,-60.62497024000004,23.509750017920002,39.54387500672
3.9000000000000005e-08,184.00010367999994,-60.62497024000004,23.51600001728,39.540750007039996
3.95e-08,184.00010367999994,-60.62497024000004,23.528500016000002,39.54387500672
4e-08,184.00010367999994,-44.999969280000016,23.53475001536,39.54387500672
4.0500000000000005e-08,199.62510464000002,-29.374968319999994,23.52225001664,39.540750007039996
4.1e-08,184.00010367999994,-44.999969280000016,23.53475001536,39.550125006079995
4.15e-08,184.00010367999994,-29.374968319999994,23.55350001344,39.550125006079995
4.2000000000000006e-08,184.00010367999994,-44.999969280000016,23.559750012800002,39.55325000576
4.2500000000000003e-08,184.00010367999994,1.875033599999938,23.55350001344,39.556375005439996
4.3e-08,184.00010367999994,-13.749967360000028,23.528500016000002,39.556375005439996
4.3500000000000006e-08,215.25010559999987,-29.374968319999994,23.49100001984,39.54387500672
4.4000000000000004e-08,184.00010367999994,-29.374968319999994,23.45975002304,39.540750007039996
4.45e-08,199.62510464000002,1.875033599999938,23.44100002496,39.531375008
4.5000000000000006e-08,199.62510464000002,1.875033599999938,23.428500026240002,39.518875009279995
4.5500000000000004e-08,199.62510464000002,1.875033599999938,23.428500026240002,39.512625009919994
4.6e-08,184.00010367999994,1.875033599999938,23.4035000288,39.512625009919994
4.6500000000000006e-08,199.62510464000002,17.500034560000017,23.397250029440002,39.518875009279995
4.7000000000000004e-08,184.00010367999994,17.500034560000017,23.40975002816,39.52200000896
4.75e-08,184.00010367999994,1.875033599999938,23.416000027520003,39.531375008
4.8000000000000006e-08,184.00010367999994,17.500034560000017,23.44100002496,39.53762500736
4.8500000000000004e-08,199.62510464000002,33.12503551999998,23.44100002496,39.550125006079995
4.9e-08,184.00010367999994,17.500034560000017,23.44100002496,39.565750004479995
4.95e-08,184.00010367999994,33.12503551999998,23.447250024320002,39.57512500352
5.0000000000000004e-08,168.37510271999986,33.12503551999998,23.45350002368,39.5782500032
5.05e-08,168.37510271999986,48.75003647999995,23.45350002368,39.5782500032
5.1e-08,184.00010367999994,33.12503551999998,23.447250024320002,39.57512500352
5.1500000000000005e-08,184.00010367999994,33.12503551999998,23.4347500256,39.57512500352
5.2e-08,168.37510271999986,17.500034560000017,23.4347500256,39.581375002879994
5.25e-08,168.37510271999986,48.75003647999995,23.428500026240002,39.587625002239996
5.3000000000000005e-08,168.37510271999986,48.75003647999995,23.428500026240002,39.587625002239996
5.35e-08,168.37510271999986,48.75003647999995,23.428500026240002,39.57512500352
5.4e-08,152.75010176,64.37503744000003,23.416000027520003,39.5626250048
5.4500000000000005e-08,168.37510271999986,64.37503744000003,23.42225002688,39.556375005439996
5.5e-08,152.75010176,64.37503744000003,23.40975002816,39.55325000576
5.55e-08,152.75010176,48.75003647999995,23.4035000288,39.55325000576
5.6000000000000005e-08,152.75010176,80.0000384,23.4035000288,39.54387500672
5.65e-08,152.75010176,80.0000384,23.37850003136,39.540750007039996
5.7e-08,152.75010176,95.62503935999996,23.372250032,39.54387500672
5.7500000000000005e-08,137.12510079999993,95.62503935999996,23.37850003136,39.54387500672
5.8e-08,121.50009983999985,80.0000384,23.38475003072,39.550125006079995
5.85e-08,137.12510079999993,126.87504128,23.4035000288,39.5470000064
5.9000000000000006e-08,137.12510079999993,95.62503935999996,23.416000027520003,39.550125006079995
5.9500000000000003e-08,152.75010176,80.0000384,23.428500026240002,39.550125006079995
6.000000000000001e-08,121.50009983999985,95.62503935999996,23.44100002496,39.550125006079995
6.05e-08,121.50009983999985,126.87504128,23.45975002304,39.55950000512
6.1e-08,121.50009983999985,126.87504128,23.478500021120002,39.55325000576
6.15e-08,105.87509888,142.50004223999997,23.478500021120002,39.5470000064
6.2e-08,105.87509888,126.87504128,23.45975002304,39.54387500672
6.250000000000001e-08,121.50009983999985,126.87504128,23.45350002368,39.53762500736
6.300000000000001e-08,105.87509888,126.87504128,23.44100002496,39.531375008
6.35e-08,90.25009791999992,126.87504128,23.428500026240002,39.531375008
6.4e-08,105.87509888,142.50004223999997,23.44100002496,39.518875009279995
6.45e-08,90.25009791999992,142.50004223999997,23.44100002496,39.50950001024
6.5e-08,90.25009791999992,142.50004223999997,23.45975002304,39.50950001024
6.55e-08,74.62509695999984,158.12504319999994,23.48475002048,39.50637501056
6.600000000000001e-08,74.62509695999984,142.50004223999997,23.49100001984,39.5157500096
6.65e-08,74.62509695999984,173.75004416000002,23.497250019200003,39.525125008639996
6.7e-08,74.62509695999984,142.50004223999997,23.48475002048,39.531375008
6.75e-08,74.62509695999984,142.50004223999997,23.4660000224,39.534500007679995
6.8e-08,59.000095999999985,126.87504128,23.44100002496,39.54387500672
6.85e-08,59.000095999999985,158.12504319999994,23.40975002816,39.550125006079995
6.900000000000001e-08,59.000095999999985,158.12504319999994,23.39100003008,39.55950000512
6.950000000000001e-08,59.000095999999985,173.75004416000002,23.38475003072,39.556375005439996
7e-08,27.750094080000054,158.12504319999994,23.372250032,39.55325000576
7.05e-08,74.62509695999984,158.12504319999994,23.397250029440002,39.55325000576
7.1e-08,43.375095039999906,158.12504319999994,23.428500026240002,39.55325000576
7.15e-08,12.125093119999974,173.75004416000002,23.4660000224,39.556375005439996
7.200000000000001e-08,27.750094080000054,173.75004416000002,23.51600001728,39.55950000512
7.250000000000001e-08,43.375095039999906,158.12504319999994,23.528500016000002,39.5626250048
7.3e-08,43.375095039999906,189.37504511999998,23.53475001536,39.56887500416
7.35e-08,27.750094080000054,205.00004607999995,23.528500016000002,39.57512500352
7.4e-08,12.125093119999974,173.75004416000002,23.50350001856,39.57512500352
7.45e-08,27.750094080000054,205.00004607999995,23.4660000224,39.5782500032
7.500000000000001e-08,12.125093119999974,189.37504511999998,23.4347500256,39.581375002879994
7.550000000000001e-08,27.750094080000054,189.37504511999998,23.4035000288,39.57512500352
7.6e-08,-3.4999078400001054,173.75004416000002,23.39100003008,39.572000003839996
7.65e-08,12.125093119999974,205.00004607999995,23.39100003008,39.565750004479995
7.7e-08,12.125093119999974,189.37504511999998,23.416000027520003,39.565750004479995
7.75e-08,-3.4999078400001054,189.37504511999998,23.447250024320002,39.5626250048
7.800000000000001e-08,-19.124908799999957,189.37504511999998,23.478500021120002,39.556375005439996
7.850000000000001e-08,12.125093119999974,205.00004607999995,23.509750017920002,39.550125006079995
7.9e-08,-3.4999078400001054,205.00004607999995,23.51600001728,39.534500007679995
7.95e-08,-19.124908799999957,189.37504511999998,23.497250019200003,39.531375008
8e-08,-19.124908799999957,205.00004607999995,23.4660000224,39.525125008639996
8.05e-08,-3.4999078400001054,189.37504511999998,23.416000027520003,39.52200000896
8.100000000000001e-08,-19.124908799999957,220.62504704000003,23.38475003072,39.534500007679995
8.150000000000001e-08,-34.74990976000004,220.62504704000003,23.35975003328,39.54387500672
8.2e-08,-34.74990976000004,173.75004416000002,23.3410000352,39.556375005439996
8.25e-08,-34.74990976000004,220.62504704000003,23.334750035840003,39.565750004479995
8.3e-08,-34.74990976000004,173.75004416000002,23.35350003392,39.5782500032
8.35e-08,-19.124908799999957,173.75004416000002,23.38475003072,39.57512500352
8.400000000000001e-08,-50.374910720000116,158.12504319999994,23.416000027520003,39.57512500352
8.450000000000001e-08,-50.374910720000116,189.37504511999998,23.45975002304,39.57512500352
8.500000000000001e-08,-50.374910720000116,189.37504511999998,23.478500021120002,39.57512500352
8.55e-08,-65.99991167999997,173.75004416000002,23.48475002048,39.572000003839996
8.6e-08,-65.99991167999997,173.75004416000002,23.45350002368,39.56887500416
8.65e-08,-50.374910720000116,189.37504511999998,23.4347500256,39.565750004479995
8.700000000000001e-08,-65.99991167999997,173.75004416000002,23.4035000288,39.565750004479995
8.750000000000001e-08,-65.99991167999997,158.12504319999994,23.37850003136,39.5782500032
8.800000000000001e-08,-81.62491264000005,173.75004416000002,23.366000032640002,39.587625002239996
8.85e-08,-65.99991167999997,173.75004416000002,23.366000032640002,39.60012500096
8.9e-08,-81.62491264000005,173.75004416000002,23.37850003136,39.61574999936
8.95e-08,-81.62491264000005,173.75004416000002,23.42225002688,39.618874999039996
9.000000000000001e-08,-97.24991360000013,142.50004223999997,23.45975002304,39.628249998079994
9.050000000000001e-08,-65.99991167999997,189.37504511999998,23.478500021120002,39.628249998079994
9.100000000000001e-08,-97.24991360000013,142.50004223999997,23.48475002048,39.62199999872
9.15e-08,-65.99991167999997,126.87504128,23.48475002048,39.612624999679994
9.2e-08,-97.24991360000013,126.87504128,23.4660000224,39.603250000639996
9.25e-08,-97.24991360000013,126.87504128,23.44100002496,39.5938750016
9.300000000000001e-08,-81.62491264000005,126.87504128,23.4035000288,39.5782500032
9.350000000000001e-08,-112.87491455999998,126.87504128,23.37850003136,39.56887500416
9.400000000000001e-08,-97.24991360000013,126.87504128,23.347250034560002,39.5626250048
9.45e-08,-81.62491264000005,111.25004031999993,23.35975003328,39.55950000512
9.5e-08,-112.87491455999998,111.25004031999993,23.37850003136,39.556375005439996
9.55e-08,-112.87491455999998,95.62503935999996,23.397250029440002,39.55950000512
9.600000000000001e-08,-112.87491455999998,111.25004031999993,23.428500026240002,39.550125006079995
9.650000000000001e-08,-97.24991360000013,95.62503935999996,23.4347500256,39.5470000064
9.700000000000001e-08,-112.87491455999998,95.62503935999996,23.45350002368,39.54387500672
9.75e-08,-112.87491455999998,111.25004031999993,23.478500021120002,39.54387500672
9.8e-08,-112.87491455999998,80.0000384,23.48475002048,39.5470000064
9.85e-08,-128.49991552000006,111.25004031999993,23.478500021120002,39.550125006079995
9.9e-08,-112.87491455999998,95.62503935999996,23.45975002304,39.55325000576
9.950000000000001e-08,-97.24991360000013,64.37503744000003,23.45350002368,39.550125006079995
1.0000000000000001e-07,-144.12491648000014,64.37503744000003,23.4660000224,39.5470000064
1.005e-07,-128.49991552000006,80.0000384,23.478500021120002,39.540750007039996
1.01e-07,-128.49991552000006,80.0000384,23.50350001856,39.534500007679995
1.015e-07,-128.49991552000006,64.37503744000003,23.53475001536,39.525125008639996
1.02e-07,-144.12491648000014,80.0000384,23.55350001344,39.518875009279995
1.0250000000000001e-07,-128.49991552000006,64.37503744000003,23.578500010880003,39.5157500096
1.0300000000000001e-07,-159.74991744,64.37503744000003,23.57225001152,39.512625009919994
1.0350000000000001e-07,-159.74991744,48.75003647999995,23.55350001344,39.52200000896
1.04e-07,-159.74991744,64.37503744000003,23.53475001536,39.52200000896
1.045e-07,-144.12491648000014,64.37503744000003,23.49100001984,39.531375008
1.05e-07,-159.74991744,64.37503744000003,23.47225002176,39.550125006079995
1.0550000000000001e-07,-175.37491840000007,64.37503744000003,23.48475002048,39.5626250048
1.0600000000000001e-07,-175.37491840000007,64.37503744000003,23.478500021120002,39.57512500352
1.0650000000000001e-07,-175.37491840000007,80.0000384,23.48475002048,39.59075000192
1.07e-07,-175.37491840000007,48.75003647999995,23.497250019200003,39.60637500032
1.075e-07,-159.74991744,33.12503551999998,23.51600001728,39.60637500032
1.08e-07,-175.37491840000007,33.12503551999998,23.528500016000002,39.6095
1.0850000000000001e-07,-175.37491840000007,48.75003647999995,23.53475001536,39.612624999679994
1.0900000000000001e-07,-175.37491840000007,48.75003647999995,23.528500016000002,39.603250000639996
1.0950000000000001e-07,-175.37491840000007,48.75003647999995,23.509750017920002,39.5938750016
1.1e-07,-190.99991936000015,33.12503551999998,23.478500021120002,39.58450000256
1.105e-07,-175.37491840000007,33.12503551999998,23.48475002048,39.572000003839996
1.11e-07,-190.99991936000015,17.500034560000017,23.49100001984,39.556375005439996
1.1150000000000001e-07,-206.62492032,1.875033599999938,23.50350001856,39.5470000064
1.1200000000000001e-07,-190.99991936000015,17.500034560000017,23.51600001728,39.53762500736
1.1250000000000001e-07,-190.99991936000015,1.875033599999938,23.50350001856,39.531375008
1.13e-07,-206.62492032,1.875033599999938,23.51600001728,39.53762500736
1.135e-07,-206.62492032,17.500034560000017,23.559750012800002,39.540750007039996
1.14e-07,-222.24992128000008,-13.749967360000028,23.578500010880003,39.540750007039996
1.1450000000000001e-07,-206.62492032,1.875033599999938,23.591000009600002,39.540750007039996
1.1500000000000001e-07,-206.62492032,-13.749967360000028,23.591000009600002,39.5470000064
1.1550000000000001e-07,-190.99991936000015,-29.374968319999994,23.56600001216,39.550125006079995
1.16e-07,-206.62492032,-44.999969280000016,23.54100001472,39.55950000512
1.165e-07,-206.62492032,-29.374968319999994,23.51600001728,39.565750004479995
1.17e-07,-190.99991936000015,-13.749967360000028,23.497250019200003,39.5626250048
1.1750000000000001e-07,-206.62492032,-44.999969280000016,23.47225002176,39.556375005439996
1.1800000000000001e-07,-222.24992128000008,-44.999969280000016,23.447250024320002,39.55325000576
1.1850000000000001e-07,-206.62492032,-44.999969280000016,23.447250024320002,39.55325000576
1.1900000000000001e-07,-206.62492032,-44.999969280000016,23.4660000224,39.55325000576
