Time (s),V_PRI,V_SEC,V_IN,V_OUT
0.0,-25.35005695999996,-232.4999808,24.18175001728,39.01562500608
5e-10,-19.100057600000014,-232.4999808,24.163000019200002,39.018750005760005
1e-09,-19.100057600000014,-232.4999808,24.163000019200002,39.0281250048
1.5000000000000002e-09,-12.850058239999953,-232.4999808,24.17550001792,39.0281250048
2e-09,-19.100057600000014,-248.12498176000003,24.18175001728,39.0281250048
2.5e-09,-12.850058239999953,-216.87497984000004,24.194250016,39.034375004160005
3.0000000000000004e-09,-12.850058239999953,-248.12498176000003,24.194250016,39.040625003520006
3.5000000000000003e-09,-6.600058880000006,-263.74998272,24.20050001536,39.03750000384
4e-09,-12.850058239999953,-263.74998272,24.20050001536,39.03750000384
4.500000000000001e-09,-12.850058239999953,-263.74998272,24.20675001472,39.034375004160005
5e-09,-6.600058880000006,-232.4999808,24.20050001536,39.03125000448
5.5000000000000004e-09,-6.600058880000006,-248.12498176000003,24.20050001536,39.025000005120006
6.000000000000001e-09,-12.850058239999953,-248.12498176000003,24.18175001728,39.0281250048
6.5e-09,-0.3500595199999452,-248.12498176000003,24.18175001728,39.0281250048
7.000000000000001e-09,-0.3500595199999452,-248.12498176000003,24.17550001792,39.025000005120006
7.500000000000001e-09,-6.600058880000006,-232.4999808,24.16925001856,39.0281250048
8e-09,-0.3500595199999452,-232.4999808,24.163000019200002,39.0281250048
8.5e-09,5.899939840000002,-232.4999808,24.14425002112,39.034375004160005
9.000000000000001e-09,5.899939840000002,-232.4999808,24.13800002176,39.04687500288
9.5e-09,-0.3500595199999452,-216.87497984000004,24.15050002048,39.0437500032
1e-08,5.899939840000002,-232.4999808,24.13800002176,39.04687500288
1.0500000000000001e-08,5.899939840000002,-201.24997888000001,24.13800002176,39.04687500288
1.1000000000000001e-08,5.899939840000002,-232.4999808,24.13800002176,39.050000002560004
1.15e-08,18.39993856000001,-232.4999808,24.13800002176,39.0437500032
1.2000000000000002e-08,12.149939200000063,-248.12498176000003,24.1317500224,39.0437500032
1.2500000000000001e-08,12.149939200000063,-232.4999808,24.1317500224,39.0437500032
1.3e-08,18.39993856000001,-216.87497984000004,24.1317500224,39.0437500032
1.35e-08,12.149939200000063,-216.87497984000004,24.1317500224,39.04687500288
1.4000000000000001e-08,5.899939840000002,-201.24997888000001,24.12550002304,39.05312500224
1.45e-08,18.39993856000001,-201.24997888000001,24.11925002368,39.065625000960004
1.5000000000000002e-08,18.39993856000001,-201.24997888000001,24.12550002304,39.06250000128
1.55e-08,12.149939200000063,-232.4999808,24.1317500224,39.06875000064
1.6e-08,18.39993856000001,-185.62497792,24.1317500224,39.071875000320006
1.6500000000000002e-08,24.649937919999957,-201.24997888000001,24.12550002304,39.06875000064
1.7e-08,24.649937919999957,-169.99997696000003,24.12550002304,39.07812499968
1.75e-08,24.649937919999957,-169.99997696000003,24.14425002112,39.071875000320006
1.8000000000000002e-08,18.39993856000001,-185.62497792,24.14425002112,39.071875000320006
1.85e-08,24.649937919999957,-154.374976,24.15050002048,39.06875000064
1.9e-08,30.899937280000017,-185.62497792,24.15675001984,39.06250000128
1.9500000000000003e-08,37.149936639999964,-185.62497792,24.163000019200002,39.05312500224
2e-08,24.649937919999957,-185.62497792,24.15050002048,39.04687500288
2.05e-08,30.899937280000017,-154.374976,24.15050002048,39.040625003520006
2.1000000000000003e-08,30.899937280000017,-154.374976,24.13800002176,39.0281250048
2.15e-08,37.149936639999964,-169.99997696000003,24.1317500224,39.018750005760005
2.2000000000000002e-08,24.649937919999957,-154.374976,24.10675002496,39.0125000064
2.2500000000000003e-08,37.149936639999964,-154.374976,24.10675002496,39.009375006720006
2.3e-08,37.149936639999964,-138.74997504000004,24.1005000256,39.003125007360005
2.3500000000000002e-08,30.899937280000017,-154.374976,24.10675002496,39.003125007360005
2.4000000000000003e-08,37.149936639999964,-138.74997504000004,24.11925002368,38.996875008
2.45e-08,43.399936000000025,-138.74997504000004,24.11300002432,38.993750008320006
2.5000000000000002e-08,43.399936000000025,-123.12497408000002,24.12550002304,38.996875008
2.55e-08,43.399936000000025,-107.49997311999999,24.14425002112,38.993750008320006
2.6e-08,43.399936000000025,-138.74997504000004,24.14425002112,38.99062500864
2.6500000000000002e-08,43.399936000000025,-91.87497216000003,24.15675001984,38.98437500928
2.7e-08,49.64993535999997,-123.12497408000002,24.16925001856,38.987500008960005
2.75e-08,55.89993472000003,-123.12497408000002,24.18175001728,38.98437500928
2.8000000000000003e-08,49.64993535999997,-138.74997504000004,24.18175001728,39.00000000768
2.85e-08,49.64993535999997,-123.12497408000002,24.18175001728,39.0125000064
2.9e-08,62.14993407999998,-107.49997311999999,24.18175001728,39.018750005760005
2.9500000000000003e-08,62.14993407999998,-123.12497408000002,24.18800001664,39.02187500544
3.0000000000000004e-08,55.89993472000003,-123.12497408000002,24.17550001792,39.0281250048
3.05e-08,62.14993407999998,-107.49997311999999,24.18175001728,39.034375004160005
3.1e-08,62.14993407999998,-107.49997311999999,24.20050001536,39.0437500032
3.1500000000000004e-08,62.14993407999998,-107.49997311999999,24.194250016,39.056250001920006
3.2e-08,68.39993344000004,-91.87497216000003,24.18800001664,39.056250001920006
3.25e-08,74.64993279999999,-91.87497216000003,24.16925001856,39.050000002560004
3.3000000000000004e-08,74.64993279999999,-91.87497216000003,24.163000019200002,39.04687500288
3.35e-08,80.89993216000005,-91.87497216000003,24.17550001792,39.040625003520006
3.4e-08,74.64993279999999,-107.49997311999999,24.17550001792,39.03750000384
3.4500000000000005e-08,87.14993152,-60.62497024000004,24.163000019200002,39.040625003520006
3.5e-08,80.89993216000005,-76.2499712,24.15050002048,39.0437500032
3.55e-08,93.39993088000006,-91.87497216000003,24.13800002176,39.034375004160005
3.6000000000000005e-08,87.14993152,-91.87497216000003,24.13800002176,39.025000005120006
3.65e-08,93.39993088000006,-60.62497024000004,24.15675001984,39.018750005760005
3.7e-08,93.39993088000006,-60.62497024000004,24.15050002048,39.01562500608
3.7500000000000005e-08,93.39993088000006,-60.62497024000004,24.13800002176,39.018750005760005
3.8e-08,93.39993088000006,-44.999969280000016,24.10675002496,39.0281250048
3.85e-08,105.89992960000006,-44.999969280000016,24.1005000256,39.03750000384
3.9000000000000005e-08,105.89992960000006,-44.999969280000016,24.11925002368,39.03125000448
3.95e-08,105.89992960000006,-44.999969280000016,24.14425002112,39.03125000448
4e-08,105.89992960000006,-29.374968319999994,24.16925001856,39.02187500544
4.0500000000000005e-08,118.39992831999996,-44.999969280000016,24.15675001984,39.018750005760005
4.1e-08,112.14992896000001,-13.749967360000028,24.15050002048,39.025000005120006
4.15e-08,112.14992896000001,1.875033599999938,24.14425002112,39.025000005120006
4.2000000000000006e-08,112.14992896000001,-29.374968319999994,24.15050002048,39.02187500544
4.2500000000000003e-08,118.39992831999996,17.500034560000017,24.163000019200002,39.01562500608
4.3e-08,118.39992831999996,-13.749967360000028,24.16925001856,39.0125000064
4.3500000000000006e-08,124.64992768000002,-29.374968319999994,24.17550001792,39.00000000768
4.4000000000000004e-08,118.39992831999996,-29.374968319999994,24.16925001856,38.996875008
4.45e-08,124.64992768000002,-13.749967360000028,24.17550001792,39.003125007360005
4.5000000000000006e-08,124.64992768000002,1.875033599999938,24.16925001856,39.00625000704
4.5500000000000004e-08,118.39992831999996,1.875033599999938,24.17550001792,39.009375006720006
4.6e-08,112.14992896000001,1.875033599999938,24.16925001856,39.009375006720006
4.6500000000000006e-08,124.64992768000002,17.500034560000017,24.17550001792,39.00625000704
4.7000000000000004e-08,124.64992768000002,1.875033599999938,24.17550001792,39.00625000704
4.75e-08,118.39992831999996,1.875033599999938,24.17550001792,39.01562500608
4.8000000000000006e-08,124.64992768000002,17.500034560000017,24.194250016,39.0281250048
4.8500000000000004e-08,124.64992768000002,17.500034560000017,24.194250016,39.034375004160005
4.9e-08,124.64992768000002,33.12503551999998,24.20050001536,39.03750000384
4.95e-08,124.64992768000002,48.75003647999995,24.20675001472,39.025000005120006
5.0000000000000004e-08,112.14992896000001,33.12503551999998,24.194250016,39.018750005760005
5.05e-08,124.64992768000002,64.37503744000003,24.194250016,39.01562500608
5.1e-08,118.39992831999996,33.12503551999998,24.18800001664,39.025000005120006
5.1500000000000005e-08,124.64992768000002,33.12503551999998,24.194250016,39.025000005120006
5.2e-08,118.39992831999996,33.12503551999998,24.20050001536,39.02187500544
5.25e-08,118.39992831999996,64.37503744000003,24.21925001344,39.01562500608
5.3000000000000005e-08,118.39992831999996,48.75003647999995,24.21925001344,39.0125000064
5.35e-08,112.14992896000001,48.75003647999995,24.23175001216,39.009375006720006
5.4e-08,112.14992896000001,80.0000384,24.21300001408,39.02187500544
5.4500000000000005e-08,118.39992831999996,48.75003647999995,24.2255000128,39.03125000448
5.5e-08,112.14992896000001,80.0000384,24.2255000128,39.034375004160005
5.55e-08,105.89992960000006,64.37503744000003,24.23800001152,39.034375004160005
5.6000000000000005e-08,112.14992896000001,95.62503935999996,24.2567500096,39.0281250048
5.65e-08,112.14992896000001,95.62503935999996,24.25050001024,39.018750005760005
5.7e-08,105.89992960000006,95.62503935999996,24.244250010880002,39.0281250048
5.7500000000000005e-08,118.39992831999996,111.25004031999993,24.244250010880002,39.0281250048
5.8e-08,105.89992960000006,95.62503935999996,24.23175001216,39.0281250048
5.85e-08,105.89992960000006,126.87504128,24.23800001152,39.0281250048
5.9000000000000006e-08,105.89992960000006,111.25004031999993,24.23800001152,39.025000005120006
5.9500000000000003e-08,112.14992896000001,95.62503935999996,24.244250010880002,39.009375006720006
6.000000000000001e-08,99.64993024,95.62503935999996,24.2567500096,39.00625000704
6.05e-08,99.64993024,111.25004031999993,24.2567500096,39.00000000768
6.1e-08,99.64993024,126.87504128,24.26300000896,39.00000000768
6.15e-08,93.39993088000006,126.87504128,24.27550000768,39.003125007360005
6.2e-08,93.39993088000006,126.87504128,24.27550000768,38.996875008
6.250000000000001e-08,99.64993024,126.87504128,24.28175000704,38.99062500864
6.300000000000001e-08,87.14993152,126.87504128,24.2880000064,38.97812500992
6.35e-08,87.14993152,111.25004031999993,24.2880000064,38.981250009600004
6.4e-08,80.89993216000005,142.50004223999997,24.30675000448,38.981250009600004
6.45e-08,93.39993088000006,142.50004223999997,24.29425000576,38.987500008960005
6.5e-08,87.14993152,142.50004223999997,24.2880000064,39.00000000768
6.55e-08,87.14993152,158.12504319999994,24.30050000512,38.996875008
6.600000000000001e-08,80.89993216000005,158.12504319999994,24.29425000576,38.996875008
6.65e-08,74.64993279999999,173.75004416000002,24.30050000512,39.00000000768
6.7e-08,74.64993279999999,142.50004223999997,24.30675000448,39.0125000064
6.75e-08,80.89993216000005,126.87504128,24.30050000512,39.01562500608
6.8e-08,68.39993344000004,142.50004223999997,24.30675000448,39.03125000448
6.85e-08,68.39993344000004,158.12504319999994,24.30675000448,39.040625003520006
6.900000000000001e-08,68.39993344000004,158.12504319999994,24.29425000576,39.03750000384
6.950000000000001e-08,68.39993344000004,158.12504319999994,24.29425000576,39.03750000384
7e-08,55.89993472000003,158.12504319999994,24.27550000768,39.0281250048
7.05e-08,68.39993344000004,158.12504319999994,24.26925000832,39.025000005120006
7.1e-08,62.14993407999998,173.75004416000002,24.26300000896,39.025000005120006
7.15e-08,55.89993472000003,173.75004416000002,24.2567500096,39.03125000448
7.200000000000001e-08,55.89993472000003,189.37504511999998,24.26925000832,39.03125000448
7.250000000000001e-08,55.89993472000003,173.75004416000002,24.26300000896,39.03125000448
7.3e-08,55.89993472000003,189.37504511999998,24.28175000704,39.03125000448
7.35e-08,55.89993472000003,189.37504511999998,24.29425000576,39.02187500544
7.4e-08,49.64993535999997,173.75004416000002,24.28175000704,39.01562500608
7.45e-08,55.89993472000003,205.00004607999995,24.28175000704,39.0125000064
7.500000000000001e-08,49.64993535999997,189.37504511999998,24.26925000832,39.018750005760005
7.550000000000001e-08,55.89993472000003,158.12504319999994,24.26925000832,39.0125000064
7.6e-08,49.64993535999997,173.75004416000002,24.25050001024,39.01562500608
7.65e-08,49.64993535999997,173.75004416000002,24.23800001152,39.01562500608
7.7e-08,49.64993535999997,205.00004607999995,24.2255000128,39.009375006720006
7.75e-08,43.399936000000025,189.37504511999998,24.2255000128,39.0125000064
7.800000000000001e-08,37.149936639999964,189.37504511999998,24.21925001344,39.01562500608
7.850000000000001e-08,49.64993535999997,189.37504511999998,24.21925001344,39.02187500544
7.9e-08,43.399936000000025,189.37504511999998,24.21925001344,39.025000005120006
7.95e-08,37.149936639999964,173.75004416000002,24.21925001344,39.03125000448
8e-08,30.899937280000017,205.00004607999995,24.2255000128,39.03750000384
8.05e-08,37.149936639999964,173.75004416000002,24.21925001344,39.03750000384
8.100000000000001e-08,30.899937280000017,189.37504511999998,24.21300001408,39.040625003520006
8.150000000000001e-08,30.899937280000017,189.37504511999998,24.21300001408,39.03750000384
8.2e-08,30.899937280000017,173.75004416000002,24.20050001536,39.034375004160005
8.25e-08,30.899937280000017,205.00004607999995,24.18175001728,39.03125000448
8.3e-08,30.899937280000017,173.75004416000002,24.17550001792,39.034375004160005
8.35e-08,37.149936639999964,158.12504319999994,24.17550001792,39.03125000448
8.400000000000001e-08,24.649937919999957,158.12504319999994,24.16925001856,39.040625003520006
8.450000000000001e-08,24.649937919999957,173.75004416000002,24.18175001728,39.04687500288
8.500000000000001e-08,30.899937280000017,173.75004416000002,24.17550001792,39.04687500288
8.55e-08,24.649937919999957,173.75004416000002,24.18800001664,39.04687500288
8.6e-08,18.39993856000001,173.75004416000002,24.18175001728,39.0437500032
8.65e-08,24.649937919999957,158.12504319999994,24.18800001664,39.04687500288
8.700000000000001e-08,18.39993856000001,158.12504319999994,24.18800001664,39.050000002560004
8.750000000000001e-08,12.149939200000063,142.50004223999997,24.18800001664,39.065625000960004
8.800000000000001e-08,18.39993856000001,158.12504319999994,24.18800001664,39.07812499968
8.85e-08,24.649937919999957,158.12504319999994,24.16925001856,39.07812499968
8.9e-08,18.39993856000001,142.50004223999997,24.17550001792,39.08437499904
8.95e-08,18.39993856000001,158.12504319999994,24.18175001728,39.07812499968
9.000000000000001e-08,12.149939200000063,142.50004223999997,24.16925001856,39.071875000320006
9.050000000000001e-08,18.39993856000001,142.50004223999997,24.16925001856,39.065625000960004
9.100000000000001e-08,12.149939200000063,142.50004223999997,24.163000019200002,39.071875000320006
9.15e-08,18.39993856000001,111.25004031999993,24.163000019200002,39.06250000128
9.2e-08,5.899939840000002,95.62503935999996,24.163000019200002,39.06875000064
9.25e-08,5.899939840000002,111.25004031999993,24.15675001984,39.065625000960004
9.300000000000001e-08,5.899939840000002,126.87504128,24.15050002048,39.056250001920006
9.350000000000001e-08,5.899939840000002,111.25004031999993,24.14425002112,39.04687500288
9.400000000000001e-08,-0.3500595199999452,111.25004031999993,24.11925002368,39.040625003520006
9.45e-08,5.899939840000002,111.25004031999993,24.11925002368,39.03750000384
9.5e-08,5.899939840000002,80.0000384,24.11925002368,39.03125000448
9.55e-08,-0.3500595199999452,80.0000384,24.11925002368,39.03125000448
9.600000000000001e-08,-0.3500595199999452,95.62503935999996,24.12550002304,39.025000005120006
9.650000000000001e-08,5.899939840000002,80.0000384,24.11925002368,39.018750005760005
9.700000000000001e-08,-0.3500595199999452,80.0000384,24.12550002304,39.025000005120006
9.75e-08,-6.600058880000006,95.62503935999996,24.14425002112,39.02187500544
9.8e-08,-12.850058239999953,64.37503744000003,24.14425002112,39.018750005760005
9.85e-08,-6.600058880000006,111.25004031999993,24.15050002048,39.009375006720006
9.9e-08,-6.600058880000006,64.37503744000003,24.15675001984,39.003125007360005
9.950000000000001e-08,-0.3500595199999452,64.37503744000003,24.18175001728,38.99062500864
1.0000000000000001e-07,-12.850058239999953,48.75003647999995,24.18800001664,38.98437500928
1.005e-07,-12.850058239999953,64.37503744000003,24.20050001536,38.987500008960005
1.01e-07,-12.850058239999953,64.37503744000003,24.20675001472,38.987500008960005
1.015e-07,-19.100057600000014,64.37503744000003,24.20050001536,38.99062500864
1.02e-07,-19.100057600000014,64.37503744000003,24.194250016,38.993750008320006
1.0250000000000001e-07,-19.100057600000014,64.37503744000003,24.20675001472,39.00000000768
1.0300000000000001e-07,-31.60005632000002,64.37503744000003,24.20675001472,39.009375006720006
1.0350000000000001e-07,-31.60005632000002,48.75003647999995,24.20050001536,39.025000005120006
1.04e-07,-25.35005695999996,64.37503744000003,24.194250016,39.034375004160005
1.045e-07,-25.35005695999996,48.75003647999995,24.163000019200002,39.0437500032
1.05e-07,-31.60005632000002,80.0000384,24.163000019200002,39.056250001920006
1.0550000000000001e-07,-31.60005632000002,64.37503744000003,24.16925001856,39.0593750016
1.0600000000000001e-07,-37.85005567999997,33.12503551999998,24.15675001984,39.05312500224
1.0650000000000001e-07,-37.85005567999997,64.37503744000003,24.13800002176,39.04687500288
1.07e-07,-37.85005567999997,48.75003647999995,24.11300002432,39.050000002560004
1.075e-07,-44.10005504000003,33.12503551999998,24.10675002496,39.0437500032
1.08e-07,-50.350054399999976,17.500034560000017,24.09425002624,39.050000002560004
1.0850000000000001e-07,-44.10005504000003,33.12503551999998,24.1005000256,39.050000002560004
1.0900000000000001e-07,-50.350054399999976,33.12503551999998,24.11300002432,39.0437500032
1.0950000000000001e-07,-56.60005376000004,17.500034560000017,24.11300002432,39.03750000384
1.1e-07,-62.850053119999984,17.500034560000017,24.1005000256,39.025000005120006
1.105e-07,-56.60005376000004,17.500034560000017,24.1005000256,39.02187500544
1.11e-07,-62.850053119999984,1.875033599999938,24.10675002496,39.018750005760005
1.1150000000000001e-07,-69.10005248000004,1.875033599999938,24.11300002432,39.02187500544
1.1200000000000001e-07,-69.10005248000004,1.875033599999938,24.1317500224,39.018750005760005
1.1250000000000001e-07,-69.10005248000004,1.875033599999938,24.12550002304,39.018750005760005
1.13e-07,-69.10005248000004,-13.749967360000028,24.11300002432,39.0281250048
1.135e-07,-69.10005248000004,1.875033599999938,24.1005000256,39.0281250048
1.14e-07,-81.6000512,-29.374968319999994,24.081750027520002,39.0281250048
1.1450000000000001e-07,-81.6000512,1.875033599999938,24.07550002816,39.025000005120006
1.1500000000000001e-07,-75.35005183999999,-29.374968319999994,24.07550002816,39.0281250048
1.1550000000000001e-07,-69.10005248000004,-44.999969280000016,24.081750027520002,39.025000005120006
1.16e-07,-81.6000512,-60.62497024000004,24.07550002816,39.0281250048
1.165e-07,-81.6000512,-29.374968319999994,24.0692500288,39.025000005120006
1.17e-07,-81.6000512,-29.374968319999994,24.05050003072,39.01562500608
1.1750000000000001e-07,-87.85005056,-44.999969280000016,24.04425003136,39.003125007360005
1.1800000000000001e-07,-94.10004992,-29.374968319999994,24.038000032,38.996875008
1.1850000000000001e-07,-87.85005056,-44.999969280000016,24.05675003008,38.996875008
1.1900000000000001e-07,-81.6000512,-44.999969280000016,24.0692500288,38.996875008
1.195e-07,-87.85005056,-60.62497024000004,24.06300002944,39.00000000768
1.2000000000000002e-07,-87.85005056,-44.999969280000016,24.0692500288,38.996875008
1.205e-07,-81.6000512,-60.62497024000004,24.05675003008,38.993750008320006
1.21e-07,-87.85005056,-44.999969280000016,24.07550002816,38.993750008320006
