Time (s),V_PRI,V_SEC,V_IN,V_OUT
0.0,-34.74990976000004,-216.87497984000004,24.611374979839997,41.324875003520006
5e-10,-34.74990976000004,-216.87497984000004,24.58012497792,41.324875003520006
1e-09,-34.74990976000004,-248.12498176000003,24.59574997888,41.32175000384
1.5000000000000002e-09,-34.74990976000004,-216.87497984000004,24.59574997888,41.32175000384
2e-09,-34.74990976000004,-248.12498176000003,24.58012497792,41.3280000032
2.5e-09,12.125093119999974,-263.74998272,24.58012497792,41.3280000032
3.0000000000000004e-09,-19.124908799999957,-263.74998272,24.58012497792,41.334250002560005
3.5000000000000003e-09,-3.4999078400001054,-263.74998272,24.58012497792,41.334250002560005
4e-09,-3.4999078400001054,-263.74998272,24.58012497792,41.33737500224
4.500000000000001e-09,-3.4999078400001054,-263.74998272,24.56449997696,41.334250002560005
5e-09,-19.124908799999957,-263.74998272,24.58012497792,41.33112500288
5.5000000000000004e-09,12.125093119999974,-248.12498176000003,24.548874976,41.324875003520006
6.000000000000001e-09,-3.4999078400001054,-263.74998272,24.53324997504,41.3123750048
6.5e-09,-3.4999078400001054,-263.74998272,24.53324997504,41.309250005120006
7.000000000000001e-09,12.125093119999974,-263.74998272,24.51762497408,41.29987500608
7.500000000000001e-09,27.750094080000054,-248.12498176000003,24.53324997504,41.29987500608
8e-09,43.375095039999906,-248.12498176000003,24.53324997504,41.309250005120006
8.5e-09,27.750094080000054,-248.12498176000003,24.50199997312,41.309250005120006
9.000000000000001e-09,27.750094080000054,-263.74998272,24.50199997312,41.31550000448
9.5e-09,43.375095039999906,-232.4999808,24.50199997312,41.324875003520006
1e-08,43.375095039999906,-248.12498176000003,24.51762497408,41.3436250016
1.0500000000000001e-08,43.375095039999906,-279.37498368,24.50199997312,41.349875000960004
1.1000000000000001e-08,43.375095039999906,-263.74998272,24.50199997312,41.36862499904
1.15e-08,43.375095039999906,-248.12498176000003,24.4707499712,41.38424999744
1.2000000000000002e-08,59.000095999999985,-248.12498176000003,24.48637497216,41.387374997120006
1.2500000000000001e-08,43.375095039999906,-232.4999808,24.50199997312,41.38424999744
1.3e-08,43.375095039999906,-232.4999808,24.50199997312,41.38424999744
1.35e-08,59.000095999999985,-232.4999808,24.50199997312,41.381124997760004
1.4000000000000001e-08,59.000095999999985,-232.4999808,24.51762497408,41.371749998720006
1.45e-08,59.000095999999985,-232.4999808,24.51762497408,41.36862499904
1.5000000000000002e-08,74.62509695999984,-216.87497984000004,24.51762497408,41.365499999360004
1.55e-08,74.62509695999984,-201.24997888000001,24.56449997696,41.371749998720006
1.6e-08,90.25009791999992,-201.24997888000001,24.58012497792,41.38424999744
1.6500000000000002e-08,74.62509695999984,-201.24997888000001,24.56449997696,41.387374997120006
1.7e-08,74.62509695999984,-201.24997888000001,24.58012497792,41.3904999968
1.75e-08,90.25009791999992,-185.62497792,24.58012497792,41.381124997760004
1.8000000000000002e-08,74.62509695999984,-201.24997888000001,24.56449997696,41.371749998720006
1.85e-08,90.25009791999992,-201.24997888000001,24.58012497792,41.35925
1.9e-08,74.62509695999984,-201.24997888000001,24.58012497792,41.35925
1.9500000000000003e-08,90.25009791999992,-185.62497792,24.58012497792,41.356125000320006
2e-08,105.87509888,-185.62497792,24.58012497792,41.349875000960004
2.05e-08,90.25009791999992,-169.99997696000003,24.59574997888,41.3436250016
2.1000000000000003e-08,90.25009791999992,-169.99997696000003,24.611374979839997,41.33737500224
2.15e-08,105.87509888,-154.374976,24.59574997888,41.33112500288
2.2000000000000002e-08,105.87509888,-154.374976,24.611374979839997,41.324875003520006
2.2500000000000003e-08,90.25009791999992,-154.374976,24.611374979839997,41.324875003520006
2.3e-08,105.87509888,-154.374976,24.58012497792,41.318625004160005
2.3500000000000002e-08,137.12510079999993,-154.374976,24.59574997888,41.318625004160005
2.4000000000000003e-08,121.50009983999985,-138.74997504000004,24.59574997888,41.324875003520006
2.45e-08,105.87509888,-123.12497408000002,24.56449997696,41.324875003520006
2.5000000000000002e-08,105.87509888,-138.74997504000004,24.58012497792,41.318625004160005
2.55e-08,105.87509888,-123.12497408000002,24.59574997888,41.309250005120006
2.6e-08,121.50009983999985,-138.74997504000004,24.59574997888,41.29987500608
2.6500000000000002e-08,152.75010176,-138.74997504000004,24.626999980799997,41.29050000704
2.7e-08,121.50009983999985,-154.374976,24.611374979839997,41.29050000704
2.75e-08,137.12510079999993,-123.12497408000002,24.642624981759997,41.293625006720006
2.8000000000000003e-08,137.12510079999993,-123.12497408000002,24.642624981759997,41.287375007360005
2.85e-08,137.12510079999993,-138.74997504000004,24.642624981759997,41.287375007360005
2.9e-08,121.50009983999985,-123.12497408000002,24.673874983679998,41.28425000768
2.9500000000000003e-08,152.75010176,-123.12497408000002,24.626999980799997,41.29050000704
3.0000000000000004e-08,137.12510079999993,-138.74997504000004,24.611374979839997,41.303000005760005
3.05e-08,137.12510079999993,-123.12497408000002,24.59574997888,41.32175000384
3.1e-08,152.75010176,-107.49997311999999,24.56449997696,41.334250002560005
3.1500000000000004e-08,152.75010176,-123.12497408000002,24.56449997696,41.349875000960004
3.2e-08,152.75010176,-107.49997311999999,24.548874976,41.365499999360004
3.25e-08,152.75010176,-91.87497216000003,24.53324997504,41.3748749984
3.3000000000000004e-08,152.75010176,-107.49997311999999,24.548874976,41.38424999744
3.35e-08,168.37510271999986,-76.2499712,24.548874976,41.38424999744
3.4e-08,168.37510271999986,-107.49997311999999,24.56449997696,41.37799999808
3.4500000000000005e-08,184.00010367999994,-107.49997311999999,24.548874976,41.36237499968
3.5e-08,168.37510271999986,-107.49997311999999,24.548874976,41.35300000064
3.55e-08,168.37510271999986,-76.2499712,24.548874976,41.356125000320006
3.6000000000000005e-08,184.00010367999994,-76.2499712,24.53324997504,41.35300000064
3.65e-08,168.37510271999986,-76.2499712,24.53324997504,41.34675000128
3.7e-08,168.37510271999986,-76.2499712,24.548874976,41.33737500224
3.7500000000000005e-08,199.62510464000002,-76.2499712,24.51762497408,41.3280000032
3.8e-08,184.00010367999994,-60.62497024000004,24.50199997312,41.318625004160005
3.85e-08,184.00010367999994,-60.62497024000004,24.51762497408,41.318625004160005
3.9000000000000005e-08,184.00010367999994,-44.999969280000016,24.53324997504,41.309250005120006
3.95e-08,199.62510464000002,-44.999969280000016,24.56449997696,41.309250005120006
4e-08,199.62510464000002,-29.374968319999994,24.56449997696,41.31550000448
4.0500000000000005e-08,199.62510464000002,-29.374968319999994,24.548874976,41.318625004160005
4.1e-08,199.62510464000002,-44.999969280000016,24.548874976,41.318625004160005
4.15e-08,199.62510464000002,1.875033599999938,24.59574997888,41.324875003520006
4.2000000000000006e-08,184.00010367999994,-29.374968319999994,24.58012497792,41.3280000032
4.2500000000000003e-08,215.25010559999987,-29.374968319999994,24.56449997696,41.318625004160005
4.3e-08,199.62510464000002,-44.999969280000016,24.51762497408,41.32175000384
4.3500000000000006e-08,199.62510464000002,-13.749967360000028,24.4707499712,41.318625004160005
4.4000000000000004e-08,215.25010559999987,-13.749967360000028,24.45512497024,41.309250005120006
4.45e-08,199.62510464000002,1.875033599999938,24.45512497024,41.2967500064
4.5000000000000006e-08,184.00010367999994,1.875033599999938,24.45512497024,41.28425000768
4.5500000000000004e-08,199.62510464000002,1.875033599999938,24.40824996736,41.281125008000004
4.6e-08,184.00010367999994,17.500034560000017,24.42387496832,41.28425000768
4.6500000000000006e-08,199.62510464000002,1.875033599999938,24.40824996736,41.29987500608
4.7000000000000004e-08,199.62510464000002,17.500034560000017,24.40824996736,41.2967500064
4.75e-08,199.62510464000002,17.500034560000017,24.43949996928,41.29987500608
4.8000000000000006e-08,199.62510464000002,33.12503551999998,24.4707499712,41.309250005120006
4.8500000000000004e-08,184.00010367999994,33.12503551999998,24.45512497024,41.32175000384
4.9e-08,168.37510271999986,17.500034560000017,24.4707499712,41.33737500224
4.95e-08,184.00010367999994,48.75003647999995,24.4707499712,41.349875000960004
5.0000000000000004e-08,184.00010367999994,33.12503551999998,24.45512497024,41.356125000320006
5.05e-08,199.62510464000002,33.12503551999998,24.45512497024,41.3436250016
5.1e-08,168.37510271999986,17.500034560000017,24.45512497024,41.34675000128
5.1500000000000005e-08,168.37510271999986,48.75003647999995,24.43949996928,41.35300000064
5.2e-08,184.00010367999994,48.75003647999995,24.42387496832,41.35925
5.25e-08,168.37510271999986,48.75003647999995,24.42387496832,41.356125000320006
5.3000000000000005e-08,168.37510271999986,64.37503744000003,24.45512497024,41.349875000960004
5.35e-08,184.00010367999994,64.37503744000003,24.45512497024,41.340500001920006
5.4e-08,152.75010176,64.37503744000003,24.43949996928,41.324875003520006
5.4500000000000005e-08,152.75010176,64.37503744000003,24.43949996928,41.3280000032
5.5e-08,152.75010176,80.0000384,24.40824996736,41.324875003520006
5.55e-08,184.00010367999994,80.0000384,24.42387496832,41.318625004160005
5.6000000000000005e-08,152.75010176,95.62503935999996,24.40824996736,41.31550000448
5.65e-08,152.75010176,95.62503935999996,24.37699996544,41.309250005120006
5.7e-08,137.12510079999993,95.62503935999996,24.37699996544,41.3123750048
5.7500000000000005e-08,152.75010176,126.87504128,24.37699996544,41.318625004160005
5.8e-08,137.12510079999993,111.25004031999993,24.37699996544,41.324875003520006
5.85e-08,152.75010176,95.62503935999996,24.40824996736,41.318625004160005
5.9000000000000006e-08,121.50009983999985,95.62503935999996,24.40824996736,41.318625004160005
5.9500000000000003e-08,121.50009983999985,111.25004031999993,24.42387496832,41.32175000384
6.000000000000001e-08,137.12510079999993,95.62503935999996,24.45512497024,41.324875003520006
6.05e-08,121.50009983999985,126.87504128,24.4707499712,41.3280000032
6.1e-08,105.87509888,126.87504128,24.50199997312,41.318625004160005
6.15e-08,121.50009983999985,142.50004223999997,24.48637497216,41.309250005120006
6.2e-08,105.87509888,126.87504128,24.4707499712,41.303000005760005
6.250000000000001e-08,105.87509888,126.87504128,24.43949996928,41.303000005760005
6.300000000000001e-08,105.87509888,142.50004223999997,24.40824996736,41.2967500064
6.35e-08,105.87509888,158.12504319999994,24.43949996928,41.29050000704
6.4e-08,105.87509888,158.12504319999994,24.43949996928,41.281125008000004
6.45e-08,90.25009791999992,158.12504319999994,24.43949996928,41.271750008960005
6.5e-08,74.62509695999984,142.50004223999997,24.4707499712,41.271750008960005
6.55e-08,90.25009791999992,173.75004416000002,24.48637497216,41.27800000832001
6.600000000000001e-08,90.25009791999992,158.12504319999994,24.50199997312,41.29050000704
6.65e-08,90.25009791999992,158.12504319999994,24.50199997312,41.2967500064
6.7e-08,74.62509695999984,142.50004223999997,24.50199997312,41.303000005760005
6.75e-08,74.62509695999984,142.50004223999997,24.4707499712,41.3123750048
6.8e-08,74.62509695999984,173.75004416000002,24.43949996928,41.318625004160005
6.85e-08,59.000095999999985,158.12504319999994,24.40824996736,41.318625004160005
6.900000000000001e-08,43.375095039999906,158.12504319999994,24.42387496832,41.32175000384
6.950000000000001e-08,59.000095999999985,173.75004416000002,24.37699996544,41.318625004160005
7e-08,43.375095039999906,173.75004416000002,24.3926249664,41.318625004160005
7.05e-08,43.375095039999906,173.75004416000002,24.40824996736,41.32175000384
7.1e-08,43.375095039999906,173.75004416000002,24.43949996928,41.32175000384
7.15e-08,43.375095039999906,189.37504511999998,24.51762497408,41.3280000032
7.200000000000001e-08,27.750094080000054,189.37504511999998,24.548874976,41.334250002560005
7.250000000000001e-08,27.750094080000054,205.00004607999995,24.56449997696,41.340500001920006
7.3e-08,27.750094080000054,173.75004416000002,24.56449997696,41.340500001920006
7.35e-08,27.750094080000054,220.62504704000003,24.548874976,41.349875000960004
7.4e-08,27.750094080000054,173.75004416000002,24.51762497408,41.356125000320006
7.45e-08,43.375095039999906,189.37504511999998,24.4707499712,41.349875000960004
7.500000000000001e-08,12.125093119999974,189.37504511999998,24.42387496832,41.349875000960004
7.550000000000001e-08,12.125093119999974,189.37504511999998,24.3926249664,41.34675000128
7.6e-08,27.750094080000054,189.37504511999998,24.37699996544,41.340500001920006
7.65e-08,-3.4999078400001054,205.00004607999995,24.37699996544,41.33112500288
7.7e-08,-19.124908799999957,205.00004607999995,24.43949996928,41.3280000032
7.75e-08,-3.4999078400001054,220.62504704000003,24.45512497024,41.32175000384
7.800000000000001e-08,-3.4999078400001054,205.00004607999995,24.50199997312,41.31550000448
7.850000000000001e-08,-19.124908799999957,205.00004607999995,24.51762497408,41.3123750048
7.9e-08,-19.124908799999957,205.00004607999995,24.51762497408,41.2967500064
7.95e-08,-3.4999078400001054,205.00004607999995,24.51762497408,41.293625006720006
8e-08,-19.124908799999957,220.62504704000003,24.48637497216,41.2967500064
8.05e-08,-34.74990976000004,220.62504704000003,24.40824996736,41.2967500064
8.100000000000001e-08,-34.74990976000004,189.37504511999998,24.37699996544,41.309250005120006
8.150000000000001e-08,-34.74990976000004,220.62504704000003,24.34574996352,41.318625004160005
8.2e-08,-34.74990976000004,205.00004607999995,24.34574996352,41.33737500224
8.25e-08,-19.124908799999957,189.37504511999998,24.33012496256,41.3436250016
8.3e-08,-34.74990976000004,189.37504511999998,24.34574996352,41.349875000960004
8.35e-08,-34.74990976000004,205.00004607999995,24.40824996736,41.349875000960004
8.400000000000001e-08,-34.74990976000004,189.37504511999998,24.43949996928,41.34675000128
8.450000000000001e-08,-50.374910720000116,189.37504511999998,24.4707499712,41.33737500224
8.500000000000001e-08,-81.62491264000005,189.37504511999998,24.53324997504,41.33737500224
8.55e-08,-34.74990976000004,173.75004416000002,24.50199997312,41.334250002560005
8.6e-08,-65.99991167999997,189.37504511999998,24.4707499712,41.334250002560005
8.65e-08,-65.99991167999997,173.75004416000002,24.42387496832,41.3436250016
8.700000000000001e-08,-65.99991167999997,189.37504511999998,24.37699996544,41.3436250016
8.750000000000001e-08,-65.99991167999997,158.12504319999994,24.3926249664,41.35300000064
8.800000000000001e-08,-65.99991167999997,173.75004416000002,24.37699996544,41.371749998720006
8.85e-08,-65.99991167999997,205.00004607999995,24.36137496448,41.37799999808
8.9e-08,-97.24991360000013,158.12504319999994,24.40824996736,41.3904999968
8.95e-08,-81.62491264000005,189.37504511999998,24.43949996928,41.402999995520005
9.000000000000001e-08,-81.62491264000005,142.50004223999997,24.4707499712,41.40924999488
9.050000000000001e-08,-65.99991167999997,126.87504128,24.50199997312,41.396749996160004
9.100000000000001e-08,-97.24991360000013,126.87504128,24.48637497216,41.3904999968
9.15e-08,-81.62491264000005,142.50004223999997,24.4707499712,41.38424999744
9.2e-08,-97.24991360000013,126.87504128,24.45512497024,41.365499999360004
9.25e-08,-97.24991360000013,111.25004031999993,24.40824996736,41.349875000960004
9.300000000000001e-08,-112.87491455999998,158.12504319999994,24.3926249664,41.33737500224
9.350000000000001e-08,-81.62491264000005,126.87504128,24.34574996352,41.3280000032
9.400000000000001e-08,-112.87491455999998,111.25004031999993,24.34574996352,41.324875003520006
9.45e-08,-112.87491455999998,111.25004031999993,24.34574996352,41.3280000032
9.5e-08,-112.87491455999998,111.25004031999993,24.36137496448,41.3280000032
9.55e-08,-112.87491455999998,111.25004031999993,24.40824996736,41.32175000384
9.600000000000001e-08,-112.87491455999998,111.25004031999993,24.43949996928,41.32175000384
9.650000000000001e-08,-112.87491455999998,111.25004031999993,24.45512497024,41.31550000448
9.700000000000001e-08,-112.87491455999998,95.62503935999996,24.4707499712,41.31550000448
9.75e-08,-112.87491455999998,126.87504128,24.4707499712,41.318625004160005
9.8e-08,-112.87491455999998,111.25004031999993,24.4707499712,41.324875003520006
9.85e-08,-112.87491455999998,95.62503935999996,24.45512497024,41.32175000384
9.9e-08,-128.49991552000006,64.37503744000003,24.43949996928,41.324875003520006
9.950000000000001e-08,-144.12491648000014,80.0000384,24.42387496832,41.32175000384
1.0000000000000001e-07,-128.49991552000006,80.0000384,24.42387496832,41.31550000448
1.005e-07,-144.12491648000014,95.62503935999996,24.45512497024,41.30612500544
1.01e-07,-175.37491840000007,80.0000384,24.51762497408,41.293625006720006
1.015e-07,-128.49991552000006,80.0000384,24.53324997504,41.287375007360005
1.02e-07,-159.74991744,80.0000384,24.56449997696,41.281125008000004
1.0250000000000001e-07,-159.74991744,64.37503744000003,24.58012497792,41.28425000768
1.0300000000000001e-07,-159.74991744,64.37503744000003,24.548874976,41.28425000768
1.0350000000000001e-07,-144.12491648000014,64.37503744000003,24.56449997696,41.29050000704
1.04e-07,-159.74991744,64.37503744000003,24.53324997504,41.303000005760005
1.045e-07,-159.74991744,80.0000384,24.4707499712,41.3123750048
1.05e-07,-175.37491840000007,48.75003647999995,24.4707499712,41.3280000032
1.0550000000000001e-07,-175.37491840000007,80.0000384,24.45512497024,41.34675000128
1.0600000000000001e-07,-175.37491840000007,64.37503744000003,24.43949996928,41.36862499904
1.0650000000000001e-07,-159.74991744,48.75003647999995,24.4707499712,41.3748749984
1.07e-07,-175.37491840000007,33.12503551999998,24.48637497216,41.387374997120006
1.075e-07,-190.99991936000015,48.75003647999995,24.51762497408,41.39362499648
1.08e-07,-175.37491840000007,48.75003647999995,24.53324997504,41.387374997120006
1.0850000000000001e-07,-190.99991936000015,48.75003647999995,24.53324997504,41.3748749984
1.0900000000000001e-07,-206.62492032,48.75003647999995,24.548874976,41.365499999360004
1.0950000000000001e-07,-190.99991936000015,48.75003647999995,24.50199997312,41.356125000320006
1.1e-07,-206.62492032,33.12503551999998,24.48637497216,41.3436250016
1.105e-07,-206.62492032,17.500034560000017,24.48637497216,41.33737500224
1.11e-07,-206.62492032,33.12503551999998,24.4707499712,41.32175000384
1.1150000000000001e-07,-206.62492032,33.12503551999998,24.50199997312,41.303000005760005
1.1200000000000001e-07,-206.62492032,17.500034560000017,24.50199997312,41.303000005760005
1.1250000000000001e-07,-222.24992128000008,33.12503551999998,24.48637497216,41.30612500544
1.13e-07,-222.24992128000008,1.875033599999938,24.51762497408,41.309250005120006
1.135e-07,-206.62492032,17.500034560000017,24.56449997696,41.3123750048
1.14e-07,-206.62492032,1.875033599999938,24.611374979839997,41.318625004160005
1.1450000000000001e-07,-206.62492032,-29.374968319999994,24.626999980799997,41.31550000448
1.1500000000000001e-07,-222.24992128000008,-29.374968319999994,24.59574997888,41.32175000384
1.1550000000000001e-07,-206.62492032,-13.749967360000028,24.58012497792,41.3280000032
1.16e-07,-222.24992128000008,-29.374968319999994,24.548874976,41.33737500224
1.165e-07,-222.24992128000008,-29.374968319999994,24.53324997504,41.334250002560005
1.17e-07,-222.24992128000008,-29.374968319999994,24.53324997504,41.3280000032
1.1750000000000001e-07,-206.62492032,-29.374968319999994,24.4707499712,41.32175000384
1.1800000000000001e-07,-206.62492032,-44.999969280000016,24.45512497024,41.32175000384
1.1850000000000001e-07,-237.87492223999993,-44.999969280000016,24.45512497024,41.324875003520006
1.1900000000000001e-07,-222.24992128000008,-29.374968319999994,24.45512497024,41.318625004160005
1.195e-07,-206.62492032,-44.999969280000016,24.51762497408,41.303000005760005
1.2000000000000002e-07,-206.62492032,-44.999969280000016,24.51762497408,41.28425000768
1.205e-07,-206.62492032,-44.999969280000016,24.48637497216,41.265500009600004
1.21e-07,-222.24992128000008,-76.2499712,24.51762497408,41.25925001024
