Time (s),V_PRI,V_SEC,V_IN,V_OUT
0.0,-17.50005759999999,-248.12498176000003,25.66625002112,41.6861250048
5e-10,-17.50005759999999,-248.12498176000003,25.672500020479998,41.69862500352
1e-09,-17.50005759999999,-248.12498176000003,25.67875001984,41.69862500352
1.5000000000000002e-09,-17.50005759999999,-248.12498176000003,25.691250018559998,41.7017500032
2e-09,-17.50005759999999,-216.87497984000004,25.691250018559998,41.704875002879994
2.5e-09,-17.50005759999999,-248.12498176000003,25.69750001792,41.711125002239996
3.0000000000000004e-09,-11.25005823999993,-279.37498368,25.703750017279997,41.70800000256
3.5000000000000003e-09,-17.50005759999999,-263.74998272,25.71000001664,41.704875002879994
4e-09,-11.25005823999993,-263.74998272,25.71000001664,41.7017500032
4.500000000000001e-09,-11.25005823999993,-263.74998272,25.71000001664,41.69862500352
5e-09,-11.25005823999993,-263.74998272,25.703750017279997,41.695500003839996
5.5000000000000004e-09,-17.50005759999999,-248.12498176000003,25.691250018559998,41.69862500352
6.000000000000001e-09,1.2499404800000775,-248.12498176000003,25.691250018559998,41.704875002879994
6.5e-09,-5.000058879999983,-263.74998272,25.691250018559998,41.7017500032
7.000000000000001e-09,-5.000058879999983,-263.74998272,25.67875001984,41.704875002879994
7.500000000000001e-09,1.2499404800000775,-248.12498176000003,25.6850000192,41.704875002879994
8e-09,7.499939840000025,-248.12498176000003,25.66000002176,41.711125002239996
8.5e-09,1.2499404800000775,-232.4999808,25.653750022399997,41.7173750016
9.000000000000001e-09,1.2499404800000775,-232.4999808,25.66625002112,41.7173750016
9.5e-09,7.499939840000025,-248.12498176000003,25.66000002176,41.7173750016
1e-08,7.499939840000025,-216.87497984000004,25.653750022399997,41.71425000192
1.0500000000000001e-08,7.499939840000025,-232.4999808,25.653750022399997,41.7173750016
1.1000000000000001e-08,19.999938560000032,-263.74998272,25.653750022399997,41.70800000256
1.15e-08,7.499939840000025,-263.74998272,25.653750022399997,41.70800000256
1.2000000000000002e-08,19.999938560000032,-248.12498176000003,25.64750002304,41.704875002879994
1.2500000000000001e-08,19.999938560000032,-232.4999808,25.64750002304,41.70800000256
1.3e-08,19.999938560000032,-232.4999808,25.653750022399997,41.71425000192
1.35e-08,13.749939200000085,-216.87497984000004,25.641250023679998,41.72362500096
1.4000000000000001e-08,19.999938560000032,-201.24997888000001,25.641250023679998,41.73924999936
1.45e-08,19.999938560000032,-216.87497984000004,25.653750022399997,41.73924999936
1.5000000000000002e-08,13.749939200000085,-232.4999808,25.653750022399997,41.751749998079994
1.55e-08,19.999938560000032,-216.87497984000004,25.653750022399997,41.7486249984
1.6e-08,26.24993791999998,-201.24997888000001,25.64750002304,41.7486249984
1.6500000000000002e-08,32.49993728000004,-201.24997888000001,25.653750022399997,41.751749998079994
1.7e-08,26.24993791999998,-185.62497792,25.672500020479998,41.7486249984
1.75e-08,26.24993791999998,-201.24997888000001,25.672500020479998,41.7486249984
1.8000000000000002e-08,32.49993728000004,-169.99997696000003,25.672500020479998,41.73924999936
1.85e-08,32.49993728000004,-185.62497792,25.67875001984,41.73924999936
1.9e-08,38.74993663999999,-185.62497792,25.6850000192,41.72362500096
1.9500000000000003e-08,26.24993791999998,-185.62497792,25.6850000192,41.7173750016
2e-08,38.74993663999999,-169.99997696000003,25.6850000192,41.711125002239996
2.05e-08,32.49993728000004,-154.374976,25.67875001984,41.7017500032
2.1000000000000003e-08,32.49993728000004,-169.99997696000003,25.66625002112,41.695500003839996
2.15e-08,32.49993728000004,-154.374976,25.641250023679998,41.6861250048
2.2000000000000002e-08,38.74993663999999,-154.374976,25.641250023679998,41.6861250048
2.2500000000000003e-08,38.74993663999999,-138.74997504000004,25.62875002496,41.67675000576
2.3e-08,32.49993728000004,-138.74997504000004,25.62875002496,41.679875005439996
2.3500000000000002e-08,38.74993663999999,-138.74997504000004,25.63500002432,41.66737500672
2.4000000000000003e-08,51.249935359999995,-138.74997504000004,25.63500002432,41.66112500736
2.45e-08,51.249935359999995,-123.12497408000002,25.641250023679998,41.664250007039996
2.5000000000000002e-08,44.99993600000005,-123.12497408000002,25.66000002176,41.66112500736
2.55e-08,44.99993600000005,-138.74997504000004,25.66000002176,41.658000007679995
2.6e-08,51.249935359999995,-107.49997311999999,25.672500020479998,41.658000007679995
2.6500000000000002e-08,51.249935359999995,-123.12497408000002,25.67875001984,41.65175000832
2.7e-08,57.499934720000056,-138.74997504000004,25.69750001792,41.65175000832
2.75e-08,51.249935359999995,-154.374976,25.703750017279997,41.664250007039996
2.8000000000000003e-08,57.499934720000056,-138.74997504000004,25.71000001664,41.67675000576
2.85e-08,63.74993408,-123.12497408000002,25.716250016,41.689250004479995
2.9e-08,57.499934720000056,-138.74997504000004,25.716250016,41.695500003839996
2.9500000000000003e-08,57.499934720000056,-107.49997311999999,25.71000001664,41.69862500352
3.0000000000000004e-08,63.74993408,-107.49997311999999,25.72875001472,41.70800000256
3.05e-08,69.99993344000006,-123.12497408000002,25.735000014079997,41.7173750016
3.1e-08,69.99993344000006,-138.74997504000004,25.735000014079997,41.72362500096
3.1500000000000004e-08,76.24993280000001,-107.49997311999999,25.72875001472,41.72987500032
3.2e-08,82.49993216000007,-91.87497216000003,25.703750017279997,41.72362500096
3.25e-08,82.49993216000007,-107.49997311999999,25.691250018559998,41.72362500096
3.3000000000000004e-08,76.24993280000001,-91.87497216000003,25.703750017279997,41.71425000192
3.35e-08,82.49993216000007,-107.49997311999999,25.69750001792,41.70800000256
3.4e-08,94.99993088000008,-76.2499712,25.69750001792,41.70800000256
3.4500000000000005e-08,94.99993088000008,-91.87497216000003,25.672500020479998,41.71425000192
3.5e-08,101.24993024000003,-91.87497216000003,25.66000002176,41.70800000256
3.55e-08,101.24993024000003,-91.87497216000003,25.653750022399997,41.7017500032
3.6000000000000005e-08,101.24993024000003,-76.2499712,25.66625002112,41.69237500416
3.65e-08,101.24993024000003,-76.2499712,25.67875001984,41.6861250048
3.7e-08,101.24993024000003,-76.2499712,25.672500020479998,41.6861250048
3.7500000000000005e-08,101.24993024000003,-60.62497024000004,25.641250023679998,41.689250004479995
3.8e-08,113.74992896000003,-44.999969280000016,25.62875002496,41.69862500352
3.85e-08,113.74992896000003,-44.999969280000016,25.62875002496,41.7017500032
3.9000000000000005e-08,107.49992960000009,-60.62497024000004,25.64750002304,41.704875002879994
3.95e-08,113.74992896000003,-29.374968319999994,25.672500020479998,41.695500003839996
4e-08,119.99992831999998,-29.374968319999994,25.672500020479998,41.689250004479995
4.0500000000000005e-08,119.99992831999998,-13.749967360000028,25.66625002112,41.69237500416
4.1e-08,126.24992768000004,-29.374968319999994,25.672500020479998,41.689250004479995
4.15e-08,119.99992831999998,-29.374968319999994,25.66000002176,41.695500003839996
4.2000000000000006e-08,126.24992768000004,17.500034560000017,25.66000002176,41.69237500416
4.2500000000000003e-08,126.24992768000004,-13.749967360000028,25.67875001984,41.689250004479995
4.3e-08,132.49992704,-13.749967360000028,25.691250018559998,41.673625006079995
4.3500000000000006e-08,126.24992768000004,-29.374968319999994,25.691250018559998,41.6705000064
4.4000000000000004e-08,126.24992768000004,1.875033599999938,25.691250018559998,41.66737500672
4.45e-08,138.74992640000005,-13.749967360000028,25.69750001792,41.673625006079995
4.5000000000000006e-08,126.24992768000004,1.875033599999938,25.69750001792,41.679875005439996
4.5500000000000004e-08,126.24992768000004,1.875033599999938,25.6850000192,41.679875005439996
4.6e-08,138.74992640000005,1.875033599999938,25.691250018559998,41.67675000576
4.6500000000000006e-08,132.49992704,17.500034560000017,25.691250018559998,41.6705000064
4.7000000000000004e-08,126.24992768000004,1.875033599999938,25.691250018559998,41.679875005439996
4.75e-08,132.49992704,33.12503551999998,25.703750017279997,41.69237500416
4.8000000000000006e-08,138.74992640000005,17.500034560000017,25.69750001792,41.704875002879994
4.8500000000000004e-08,138.74992640000005,33.12503551999998,25.71000001664,41.711125002239996
4.9e-08,132.49992704,33.12503551999998,25.722500015359998,41.7017500032
4.95e-08,126.24992768000004,33.12503551999998,25.722500015359998,41.689250004479995
5.0000000000000004e-08,132.49992704,48.75003647999995,25.722500015359998,41.6861250048
5.05e-08,126.24992768000004,48.75003647999995,25.722500015359998,41.69237500416
5.1e-08,138.74992640000005,33.12503551999998,25.716250016,41.695500003839996
5.1500000000000005e-08,126.24992768000004,33.12503551999998,25.722500015359998,41.69862500352
5.2e-08,132.49992704,48.75003647999995,25.72875001472,41.689250004479995
5.25e-08,132.49992704,64.37503744000003,25.74125001344,41.679875005439996
5.3000000000000005e-08,126.24992768000004,64.37503744000003,25.753750012159998,41.679875005439996
5.35e-08,119.99992831999998,80.0000384,25.74125001344,41.68300000512
5.4e-08,126.24992768000004,80.0000384,25.735000014079997,41.69237500416
5.4500000000000005e-08,119.99992831999998,80.0000384,25.74125001344,41.69862500352
5.5e-08,119.99992831999998,80.0000384,25.74125001344,41.70800000256
5.55e-08,126.24992768000004,111.25004031999993,25.76000001152,41.704875002879994
5.6000000000000005e-08,126.24992768000004,95.62503935999996,25.76625001088,41.69862500352
5.65e-08,119.99992831999998,111.25004031999993,25.76625001088,41.7017500032
5.7e-08,119.99992831999998,111.25004031999993,25.772500010239998,41.69862500352
5.7500000000000005e-08,113.74992896000003,126.87504128,25.753750012159998,41.69862500352
5.8e-08,119.99992831999998,142.50004223999997,25.76000001152,41.7017500032
5.85e-08,113.74992896000003,111.25004031999993,25.753750012159998,41.704875002879994
5.9000000000000006e-08,119.99992831999998,111.25004031999993,25.753750012159998,41.689250004479995
5.9500000000000003e-08,113.74992896000003,95.62503935999996,25.76000001152,41.67675000576
6.000000000000001e-08,107.49992960000009,126.87504128,25.76625001088,41.664250007039996
6.05e-08,107.49992960000009,126.87504128,25.7787500096,41.66112500736
6.1e-08,101.24993024000003,126.87504128,25.79125000832,41.66737500672
6.15e-08,94.99993088000008,142.50004223999997,25.79125000832,41.66737500672
6.2e-08,101.24993024000003,142.50004223999997,25.79750000768,41.66112500736
6.250000000000001e-08,101.24993024000003,142.50004223999997,25.8100000064,41.64550000896
6.300000000000001e-08,94.99993088000008,126.87504128,25.8100000064,41.64550000896
6.35e-08,94.99993088000008,158.12504319999994,25.835000003839998,41.64550000896
6.4e-08,94.99993088000008,126.87504128,25.82250000512,41.654875008
6.45e-08,88.74993152000002,158.12504319999994,25.816250005759997,41.66737500672
6.5e-08,82.49993216000007,173.75004416000002,25.82875000448,41.6705000064
6.55e-08,82.49993216000007,142.50004223999997,25.816250005759997,41.66737500672
6.600000000000001e-08,88.74993152000002,173.75004416000002,25.82250000512,41.66737500672
6.65e-08,82.49993216000007,158.12504319999994,25.82250000512,41.67675000576
6.7e-08,82.49993216000007,158.12504319999994,25.82250000512,41.68300000512
6.75e-08,76.24993280000001,158.12504319999994,25.82250000512,41.69862500352
6.8e-08,69.99993344000006,158.12504319999994,25.816250005759997,41.704875002879994
6.85e-08,69.99993344000006,173.75004416000002,25.816250005759997,41.711125002239996
6.900000000000001e-08,69.99993344000006,173.75004416000002,25.816250005759997,41.711125002239996
6.950000000000001e-08,63.74993408,158.12504319999994,25.79750000768,41.70800000256
7e-08,69.99993344000006,173.75004416000002,25.79125000832,41.695500003839996
7.05e-08,69.99993344000006,189.37504511999998,25.7787500096,41.689250004479995
7.1e-08,63.74993408,173.75004416000002,25.772500010239998,41.695500003839996
7.15e-08,63.74993408,189.37504511999998,25.785000008959997,41.69862500352
7.200000000000001e-08,69.99993344000006,189.37504511999998,25.7787500096,41.704875002879994
7.250000000000001e-08,57.499934720000056,205.00004607999995,25.79125000832,41.704875002879994
7.3e-08,57.499934720000056,220.62504704000003,25.79750000768,41.695500003839996
7.35e-08,57.499934720000056,189.37504511999998,25.79750000768,41.6861250048
7.4e-08,51.249935359999995,220.62504704000003,25.79750000768,41.679875005439996
7.45e-08,57.499934720000056,189.37504511999998,25.79125000832,41.68300000512
7.500000000000001e-08,57.499934720000056,189.37504511999998,25.7787500096,41.68300000512
7.550000000000001e-08,44.99993600000005,173.75004416000002,25.76625001088,41.68300000512
7.6e-08,51.249935359999995,205.00004607999995,25.7475000128,41.679875005439996
7.65e-08,51.249935359999995,205.00004607999995,25.74125001344,41.679875005439996
7.7e-08,51.249935359999995,189.37504511999998,25.74125001344,41.68300000512
7.75e-08,38.74993663999999,205.00004607999995,25.72875001472,41.6861250048
7.800000000000001e-08,51.249935359999995,205.00004607999995,25.735000014079997,41.689250004479995
7.850000000000001e-08,44.99993600000005,220.62504704000003,25.72875001472,41.689250004479995
7.9e-08,38.74993663999999,189.37504511999998,25.735000014079997,41.69862500352
7.95e-08,44.99993600000005,205.00004607999995,25.74125001344,41.704875002879994
8e-08,44.99993600000005,189.37504511999998,25.735000014079997,41.711125002239996
8.05e-08,38.74993663999999,205.00004607999995,25.72875001472,41.720500001279994
8.100000000000001e-08,38.74993663999999,220.62504704000003,25.72875001472,41.7173750016
8.150000000000001e-08,32.49993728000004,189.37504511999998,25.716250016,41.711125002239996
8.2e-08,32.49993728000004,220.62504704000003,25.703750017279997,41.7017500032
8.25e-08,38.74993663999999,189.37504511999998,25.703750017279997,41.7017500032
8.3e-08,44.99993600000005,173.75004416000002,25.69750001792,41.7017500032
8.35e-08,26.24993791999998,173.75004416000002,25.6850000192,41.70800000256
8.400000000000001e-08,26.24993791999998,173.75004416000002,25.691250018559998,41.711125002239996
8.450000000000001e-08,26.24993791999998,173.75004416000002,25.691250018559998,41.71425000192
8.500000000000001e-08,19.999938560000032,173.75004416000002,25.703750017279997,41.7173750016
8.55e-08,19.999938560000032,173.75004416000002,25.691250018559998,41.7173750016
8.6e-08,26.24993791999998,173.75004416000002,25.703750017279997,41.720500001279994
8.65e-08,19.999938560000032,189.37504511999998,25.71000001664,41.720500001279994
8.700000000000001e-08,13.749939200000085,158.12504319999994,25.703750017279997,41.72987500032
8.750000000000001e-08,19.999938560000032,173.75004416000002,25.71000001664,41.742374999039995
8.800000000000001e-08,26.24993791999998,158.12504319999994,25.69750001792,41.75487499776
8.85e-08,13.749939200000085,173.75004416000002,25.691250018559998,41.7642499968
8.9e-08,13.749939200000085,173.75004416000002,25.69750001792,41.75487499776
8.95e-08,13.749939200000085,142.50004223999997,25.6850000192,41.74549999872
9.000000000000001e-08,13.749939200000085,173.75004416000002,25.67875001984,41.736124999679994
9.050000000000001e-08,13.749939200000085,142.50004223999997,25.672500020479998,41.73924999936
9.100000000000001e-08,19.999938560000032,126.87504128,25.6850000192,41.733
9.15e-08,13.749939200000085,126.87504128,25.67875001984,41.736124999679994
9.2e-08,7.499939840000025,126.87504128,25.67875001984,41.736124999679994
9.25e-08,7.499939840000025,126.87504128,25.672500020479998,41.726750000639996
9.300000000000001e-08,7.499939840000025,111.25004031999993,25.672500020479998,41.7173750016
9.350000000000001e-08,1.2499404800000775,126.87504128,25.653750022399997,41.711125002239996
9.400000000000001e-08,7.499939840000025,111.25004031999993,25.653750022399997,41.711125002239996
9.45e-08,1.2499404800000775,95.62503935999996,25.641250023679998,41.704875002879994
9.5e-08,-5.000058879999983,95.62503935999996,25.63500002432,41.7017500032
9.55e-08,7.499939840000025,111.25004031999993,25.641250023679998,41.69237500416
9.600000000000001e-08,7.499939840000025,80.0000384,25.63500002432,41.69237500416
9.650000000000001e-08,1.2499404800000775,95.62503935999996,25.63500002432,41.695500003839996
9.700000000000001e-08,-5.000058879999983,111.25004031999993,25.64750002304,41.689250004479995
9.75e-08,-5.000058879999983,80.0000384,25.64750002304,41.6861250048
9.8e-08,-5.000058879999983,111.25004031999993,25.64750002304,41.673625006079995
9.85e-08,-5.000058879999983,80.0000384,25.66000002176,41.6705000064
9.9e-08,-5.000058879999983,64.37503744000003,25.67875001984,41.658000007679995
9.950000000000001e-08,-11.25005823999993,64.37503744000003,25.691250018559998,41.648625008639996
1.0000000000000001e-07,-11.25005823999993,95.62503935999996,25.703750017279997,41.64550000896
1.005e-07,-11.25005823999993,80.0000384,25.716250016,41.64550000896
1.01e-07,-17.50005759999999,64.37503744000003,25.722500015359998,41.654875008
1.015e-07,-17.50005759999999,80.0000384,25.716250016,41.66112500736
1.02e-07,-17.50005759999999,64.37503744000003,25.72875001472,41.66737500672
1.0250000000000001e-07,-23.750056959999938,80.0000384,25.72875001472,41.67675000576
1.0300000000000001e-07,-23.750056959999938,64.37503744000003,25.716250016,41.689250004479995
1.0350000000000001e-07,-23.750056959999938,64.37503744000003,25.71000001664,41.69862500352
1.04e-07,-23.750056959999938,64.37503744000003,25.6850000192,41.711125002239996
1.045e-07,-30.00005632,80.0000384,25.6850000192,41.726750000639996
1.05e-07,-30.00005632,64.37503744000003,25.6850000192,41.726750000639996
1.0550000000000001e-07,-36.250055679999946,64.37503744000003,25.672500020479998,41.726750000639996
1.0600000000000001e-07,-36.250055679999946,80.0000384,25.653750022399997,41.72362500096
1.0650000000000001e-07,-42.50005504000001,48.75003647999995,25.63500002432,41.720500001279994
1.07e-07,-42.50005504000001,48.75003647999995,25.622500025599997,41.71425000192
1.075e-07,-48.750054399999954,17.500034560000017,25.61625002624,41.720500001279994
1.08e-07,-48.750054399999954,33.12503551999998,25.610000026879998,41.7173750016
1.0850000000000001e-07,-55.000053760000014,33.12503551999998,25.61625002624,41.71425000192
1.0900000000000001e-07,-55.000053760000014,33.12503551999998,25.63500002432,41.704875002879994
1.0950000000000001e-07,-67.50005248000002,33.12503551999998,25.61625002624,41.695500003839996
1.1e-07,-61.25005311999996,17.500034560000017,25.610000026879998,41.689250004479995
1.105e-07,-61.25005311999996,17.500034560000017,25.61625002624,41.6861250048
1.11e-07,-67.50005248000002,1.875033599999938,25.61625002624,41.689250004479995
1.1150000000000001e-07,-67.50005248000002,17.500034560000017,25.63500002432,41.69237500416
1.1200000000000001e-07,-67.50005248000002,-13.749967360000028,25.62875002496,41.695500003839996
1.1250000000000001e-07,-73.75005183999997,1.875033599999938,25.62875002496,41.704875002879994
1.13e-07,-73.75005183999997,1.875033599999938,25.622500025599997,41.70800000256
1.135e-07,-80.00005119999997,-13.749967360000028,25.60375002752,41.7017500032
1.14e-07,-86.25005055999998,1.875033599999938,25.58500002944,41.69862500352
1.1450000000000001e-07,-86.25005055999998,-29.374968319999994,25.58500002944,41.69862500352
1.1500000000000001e-07,-73.75005183999997,-44.999969280000016,25.59750002816,41.695500003839996
1.1550000000000001e-07,-86.25005055999998,-44.999969280000016,25.591250028799998,41.69862500352
1.16e-07,-86.25005055999998,-29.374968319999994,25.57875003008,41.69862500352
1.165e-07,-86.25005055999998,-44.999969280000016,25.560000031999998,41.69237500416
1.17e-07,-86.25005055999998,-29.374968319999994,25.55375003264,41.679875005439996
1.1750000000000001e-07,-98.75004927999998,-44.999969280000016,25.54750003328,41.66737500672
1.1800000000000001e-07,-86.25005055999998,-29.374968319999994,25.560000031999998,41.66112500736
1.1850000000000001e-07,-92.50004991999998,-60.62497024000004,25.572500030719997,41.66112500736
1.1900000000000001e-07,-98.75004927999998,-60.62497024000004,25.572500030719997,41.6705000064
