Time (s),V_PRI,V_SEC,V_IN,V_OUT
0.0,-23.750056959999938,-248.12498176000003,26.70687497216,43.426875002239996
5e-10,-23.750056959999938,-263.74998272,26.75374997504,43.436250001279994
1e-09,-23.750056959999938,-248.12498176000003,26.73812497408,43.436250001279994
1.5000000000000002e-09,-17.50005759999999,-263.74998272,26.72249997312,43.43937500096
2e-09,-17.50005759999999,-232.4999808,26.72249997312,43.436250001279994
2.5e-09,-17.50005759999999,-263.74998272,26.72249997312,43.43937500096
3.0000000000000004e-09,-11.25005823999993,-279.37498368,26.73812497408,43.4331250016
3.5000000000000003e-09,-11.25005823999993,-279.37498368,26.73812497408,43.4331250016
4e-09,-11.25005823999993,-279.37498368,26.73812497408,43.43000000192
4.500000000000001e-09,-5.000058879999983,-263.74998272,26.73812497408,43.43000000192
5e-09,-11.25005823999993,-263.74998272,26.73812497408,43.4331250016
5.5000000000000004e-09,-11.25005823999993,-263.74998272,26.73812497408,43.436250001279994
6.000000000000001e-09,1.2499404800000775,-263.74998272,26.769374976,43.43937500096
6.5e-09,-5.000058879999983,-263.74998272,26.73812497408,43.4331250016
7.000000000000001e-09,-5.000058879999983,-263.74998272,26.73812497408,43.43937500096
7.500000000000001e-09,1.2499404800000775,-263.74998272,26.73812497408,43.442500000639996
8e-09,7.499939840000025,-263.74998272,26.70687497216,43.44562500032
8.5e-09,1.2499404800000775,-248.12498176000003,26.72249997312,43.44875
9.000000000000001e-09,1.2499404800000775,-248.12498176000003,26.72249997312,43.44562500032
9.5e-09,1.2499404800000775,-248.12498176000003,26.6912499712,43.442500000639996
1e-08,7.499939840000025,-232.4999808,26.70687497216,43.43937500096
1.0500000000000001e-08,7.499939840000025,-232.4999808,26.70687497216,43.442500000639996
1.1000000000000001e-08,13.749939200000085,-263.74998272,26.70687497216,43.4331250016
1.15e-08,7.499939840000025,-248.12498176000003,26.6912499712,43.436250001279994
1.2000000000000002e-08,13.749939200000085,-248.12498176000003,26.6912499712,43.43937500096
1.2500000000000001e-08,19.999938560000032,-232.4999808,26.6912499712,43.442500000639996
1.3e-08,13.749939200000085,-248.12498176000003,26.6912499712,43.44562500032
1.35e-08,7.499939840000025,-232.4999808,26.6912499712,43.46124999872
1.4000000000000001e-08,26.24993791999998,-216.87497984000004,26.70687497216,43.473749997439995
1.45e-08,19.999938560000032,-232.4999808,26.6912499712,43.4799999968
1.5000000000000002e-08,19.999938560000032,-216.87497984000004,26.67562497024,43.48624999616
1.55e-08,26.24993791999998,-216.87497984000004,26.70687497216,43.483124996479994
1.6e-08,26.24993791999998,-216.87497984000004,26.67562497024,43.4799999968
1.6500000000000002e-08,26.24993791999998,-201.24997888000001,26.72249997312,43.48624999616
1.7e-08,26.24993791999998,-185.62497792,26.72249997312,43.483124996479994
1.75e-08,26.24993791999998,-201.24997888000001,26.6912499712,43.473749997439995
1.8000000000000002e-08,32.49993728000004,-169.99997696000003,26.70687497216,43.47062499776
1.85e-08,32.49993728000004,-201.24997888000001,26.70687497216,43.458124999039995
1.9e-08,44.99993600000005,-201.24997888000001,26.72249997312,43.44562500032
1.9500000000000003e-08,26.24993791999998,-201.24997888000001,26.72249997312,43.43937500096
2e-08,32.49993728000004,-169.99997696000003,26.72249997312,43.43000000192
2.05e-08,38.74993663999999,-169.99997696000003,26.6912499712,43.420625002879994
2.1000000000000003e-08,38.74993663999999,-154.374976,26.70687497216,43.4175000032
2.15e-08,32.49993728000004,-169.99997696000003,26.67562497024,43.41437500352
2.2000000000000002e-08,38.74993663999999,-169.99997696000003,26.70687497216,43.411250003839996
2.2500000000000003e-08,38.74993663999999,-154.374976,26.67562497024,43.405000004479994
2.3e-08,38.74993663999999,-169.99997696000003,26.65999996928,43.405000004479994
2.3500000000000002e-08,44.99993600000005,-138.74997504000004,26.65999996928,43.395625005439996
2.4000000000000003e-08,51.249935359999995,-138.74997504000004,26.65999996928,43.39250000576
2.45e-08,44.99993600000005,-123.12497408000002,26.6912499712,43.395625005439996
2.5000000000000002e-08,51.249935359999995,-123.12497408000002,26.70687497216,43.389375006079995
2.55e-08,51.249935359999995,-154.374976,26.67562497024,43.39250000576
2.6e-08,51.249935359999995,-123.12497408000002,26.67562497024,43.38312500672
2.6500000000000002e-08,51.249935359999995,-138.74997504000004,26.6912499712,43.38312500672
2.7e-08,63.74993408,-154.374976,26.70687497216,43.38312500672
2.75e-08,51.249935359999995,-154.374976,26.72249997312,43.395625005439996
2.8000000000000003e-08,57.499934720000056,-123.12497408000002,26.73812497408,43.411250003839996
2.85e-08,63.74993408,-138.74997504000004,26.73812497408,43.420625002879994
2.9e-08,63.74993408,-138.74997504000004,26.75374997504,43.43000000192
2.9500000000000003e-08,63.74993408,-123.12497408000002,26.73812497408,43.436250001279994
3.0000000000000004e-08,69.99993344000006,-123.12497408000002,26.784999976960002,43.44562500032
3.05e-08,69.99993344000006,-123.12497408000002,26.769374976,43.44562500032
3.1e-08,76.24993280000001,-138.74997504000004,26.784999976960002,43.46124999872
3.1500000000000004e-08,82.49993216000007,-123.12497408000002,26.75374997504,43.46124999872
3.2e-08,88.74993152000002,-123.12497408000002,26.75374997504,43.451874999679994
3.25e-08,82.49993216000007,-91.87497216000003,26.75374997504,43.451874999679994
3.3000000000000004e-08,88.74993152000002,-91.87497216000003,26.75374997504,43.442500000639996
3.35e-08,88.74993152000002,-107.49997311999999,26.72249997312,43.436250001279994
3.4e-08,94.99993088000008,-76.2499712,26.72249997312,43.436250001279994
3.4500000000000005e-08,94.99993088000008,-91.87497216000003,26.72249997312,43.442500000639996
3.5e-08,107.49992960000009,-107.49997311999999,26.70687497216,43.43000000192
3.55e-08,94.99993088000008,-91.87497216000003,26.6912499712,43.426875002239996
3.6000000000000005e-08,101.24993024000003,-76.2499712,26.6912499712,43.4175000032
3.65e-08,107.49992960000009,-60.62497024000004,26.70687497216,43.41437500352
3.7e-08,107.49992960000009,-60.62497024000004,26.72249997312,43.41437500352
3.7500000000000005e-08,107.49992960000009,-44.999969280000016,26.70687497216,43.42375000256
3.8e-08,119.99992831999998,-44.999969280000016,26.6912499712,43.4331250016
3.85e-08,113.74992896000003,-44.999969280000016,26.67562497024,43.4331250016
3.9000000000000005e-08,119.99992831999998,-44.999969280000016,26.65999996928,43.436250001279994
3.95e-08,119.99992831999998,-29.374968319999994,26.6912499712,43.43000000192
4e-08,132.49992704,-29.374968319999994,26.6912499712,43.42375000256
4.0500000000000005e-08,126.24992768000004,-13.749967360000028,26.73812497408,43.42375000256
4.1e-08,126.24992768000004,1.875033599999938,26.73812497408,43.42375000256
4.15e-08,126.24992768000004,-13.749967360000028,26.70687497216,43.42375000256
4.2000000000000006e-08,126.24992768000004,17.500034560000017,26.70687497216,43.420625002879994
4.2500000000000003e-08,132.49992704,-13.749967360000028,26.70687497216,43.41437500352
4.3e-08,138.74992640000005,-29.374968319999994,26.73812497408,43.4018750048
4.3500000000000006e-08,132.49992704,-29.374968319999994,26.73812497408,43.39875000512
4.4000000000000004e-08,132.49992704,1.875033599999938,26.73812497408,43.395625005439996
4.45e-08,132.49992704,-13.749967360000028,26.73812497408,43.405000004479994
4.5000000000000006e-08,132.49992704,1.875033599999938,26.73812497408,43.405000004479994
4.5500000000000004e-08,126.24992768000004,1.875033599999938,26.73812497408,43.40812500416
4.6e-08,138.74992640000005,17.500034560000017,26.769374976,43.4018750048
4.6500000000000006e-08,138.74992640000005,17.500034560000017,26.72249997312,43.39875000512
4.7000000000000004e-08,132.49992704,1.875033599999938,26.72249997312,43.411250003839996
4.75e-08,138.74992640000005,17.500034560000017,26.73812497408,43.426875002239996
4.8000000000000006e-08,138.74992640000005,33.12503551999998,26.73812497408,43.436250001279994
4.8500000000000004e-08,138.74992640000005,33.12503551999998,26.769374976,43.442500000639996
4.9e-08,138.74992640000005,48.75003647999995,26.784999976960002,43.4331250016
4.95e-08,138.74992640000005,33.12503551999998,26.75374997504,43.42375000256
5.0000000000000004e-08,138.74992640000005,64.37503744000003,26.769374976,43.4175000032
5.05e-08,138.74992640000005,48.75003647999995,26.784999976960002,43.426875002239996
5.1e-08,144.99992576,33.12503551999998,26.784999976960002,43.42375000256
5.1500000000000005e-08,132.49992704,33.12503551999998,26.769374976,43.42375000256
5.2e-08,132.49992704,64.37503744000003,26.769374976,43.41437500352
5.25e-08,138.74992640000005,64.37503744000003,26.784999976960002,43.40812500416
5.3000000000000005e-08,132.49992704,64.37503744000003,26.800624977920002,43.405000004479994
5.35e-08,126.24992768000004,80.0000384,26.800624977920002,43.411250003839996
5.4e-08,132.49992704,80.0000384,26.816249978880002,43.420625002879994
5.4500000000000005e-08,132.49992704,80.0000384,26.784999976960002,43.426875002239996
5.5e-08,126.24992768000004,95.62503935999996,26.784999976960002,43.43937500096
5.55e-08,126.24992768000004,111.25004031999993,26.816249978880002,43.43937500096
5.6000000000000005e-08,132.49992704,111.25004031999993,26.800624977920002,43.436250001279994
5.65e-08,126.24992768000004,111.25004031999993,26.8474999808,43.4331250016
5.7e-08,119.99992831999998,126.87504128,26.8474999808,43.43000000192
5.7500000000000005e-08,113.74992896000003,111.25004031999993,26.816249978880002,43.4331250016
5.8e-08,119.99992831999998,126.87504128,26.816249978880002,43.4331250016
5.85e-08,119.99992831999998,126.87504128,26.816249978880002,43.4331250016
5.9000000000000006e-08,119.99992831999998,111.25004031999993,26.816249978880002,43.41437500352
5.9500000000000003e-08,113.74992896000003,111.25004031999993,26.800624977920002,43.4018750048
6.000000000000001e-08,113.74992896000003,126.87504128,26.800624977920002,43.389375006079995
6.05e-08,113.74992896000003,142.50004223999997,26.816249978880002,43.39250000576
6.1e-08,113.74992896000003,142.50004223999997,26.83187497984,43.395625005439996
6.15e-08,101.24993024000003,142.50004223999997,26.83187497984,43.395625005439996
6.2e-08,107.49992960000009,142.50004223999997,26.87874998272,43.38312500672
6.250000000000001e-08,101.24993024000003,142.50004223999997,26.86312498176,43.370625008
6.300000000000001e-08,94.99993088000008,142.50004223999997,26.86312498176,43.380000007039996
6.35e-08,94.99993088000008,158.12504319999994,26.87874998272,43.38312500672
6.4e-08,107.49992960000009,142.50004223999997,26.86312498176,43.39250000576
6.45e-08,94.99993088000008,158.12504319999994,26.89437498368,43.4018750048
6.5e-08,94.99993088000008,173.75004416000002,26.89437498368,43.39875000512
6.55e-08,82.49993216000007,158.12504319999994,26.8474999808,43.39875000512
6.600000000000001e-08,88.74993152000002,189.37504511999998,26.8474999808,43.39875000512
6.65e-08,82.49993216000007,158.12504319999994,26.86312498176,43.411250003839996
6.7e-08,88.74993152000002,142.50004223999997,26.86312498176,43.41437500352
6.75e-08,76.24993280000001,158.12504319999994,26.86312498176,43.42375000256
6.8e-08,69.99993344000006,158.12504319999994,26.86312498176,43.43000000192
6.85e-08,76.24993280000001,189.37504511999998,26.8474999808,43.436250001279994
6.900000000000001e-08,76.24993280000001,173.75004416000002,26.87874998272,43.436250001279994
6.950000000000001e-08,63.74993408,189.37504511999998,26.86312498176,43.43000000192
7e-08,76.24993280000001,189.37504511999998,26.86312498176,43.420625002879994
7.05e-08,69.99993344000006,189.37504511999998,26.83187497984,43.41437500352
7.1e-08,63.74993408,205.00004607999995,26.816249978880002,43.42375000256
7.15e-08,63.74993408,205.00004607999995,26.816249978880002,43.4331250016
7.200000000000001e-08,69.99993344000006,205.00004607999995,26.816249978880002,43.436250001279994
7.250000000000001e-08,63.74993408,205.00004607999995,26.8474999808,43.4331250016
7.3e-08,63.74993408,220.62504704000003,26.86312498176,43.42375000256
7.35e-08,57.499934720000056,205.00004607999995,26.83187497984,43.41437500352
7.4e-08,57.499934720000056,236.250048,26.83187497984,43.411250003839996
7.45e-08,57.499934720000056,205.00004607999995,26.83187497984,43.4175000032
7.500000000000001e-08,57.499934720000056,205.00004607999995,26.8474999808,43.411250003839996
7.550000000000001e-08,51.249935359999995,205.00004607999995,26.816249978880002,43.411250003839996
7.6e-08,51.249935359999995,205.00004607999995,26.800624977920002,43.40812500416
7.65e-08,51.249935359999995,205.00004607999995,26.784999976960002,43.411250003839996
7.7e-08,51.249935359999995,205.00004607999995,26.769374976,43.41437500352
7.75e-08,44.99993600000005,205.00004607999995,26.769374976,43.41437500352
7.800000000000001e-08,44.99993600000005,220.62504704000003,26.800624977920002,43.4175000032
7.850000000000001e-08,44.99993600000005,205.00004607999995,26.75374997504,43.420625002879994
7.9e-08,38.74993663999999,205.00004607999995,26.769374976,43.4331250016
7.95e-08,38.74993663999999,205.00004607999995,26.769374976,43.442500000639996
8e-08,38.74993663999999,205.00004607999995,26.769374976,43.44875
8.05e-08,38.74993663999999,220.62504704000003,26.784999976960002,43.45499999936
8.100000000000001e-08,32.49993728000004,220.62504704000003,26.784999976960002,43.44562500032
8.150000000000001e-08,32.49993728000004,189.37504511999998,26.75374997504,43.43937500096
8.2e-08,32.49993728000004,220.62504704000003,26.75374997504,43.436250001279994
8.25e-08,32.49993728000004,189.37504511999998,26.73812497408,43.436250001279994
8.3e-08,38.74993663999999,189.37504511999998,26.73812497408,43.4331250016
8.35e-08,26.24993791999998,173.75004416000002,26.73812497408,43.4331250016
8.400000000000001e-08,32.49993728000004,189.37504511999998,26.72249997312,43.43937500096
8.450000000000001e-08,26.24993791999998,205.00004607999995,26.73812497408,43.44562500032
8.500000000000001e-08,26.24993791999998,173.75004416000002,26.73812497408,43.44562500032
8.55e-08,19.999938560000032,189.37504511999998,26.75374997504,43.451874999679994
8.6e-08,26.24993791999998,173.75004416000002,26.784999976960002,43.451874999679994
8.65e-08,19.999938560000032,189.37504511999998,26.75374997504,43.451874999679994
8.700000000000001e-08,13.749939200000085,173.75004416000002,26.73812497408,43.47062499776
8.750000000000001e-08,19.999938560000032,189.37504511999998,26.75374997504,43.48624999616
8.800000000000001e-08,19.999938560000032,173.75004416000002,26.73812497408,43.4956249952
8.85e-08,19.999938560000032,173.75004416000002,26.769374976,43.498749994879994
8.9e-08,19.999938560000032,189.37504511999998,26.769374976,43.483124996479994
8.95e-08,13.749939200000085,173.75004416000002,26.73812497408,43.47687499712
9.000000000000001e-08,13.749939200000085,173.75004416000002,26.73812497408,43.4643749984
9.050000000000001e-08,13.749939200000085,142.50004223999997,26.73812497408,43.467499998079994
9.100000000000001e-08,19.999938560000032,126.87504128,26.73812497408,43.4643749984
9.15e-08,7.499939840000025,126.87504128,26.72249997312,43.46124999872
9.2e-08,13.749939200000085,142.50004223999997,26.72249997312,43.458124999039995
9.25e-08,7.499939840000025,126.87504128,26.72249997312,43.451874999679994
9.300000000000001e-08,13.749939200000085,142.50004223999997,26.72249997312,43.44562500032
9.350000000000001e-08,1.2499404800000775,142.50004223999997,26.70687497216,43.43937500096
9.400000000000001e-08,7.499939840000025,126.87504128,26.70687497216,43.436250001279994
9.45e-08,7.499939840000025,111.25004031999993,26.67562497024,43.426875002239996
9.5e-08,1.2499404800000775,111.25004031999993,26.65999996928,43.43000000192
9.55e-08,7.499939840000025,111.25004031999993,26.67562497024,43.426875002239996
9.600000000000001e-08,1.2499404800000775,95.62503935999996,26.65999996928,43.426875002239996
9.650000000000001e-08,1.2499404800000775,126.87504128,26.70687497216,43.43000000192
9.700000000000001e-08,-5.000058879999983,111.25004031999993,26.70687497216,43.41437500352
9.75e-08,-11.25005823999993,95.62503935999996,26.6912499712,43.411250003839996
9.8e-08,-11.25005823999993,111.25004031999993,26.6912499712,43.4018750048
9.85e-08,-5.000058879999983,80.0000384,26.6912499712,43.39875000512
9.9e-08,-5.000058879999983,95.62503935999996,26.70687497216,43.38312500672
9.950000000000001e-08,-11.25005823999993,64.37503744000003,26.72249997312,43.37687500736
1.0000000000000001e-07,-17.50005759999999,80.0000384,26.73812497408,43.373750007679995
1.005e-07,-11.25005823999993,80.0000384,26.75374997504,43.380000007039996
1.01e-07,-17.50005759999999,80.0000384,26.75374997504,43.3862500064
1.015e-07,-23.750056959999938,95.62503935999996,26.75374997504,43.395625005439996
1.02e-07,-23.750056959999938,64.37503744000003,26.769374976,43.4018750048
1.0250000000000001e-07,-23.750056959999938,80.0000384,26.75374997504,43.40812500416
1.0300000000000001e-07,-36.250055679999946,80.0000384,26.73812497408,43.426875002239996
1.0350000000000001e-07,-36.250055679999946,80.0000384,26.75374997504,43.43937500096
1.04e-07,-23.750056959999938,64.37503744000003,26.73812497408,43.44875
1.045e-07,-30.00005632,64.37503744000003,26.73812497408,43.458124999039995
1.05e-07,-36.250055679999946,80.0000384,26.75374997504,43.458124999039995
1.0550000000000001e-07,-42.50005504000001,64.37503744000003,26.70687497216,43.46124999872
1.0600000000000001e-07,-42.50005504000001,64.37503744000003,26.70687497216,43.44875
1.0650000000000001e-07,-42.50005504000001,48.75003647999995,26.6912499712,43.45499999936
1.07e-07,-42.50005504000001,33.12503551999998,26.65999996928,43.44562500032
1.075e-07,-48.750054399999954,33.12503551999998,26.65999996928,43.44562500032
1.08e-07,-55.000053760000014,33.12503551999998,26.64437496832,43.442500000639996
1.0850000000000001e-07,-48.750054399999954,33.12503551999998,26.64437496832,43.43937500096
1.0900000000000001e-07,-55.000053760000014,17.500034560000017,26.65999996928,43.43000000192
1.0950000000000001e-07,-67.50005248000002,33.12503551999998,26.65999996928,43.42375000256
1.1e-07,-61.25005311999996,33.12503551999998,26.67562497024,43.4175000032
1.105e-07,-67.50005248000002,1.875033599999938,26.64437496832,43.41437500352
1.11e-07,-73.75005183999997,1.875033599999938,26.6131249664,43.42375000256
1.1150000000000001e-07,-80.00005119999997,17.500034560000017,26.62874996736,43.426875002239996
1.1200000000000001e-07,-73.75005183999997,1.875033599999938,26.62874996736,43.4331250016
1.1250000000000001e-07,-73.75005183999997,1.875033599999938,26.67562497024,43.436250001279994
1.13e-07,-80.00005119999997,-13.749967360000028,26.65999996928,43.4331250016
1.135e-07,-80.00005119999997,-13.749967360000028,26.62874996736,43.43000000192
1.14e-07,-86.25005055999998,-13.749967360000028,26.6131249664,43.42375000256
1.1450000000000001e-07,-86.25005055999998,-29.374968319999994,26.6131249664,43.43000000192
1.1500000000000001e-07,-80.00005119999997,-44.999969280000016,26.62874996736,43.426875002239996
1.1550000000000001e-07,-98.75004927999998,-60.62497024000004,26.62874996736,43.43000000192
1.16e-07,-92.50004991999998,-29.374968319999994,26.6131249664,43.426875002239996
1.165e-07,-92.50004991999998,-44.999969280000016,26.59749996544,43.4175000032
1.17e-07,-92.50004991999998,-44.999969280000016,26.59749996544,43.40812500416
1.1750000000000001e-07,-105.00004863999999,-44.999969280000016,26.58187496448,43.39250000576
1.1800000000000001e-07,-92.50004991999998,-44.999969280000016,26.59749996544,43.389375006079995
1.1850000000000001e-07,-98.75004927999998,-76.2499712,26.59749996544,43.389375006079995
1.1900000000000001e-07,-105.00004863999999,-60.62497024000004,26.59749996544,43.39875000512
1.195e-07,-98.75004927999998,-60.62497024000004,26.59749996544,43.395625005439996
1.2000000000000002e-07,-98.75004927999998,-76.2499712,26.59749996544,43.39250000576
1.205e-07,-92.50004991999998,-44.999969280000016,26.62874996736,43.395625005439996
1.21e-07,-98.75004927999998,-44.999969280000016,26.62874996736,43.39875000512
