Time (s),V_PRI,V_SEC,V_IN,V_OUT
0.0,-34.74990976000004,-251.12498176000003,26.55687497984,44.834625002239996
5e-10,-50.374910720000116,-266.74998272,26.55687497984,44.8408750016
1e-09,-19.124908799999957,-266.74998272,26.5724999808,44.84712500096
1.5000000000000002e-09,-19.124908799999957,-266.74998272,26.5724999808,44.8565
2e-09,-19.124908799999957,-282.37498368,26.5724999808,44.8565
2.5e-09,-19.124908799999957,-282.37498368,26.55687497984,44.865874999039995
3.0000000000000004e-09,-3.4999078400001054,-266.74998272,26.541249978880003,44.86274999936
3.5000000000000003e-09,-3.4999078400001054,-282.37498368,26.5724999808,44.85337500032
4e-09,-3.4999078400001054,-266.74998272,26.541249978880003,44.84712500096
4.500000000000001e-09,-3.4999078400001054,-266.74998272,26.525624977920003,44.83150000256
5e-09,12.125093119999974,-282.37498368,26.525624977920003,44.82212500352
5.5000000000000004e-09,12.125093119999974,-266.74998272,26.494374976000003,44.812750004479994
6.000000000000001e-09,27.750094080000054,-282.37498368,26.478749975040003,44.80650000512
6.5e-09,12.125093119999974,-297.99998464,26.478749975040003,44.7940000064
7.000000000000001e-09,27.750094080000054,-297.99998464,26.478749975040003,44.7940000064
7.500000000000001e-09,27.750094080000054,-282.37498368,26.494374976000003,44.797125006079995
8e-09,12.125093119999974,-282.37498368,26.494374976000003,44.812750004479994
8.5e-09,27.750094080000054,-282.37498368,26.494374976000003,44.82212500352
9.000000000000001e-09,43.375095039999906,-266.74998272,26.509999976960003,44.83775000192
9.5e-09,27.750094080000054,-266.74998272,26.478749975040003,44.8565
1e-08,12.125093119999974,-266.74998272,26.478749975040003,44.865874999039995
1.0500000000000001e-08,43.375095039999906,-266.74998272,26.478749975040003,44.8877499968
1.1000000000000001e-08,59.000095999999985,-266.74998272,26.431874972160003,44.890874996479994
1.15e-08,59.000095999999985,-251.12498176000003,26.463124974080003,44.89399999616
1.2000000000000002e-08,43.375095039999906,-251.12498176000003,26.431874972160003,44.890874996479994
1.2500000000000001e-08,59.000095999999985,-251.12498176000003,26.416249971200003,44.87837499776
1.3e-08,74.62509695999984,-266.74998272,26.416249971200003,44.8721249984
1.35e-08,74.62509695999984,-219.87497984000004,26.447499973120003,44.86899999872
1.4000000000000001e-08,90.25009791999992,-235.4999808,26.463124974080003,44.86899999872
1.45e-08,59.000095999999985,-251.12498176000003,26.478749975040003,44.86899999872
1.5000000000000002e-08,74.62509695999984,-266.74998272,26.494374976000003,44.87837499776
1.55e-08,105.87509888,-251.12498176000003,26.509999976960003,44.89399999616
1.6e-08,74.62509695999984,-235.4999808,26.525624977920003,44.9033749952
1.6500000000000002e-08,74.62509695999984,-219.87497984000004,26.541249978880003,44.90962499456
1.7e-08,90.25009791999992,-219.87497984000004,26.55687497984,44.912749994239995
1.75e-08,90.25009791999992,-219.87497984000004,26.525624977920003,44.906499994879994
1.8000000000000002e-08,74.62509695999984,-204.24997888000001,26.525624977920003,44.890874996479994
1.85e-08,105.87509888,-235.4999808,26.525624977920003,44.8877499968
1.9e-08,105.87509888,-204.24997888000001,26.509999976960003,44.875249998079994
1.9500000000000003e-08,105.87509888,-188.62497792,26.541249978880003,44.865874999039995
2e-08,105.87509888,-188.62497792,26.541249978880003,44.86274999936
2.05e-08,90.25009791999992,-172.99997696000003,26.525624977920003,44.84712500096
2.1000000000000003e-08,105.87509888,-204.24997888000001,26.541249978880003,44.83775000192
2.15e-08,105.87509888,-157.374976,26.541249978880003,44.83150000256
2.2000000000000002e-08,137.12510079999993,-172.99997696000003,26.5724999808,44.828375002879994
2.2500000000000003e-08,105.87509888,-172.99997696000003,26.5724999808,44.819000003839996
2.3e-08,121.50009983999985,-188.62497792,26.55687497984,44.8252500032
2.3500000000000002e-08,121.50009983999985,-157.374976,26.541249978880003,44.834625002239996
2.4000000000000003e-08,121.50009983999985,-172.99997696000003,26.541249978880003,44.8408750016
2.45e-08,105.87509888,-141.74997504000004,26.525624977920003,44.844000001279994
2.5000000000000002e-08,121.50009983999985,-157.374976,26.541249978880003,44.83775000192
2.55e-08,121.50009983999985,-141.74997504000004,26.509999976960003,44.83150000256
2.6e-08,137.12510079999993,-141.74997504000004,26.525624977920003,44.812750004479994
2.6500000000000002e-08,121.50009983999985,-141.74997504000004,26.541249978880003,44.80650000512
2.7e-08,168.37510271999986,-126.12497408000002,26.5724999808,44.7940000064
2.75e-08,137.12510079999993,-141.74997504000004,26.61937498368,44.787750007039996
2.8000000000000003e-08,137.12510079999993,-126.12497408000002,26.61937498368,44.78462500736
2.85e-08,137.12510079999993,-126.12497408000002,26.60374998272,44.772125008639996
2.9e-08,137.12510079999993,-141.74997504000004,26.60374998272,44.77525000832
2.9500000000000003e-08,152.75010176,-94.87497216000003,26.60374998272,44.78462500736
3.0000000000000004e-08,168.37510271999986,-126.12497408000002,26.60374998272,44.80025000576
3.05e-08,152.75010176,-141.74997504000004,26.5724999808,44.819000003839996
3.1e-08,168.37510271999986,-126.12497408000002,26.55687497984,44.844000001279994
3.1500000000000004e-08,168.37510271999986,-126.12497408000002,26.541249978880003,44.86274999936
3.2e-08,152.75010176,-126.12497408000002,26.525624977920003,44.881499997439995
3.25e-08,168.37510271999986,-126.12497408000002,26.509999976960003,44.89399999616
3.3000000000000004e-08,199.62510464000002,-110.49997311999999,26.525624977920003,44.90024999552
3.35e-08,168.37510271999986,-110.49997311999999,26.509999976960003,44.89399999616
3.4e-08,184.00010367999994,-110.49997311999999,26.494374976000003,44.8877499968
3.4500000000000005e-08,184.00010367999994,-110.49997311999999,26.494374976000003,44.88462499712
3.5e-08,199.62510464000002,-94.87497216000003,26.478749975040003,44.87837499776
3.55e-08,199.62510464000002,-94.87497216000003,26.494374976000003,44.8721249984
3.6000000000000005e-08,199.62510464000002,-94.87497216000003,26.509999976960003,44.865874999039995
3.65e-08,199.62510464000002,-63.62497024000004,26.478749975040003,44.85337500032
3.7e-08,199.62510464000002,-79.2499712,26.494374976000003,44.844000001279994
3.7500000000000005e-08,199.62510464000002,-63.62497024000004,26.478749975040003,44.83150000256
3.8e-08,230.87510655999995,-63.62497024000004,26.494374976000003,44.82212500352
3.85e-08,215.25010559999987,-79.2499712,26.494374976000003,44.812750004479994
3.9000000000000005e-08,215.25010559999987,-94.87497216000003,26.509999976960003,44.812750004479994
3.95e-08,215.25010559999987,-47.999969280000016,26.525624977920003,44.81587500416
4e-08,199.62510464000002,-47.999969280000016,26.509999976960003,44.819000003839996
4.0500000000000005e-08,199.62510464000002,-32.374968319999994,26.525624977920003,44.828375002879994
4.1e-08,230.87510655999995,-32.374968319999994,26.55687497984,44.834625002239996
4.15e-08,215.25010559999987,-32.374968319999994,26.55687497984,44.834625002239996
4.2000000000000006e-08,199.62510464000002,-32.374968319999994,26.541249978880003,44.83150000256
4.2500000000000003e-08,215.25010559999987,-32.374968319999994,26.541249978880003,44.83775000192
4.3e-08,230.87510655999995,-1.124966400000062,26.478749975040003,44.834625002239996
4.3500000000000006e-08,215.25010559999987,-1.124966400000062,26.478749975040003,44.8252500032
4.4000000000000004e-08,215.25010559999987,-1.124966400000062,26.431874972160003,44.819000003839996
4.45e-08,215.25010559999987,14.500034560000017,26.400624970240003,44.803375005439996
4.5000000000000006e-08,215.25010559999987,-16.749967360000028,26.400624970240003,44.79087500672
4.5500000000000004e-08,230.87510655999995,14.500034560000017,26.400624970240003,44.78462500736
4.6e-08,230.87510655999995,14.500034560000017,26.400624970240003,44.79087500672
4.6500000000000006e-08,199.62510464000002,-16.749967360000028,26.384999969280003,44.7940000064
4.7000000000000004e-08,215.25010559999987,14.500034560000017,26.384999969280003,44.80025000576
4.75e-08,215.25010559999987,14.500034560000017,26.400624970240003,44.803375005439996
4.8000000000000006e-08,215.25010559999987,14.500034560000017,26.431874972160003,44.8096250048
4.8500000000000004e-08,184.00010367999994,14.500034560000017,26.431874972160003,44.8252500032
4.9e-08,215.25010559999987,30.125035519999983,26.463124974080003,44.844000001279994
4.95e-08,199.62510464000002,30.125035519999983,26.416249971200003,44.86274999936
5.0000000000000004e-08,184.00010367999994,30.125035519999983,26.416249971200003,44.865874999039995
5.05e-08,199.62510464000002,45.75003647999995,26.416249971200003,44.865874999039995
5.1e-08,199.62510464000002,45.75003647999995,26.384999969280003,44.86274999936
5.1500000000000005e-08,199.62510464000002,45.75003647999995,26.400624970240003,44.865874999039995
5.2e-08,184.00010367999994,30.125035519999983,26.400624970240003,44.875249998079994
5.25e-08,168.37510271999986,61.37503744000003,26.400624970240003,44.8721249984
5.3000000000000005e-08,184.00010367999994,61.37503744000003,26.400624970240003,44.859624999679994
5.35e-08,168.37510271999986,77.0000384,26.416249971200003,44.84712500096
5.4e-08,199.62510464000002,61.37503744000003,26.416249971200003,44.834625002239996
5.4500000000000005e-08,168.37510271999986,61.37503744000003,26.384999969280003,44.828375002879994
5.5e-08,168.37510271999986,45.75003647999995,26.384999969280003,44.828375002879994
5.55e-08,184.00010367999994,92.62503935999996,26.353749967360002,44.819000003839996
5.6000000000000005e-08,152.75010176,77.0000384,26.338124966400002,44.81587500416
5.65e-08,152.75010176,92.62503935999996,26.322499965440002,44.819000003839996
5.7e-08,168.37510271999986,92.62503935999996,26.322499965440002,44.83150000256
5.7500000000000005e-08,152.75010176,92.62503935999996,26.322499965440002,44.83775000192
5.8e-08,152.75010176,108.25004031999993,26.322499965440002,44.8408750016
5.85e-08,152.75010176,123.87504128,26.353749967360002,44.844000001279994
5.9000000000000006e-08,152.75010176,123.87504128,26.353749967360002,44.83775000192
5.9500000000000003e-08,152.75010176,123.87504128,26.416249971200003,44.83775000192
6.000000000000001e-08,137.12510079999993,139.50004223999997,26.431874972160003,44.84712500096
6.05e-08,137.12510079999993,155.12504319999994,26.416249971200003,44.844000001279994
6.1e-08,121.50009983999985,139.50004223999997,26.447499973120003,44.834625002239996
6.15e-08,121.50009983999985,170.75004416000002,26.431874972160003,44.819000003839996
6.2e-08,137.12510079999993,139.50004223999997,26.431874972160003,44.812750004479994
6.250000000000001e-08,121.50009983999985,139.50004223999997,26.384999969280003,44.80650000512
6.300000000000001e-08,105.87509888,139.50004223999997,26.369374968320002,44.80025000576
6.35e-08,105.87509888,155.12504319999994,26.353749967360002,44.79087500672
6.4e-08,105.87509888,155.12504319999994,26.369374968320002,44.77525000832
6.45e-08,90.25009791999992,155.12504319999994,26.400624970240003,44.772125008639996
6.5e-08,105.87509888,155.12504319999994,26.431874972160003,44.778375008
6.55e-08,74.62509695999984,155.12504319999994,26.447499973120003,44.787750007039996
6.600000000000001e-08,74.62509695999984,170.75004416000002,26.463124974080003,44.80025000576
6.65e-08,90.25009791999992,170.75004416000002,26.478749975040003,44.8096250048
6.7e-08,74.62509695999984,170.75004416000002,26.447499973120003,44.812750004479994
6.75e-08,90.25009791999992,170.75004416000002,26.447499973120003,44.819000003839996
6.8e-08,74.62509695999984,170.75004416000002,26.416249971200003,44.828375002879994
6.85e-08,59.000095999999985,202.00004607999995,26.353749967360002,44.83150000256
6.900000000000001e-08,59.000095999999985,170.75004416000002,26.338124966400002,44.8252500032
6.950000000000001e-08,74.62509695999984,202.00004607999995,26.322499965440002,44.82212500352
7e-08,74.62509695999984,186.37504511999998,26.322499965440002,44.8252500032
7.05e-08,43.375095039999906,170.75004416000002,26.338124966400002,44.82212500352
7.1e-08,59.000095999999985,170.75004416000002,26.384999969280003,44.828375002879994
7.15e-08,43.375095039999906,186.37504511999998,26.431874972160003,44.834625002239996
7.200000000000001e-08,43.375095039999906,186.37504511999998,26.478749975040003,44.83775000192
7.250000000000001e-08,27.750094080000054,186.37504511999998,26.525624977920003,44.844000001279994
7.3e-08,27.750094080000054,186.37504511999998,26.541249978880003,44.850250000639996
7.35e-08,27.750094080000054,217.62504704000003,26.525624977920003,44.86274999936
7.4e-08,12.125093119999974,217.62504704000003,26.494374976000003,44.859624999679994
7.45e-08,27.750094080000054,202.00004607999995,26.463124974080003,44.86899999872
7.500000000000001e-08,27.750094080000054,202.00004607999995,26.384999969280003,44.865874999039995
7.550000000000001e-08,12.125093119999974,217.62504704000003,26.369374968320002,44.865874999039995
7.6e-08,-3.4999078400001054,217.62504704000003,26.353749967360002,44.865874999039995
7.65e-08,-3.4999078400001054,248.87504895999996,26.322499965440002,44.85337500032
7.7e-08,12.125093119999974,202.00004607999995,26.338124966400002,44.844000001279994
7.75e-08,-3.4999078400001054,233.250048,26.384999969280003,44.83150000256
7.800000000000001e-08,-3.4999078400001054,217.62504704000003,26.416249971200003,44.819000003839996
7.850000000000001e-08,-19.124908799999957,202.00004607999995,26.463124974080003,44.80650000512
7.9e-08,-3.4999078400001054,202.00004607999995,26.463124974080003,44.80025000576
7.95e-08,-19.124908799999957,217.62504704000003,26.463124974080003,44.797125006079995
8e-08,-34.74990976000004,217.62504704000003,26.431874972160003,44.79087500672
8.05e-08,-50.374910720000116,217.62504704000003,26.416249971200003,44.80025000576
8.100000000000001e-08,-34.74990976000004,202.00004607999995,26.369374968320002,44.81587500416
8.150000000000001e-08,-50.374910720000116,233.250048,26.322499965440002,44.83150000256
8.2e-08,-34.74990976000004,217.62504704000003,26.306874964480002,44.844000001279994
8.25e-08,-34.74990976000004,217.62504704000003,26.291249963520002,44.859624999679994
8.3e-08,-34.74990976000004,202.00004607999995,26.275624962560002,44.859624999679994
8.35e-08,-50.374910720000116,217.62504704000003,26.322499965440002,44.859624999679994
8.400000000000001e-08,-50.374910720000116,202.00004607999995,26.353749967360002,44.859624999679994
8.450000000000001e-08,-50.374910720000116,217.62504704000003,26.384999969280003,44.850250000639996
8.500000000000001e-08,-65.99991167999997,217.62504704000003,26.400624970240003,44.8408750016
8.55e-08,-65.99991167999997,233.250048,26.416249971200003,44.834625002239996
8.6e-08,-65.99991167999997,186.37504511999998,26.416249971200003,44.83775000192
8.65e-08,-81.62491264000005,186.37504511999998,26.369374968320002,44.834625002239996
8.700000000000001e-08,-81.62491264000005,186.37504511999998,26.353749967360002,44.850250000639996
8.750000000000001e-08,-65.99991167999997,186.37504511999998,26.338124966400002,44.86274999936
8.800000000000001e-08,-81.62491264000005,186.37504511999998,26.322499965440002,44.881499997439995
8.85e-08,-97.24991360000013,186.37504511999998,26.322499965440002,44.897124995839995
8.9e-08,-81.62491264000005,170.75004416000002,26.353749967360002,44.918999993599996
8.95e-08,-97.24991360000013,186.37504511999998,26.353749967360002,44.928374992639995
9.000000000000001e-08,-81.62491264000005,170.75004416000002,26.400624970240003,44.92524999296
9.050000000000001e-08,-97.24991360000013,170.75004416000002,26.416249971200003,44.918999993599996
9.100000000000001e-08,-97.24991360000013,170.75004416000002,26.400624970240003,44.9033749952
9.15e-08,-97.24991360000013,155.12504319999994,26.400624970240003,44.8877499968
9.2e-08,-97.24991360000013,170.75004416000002,26.416249971200003,44.875249998079994
9.25e-08,-112.87491455999998,170.75004416000002,26.353749967360002,44.8565
9.300000000000001e-08,-112.87491455999998,139.50004223999997,26.322499965440002,44.83775000192
9.350000000000001e-08,-112.87491455999998,155.12504319999994,26.306874964480002,44.8252500032
9.400000000000001e-08,-97.24991360000013,123.87504128,26.291249963520002,44.828375002879994
9.45e-08,-128.49991552000006,108.25004031999993,26.291249963520002,44.83150000256
9.5e-08,-112.87491455999998,108.25004031999993,26.306874964480002,44.8408750016
9.55e-08,-112.87491455999998,123.87504128,26.338124966400002,44.8408750016
9.600000000000001e-08,-128.49991552000006,123.87504128,26.369374968320002,44.83775000192
9.650000000000001e-08,-144.12491648000014,108.25004031999993,26.384999969280003,44.83775000192
9.700000000000001e-08,-128.49991552000006,108.25004031999993,26.416249971200003,44.834625002239996
9.75e-08,-144.12491648000014,108.25004031999993,26.416249971200003,44.8408750016
9.8e-08,-144.12491648000014,108.25004031999993,26.416249971200003,44.83775000192
9.85e-08,-144.12491648000014,92.62503935999996,26.400624970240003,44.83775000192
9.9e-08,-144.12491648000014,108.25004031999993,26.384999969280003,44.828375002879994
9.950000000000001e-08,-144.12491648000014,92.62503935999996,26.400624970240003,44.82212500352
1.0000000000000001e-07,-159.74991744,92.62503935999996,26.416249971200003,44.81587500416
1.005e-07,-159.74991744,108.25004031999993,26.416249971200003,44.803375005439996
1.01e-07,-144.12491648000014,92.62503935999996,26.447499973120003,44.7940000064
1.015e-07,-175.37491840000007,108.25004031999993,26.494374976000003,44.787750007039996
1.02e-07,-144.12491648000014,77.0000384,26.541249978880003,44.78462500736
1.0250000000000001e-07,-175.37491840000007,77.0000384,26.541249978880003,44.781500007679995
1.0300000000000001e-07,-175.37491840000007,61.37503744000003,26.541249978880003,44.787750007039996
1.0350000000000001e-07,-175.37491840000007,77.0000384,26.509999976960003,44.7940000064
1.04e-07,-159.74991744,77.0000384,26.478749975040003,44.80650000512
1.045e-07,-190.99991936000015,61.37503744000003,26.447499973120003,44.82212500352
1.05e-07,-175.37491840000007,77.0000384,26.447499973120003,44.844000001279994
1.0550000000000001e-07,-175.37491840000007,77.0000384,26.416249971200003,44.865874999039995
1.0600000000000001e-07,-190.99991936000015,61.37503744000003,26.416249971200003,44.87837499776
1.0650000000000001e-07,-190.99991936000015,61.37503744000003,26.431874972160003,44.897124995839995
1.07e-07,-175.37491840000007,77.0000384,26.447499973120003,44.9033749952
1.075e-07,-206.62492032,61.37503744000003,26.494374976000003,44.90962499456
1.08e-07,-190.99991936000015,45.75003647999995,26.509999976960003,44.912749994239995
1.0850000000000001e-07,-222.24992128000008,61.37503744000003,26.478749975040003,44.89399999616
1.0900000000000001e-07,-206.62492032,30.125035519999983,26.494374976000003,44.87837499776
1.0950000000000001e-07,-206.62492032,45.75003647999995,26.447499973120003,44.85337500032
1.1e-07,-206.62492032,30.125035519999983,26.447499973120003,44.850250000639996
1.105e-07,-222.24992128000008,14.500034560000017,26.431874972160003,44.834625002239996
1.11e-07,-222.24992128000008,14.500034560000017,26.447499973120003,44.82212500352
1.1150000000000001e-07,-222.24992128000008,14.500034560000017,26.447499973120003,44.812750004479994
1.1200000000000001e-07,-237.87492223999993,14.500034560000017,26.463124974080003,44.80650000512
1.1250000000000001e-07,-237.87492223999993,14.500034560000017,26.478749975040003,44.8096250048
1.13e-07,-237.87492223999993,-1.124966400000062,26.525624977920003,44.81587500416
1.135e-07,-222.24992128000008,14.500034560000017,26.541249978880003,44.8252500032
1.14e-07,-237.87492223999993,-1.124966400000062,26.58812498176,44.828375002879994
1.1450000000000001e-07,-237.87492223999993,-16.749967360000028,26.60374998272,44.834625002239996
1.1500000000000001e-07,-222.24992128000008,-1.124966400000062,26.5724999808,44.8408750016
1.1550000000000001e-07,-237.87492223999993,-16.749967360000028,26.58812498176,44.844000001279994
1.16e-07,-237.87492223999993,-16.749967360000028,26.55687497984,44.85337500032
