!Keysight Technologies,E5063A,MY54100949,A.07.30
!Date: Fri Dec 19 01:24:27 2025
!Data & Calibration Information:
!Freq	S11:SOLT2(ON)	S21:SOLT2(ON)	S12:SOLT2(ON)	S22:SOLT2(ON)
# Hz S RI R 50
50000.000	1.006013e+000	-4.084382e-003	-5.888283e-005	1.479818e-004	8.455338e-005	1.081388e-004	1.008065e+000	-5.577195e-003
54995.000	1.003909e+000	-4.421422e-003	8.565312e-006	2.947135e-005	-8.544543e-005	-1.557342e-005	1.004380e+000	-7.409597e-003
59990.000	1.003228e+000	-6.016437e-003	1.196447e-005	2.305540e-005	-2.835695e-005	-3.894493e-005	1.004356e+000	-9.043672e-003
64985.000	1.003152e+000	-6.582783e-003	-1.327843e-006	1.692585e-005	-2.830409e-005	7.799753e-005	1.004489e+000	-9.611818e-003
69980.000	1.003669e+000	-7.324575e-003	5.910542e-005	9.408471e-005	1.060714e-004	7.062779e-005	1.004327e+000	-9.952641e-003
74975.000	1.002855e+000	-7.915367e-003	7.839684e-005	1.399468e-005	1.682421e-006	6.769158e-005	1.003922e+000	-1.037385e-002
79970.000	1.002558e+000	-8.633279e-003	-2.544918e-005	2.225790e-005	-3.209243e-005	-2.735244e-005	1.003583e+000	-1.078299e-002
84965.000	1.002317e+000	-9.289764e-003	-1.128175e-005	9.813815e-005	-6.394963e-005	1.038152e-004	1.003413e+000	-1.133588e-002
89960.000	1.002525e+000	-9.673289e-003	6.524484e-005	-6.446789e-006	8.892797e-005	1.173052e-004	1.002840e+000	-1.162650e-002
94955.000	1.001616e+000	-1.034286e-002	1.278410e-004	1.618524e-004	7.842742e-005	3.663066e-005	1.002755e+000	-1.222801e-002
99950.000	1.002239e+000	-1.076030e-002	-3.119105e-005	1.926316e-004	-3.986603e-006	5.746031e-005	1.002511e+000	-1.253321e-002
104945.000	1.001958e+000	-1.115462e-002	1.164547e-005	1.518646e-004	-2.881432e-005	4.970138e-005	1.002527e+000	-1.272006e-002
109940.000	1.001449e+000	-1.163120e-002	-2.664776e-005	3.416694e-005	-1.079851e-005	1.049272e-004	1.002192e+000	-1.344615e-002
114935.000	1.001481e+000	-1.217404e-002	-1.027488e-006	1.456050e-004	1.129300e-006	2.052744e-004	1.002441e+000	-1.357792e-002
119930.000	1.001500e+000	-1.264520e-002	-3.708662e-005	2.119069e-004	5.815095e-005	6.080020e-005	1.002304e+000	-1.386454e-002
124925.000	1.001232e+000	-1.273823e-002	2.273859e-005	1.301711e-004	1.359492e-005	8.355715e-005	1.002164e+000	-1.420164e-002
129920.000	1.000887e+000	-1.336785e-002	-8.084170e-005	1.404624e-004	1.474890e-005	1.527462e-004	1.001759e+000	-1.487618e-002
134915.000	1.001132e+000	-1.349596e-002	-6.984514e-005	1.434596e-004	-6.035345e-005	1.623710e-004	1.001946e+000	-1.520080e-002
139910.000	1.000950e+000	-1.410557e-002	-2.444134e-005	2.137281e-004	-3.456160e-006	2.531051e-004	1.001790e+000	-1.552648e-002
144905.000	1.000571e+000	-1.464467e-002	-9.054906e-006	1.318836e-004	-9.570619e-006	9.073856e-005	1.001610e+000	-1.568459e-002
149900.000	1.000468e+000	-1.549680e-002	7.990245e-006	1.953490e-004	-2.059071e-005	1.017759e-004	1.001620e+000	-1.590603e-002
154895.000	1.000477e+000	-1.542142e-002	2.901017e-005	1.606787e-004	1.358051e-005	3.487504e-005	1.001509e+000	-1.650881e-002
159890.000	1.000382e+000	-1.614940e-002	-1.734524e-005	2.075802e-004	-2.425626e-007	1.526499e-004	1.001376e+000	-1.705499e-002
164885.000	1.000456e+000	-1.623528e-002	-4.903237e-005	1.420475e-004	2.967135e-005	1.868871e-004	1.001325e+000	-1.756594e-002
169880.000	1.000165e+000	-1.644522e-002	-1.191444e-004	2.206962e-004	-1.373801e-005	1.657024e-004	1.001179e+000	-1.758284e-002
174875.000	9.999126e-001	-1.693501e-002	-2.406082e-005	1.640622e-004	1.286060e-004	1.427364e-004	1.001153e+000	-1.803281e-002
179870.000	9.999734e-001	-1.746651e-002	-3.703521e-005	2.882692e-004	2.233261e-006	1.648562e-004	1.000817e+000	-1.821857e-002
184865.000	1.000143e+000	-1.750291e-002	3.102242e-005	1.720074e-004	3.530915e-005	9.728269e-005	1.000706e+000	-1.874235e-002
189860.000	9.995546e-001	-1.821021e-002	-1.210102e-006	2.024539e-004	-4.012942e-005	1.984771e-004	1.001020e+000	-1.909480e-002
194855.000	9.998475e-001	-1.854782e-002	-4.514946e-005	2.468791e-004	3.870350e-005	2.028697e-004	1.000978e+000	-1.955587e-002
199850.000	9.994585e-001	-1.873326e-002	-1.893173e-005	1.909358e-004	-5.788318e-005	1.124642e-004	1.000797e+000	-1.990882e-002
204845.000	9.997654e-001	-1.937366e-002	-4.440805e-005	1.866728e-004	1.768044e-005	1.786694e-004	1.000909e+000	-2.011337e-002
209840.000	9.994591e-001	-1.947354e-002	1.175744e-005	1.451569e-004	1.768056e-005	1.820341e-004	1.000713e+000	-2.036130e-002
214835.000	9.996493e-001	-2.010761e-002	1.103339e-005	1.347787e-004	-2.975765e-005	1.262544e-004	1.000775e+000	-2.106803e-002
219830.000	9.995037e-001	-2.031077e-002	4.552130e-005	1.365441e-004	5.035105e-005	1.231524e-004	1.000995e+000	-2.130717e-002
224825.000	9.995024e-001	-2.068662e-002	4.748892e-006	2.184722e-004	7.972179e-005	1.938609e-004	1.000841e+000	-2.171441e-002
229820.000	9.995604e-001	-2.109653e-002	-4.491467e-005	1.626904e-004	6.661733e-005	2.864608e-004	1.000545e+000	-2.202920e-002
234815.000	9.990095e-001	-2.149594e-002	6.977336e-005	2.669637e-004	1.559305e-004	2.245158e-004	1.000566e+000	-2.236111e-002
239810.000	9.992494e-001	-2.175439e-002	-3.696586e-005	2.466129e-004	7.055072e-005	3.229163e-004	1.000490e+000	-2.292245e-002
244805.000	9.991339e-001	-2.204277e-002	7.490717e-005	2.258399e-004	-1.192740e-005	2.777890e-004	1.000622e+000	-2.309677e-002
249800.000	9.994904e-001	-2.247222e-002	-5.825092e-005	2.170297e-004	-3.406262e-005	1.971791e-004	1.000354e+000	-2.404941e-002
254795.000	9.992926e-001	-2.290739e-002	3.793168e-005	2.621132e-004	4.436675e-006	1.758136e-004	1.000380e+000	-2.402646e-002
259790.000	9.992904e-001	-2.344680e-002	-6.213556e-005	2.367032e-004	-6.869164e-006	2.558029e-004	1.000462e+000	-2.425824e-002
264785.000	9.991671e-001	-2.412600e-002	-4.191251e-005	2.628549e-004	3.378718e-005	3.135690e-004	1.000393e+000	-2.488094e-002
269780.000	9.996079e-001	-2.414150e-002	1.212652e-004	2.672300e-004	-1.187436e-005	2.521112e-004	1.000803e+000	-2.499895e-002
274775.000	9.993291e-001	-2.469366e-002	-8.532010e-006	2.120067e-004	-1.487600e-005	2.358508e-004	1.000345e+000	-2.557726e-002
279770.000	9.992367e-001	-2.484707e-002	3.339563e-005	3.370113e-004	-5.863357e-005	2.423972e-004	1.000228e+000	-2.577585e-002
284765.000	9.992340e-001	-2.517589e-002	3.367965e-006	2.642284e-004	1.968096e-005	2.884900e-004	1.000305e+000	-2.618337e-002
289760.000	9.993086e-001	-2.544874e-002	-5.304425e-005	2.081367e-004	-6.864162e-005	2.637349e-004	1.000137e+000	-2.678674e-002
294755.000	9.991542e-001	-2.602657e-002	-2.115447e-005	3.492511e-004	-4.328427e-005	3.098630e-004	1.000008e+000	-2.691453e-002
299750.000	9.991712e-001	-2.638798e-002	2.975387e-005	3.592348e-004	-9.060855e-006	3.277248e-004	1.000360e+000	-2.742001e-002
304745.000	9.990163e-001	-2.690579e-002	-4.170887e-005	2.891699e-004	4.774698e-005	2.541180e-004	1.000358e+000	-2.790334e-002
309740.000	9.989079e-001	-2.716393e-002	3.090044e-005	3.089441e-004	2.597030e-005	3.112171e-004	9.999897e-001	-2.830678e-002
314735.000	9.992484e-001	-2.775229e-002	1.820818e-005	2.665466e-004	-1.191355e-005	3.278383e-004	1.000124e+000	-2.867485e-002
319730.000	9.990003e-001	-2.801168e-002	4.205787e-006	3.383005e-004	1.268877e-004	2.585516e-004	1.000208e+000	-2.933493e-002
324725.000	9.987676e-001	-2.845900e-002	8.219958e-006	3.445896e-004	-3.180169e-005	2.776638e-004	9.999704e-001	-2.964093e-002
329720.000	9.992754e-001	-2.894622e-002	-3.161989e-005	3.227838e-004	4.951806e-005	3.242934e-004	1.000096e+000	-2.973303e-002
334715.000	9.990451e-001	-2.915231e-002	5.877924e-005	3.281311e-004	-1.594686e-005	3.094392e-004	9.998091e-001	-3.035328e-002
339710.000	9.989307e-001	-2.957044e-002	-4.767217e-005	3.604876e-004	-3.052561e-005	2.733113e-004	1.000257e+000	-3.077068e-002
344705.000	9.989842e-001	-2.997451e-002	7.198157e-005	3.026252e-004	4.343102e-005	3.094053e-004	9.999180e-001	-3.137935e-002
349700.000	9.989523e-001	-3.042866e-002	6.645313e-005	3.521422e-004	-4.621327e-005	2.957847e-004	1.000347e+000	-3.162459e-002
354695.000	9.991100e-001	-3.073881e-002	-1.149210e-005	2.486366e-004	-5.166592e-005	3.418312e-004	1.000313e+000	-3.177192e-002
359690.000	9.987833e-001	-3.127339e-002	3.970979e-005	3.420772e-004	7.954485e-005	2.840527e-004	1.000180e+000	-3.229829e-002
364685.000	9.992368e-001	-3.166680e-002	-4.860470e-006	2.932635e-004	6.222316e-005	3.587385e-004	9.999516e-001	-3.287391e-002
369680.000	9.987842e-001	-3.233991e-002	5.811243e-006	3.538246e-004	-4.708497e-006	2.473476e-004	9.998971e-001	-3.321055e-002
374675.000	9.989022e-001	-3.263406e-002	4.535441e-005	3.228934e-004	9.425667e-005	3.301754e-004	9.996287e-001	-3.359840e-002
379670.000	9.988192e-001	-3.294342e-002	-2.297768e-005	2.534513e-004	4.843021e-005	3.698686e-004	9.997819e-001	-3.394105e-002
384665.000	9.986932e-001	-3.344402e-002	3.170684e-005	3.352382e-004	-2.699506e-005	3.386158e-004	9.999215e-001	-3.448011e-002
389660.000	9.988320e-001	-3.369055e-002	-2.315798e-005	2.966638e-004	3.615896e-006	4.379437e-004	9.994939e-001	-3.479023e-002
394655.000	9.988443e-001	-3.422890e-002	6.299140e-005	4.055394e-004	-2.561913e-006	3.813538e-004	1.000109e+000	-3.502930e-002
399650.000	9.988211e-001	-3.440328e-002	1.849241e-005	3.313781e-004	2.781399e-005	4.219430e-004	9.998618e-001	-3.560649e-002
404645.000	9.991540e-001	-3.492739e-002	-4.717668e-005	3.989284e-004	-2.085814e-005	3.423858e-004	9.999943e-001	-3.594187e-002
409640.000	9.987986e-001	-3.534343e-002	7.093901e-005	4.116511e-004	2.613708e-005	3.518509e-004	1.000165e+000	-3.653914e-002
414635.000	9.986881e-001	-3.600870e-002	1.725970e-005	2.563627e-004	3.396855e-005	3.362095e-004	9.998120e-001	-3.682957e-002
419630.000	9.989579e-001	-3.622671e-002	2.008540e-005	4.678281e-004	-1.496549e-005	3.777806e-004	9.997065e-001	-3.746481e-002
424625.000	9.985525e-001	-3.648006e-002	3.094646e-006	3.143944e-004	-1.386466e-006	3.310679e-004	9.997311e-001	-3.772426e-002
429620.000	9.988901e-001	-3.696036e-002	1.250290e-005	3.729907e-004	-7.242981e-005	4.188122e-004	1.000132e+000	-3.792883e-002
434615.000	9.988420e-001	-3.715648e-002	5.074320e-006	3.345594e-004	1.337999e-005	4.317876e-004	9.999381e-001	-3.852265e-002
439610.000	9.987580e-001	-3.785604e-002	2.548625e-005	3.579400e-004	9.671152e-005	3.633833e-004	9.996812e-001	-3.890928e-002
444605.000	9.986029e-001	-3.811086e-002	3.987127e-005	4.125560e-004	-3.006820e-005	4.130677e-004	9.996492e-001	-3.943895e-002
449600.000	9.988811e-001	-3.870219e-002	6.792155e-005	4.549979e-004	4.004953e-005	3.979881e-004	9.999058e-001	-3.972864e-002
454595.000	9.989965e-001	-3.918614e-002	7.233359e-006	4.349981e-004	6.438375e-005	4.138493e-004	9.996602e-001	-4.034047e-002
459590.000	9.987579e-001	-3.949176e-002	-2.175662e-005	4.065923e-004	5.523803e-005	4.047601e-004	9.997298e-001	-4.052010e-002
464585.000	9.984506e-001	-3.963028e-002	7.080501e-006	3.765998e-004	-6.879564e-005	3.614261e-004	9.997972e-001	-4.090506e-002
469580.000	9.985229e-001	-4.032024e-002	6.099662e-005	3.700136e-004	-5.463470e-006	5.129598e-004	9.992965e-001	-4.158048e-002
474575.000	9.986266e-001	-4.097956e-002	-7.507879e-005	4.166964e-004	3.745802e-005	4.438391e-004	9.995854e-001	-4.189660e-002
479570.000	9.986953e-001	-4.105784e-002	6.836270e-005	4.052803e-004	1.064493e-005	3.289820e-004	9.997299e-001	-4.231220e-002
484565.000	9.985337e-001	-4.154551e-002	1.060592e-005	4.031694e-004	-1.800633e-005	3.854248e-004	9.996697e-001	-4.268619e-002
489560.000	9.983855e-001	-4.182779e-002	7.479511e-006	4.328805e-004	3.723273e-005	3.657311e-004	9.994733e-001	-4.306205e-002
494555.000	9.985760e-001	-4.244396e-002	6.477299e-005	4.112392e-004	9.730999e-005	4.419829e-004	9.995765e-001	-4.362795e-002
499550.000	9.985218e-001	-4.274315e-002	4.093872e-005	3.876217e-004	5.170863e-005	4.162622e-004	9.997144e-001	-4.370199e-002
504545.000	9.986111e-001	-4.322306e-002	-6.641205e-006	5.477077e-004	6.404685e-005	4.639478e-004	9.997762e-001	-4.426952e-002
509540.000	9.986673e-001	-4.369374e-002	6.534351e-005	3.704239e-004	3.438576e-005	4.043239e-004	9.995292e-001	-4.480599e-002
514535.000	9.983849e-001	-4.399604e-002	2.134508e-005	5.359774e-004	6.943933e-005	4.353607e-004	9.994169e-001	-4.498875e-002
519530.000	9.986288e-001	-4.468678e-002	2.528299e-005	4.103926e-004	2.622862e-005	3.968099e-004	9.993556e-001	-4.580466e-002
524525.000	9.985938e-001	-4.499259e-002	5.561897e-006	4.446245e-004	3.714061e-005	3.921223e-004	9.996788e-001	-4.625555e-002
529520.000	9.984718e-001	-4.521126e-002	2.092047e-005	4.883272e-004	7.031014e-005	4.422447e-004	9.993990e-001	-4.655448e-002
534515.000	9.985410e-001	-4.595690e-002	-4.922713e-006	4.642275e-004	3.630113e-005	4.557845e-004	9.994727e-001	-4.703767e-002
539510.000	9.984837e-001	-4.607743e-002	-8.440344e-006	3.867193e-004	2.449050e-005	3.966316e-004	9.995183e-001	-4.727027e-002
544505.000	9.983533e-001	-4.665739e-002	3.453971e-005	5.108065e-004	3.910420e-005	4.399294e-004	9.992243e-001	-4.778844e-002
549500.000	9.983022e-001	-4.696625e-002	-2.647305e-006	4.294355e-004	9.628938e-005	4.397625e-004	9.991589e-001	-4.817869e-002
554495.000	9.983766e-001	-4.740251e-002	7.603707e-005	4.424761e-004	8.338457e-005	4.072880e-004	9.992840e-001	-4.863794e-002
559490.000	9.982703e-001	-4.818048e-002	-2.884992e-005	4.561698e-004	8.037203e-005	4.751545e-004	9.993686e-001	-4.893605e-002
564485.000	9.982900e-001	-4.842255e-002	2.634926e-005	5.001087e-004	2.301168e-005	4.766511e-004	9.992776e-001	-4.942425e-002
569480.000	9.983468e-001	-4.889270e-002	3.527660e-005	4.456145e-004	-5.535324e-008	4.708857e-004	9.991855e-001	-4.997892e-002
574475.000	9.985895e-001	-4.918883e-002	-3.886433e-005	5.226886e-004	6.638659e-005	4.559653e-004	9.991565e-001	-5.007007e-002
579470.000	9.985142e-001	-4.952391e-002	-6.334371e-005	3.946697e-004	2.895611e-005	4.646266e-004	9.992723e-001	-5.077286e-002
584465.000	9.982173e-001	-5.003292e-002	3.015779e-005	4.714348e-004	6.036159e-005	4.183401e-004	9.993806e-001	-5.115498e-002
589460.000	9.982330e-001	-5.046091e-002	2.819021e-005	4.113588e-004	3.923940e-005	3.909395e-004	9.992421e-001	-5.166638e-002
594455.000	9.981425e-001	-5.091884e-002	2.432248e-005	4.672146e-004	1.610479e-005	4.549169e-004	9.992826e-001	-5.223505e-002
599450.000	9.983330e-001	-5.136940e-002	5.530843e-005	4.625624e-004	8.374088e-005	4.003684e-004	9.992561e-001	-5.280305e-002
604445.000	9.980904e-001	-5.172481e-002	1.049913e-004	4.331391e-004	-2.867894e-005	4.134678e-004	9.990232e-001	-5.277604e-002
609440.000	9.982212e-001	-5.210341e-002	4.726503e-005	4.726296e-004	1.065723e-005	4.993274e-004	9.990744e-001	-5.334143e-002
614435.000	9.983892e-001	-5.247354e-002	4.448073e-005	4.750022e-004	4.516150e-005	4.679825e-004	9.990783e-001	-5.364588e-002
619430.000	9.982148e-001	-5.305773e-002	8.295724e-005	4.817312e-004	-2.104271e-005	4.616132e-004	9.990664e-001	-5.369004e-002
624425.000	9.983811e-001	-5.326283e-002	-9.152414e-006	4.820478e-004	6.664737e-005	4.958973e-004	9.989717e-001	-5.453561e-002
629420.000	9.981313e-001	-5.399519e-002	-9.361242e-006	4.915339e-004	4.559645e-005	4.321368e-004	9.988641e-001	-5.478539e-002
634415.000	9.982310e-001	-5.439611e-002	7.442262e-005	4.462351e-004	1.451844e-004	4.727448e-004	9.989054e-001	-5.537735e-002
639410.000	9.980157e-001	-5.469175e-002	5.257704e-005	3.912268e-004	9.413367e-006	4.539826e-004	9.989823e-001	-5.568359e-002
644405.000	9.983321e-001	-5.511003e-002	3.583781e-005	4.518190e-004	3.258632e-005	4.351579e-004	9.989315e-001	-5.619976e-002
649400.000	9.979000e-001	-5.569014e-002	-5.709262e-005	5.764099e-004	3.619604e-005	4.580354e-004	9.990725e-001	-5.656986e-002
654395.000	9.981792e-001	-5.618119e-002	-2.789222e-006	5.011473e-004	-8.723672e-006	4.738794e-004	9.990163e-001	-5.725527e-002
659390.000	9.978471e-001	-5.654635e-002	2.058818e-005	5.487167e-004	4.272187e-005	4.610968e-004	9.987672e-001	-5.760960e-002
664385.000	9.978484e-001	-5.719778e-002	4.700823e-005	4.736473e-004	-2.780650e-005	5.272851e-004	9.988913e-001	-5.780483e-002
669380.000	9.978783e-001	-5.736736e-002	3.341739e-005	4.707550e-004	-1.175274e-005	5.208872e-004	9.986377e-001	-5.822915e-002
674375.000	9.978191e-001	-5.789855e-002	5.238518e-005	4.930905e-004	3.074320e-005	4.529793e-004	9.986970e-001	-5.881746e-002
679370.000	9.979911e-001	-5.832822e-002	1.640399e-005	5.387425e-004	2.740844e-005	5.413053e-004	9.987979e-001	-5.909630e-002
684365.000	9.976349e-001	-5.876476e-002	-4.080269e-006	4.946313e-004	-8.081292e-006	4.590358e-004	9.985405e-001	-5.959349e-002
689360.000	9.977790e-001	-5.908126e-002	3.167916e-005	4.604980e-004	-5.401431e-005	5.248195e-004	9.986369e-001	-6.002866e-002
694355.000	9.977891e-001	-5.972824e-002	5.721476e-005	4.746468e-004	3.692764e-005	5.206659e-004	9.985984e-001	-6.038743e-002
699350.000	9.979016e-001	-5.997802e-002	8.677950e-005	5.251131e-004	7.460541e-005	5.105213e-004	9.986602e-001	-6.083212e-002
704345.000	9.978084e-001	-6.028904e-002	2.798712e-005	4.753801e-004	3.693854e-005	4.427670e-004	9.987090e-001	-6.123700e-002
709340.000	9.976448e-001	-6.100780e-002	-1.248887e-005	4.257250e-004	5.732442e-005	4.973003e-004	9.985541e-001	-6.161025e-002
714335.000	9.977405e-001	-6.120804e-002	2.269561e-005	4.842665e-004	-1.387580e-005	4.502611e-004	9.984434e-001	-6.235991e-002
719330.000	9.978111e-001	-6.169443e-002	9.074372e-005	4.142561e-004	4.278258e-005	5.136030e-004	9.987017e-001	-6.240951e-002
724325.000	9.975455e-001	-6.211070e-002	5.723228e-005	4.693065e-004	8.759640e-005	4.115129e-004	9.985371e-001	-6.313861e-002
729320.000	9.976029e-001	-6.270754e-002	9.743379e-006	4.823457e-004	-5.718739e-006	5.191525e-004	9.986559e-001	-6.337169e-002
734315.000	9.979519e-001	-6.324882e-002	3.265675e-005	4.848272e-004	7.431474e-005	4.512665e-004	9.986219e-001	-6.397802e-002
739310.000	9.978700e-001	-6.344301e-002	3.379129e-005	4.775251e-004	2.668839e-005	5.726347e-004	9.983490e-001	-6.428293e-002
744305.000	9.975749e-001	-6.395913e-002	-3.166880e-005	5.204138e-004	1.143729e-006	4.661228e-004	9.984707e-001	-6.468732e-002
749300.000	9.976104e-001	-6.434964e-002	4.694667e-005	4.617030e-004	1.554749e-005	4.511975e-004	9.982837e-001	-6.552704e-002
754295.000	9.979603e-001	-6.467375e-002	-1.001767e-005	4.773235e-004	-2.207567e-005	3.822848e-004	9.987141e-001	-6.560732e-002
759290.000	9.976661e-001	-6.514986e-002	4.014730e-005	5.499945e-004	4.396556e-005	5.418112e-004	9.982542e-001	-6.597798e-002
764285.000	9.975845e-001	-6.560478e-002	4.603925e-005	5.393156e-004	3.821131e-005	5.629023e-004	9.983392e-001	-6.652397e-002
769280.000	9.977051e-001	-6.604209e-002	3.554652e-005	4.217378e-004	-4.727564e-006	5.663246e-004	9.981944e-001	-6.706228e-002
774275.000	9.975781e-001	-6.649619e-002	8.939574e-007	3.930179e-004	-8.131855e-006	5.317896e-004	9.980278e-001	-6.725261e-002
779270.000	9.975896e-001	-6.701245e-002	-6.815179e-006	4.634232e-004	2.852590e-005	4.617995e-004	9.980338e-001	-6.810080e-002
784265.000	9.974118e-001	-6.725982e-002	2.709088e-005	5.446723e-004	5.582380e-005	5.467113e-004	9.983296e-001	-6.810489e-002
789260.000	9.973696e-001	-6.820038e-002	1.420817e-005	4.190783e-004	3.119172e-005	5.181521e-004	9.979861e-001	-6.873030e-002
794255.000	9.976050e-001	-6.802774e-002	3.665635e-006	5.478186e-004	9.890043e-005	5.834012e-004	9.980757e-001	-6.923801e-002
799250.000	9.968960e-001	-6.874947e-002	4.632100e-006	5.185312e-004	7.385735e-006	4.601238e-004	9.981264e-001	-6.948450e-002
804245.000	9.972221e-001	-6.913738e-002	-1.915302e-006	5.011843e-004	-7.123410e-005	4.710491e-004	9.980059e-001	-7.002373e-002
809240.000	9.973356e-001	-6.935485e-002	-8.450696e-007	4.557513e-004	9.150304e-006	4.670173e-004	9.979268e-001	-7.053517e-002
814235.000	9.974516e-001	-6.989124e-002	2.839178e-005	4.190675e-004	4.301591e-005	4.584343e-004	9.979001e-001	-7.089565e-002
819230.000	9.971607e-001	-7.045143e-002	4.713243e-005	4.884029e-004	1.001064e-004	4.551629e-004	9.980136e-001	-7.136993e-002
824225.000	9.971476e-001	-7.068602e-002	-2.641708e-005	4.915453e-004	-5.505750e-005	4.588935e-004	9.979187e-001	-7.181284e-002
829220.000	9.971718e-001	-7.114746e-002	2.438827e-005	4.522846e-004	8.778040e-005	4.425283e-004	9.977716e-001	-7.221552e-002
