Time (s),V_PRI,V_SEC,V_IN,V_OUT
0.0,1.2499456000000464,-243.69997824,25.32325004416,-0.0058499785599999965
5e-10,1.2499456000000464,-243.69997824,25.3170000448,-0.008974978239999987
1e-09,7.499944959999993,-243.69997824,25.30450004608,-0.0058499785599999965
1.5000000000000002e-09,7.499944959999993,-237.44997888,25.285750048,-0.0058499785599999965
2e-09,1.2499456000000464,-243.69997824,25.24825005184,-0.0058499785599999965
2.5e-09,19.99994368,-237.44997888,25.24200005248,-0.0058499785599999965
3.0000000000000004e-09,19.99994368,-243.69997824,25.23575005312,-0.0058499785599999965
3.5000000000000003e-09,13.749944320000054,-243.69997824,25.23575005312,-0.008974978239999987
4e-09,26.249943040000062,-237.44997888,25.23575005312,-0.0058499785599999965
4.500000000000001e-09,32.49994240000001,-231.19997952,25.21700005504,-0.0058499785599999965
5e-09,32.49994240000001,-231.19997952,25.2232500544,-0.008974978239999987
5.5000000000000004e-09,38.74994176000007,-231.19997952,25.22950005376,-0.0058499785599999965
6.000000000000001e-09,38.74994176000007,-231.19997952,25.2232500544,-0.0027249788800000063
6.5e-09,44.99994112000002,-224.94998016,25.22950005376,-0.0058499785599999965
7.000000000000001e-09,51.24994048000008,-231.19997952,25.21700005504,-0.008974978239999987
7.500000000000001e-09,57.499939840000025,-231.19997952,25.21700005504,-0.0058499785599999965
8e-09,51.24994048000008,-231.19997952,25.20450005632,-0.0058499785599999965
8.5e-09,63.749939200000085,-224.94998016,25.19825005696,-0.0058499785599999965
9.000000000000001e-09,63.749939200000085,-218.6999808,25.20450005632,-0.0058499785599999965
9.5e-09,63.749939200000085,-224.94998016,25.210750055680002,-0.0058499785599999965
1e-08,63.749939200000085,-218.6999808,25.20450005632,-0.0027249788800000063
1.0500000000000001e-08,76.24993791999998,-212.44998144,25.21700005504,-0.0058499785599999965
1.1000000000000001e-08,76.24993791999998,-224.94998016,25.23575005312,-0.0027249788800000063
1.15e-08,76.24993791999998,-212.44998144,25.24200005248,-0.008974978239999987
1.2000000000000002e-08,82.49993728000004,-212.44998144,25.24200005248,-0.0058499785599999965
1.2500000000000001e-08,82.49993728000004,-206.19998207999998,25.23575005312,-0.0058499785599999965
1.3e-08,82.49993728000004,-206.19998207999998,25.24825005184,-0.008974978239999987
1.35e-08,88.74993663999999,-193.69998336,25.2545000512,-0.008974978239999987
1.4000000000000001e-08,82.49993728000004,-199.94998272,25.24825005184,-0.0027249788800000063
1.45e-08,94.99993600000005,-187.449984,25.2545000512,-0.008974978239999987
1.5000000000000002e-08,94.99993600000005,-193.69998336,25.2545000512,-0.008974978239999987
1.55e-08,107.49993472000006,-193.69998336,25.26075005056,-0.0027249788800000063
1.6e-08,101.24993536,-187.449984,25.26075005056,-0.0058499785599999965
1.6500000000000002e-08,107.49993472000006,-187.449984,25.26700004992,-0.008974978239999987
1.7e-08,107.49993472000006,-181.19998464,25.26700004992,-0.008974978239999987
1.75e-08,107.49993472000006,-181.19998464,25.27325004928,-0.0027249788800000063
1.8000000000000002e-08,107.49993472000006,-168.69998592,25.2545000512,-0.0027249788800000063
1.85e-08,113.74993408,-168.69998592,25.2545000512,-0.0027249788800000063
1.9e-08,113.74993408,-168.69998592,25.24825005184,-0.0058499785599999965
1.9500000000000003e-08,119.99993344000006,-162.44998655999999,25.24200005248,-0.008974978239999987
2e-08,119.99993344000006,-162.44998655999999,25.24200005248,-0.0058499785599999965
2.05e-08,126.24993280000001,-156.1999872,25.22950005376,-0.0058499785599999965
2.1000000000000003e-08,119.99993344000006,-149.94998784,25.23575005312,-0.008974978239999987
2.15e-08,126.24993280000001,-149.94998784,25.2545000512,-0.0058499785599999965
2.2000000000000002e-08,126.24993280000001,-149.94998784,25.26700004992,-0.0027249788800000063
2.2500000000000003e-08,132.49993216000007,-137.44998912,25.27950004864,-0.0058499785599999965
2.3e-08,132.49993216000007,-143.69998848,25.29825004672,-0.008974978239999987
2.3500000000000002e-08,144.99993088000008,-137.44998912,25.31075004544,-0.0027249788800000063
2.4000000000000003e-08,132.49993216000007,-137.44998912,25.3170000448,-0.0058499785599999965
2.45e-08,144.99993088000008,-131.19998976,25.32325004416,-0.008974978239999987
2.5000000000000002e-08,144.99993088000008,-124.9499904,25.31075004544,-0.0058499785599999965
2.55e-08,144.99993088000008,-118.69999104,25.31075004544,-0.0058499785599999965
2.6e-08,144.99993088000008,-112.44999168000001,25.29825004672,-0.0027249788800000063
2.6500000000000002e-08,157.4999296000001,-112.44999168000001,25.31075004544,-0.0027249788800000063
2.7e-08,151.24993024000003,-106.19999232,25.31075004544,-0.0027249788800000063
2.75e-08,157.4999296000001,-106.19999232,25.29200004736,-0.008974978239999987
2.8000000000000003e-08,157.4999296000001,-99.94999296,25.285750048,-0.0058499785599999965
2.85e-08,169.99992831999998,-87.44999424000001,25.26075005056,-0.0027249788800000063
2.9e-08,169.99992831999998,-87.44999424000001,25.24825005184,-0.008974978239999987
2.9500000000000003e-08,169.99992831999998,-81.19999488,25.24825005184,-0.0058499785599999965
3.0000000000000004e-08,169.99992831999998,-87.44999424000001,25.22950005376,-0.0058499785599999965
3.05e-08,182.49992704,-74.94999552,25.22950005376,-0.0058499785599999965
3.1e-08,182.49992704,-74.94999552,25.210750055680002,-0.0058499785599999965
3.1500000000000004e-08,188.74992640000005,-74.94999552,25.19825005696,-0.0027249788800000063
3.2e-08,188.74992640000005,-74.94999552,25.16700006016,-0.0058499785599999965
3.25e-08,188.74992640000005,-62.4499968,25.16700006016,-0.0058499785599999965
3.3000000000000004e-08,194.99992576,-62.4499968,25.16700006016,-0.0058499785599999965
3.35e-08,194.99992576,-49.94999808,25.16700006016,-0.0058499785599999965
3.4e-08,194.99992576,-49.94999808,25.1607500608,-0.0027249788800000063
3.4500000000000005e-08,201.24992512000006,-37.44999936,25.16700006016,-0.0027249788800000063
3.5e-08,201.24992512000006,-43.699998719999996,25.17325005952,-0.0027249788800000063
3.55e-08,194.99992576,-37.44999936,25.17325005952,-0.008974978239999987
3.6000000000000005e-08,207.49992448,-37.44999936,25.17325005952,-0.0058499785599999965
3.65e-08,213.74992384000006,-18.70000128,25.1607500608,-0.0058499785599999965
3.7e-08,207.49992448,-12.450001919999998,25.16700006016,-0.012099977920000005
3.7500000000000005e-08,213.74992384000006,-12.450001919999998,25.18575005824,-0.0058499785599999965
3.8e-08,213.74992384000006,-18.70000128,25.1920000576,-0.0027249788800000063
3.85e-08,213.74992384000006,0.049996800000002395,25.20450005632,-0.0058499785599999965
3.9000000000000005e-08,213.74992384000006,-6.200002559999998,25.210750055680002,-0.012099977920000005
3.95e-08,219.9999232,-6.200002559999998,25.21700005504,-0.0027249788800000063
4e-08,219.9999232,0.049996800000002395,25.1920000576,-0.0058499785599999965
4.0500000000000005e-08,213.74992384000006,12.54999552,25.16700006016,-0.0058499785599999965
4.1e-08,226.24992256000007,18.799994880000003,25.14200006272,-0.0058499785599999965
4.15e-08,219.9999232,18.799994880000003,25.13575006336,-0.0058499785599999965
4.2000000000000006e-08,213.74992384000006,25.049994240000007,25.11700006528,-0.0027249788800000063
4.2500000000000003e-08,219.9999232,31.299993600000004,25.11075006592,-0.0058499785599999965
4.3e-08,207.49992448,37.54999296,25.10450006656,-0.0027249788800000063
4.3500000000000006e-08,207.49992448,43.79999232,25.08575006848,-0.008974978239999987
4.4000000000000004e-08,213.74992384000006,43.79999232,25.07325006976,-0.0058499785599999965
4.45e-08,213.74992384000006,50.049991680000005,25.06075007104,-0.0058499785599999965
4.5000000000000006e-08,207.49992448,56.299991039999995,25.09200006784,-0.012099977920000005
4.5500000000000004e-08,207.49992448,62.5499904,25.129500064,-0.0058499785599999965
4.6e-08,194.99992576,62.5499904,25.14200006272,-0.0027249788800000063
4.6500000000000006e-08,201.24992512000006,75.04998912,25.14825006208,-0.0058499785599999965
4.7000000000000004e-08,201.24992512000006,68.79998976,25.15450006144,-0.008974978239999987
4.75e-08,207.49992448,68.79998976,25.1607500608,-0.0027249788800000063
4.8000000000000006e-08,194.99992576,75.04998912,25.1607500608,-0.0058499785599999965
4.8500000000000004e-08,194.99992576,81.29998848000001,25.15450006144,-0.008974978239999987
4.9e-08,194.99992576,87.54998784,25.14200006272,-0.0058499785599999965
4.95e-08,188.74992640000005,87.54998784,25.14200006272,-0.0027249788800000063
5.0000000000000004e-08,182.49992704,93.7999872,25.11700006528,-0.0058499785599999965
5.05e-08,188.74992640000005,100.04998656,25.11700006528,-0.0058499785599999965
5.1e-08,176.24992768000004,100.04998656,25.11075006592,-0.0027249788800000063
5.1500000000000005e-08,176.24992768000004,100.04998656,25.10450006656,-0.008974978239999987
5.2e-08,176.24992768000004,106.29998592,25.0982500672,-0.0027249788800000063
5.25e-08,176.24992768000004,112.54998528,25.07325006976,-0.0058499785599999965
5.3000000000000005e-08,169.99992831999998,118.79998464,25.07950006912,-0.0058499785599999965
5.35e-08,169.99992831999998,125.04998400000001,25.08575006848,-0.0058499785599999965
5.4e-08,163.74992896000003,118.79998464,25.09200006784,-0.0027249788800000063
5.4500000000000005e-08,163.74992896000003,131.29998336000003,25.08575006848,-0.0058499785599999965
5.5e-08,157.4999296000001,131.29998336000003,25.08575006848,-0.0058499785599999965
5.55e-08,157.4999296000001,125.04998400000001,25.08575006848,-0.0027249788800000063
5.6000000000000005e-08,151.24993024000003,125.04998400000001,25.07950006912,-0.0058499785599999965
5.65e-08,151.24993024000003,137.54998272000003,25.09200006784,-0.0058499785599999965
5.7e-08,138.74993152000002,143.79998208,25.11700006528,-0.008974978239999987
5.7500000000000005e-08,138.74993152000002,137.54998272000003,25.13575006336,-0.0027249788800000063
5.8e-08,132.49993216000007,143.79998208,25.14825006208,-0.0058499785599999965
5.85e-08,132.49993216000007,143.79998208,25.16700006016,-0.0058499785599999965
5.9000000000000006e-08,126.24993280000001,150.04998144,25.18575005824,-0.0058499785599999965
5.9500000000000003e-08,126.24993280000001,156.29998080000001,25.18575005824,-0.008974978239999987
6.000000000000001e-08,119.99993344000006,156.29998080000001,25.19825005696,-0.0058499785599999965
6.05e-08,119.99993344000006,156.29998080000001,25.1920000576,-0.0058499785599999965
6.1e-08,113.74993408,168.79997952000002,25.19825005696,-0.008974978239999987
6.15e-08,107.49993472000006,168.79997952000002,25.2232500544,-0.0058499785599999965
6.2e-08,101.24993536,162.54998016000002,25.2232500544,-0.0027249788800000063
6.250000000000001e-08,101.24993536,181.29997824000003,25.24200005248,-0.0058499785599999965
6.300000000000001e-08,94.99993600000005,175.04997888000003,25.24200005248,-0.008974978239999987
6.35e-08,94.99993600000005,175.04997888000003,25.23575005312,-0.0027249788800000063
6.4e-08,88.74993663999999,168.79997952000002,25.2232500544,-0.0027249788800000063
6.45e-08,82.49993728000004,181.29997824000003,25.20450005632,-0.008974978239999987
6.5e-08,82.49993728000004,181.29997824000003,25.18575005824,-0.008974978239999987
6.55e-08,76.24993791999998,181.29997824000003,25.17950005888,-0.0027249788800000063
6.600000000000001e-08,69.99993856000003,181.29997824000003,25.14825006208,-0.0027249788800000063
6.65e-08,76.24993791999998,181.29997824000003,25.14200006272,-0.0027249788800000063
6.7e-08,63.749939200000085,181.29997824000003,25.12325006464,-0.0027249788800000063
6.75e-08,57.499939840000025,187.54997760000003,25.12325006464,-0.008974978239999987
6.8e-08,57.499939840000025,187.54997760000003,25.14200006272,-0.0058499785599999965
6.85e-08,57.499939840000025,193.79997696000004,25.14825006208,-0.0058499785599999965
6.900000000000001e-08,44.99994112000002,193.79997696000004,25.17325005952,-0.008974978239999987
6.950000000000001e-08,44.99994112000002,193.79997696000004,25.19825005696,-0.0058499785599999965
7e-08,38.74994176000007,187.54997760000003,25.19825005696,-0.0058499785599999965
7.05e-08,32.49994240000001,200.04997632,25.20450005632,-0.0058499785599999965
7.1e-08,32.49994240000001,187.54997760000003,25.1920000576,-0.0058499785599999965
7.15e-08,32.49994240000001,187.54997760000003,25.17950005888,-0.0027249788800000063
7.200000000000001e-08,19.99994368,187.54997760000003,25.15450006144,-0.0058499785599999965
7.250000000000001e-08,26.249943040000062,193.79997696000004,25.13575006336,-0.008974978239999987
7.3e-08,13.749944320000054,193.79997696000004,25.11700006528,-0.0058499785599999965
7.35e-08,13.749944320000054,187.54997760000003,25.12325006464,-0.0058499785599999965
7.4e-08,7.499944959999993,193.79997696000004,25.12325006464,-0.0027249788800000063
7.45e-08,7.499944959999993,187.54997760000003,25.129500064,-0.0058499785599999965
7.500000000000001e-08,1.2499456000000464,193.79997696000004,25.14825006208,-0.0058499785599999965
7.550000000000001e-08,-5.000053760000014,187.54997760000003,25.15450006144,-0.012099977920000005
7.6e-08,-11.250053119999961,193.79997696000004,25.1607500608,-0.0058499785599999965
7.65e-08,-5.000053760000014,193.79997696000004,25.14825006208,-0.0058499785599999965
7.7e-08,-11.250053119999961,193.79997696000004,25.14200006272,-0.012099977920000005
7.75e-08,-17.500052480000022,193.79997696000004,25.13575006336,-0.0058499785599999965
7.800000000000001e-08,-23.75005183999997,181.29997824000003,25.11700006528,-0.0027249788800000063
7.850000000000001e-08,-23.75005183999997,200.04997632,25.10450006656,-0.0058499785599999965
7.9e-08,-23.75005183999997,187.54997760000003,25.09200006784,-0.008974978239999987
7.95e-08,-17.500052480000022,181.29997824000003,25.09200006784,-0.0027249788800000063
8e-08,-36.25005055999998,181.29997824000003,25.08575006848,-0.0058499785599999965
8.05e-08,-30.000051199999973,181.29997824000003,25.09200006784,-0.0058499785599999965
8.100000000000001e-08,-42.50004991999998,187.54997760000003,25.10450006656,-0.008974978239999987
8.150000000000001e-08,-42.50004991999998,175.04997888000003,25.129500064,-0.0027249788800000063
8.2e-08,-55.00004863999999,181.29997824000003,25.12325006464,-0.0058499785599999965
8.25e-08,-42.50004991999998,187.54997760000003,25.14200006272,-0.0058499785599999965
8.3e-08,-48.750049279999985,175.04997888000003,25.14200006272,-0.0027249788800000063
8.35e-08,-61.25004799999999,175.04997888000003,25.14825006208,-0.008974978239999987
8.400000000000001e-08,-55.00004863999999,175.04997888000003,25.14200006272,-0.0058499785599999965
8.450000000000001e-08,-61.25004799999999,175.04997888000003,25.129500064,-0.0058499785599999965
8.500000000000001e-08,-67.50004736,168.79997952000002,25.129500064,-0.008974978239999987
8.55e-08,-67.50004736,168.79997952000002,25.14200006272,-0.0058499785599999965
8.6e-08,-73.75004672,162.54998016000002,25.13575006336,-0.0027249788800000063
8.65e-08,-73.75004672,168.79997952000002,25.13575006336,-0.0058499785599999965
8.700000000000001e-08,-73.75004672,156.29998080000001,25.14200006272,-0.008974978239999987
8.750000000000001e-08,-73.75004672,150.04998144,25.15450006144,-0.0027249788800000063
8.800000000000001e-08,-86.25004543999995,150.04998144,25.14825006208,-0.0058499785599999965
8.85e-08,-86.25004543999995,150.04998144,25.14200006272,-0.008974978239999987
8.9e-08,-86.25004543999995,150.04998144,25.13575006336,-0.0058499785599999965
8.95e-08,-92.50004479999996,150.04998144,25.13575006336,-0.0027249788800000063
9.000000000000001e-08,-98.75004415999996,143.79998208,25.129500064,-0.0027249788800000063
9.050000000000001e-08,-98.75004415999996,143.79998208,25.13575006336,-0.008974978239999987
9.100000000000001e-08,-98.75004415999996,131.29998336000003,25.14200006272,-0.0058499785599999965
9.15e-08,-111.25004287999997,131.29998336000003,25.15450006144,-0.008974978239999987
9.2e-08,-105.00004351999996,137.54998272000003,25.16700006016,-0.008974978239999987
9.25e-08,-105.00004351999996,131.29998336000003,25.16700006016,-0.0058499785599999965
9.300000000000001e-08,-117.50004223999997,125.04998400000001,25.17325005952,-0.008974978239999987
9.350000000000001e-08,-111.25004287999997,125.04998400000001,25.18575005824,-0.008974978239999987
9.400000000000001e-08,-123.75004159999997,118.79998464,25.18575005824,-0.0027249788800000063
9.45e-08,-123.75004159999997,125.04998400000001,25.1920000576,-0.008974978239999987
9.5e-08,-123.75004159999997,112.54998528,25.18575005824,-0.008974978239999987
9.55e-08,-117.50004223999997,100.04998656,25.17950005888,-0.0027249788800000063
9.600000000000001e-08,-130.00004095999998,93.7999872,25.16700006016,-0.0027249788800000063
9.650000000000001e-08,-130.00004095999998,100.04998656,25.17325005952,-0.008974978239999987
9.700000000000001e-08,-130.00004095999998,100.04998656,25.17950005888,-0.0058499785599999965
9.75e-08,-136.25004031999998,93.7999872,25.20450005632,-0.0027249788800000063
9.8e-08,-142.50003968,93.7999872,25.2232500544,-0.0027249788800000063
9.85e-08,-136.25004031999998,87.54998784,25.24825005184,-0.0058499785599999965
9.9e-08,-142.50003968,81.29998848000001,25.26700004992,-0.0027249788800000063
9.950000000000001e-08,-155.0000384,75.04998912,25.27950004864,-0.008974978239999987
1.0000000000000001e-07,-155.0000384,75.04998912,25.285750048,-0.0058499785599999965
1.005e-07,-148.75003904,62.5499904,25.27325004928,-0.0058499785599999965
1.01e-07,-148.75003904,68.79998976,25.27325004928,-0.008974978239999987
1.015e-07,-155.0000384,68.79998976,25.26075005056,-0.0058499785599999965
1.02e-07,-161.25003776,56.299991039999995,25.2232500544,-0.0058499785599999965
1.0250000000000001e-07,-167.50003712,62.5499904,25.210750055680002,-0.0058499785599999965
1.0300000000000001e-07,-161.25003776,50.049991680000005,25.19825005696,-0.008974978239999987
1.0350000000000001e-07,-161.25003776,43.79999232,25.20450005632,-0.0027249788800000063
1.04e-07,-173.75003648,37.54999296,25.210750055680002,-0.0027249788800000063
1.045e-07,-180.00003584,37.54999296,25.22950005376,-0.008974978239999987
1.05e-07,-173.75003648,31.299993600000004,25.22950005376,-0.0058499785599999965
1.0550000000000001e-07,-186.25003519999996,25.049994240000007,25.23575005312,-0.0027249788800000063
1.0600000000000001e-07,-186.25003519999996,18.799994880000003,25.22950005376,-0.0027249788800000063
1.0650000000000001e-07,-186.25003519999996,18.799994880000003,25.22950005376,-0.0058499785599999965
1.07e-07,-192.50003455999996,6.299996160000003,25.23575005312,-0.0027249788800000063
1.075e-07,-198.75003391999996,0.049996800000002395,25.21700005504,-0.008974978239999987
1.08e-07,-198.75003391999996,0.049996800000002395,25.210750055680002,-0.0058499785599999965
1.0850000000000001e-07,-205.00003327999997,-6.200002559999998,25.17950005888,-0.0058499785599999965
1.0900000000000001e-07,-205.00003327999997,0.049996800000002395,25.17950005888,-0.012099977920000005
1.0950000000000001e-07,-211.25003263999997,-12.450001919999998,25.1920000576,-0.0058499785599999965
1.1e-07,-205.00003327999997,-18.70000128,25.20450005632,-0.0027249788800000063
1.105e-07,-211.25003263999997,-6.200002559999998,25.2232500544,-0.0058499785599999965
1.11e-07,-211.25003263999997,-18.70000128,25.22950005376,-0.0058499785599999965
1.1150000000000001e-07,-211.25003263999997,-37.44999936,25.24825005184,-0.0027249788800000063
1.1200000000000001e-07,-223.75003135999998,-43.699998719999996,25.2545000512,-0.0058499785599999965
1.1250000000000001e-07,-211.25003263999997,-37.44999936,25.26700004992,-0.008974978239999987
1.13e-07,-211.25003263999997,-43.699998719999996,25.26700004992,-0.008974978239999987
1.135e-07,-223.75003135999998,-43.699998719999996,25.26075005056,-0.0058499785599999965
1.14e-07,-223.75003135999998,-49.94999808,25.22950005376,-0.0058499785599999965
1.1450000000000001e-07,-217.50003199999998,-49.94999808,25.2232500544,-0.0058499785599999965
1.1500000000000001e-07,-223.75003135999998,-56.199997440000004,25.21700005504,-0.0058499785599999965
1.1550000000000001e-07,-223.75003135999998,-62.4499968,25.20450005632,-0.008974978239999987
