Time (s),VIN,IIN,VOUT
0.0,24.503374991359998,1.793675008064,16.249995008
5e-10,24.550249994239998,1.792112507968,16.249995008
1e-09,24.503374991359998,1.790550007872,16.249995008
1.5000000000000002e-09,24.456499988479997,1.793675008064,13.124994815999997
2e-09,24.456499988479997,1.79523750816,11.562494720000004
2.5e-09,24.518999992319998,1.790550007872,11.562494720000004
3.0000000000000004e-09,24.565874995199998,1.788987507776,9.99999462400001
3.5000000000000003e-09,24.550249994239998,1.790550007872,8.437494528000002
4e-09,24.503374991359998,1.793675008064,6.874994432000008
4.500000000000001e-09,24.503374991359998,1.796800008256,6.874994432000008
5e-09,24.565874995199998,1.796800008256,3.7499942400000066
5.5000000000000004e-09,24.581499996159998,1.79523750816,2.1874941439999986
6.000000000000001e-09,24.534624993279998,1.792112507968,2.1874941439999986
6.5e-09,24.456499988479997,1.790550007872,3.7499942400000066
7.000000000000001e-09,24.456499988479997,1.793675008064,-0.937506048000003
7.500000000000001e-09,24.487749990399998,1.79523750816,-0.937506048000003
8e-09,24.503374991359998,1.793675008064,-4.0625062399999905
8.5e-09,24.534624993279998,1.79523750816,-5.625006335999998
9.000000000000001e-09,24.518999992319998,1.793675008064,-5.625006335999998
9.5e-09,24.487749990399998,1.793675008064,-8.750006528
1e-08,24.518999992319998,1.796800008256,-10.312506623999994
1.0500000000000001e-08,24.581499996159998,1.79523750816,-8.750006528
1.1000000000000001e-08,24.612749998079998,1.792112507968,-10.312506623999994
1.15e-08,24.62837499904,1.792112507968,-13.437506815999996
1.2000000000000002e-08,24.612749998079998,1.79523750816,-15.000006912000003
1.2500000000000001e-08,24.597124997119998,1.798362508352,-15.000006912000003
1.3e-08,24.581499996159998,1.798362508352,-18.12500710399999
1.35e-08,24.565874995199998,1.796800008256,-18.12500710399999
1.4000000000000001e-08,24.565874995199998,1.796800008256,-21.250007295999993
1.45e-08,24.518999992319998,1.798362508352,-19.6875072
1.5000000000000002e-08,24.518999992319998,1.804612508736,-24.375007487999994
1.55e-08,24.534624993279998,1.804612508736,-24.375007487999994
1.6e-08,24.534624993279998,1.801487508544,-25.937507584000002
1.6500000000000002e-08,24.534624993279998,1.798362508352,-25.937507584000002
1.7e-08,24.503374991359998,1.793675008064,-27.500007679999996
1.75e-08,24.534624993279998,1.793675008064,-29.06250777599999
1.8000000000000002e-08,24.581499996159998,1.79523750816,-30.625007871999998
1.85e-08,24.612749998079998,1.79523750816,-30.625007871999998
1.9e-08,24.565874995199998,1.793675008064,-32.187507968000006
1.9500000000000003e-08,24.565874995199998,1.79523750816,-35.31250815999999
2e-08,24.581499996159998,1.799925008448,-35.31250815999999
2.05e-08,24.581499996159998,1.799925008448,-35.31250815999999
2.1000000000000003e-08,24.597124997119998,1.799925008448,-38.43750835200001
2.15e-08,24.581499996159998,1.79523750816,-38.43750835200001
2.2000000000000002e-08,24.550249994239998,1.793675008064,-40.00000844799999
2.2500000000000003e-08,24.550249994239998,1.79523750816,-38.43750835200001
2.3e-08,24.565874995199998,1.798362508352,-43.125008640000004
2.3500000000000002e-08,24.581499996159998,1.798362508352,-41.562508543999996
2.4000000000000003e-08,24.597124997119998,1.798362508352,-44.687508735999984
2.45e-08,24.597124997119998,1.799925008448,-44.687508735999984
2.5000000000000002e-08,24.550249994239998,1.798362508352,-46.25000883199999
2.55e-08,24.550249994239998,1.799925008448,-44.687508735999984
2.6e-08,24.565874995199998,1.798362508352,-49.37500902400001
2.6500000000000002e-08,24.597124997119998,1.796800008256,-47.812508928
2.7e-08,24.644,1.793675008064,-49.37500902400001
2.75e-08,24.65962500096,1.793675008064,-50.93750911999999
2.8000000000000003e-08,24.644,1.799925008448,-50.93750911999999
2.85e-08,24.565874995199998,1.80305000864,-50.93750911999999
2.9e-08,24.503374991359998,1.799925008448,-54.062509312
2.9500000000000003e-08,24.440874987519997,1.796800008256,-52.500009215999995
3.0000000000000004e-08,24.472124989439997,1.793675008064,-57.18750950399999
3.05e-08,24.534624993279998,1.793675008064,-52.500009215999995
3.1e-08,24.581499996159998,1.799925008448,-55.62500940799998
3.1500000000000004e-08,24.550249994239998,1.801487508544,-55.62500940799998
3.2e-08,24.472124989439997,1.801487508544,-57.18750950399999
3.25e-08,24.393999984639997,1.798362508352,-57.18750950399999
3.3000000000000004e-08,24.378374983679997,1.796800008256,-58.7500096
3.35e-08,24.487749990399998,1.798362508352,-58.7500096
3.4e-08,24.597124997119998,1.80305000864,-60.312509696000006
3.4500000000000005e-08,24.62837499904,1.804612508736,-58.7500096
3.5e-08,24.597124997119998,1.80305000864,-60.312509696000006
3.55e-08,24.518999992319998,1.798362508352,-61.875009791999986
3.6000000000000005e-08,24.472124989439997,1.798362508352,-61.875009791999986
3.65e-08,24.487749990399998,1.801487508544,-60.312509696000006
3.7e-08,24.581499996159998,1.796800008256,-61.875009791999986
3.7500000000000005e-08,24.581499996159998,1.796800008256,-61.875009791999986
3.8e-08,24.597124997119998,1.799925008448,-63.437509887999994
3.85e-08,24.550249994239998,1.8077375089280001,-61.875009791999986
3.9000000000000005e-08,24.518999992319998,1.8108625091200001,-63.437509887999994
3.95e-08,24.472124989439997,1.80305000864,-63.437509887999994
4e-08,24.440874987519997,1.798362508352,-63.437509887999994
4.0500000000000005e-08,24.456499988479997,1.799925008448,-63.437509887999994
4.1e-08,24.456499988479997,1.80305000864,-65.000009984
4.15e-08,24.565874995199998,1.8077375089280001,-65.000009984
4.2000000000000006e-08,24.62837499904,1.8124250092160001,-65.000009984
4.2500000000000003e-08,24.581499996159998,1.8093000090240001,-61.875009791999986
4.3e-08,24.472124989439997,1.8077375089280001,-65.000009984
4.3500000000000006e-08,24.409624985599997,1.804612508736,-66.56251007999998
4.4000000000000004e-08,24.456499988479997,1.806175008832,-65.000009984
4.45e-08,24.565874995199998,1.8077375089280001,-63.437509887999994
4.5000000000000006e-08,24.62837499904,1.8077375089280001,-65.000009984
4.5500000000000004e-08,24.534624993279998,1.8093000090240001,-65.000009984
4.6e-08,24.409624985599997,1.8124250092160001,-65.000009984
4.6500000000000006e-08,24.347124981759997,1.8108625091200001,-61.875009791999986
4.7000000000000004e-08,24.362749982719997,1.8093000090240001,-65.000009984
4.75e-08,24.425249986559997,1.8077375089280001,-63.437509887999994
4.8000000000000006e-08,24.487749990399998,1.8077375089280001,-63.437509887999994
4.8500000000000004e-08,24.534624993279998,1.806175008832,-63.437509887999994
4.9e-08,24.518999992319998,1.806175008832,-65.000009984
4.95e-08,24.518999992319998,1.806175008832,-63.437509887999994
5.0000000000000004e-08,24.534624993279998,1.804612508736,-65.000009984
5.05e-08,24.503374991359998,1.80305000864,-61.875009791999986
5.1e-08,24.472124989439997,1.80305000864,-61.875009791999986
5.1500000000000005e-08,24.503374991359998,1.806175008832,-63.437509887999994
5.2e-08,24.565874995199998,1.8108625091200001,-61.875009791999986
5.25e-08,24.534624993279998,1.8108625091200001,-60.312509696000006
5.3000000000000005e-08,24.487749990399998,1.804612508736,-61.875009791999986
5.35e-08,24.393999984639997,1.80305000864,-60.312509696000006
5.4e-08,24.347124981759997,1.8077375089280001,-60.312509696000006
5.4500000000000005e-08,24.393999984639997,1.8108625091200001,-57.18750950399999
5.5e-08,24.456499988479997,1.8108625091200001,-58.7500096
5.55e-08,24.487749990399998,1.8108625091200001,-57.18750950399999
5.6000000000000005e-08,24.518999992319998,1.8139875093120001,-58.7500096
5.65e-08,24.550249994239998,1.8155500094080002,-55.62500940799998
5.7e-08,24.534624993279998,1.8139875093120001,-55.62500940799998
5.7500000000000005e-08,24.472124989439997,1.8077375089280001,-55.62500940799998
5.8e-08,24.409624985599997,1.804612508736,-55.62500940799998
5.85e-08,24.425249986559997,1.804612508736,-52.500009215999995
5.9000000000000006e-08,24.456499988479997,1.8077375089280001,-50.93750911999999
5.9500000000000003e-08,24.518999992319998,1.8077375089280001,-52.500009215999995
6.000000000000001e-08,24.518999992319998,1.8093000090240001,-50.93750911999999
6.05e-08,24.440874987519997,1.8093000090240001,-50.93750911999999
6.1e-08,24.409624985599997,1.806175008832,-49.37500902400001
6.15e-08,24.425249986559997,1.8077375089280001,-47.812508928
6.2e-08,24.472124989439997,1.8108625091200001,-47.812508928
6.250000000000001e-08,24.456499988479997,1.8093000090240001,-44.687508735999984
6.300000000000001e-08,24.440874987519997,1.8108625091200001,-44.687508735999984
6.35e-08,24.440874987519997,1.8108625091200001,-44.687508735999984
6.4e-08,24.472124989439997,1.8108625091200001,-44.687508735999984
6.45e-08,24.472124989439997,1.8108625091200001,-41.562508543999996
6.5e-08,24.440874987519997,1.8124250092160001,-41.562508543999996
6.55e-08,24.409624985599997,1.8108625091200001,-40.00000844799999
6.600000000000001e-08,24.362749982719997,1.8124250092160001,-40.00000844799999
6.65e-08,24.393999984639997,1.8093000090240001,-36.875008256
6.7e-08,24.472124989439997,1.8108625091200001,-35.31250815999999
6.75e-08,24.534624993279998,1.8139875093120001,-35.31250815999999
6.8e-08,24.534624993279998,1.817112509504,-35.31250815999999
6.85e-08,24.487749990399998,1.8155500094080002,-30.625007871999998
6.900000000000001e-08,24.456499988479997,1.8124250092160001,-30.625007871999998
6.950000000000001e-08,24.378374983679997,1.8139875093120001,-29.06250777599999
7e-08,24.347124981759997,1.8124250092160001,-30.625007871999998
7.05e-08,24.347124981759997,1.8139875093120001,-27.500007679999996
7.1e-08,24.393999984639997,1.8108625091200001,-27.500007679999996
7.15e-08,24.409624985599997,1.8108625091200001,-25.937507584000002
7.200000000000001e-08,24.425249986559997,1.8108625091200001,-24.375007487999994
7.250000000000001e-08,24.456499988479997,1.8124250092160001,-22.812507392
7.3e-08,24.409624985599997,1.8108625091200001,-19.6875072
7.35e-08,24.425249986559997,1.8077375089280001,-19.6875072
7.4e-08,24.440874987519997,1.8108625091200001,-19.6875072
7.45e-08,24.487749990399998,1.8124250092160001,-15.000006912000003
7.500000000000001e-08,24.503374991359998,1.8155500094080002,-16.562507007999997
7.550000000000001e-08,24.487749990399998,1.8186750096,-15.000006912000003
7.6e-08,24.456499988479997,1.8155500094080002,-15.000006912000003
7.65e-08,24.393999984639997,1.8108625091200001,-11.875006720000002
7.7e-08,24.378374983679997,1.8077375089280001,-10.312506623999994
7.75e-08,24.331499980799997,1.8108625091200001,-8.750006528
7.800000000000001e-08,24.347124981759997,1.8124250092160001,-8.750006528
7.850000000000001e-08,24.378374983679997,1.817112509504,-4.0625062399999905
7.9e-08,24.472124989439997,1.8186750096,-5.625006335999998
7.95e-08,24.503374991359998,1.8139875093120001,-2.5000061439999968
8e-08,24.472124989439997,1.8139875093120001,-0.937506048000003
8.05e-08,24.409624985599997,1.8155500094080002,0.6249940480000049
8.100000000000001e-08,24.362749982719997,1.817112509504,0.6249940480000049
8.150000000000001e-08,24.378374983679997,1.8139875093120001,2.1874941439999986
8.2e-08,24.409624985599997,1.8108625091200001,3.7499942400000066
8.25e-08,24.425249986559997,1.8108625091200001,5.312494336
8.3e-08,24.409624985599997,1.8108625091200001,8.437494528000002
8.35e-08,24.378374983679997,1.8139875093120001,8.437494528000002
8.400000000000001e-08,24.393999984639997,1.8139875093120001,9.99999462400001
8.450000000000001e-08,24.440874987519997,1.8093000090240001,13.124994815999997
8.500000000000001e-08,24.472124989439997,1.806175008832,11.562494720000004
8.55e-08,24.425249986559997,1.806175008832,14.687494912000005
8.6e-08,24.440874987519997,1.8093000090240001,14.687494912000005
8.65e-08,24.440874987519997,1.8108625091200001,19.3749952
8.700000000000001e-08,24.440874987519997,1.8139875093120001,17.812495104000007
8.750000000000001e-08,24.409624985599997,1.8108625091200001,20.93749529600001
8.800000000000001e-08,24.378374983679997,1.8124250092160001,19.3749952
8.85e-08,24.362749982719997,1.8139875093120001,20.93749529600001
8.9e-08,24.393999984639997,1.8124250092160001,22.499995392000002
8.95e-08,24.472124989439997,1.8108625091200001,22.499995392000002
9.000000000000001e-08,24.487749990399998,1.8108625091200001,24.062495487999996
9.050000000000001e-08,24.456499988479997,1.8108625091200001,28.749995776000006
9.100000000000001e-08,24.440874987519997,1.8124250092160001,28.749995776000006
9.15e-08,24.456499988479997,1.8108625091200001,27.187495679999998
9.2e-08,24.487749990399998,1.8108625091200001,28.749995776000006
9.25e-08,24.456499988479997,1.8108625091200001,31.874995968000007
9.300000000000001e-08,24.393999984639997,1.8108625091200001,30.312495872
9.350000000000001e-08,24.331499980799997,1.8093000090240001,31.874995968000007
9.400000000000001e-08,24.347124981759997,1.8093000090240001,31.874995968000007
9.45e-08,24.378374983679997,1.8108625091200001,36.562496256
9.5e-08,24.378374983679997,1.8108625091200001,36.562496256
9.55e-08,24.393999984639997,1.8093000090240001,36.562496256
9.600000000000001e-08,24.456499988479997,1.8108625091200001,36.562496256
9.650000000000001e-08,24.518999992319998,1.8139875093120001,39.687496448000005
9.700000000000001e-08,24.518999992319998,1.8093000090240001,41.249996544
9.75e-08,24.518999992319998,1.804612508736,41.249996544
9.8e-08,24.487749990399998,1.801487508544,41.249996544
9.85e-08,24.472124989439997,1.80305000864,44.374996736
9.9e-08,24.472124989439997,1.8108625091200001,44.374996736
9.950000000000001e-08,24.487749990399998,1.8139875093120001,42.81249664
1.0000000000000001e-07,24.440874987519997,1.8124250092160001,45.937496832
1.005e-07,24.378374983679997,1.806175008832,47.499996928
1.01e-07,24.378374983679997,1.804612508736,47.499996928
1.015e-07,24.393999984639997,1.806175008832,47.499996928
1.02e-07,24.440874987519997,1.804612508736,49.062497024
1.0250000000000001e-07,24.472124989439997,1.8077375089280001,50.62499712
1.0300000000000001e-07,24.503374991359998,1.804612508736,49.062497024
1.0350000000000001e-07,24.472124989439997,1.80305000864,52.187497216000004
1.04e-07,24.425249986559997,1.801487508544,52.187497216000004
1.045e-07,24.378374983679997,1.80305000864,52.187497216000004
1.05e-07,24.378374983679997,1.806175008832,52.187497216000004
1.0550000000000001e-07,24.440874987519997,1.8077375089280001,52.187497216000004
1.0600000000000001e-07,24.534624993279998,1.8093000090240001,53.749997312000005
1.0650000000000001e-07,24.518999992319998,1.8093000090240001,55.312497408
1.07e-07,24.393999984639997,1.8077375089280001,56.874997504
1.075e-07,24.315874979839997,1.806175008832,55.312497408
1.08e-07,24.347124981759997,1.804612508736,56.874997504
1.0850000000000001e-07,24.456499988479997,1.801487508544,58.4374976
1.0900000000000001e-07,24.612749998079998,1.801487508544,56.874997504
1.0950000000000001e-07,24.597124997119998,1.801487508544,58.4374976
1.1e-07,24.425249986559997,1.799925008448,56.874997504
1.105e-07,24.253374976,1.796800008256,58.4374976
1.11e-07,24.315874979839997,1.796800008256,58.4374976
1.1150000000000001e-07,24.503374991359998,1.799925008448,59.999997696
1.1200000000000001e-07,24.612749998079998,1.801487508544,59.999997696
1.1250000000000001e-07,24.597124997119998,1.804612508736,59.999997696
1.13e-07,24.472124989439997,1.80305000864,58.4374976
1.135e-07,24.378374983679997,1.80305000864,59.999997696
1.14e-07,24.425249986559997,1.804612508736,59.999997696
1.1450000000000001e-07,24.581499996159998,1.806175008832,61.562497792
1.1500000000000001e-07,24.597124997119998,1.804612508736,63.124997888
1.1550000000000001e-07,24.503374991359998,1.799925008448,61.562497792
1.16e-07,24.378374983679997,1.801487508544,61.562497792
1.165e-07,24.409624985599997,1.80305000864,64.687497984
1.17e-07,24.472124989439997,1.804612508736,61.562497792
1.1750000000000001e-07,24.487749990399998,1.806175008832,63.124997888
1.1800000000000001e-07,24.487749990399998,1.806175008832,59.999997696
1.1850000000000001e-07,24.409624985599997,1.804612508736,61.562497792
1.1900000000000001e-07,24.393999984639997,1.804612508736,61.562497792
1.195e-07,24.472124989439997,1.804612508736,61.562497792
1.2000000000000002e-07,24.550249994239998,1.806175008832,59.999997696
1.205e-07,24.612749998079998,1.804612508736,59.999997696
1.21e-07,24.565874995199998,1.799925008448,61.562497792
1.215e-07,24.487749990399998,1.796800008256,59.999997696
1.22e-07,24.425249986559997,1.796800008256,59.999997696
1.2250000000000002e-07,24.456499988479997,1.798362508352,61.562497792
1.23e-07,24.487749990399998,1.799925008448,61.562497792
1.2350000000000001e-07,24.487749990399998,1.798362508352,59.999997696
1.24e-07,24.456499988479997,1.796800008256,61.562497792
1.245e-07,24.440874987519997,1.796800008256,59.999997696
1.2500000000000002e-07,24.456499988479997,1.799925008448,58.4374976
1.255e-07,24.472124989439997,1.80305000864,59.999997696
1.2600000000000002e-07,24.518999992319998,1.80305000864,58.4374976
1.265e-07,24.472124989439997,1.801487508544,59.999997696
1.27e-07,24.440874987519997,1.799925008448,58.4374976
1.275e-07,24.425249986559997,1.798362508352,58.4374976
1.28e-07,24.472124989439997,1.801487508544,55.312497408
1.2850000000000002e-07,24.581499996159998,1.804612508736,55.312497408
1.29e-07,24.550249994239998,1.798362508352,55.312497408
1.2950000000000001e-07,24.487749990399998,1.79523750816,55.312497408
1.3e-07,24.393999984639997,1.792112507968,55.312497408
1.305e-07,24.362749982719997,1.79523750816,56.874997504
1.31e-07,24.472124989439997,1.799925008448,55.312497408
1.315e-07,24.565874995199998,1.799925008448,52.187497216000004
1.3200000000000002e-07,24.550249994239998,1.796800008256,52.187497216000004
1.325e-07,24.425249986559997,1.796800008256,52.187497216000004
1.33e-07,24.362749982719997,1.79523750816,50.62499712
1.335e-07,24.378374983679997,1.796800008256,50.62499712
1.34e-07,24.487749990399998,1.79523750816,49.062497024
1.3450000000000002e-07,24.518999992319998,1.793675008064,49.062497024
1.35e-07,24.487749990399998,1.793675008064,45.937496832
1.3550000000000002e-07,24.440874987519997,1.792112507968,47.499996928
1.36e-07,24.487749990399998,1.796800008256,44.374996736
1.365e-07,24.597124997119998,1.799925008448,42.81249664
1.37e-07,24.612749998079998,1.79523750816,42.81249664
1.375e-07,24.565874995199998,1.792112507968,41.249996544
1.3800000000000002e-07,24.425249986559997,1.792112507968,39.687496448000005
1.385e-07,24.378374983679997,1.796800008256,41.249996544
1.3900000000000001e-07,24.456499988479997,1.796800008256,38.124996352000004
1.395e-07,24.550249994239998,1.793675008064,36.562496256
1.4e-07,24.534624993279998,1.792112507968,36.562496256
1.4050000000000002e-07,24.393999984639997,1.788987507776,36.562496256
1.41e-07,24.315874979839997,1.792112507968,33.437496064
1.4150000000000002e-07,24.362749982719997,1.792112507968,33.437496064
1.42e-07,24.518999992319998,1.792112507968,31.874995968000007
1.425e-07,24.565874995199998,1.793675008064,33.437496064
1.43e-07,24.503374991359998,1.792112507968,28.749995776000006
1.435e-07,24.425249986559997,1.790550007872,28.749995776000006
1.4400000000000002e-07,24.456499988479997,1.790550007872,27.187495679999998
1.445e-07,24.581499996159998,1.792112507968,25.624995584000004
1.4500000000000001e-07,24.612749998079998,1.790550007872,24.062495487999996
1.455e-07,24.597124997119998,1.788987507776,22.499995392000002
1.46e-07,24.456499988479997,1.792112507968,20.93749529600001
1.4650000000000002e-07,24.409624985599997,1.793675008064,22.499995392000002
1.47e-07,24.472124989439997,1.792112507968,19.3749952
1.4750000000000002e-07,24.550249994239998,1.788987507776,16.249995008
1.48e-07,24.565874995199998,1.78742500768,16.249995008
1.485e-07,24.487749990399998,1.788987507776,17.812495104000007
1.49e-07,24.472124989439997,1.792112507968,14.687494912000005
1.495e-07,24.472124989439997,1.793675008064,11.562494720000004
1.5000000000000002e-07,24.534624993279998,1.792112507968,11.562494720000004
1.505e-07,24.565874995199998,1.790550007872,13.124994815999997
