Time (s),VIN,IIN,VOUT
0.0,24.45774998848,1.80250000768,27.187495679999998
5e-10,24.39524998464,1.805625007872,28.749995776000006
1e-09,24.47337498944,1.807187507968,24.062495487999996
1.5000000000000002e-09,24.5671249952,1.805625007872,24.062495487999996
2e-09,24.58274999616,1.80250000768,22.499995392000002
2.5e-09,24.55149999424,1.80250000768,22.499995392000002
3.0000000000000004e-09,24.45774998848,1.80250000768,20.93749529600001
3.5000000000000003e-09,24.45774998848,1.804062507776,19.3749952
4e-09,24.50462499136,1.805625007872,17.812495104000007
4.500000000000001e-09,24.53587499328,1.808750008064,17.812495104000007
5e-09,24.50462499136,1.805625007872,16.249995008
5.5000000000000004e-09,24.45774998848,1.804062507776,13.124994815999997
6.000000000000001e-09,24.45774998848,1.804062507776,14.687494912000005
6.5e-09,24.45774998848,1.808750008064,11.562494720000004
7.000000000000001e-09,24.52024999232,1.81031250816,8.437494528000002
7.500000000000001e-09,24.50462499136,1.807187507968,8.437494528000002
8e-09,24.50462499136,1.804062507776,6.874994432000008
8.5e-09,24.47337498944,1.805625007872,6.874994432000008
9.000000000000001e-09,24.55149999424,1.81031250816,3.7499942400000066
9.5e-09,24.59837499712,1.811875008256,5.312494336
1e-08,24.58274999616,1.81031250816,2.1874941439999986
1.0500000000000001e-08,24.5671249952,1.807187507968,0.6249940480000049
1.1000000000000001e-08,24.52024999232,1.805625007872,-2.5000061439999968
1.15e-08,24.52024999232,1.807187507968,-2.5000061439999968
1.2000000000000002e-08,24.55149999424,1.808750008064,-4.0625062399999905
1.2500000000000001e-08,24.5671249952,1.807187507968,-2.5000061439999968
1.3e-08,24.53587499328,1.805625007872,-5.625006335999998
1.35e-08,24.52024999232,1.805625007872,-8.750006528
1.4000000000000001e-08,24.50462499136,1.807187507968,-8.750006528
1.45e-08,24.52024999232,1.811875008256,-8.750006528
1.5000000000000002e-08,24.58274999616,1.81031250816,-11.875006720000002
1.55e-08,24.58274999616,1.805625007872,-13.437506815999996
1.6e-08,24.59837499712,1.805625007872,-16.562507007999997
1.6500000000000002e-08,24.55149999424,1.807187507968,-15.000006912000003
1.7e-08,24.55149999424,1.813437508352,-18.12500710399999
1.75e-08,24.59837499712,1.815000008448,-18.12500710399999
1.8000000000000002e-08,24.58274999616,1.813437508352,-19.6875072
1.85e-08,24.5671249952,1.811875008256,-22.812507392
1.9e-08,24.53587499328,1.808750008064,-24.375007487999994
1.9500000000000003e-08,24.5671249952,1.808750008064,-25.937507584000002
2e-08,24.58274999616,1.807187507968,-27.500007679999996
2.05e-08,24.55149999424,1.811875008256,-24.375007487999994
2.1000000000000003e-08,24.52024999232,1.811875008256,-27.500007679999996
2.15e-08,24.52024999232,1.811875008256,-30.625007871999998
2.2000000000000002e-08,24.53587499328,1.811875008256,-29.06250777599999
2.2500000000000003e-08,24.53587499328,1.813437508352,-30.625007871999998
2.3e-08,24.5671249952,1.813437508352,-33.750008063999985
2.3500000000000002e-08,24.55149999424,1.81031250816,-35.31250815999999
2.4000000000000003e-08,24.58274999616,1.807187507968,-36.875008256
2.45e-08,24.59837499712,1.81031250816,-33.750008063999985
2.5000000000000002e-08,24.59837499712,1.815000008448,-38.43750835200001
2.55e-08,24.61399999808,1.815000008448,-38.43750835200001
2.6e-08,24.5671249952,1.811875008256,-40.00000844799999
2.6500000000000002e-08,24.5671249952,1.807187507968,-41.562508543999996
2.7e-08,24.55149999424,1.81031250816,-41.562508543999996
2.75e-08,24.58274999616,1.813437508352,-44.687508735999984
2.8000000000000003e-08,24.59837499712,1.811875008256,-44.687508735999984
2.85e-08,24.61399999808,1.811875008256,-43.125008640000004
2.9e-08,24.5671249952,1.81031250816,-44.687508735999984
2.9500000000000003e-08,24.53587499328,1.81031250816,-47.812508928
3.0000000000000004e-08,24.52024999232,1.81031250816,-47.812508928
3.05e-08,24.5671249952,1.811875008256,-47.812508928
3.1e-08,24.66087500096,1.811875008256,-47.812508928
3.1500000000000004e-08,24.66087500096,1.813437508352,-52.500009215999995
3.2e-08,24.62962499904,1.815000008448,-52.500009215999995
3.25e-08,24.55149999424,1.815000008448,-50.93750911999999
3.3000000000000004e-08,24.4889999904,1.815000008448,-54.062509312
3.35e-08,24.44212498752,1.815000008448,-54.062509312
3.4e-08,24.47337498944,1.81031250816,-54.062509312
3.4500000000000005e-08,24.58274999616,1.811875008256,-55.62500940799998
3.5e-08,24.5671249952,1.816562508544,-54.062509312
3.55e-08,24.55149999424,1.81812500864,-55.62500940799998
3.6000000000000005e-08,24.50462499136,1.819687508736,-58.7500096
3.65e-08,24.42649998656,1.81812500864,-57.18750950399999
3.7e-08,24.39524998464,1.815000008448,-58.7500096
3.7500000000000005e-08,24.4889999904,1.811875008256,-60.312509696000006
3.8e-08,24.58274999616,1.815000008448,-58.7500096
3.85e-08,24.62962499904,1.81812500864,-60.312509696000006
3.9000000000000005e-08,24.59837499712,1.821250008832,-60.312509696000006
3.95e-08,24.50462499136,1.819687508736,-61.875009791999986
4e-08,24.45774998848,1.819687508736,-61.875009791999986
4.0500000000000005e-08,24.45774998848,1.819687508736,-60.312509696000006
4.1e-08,24.55149999424,1.81812500864,-63.437509887999994
4.15e-08,24.5671249952,1.815000008448,-61.875009791999986
4.2000000000000006e-08,24.55149999424,1.811875008256,-63.437509887999994
4.2500000000000003e-08,24.5671249952,1.816562508544,-63.437509887999994
4.3e-08,24.53587499328,1.822812508928,-65.000009984
4.3500000000000006e-08,24.47337498944,1.82593750912,-65.000009984
4.4000000000000004e-08,24.42649998656,1.822812508928,-66.56251007999998
4.45e-08,24.4108749856,1.81812500864,-63.437509887999994
4.5000000000000006e-08,24.42649998656,1.815000008448,-65.000009984
4.5500000000000004e-08,24.53587499328,1.815000008448,-65.000009984
4.6e-08,24.59837499712,1.821250008832,-63.437509887999994
4.6500000000000006e-08,24.5671249952,1.82593750912,-63.437509887999994
4.7000000000000004e-08,24.4889999904,1.82593750912,-65.000009984
4.75e-08,24.37962498368,1.821250008832,-66.56251007999998
4.8000000000000006e-08,24.4108749856,1.819687508736,-66.56251007999998
4.8500000000000004e-08,24.53587499328,1.822812508928,-63.437509887999994
4.9e-08,24.62962499904,1.824375009024,-65.000009984
4.95e-08,24.5671249952,1.824375009024,-63.437509887999994
5.0000000000000004e-08,24.42649998656,1.819687508736,-65.000009984
5.05e-08,24.34837498176,1.821250008832,-65.000009984
5.1e-08,24.34837498176,1.822812508928,-65.000009984
5.1500000000000005e-08,24.4108749856,1.824375009024,-65.000009984
5.2e-08,24.45774998848,1.821250008832,-65.000009984
5.25e-08,24.47337498944,1.81812500864,-61.875009791999986
5.3000000000000005e-08,24.47337498944,1.821250008832,-63.437509887999994
5.35e-08,24.4889999904,1.824375009024,-65.000009984
5.4e-08,24.4889999904,1.824375009024,-63.437509887999994
5.4500000000000005e-08,24.45774998848,1.824375009024,-63.437509887999994
5.5e-08,24.47337498944,1.819687508736,-63.437509887999994
5.55e-08,24.47337498944,1.819687508736,-63.437509887999994
5.6000000000000005e-08,24.53587499328,1.822812508928,-63.437509887999994
5.65e-08,24.53587499328,1.82593750912,-60.312509696000006
5.7e-08,24.50462499136,1.82593750912,-61.875009791999986
5.7500000000000005e-08,24.4108749856,1.824375009024,-61.875009791999986
5.8e-08,24.3327499808,1.821250008832,-61.875009791999986
5.85e-08,24.37962498368,1.822812508928,-60.312509696000006
5.9000000000000006e-08,24.42649998656,1.824375009024,-60.312509696000006
5.9500000000000003e-08,24.50462499136,1.82593750912,-58.7500096
6.000000000000001e-08,24.50462499136,1.82593750912,-58.7500096
6.05e-08,24.52024999232,1.824375009024,-54.062509312
6.1e-08,24.52024999232,1.824375009024,-55.62500940799998
6.15e-08,24.50462499136,1.827500009216,-57.18750950399999
6.2e-08,24.44212498752,1.82593750912,-55.62500940799998
6.250000000000001e-08,24.42649998656,1.82593750912,-52.500009215999995
6.300000000000001e-08,24.47337498944,1.824375009024,-54.062509312
6.35e-08,24.50462499136,1.82593750912,-54.062509312
6.4e-08,24.50462499136,1.829062509312,-54.062509312
6.45e-08,24.42649998656,1.829062509312,-49.37500902400001
6.5e-08,24.36399998272,1.82593750912,-50.93750911999999
6.55e-08,24.36399998272,1.824375009024,-47.812508928
6.600000000000001e-08,24.42649998656,1.821250008832,-47.812508928
6.65e-08,24.47337498944,1.822812508928,-46.25000883199999
6.7e-08,24.45774998848,1.82593750912,-46.25000883199999
6.75e-08,24.45774998848,1.829062509312,-44.687508735999984
6.8e-08,24.45774998848,1.829062509312,-44.687508735999984
6.85e-08,24.4889999904,1.827500009216,-40.00000844799999
6.900000000000001e-08,24.4889999904,1.827500009216,-40.00000844799999
6.950000000000001e-08,24.47337498944,1.830625009408,-41.562508543999996
7e-08,24.4108749856,1.82593750912,-38.43750835200001
7.05e-08,24.37962498368,1.822812508928,-36.875008256
7.1e-08,24.4108749856,1.821250008832,-38.43750835200001
7.15e-08,24.42649998656,1.822812508928,-36.875008256
7.200000000000001e-08,24.45774998848,1.82593750912,-35.31250815999999
7.250000000000001e-08,24.45774998848,1.827500009216,-30.625007871999998
7.3e-08,24.47337498944,1.82593750912,-32.187507968000006
7.35e-08,24.45774998848,1.824375009024,-30.625007871999998
7.4e-08,24.4108749856,1.821250008832,-29.06250777599999
7.45e-08,24.39524998464,1.824375009024,-27.500007679999996
7.500000000000001e-08,24.39524998464,1.827500009216,-27.500007679999996
7.550000000000001e-08,24.45774998848,1.82593750912,-25.937507584000002
7.6e-08,24.45774998848,1.824375009024,-24.375007487999994
7.65e-08,24.47337498944,1.824375009024,-19.6875072
7.7e-08,24.44212498752,1.82593750912,-21.250007295999993
7.75e-08,24.42649998656,1.827500009216,-21.250007295999993
7.800000000000001e-08,24.42649998656,1.822812508928,-18.12500710399999
7.850000000000001e-08,24.44212498752,1.824375009024,-16.562507007999997
7.9e-08,24.45774998848,1.824375009024,-16.562507007999997
7.95e-08,24.45774998848,1.827500009216,-15.000006912000003
8e-08,24.44212498752,1.827500009216,-13.437506815999996
8.05e-08,24.4108749856,1.829062509312,-10.312506623999994
8.100000000000001e-08,24.39524998464,1.829062509312,-11.875006720000002
8.150000000000001e-08,24.34837498176,1.829062509312,-7.187506431999992
8.2e-08,24.3327499808,1.82593750912,-7.187506431999992
8.25e-08,24.37962498368,1.827500009216,-5.625006335999998
8.3e-08,24.45774998848,1.829062509312,-4.0625062399999905
8.35e-08,24.53587499328,1.82593750912,-4.0625062399999905
8.400000000000001e-08,24.52024999232,1.822812508928,-4.0625062399999905
8.450000000000001e-08,24.47337498944,1.82593750912,2.1874941439999986
8.500000000000001e-08,24.4108749856,1.827500009216,0.6249940480000049
8.55e-08,24.4108749856,1.830625009408,2.1874941439999986
8.6e-08,24.44212498752,1.82593750912,3.7499942400000066
8.65e-08,24.44212498752,1.824375009024,6.874994432000008
8.700000000000001e-08,24.4108749856,1.824375009024,6.874994432000008
8.750000000000001e-08,24.37962498368,1.827500009216,6.874994432000008
8.800000000000001e-08,24.36399998272,1.830625009408,8.437494528000002
8.85e-08,24.4108749856,1.832187509504,11.562494720000004
8.9e-08,24.44212498752,1.827500009216,11.562494720000004
8.95e-08,24.45774998848,1.824375009024,14.687494912000005
9.000000000000001e-08,24.47337498944,1.824375009024,13.124994815999997
9.050000000000001e-08,24.52024999232,1.827500009216,16.249995008
9.100000000000001e-08,24.53587499328,1.829062509312,17.812495104000007
9.15e-08,24.50462499136,1.829062509312,19.3749952
9.2e-08,24.42649998656,1.829062509312,19.3749952
9.25e-08,24.37962498368,1.832187509504,22.499995392000002
9.300000000000001e-08,24.36399998272,1.832187509504,20.93749529600001
9.350000000000001e-08,24.4108749856,1.830625009408,20.93749529600001
9.400000000000001e-08,24.4108749856,1.829062509312,25.624995584000004
9.45e-08,24.37962498368,1.82593750912,27.187495679999998
9.5e-08,24.34837498176,1.824375009024,27.187495679999998
9.55e-08,24.36399998272,1.827500009216,28.749995776000006
9.600000000000001e-08,24.45774998848,1.830625009408,28.749995776000006
9.650000000000001e-08,24.47337498944,1.829062509312,31.874995968000007
9.700000000000001e-08,24.4889999904,1.824375009024,31.874995968000007
9.75e-08,24.44212498752,1.822812508928,33.437496064
9.8e-08,24.44212498752,1.821250008832,33.437496064
9.85e-08,24.45774998848,1.824375009024,34.99999616
9.9e-08,24.4108749856,1.82593750912,36.562496256
9.950000000000001e-08,24.4108749856,1.824375009024,36.562496256
1.0000000000000001e-07,24.4108749856,1.824375009024,36.562496256
1.005e-07,24.44212498752,1.82593750912,41.249996544
1.01e-07,24.47337498944,1.82593750912,39.687496448000005
1.015e-07,24.45774998848,1.822812508928,39.687496448000005
1.02e-07,24.42649998656,1.81812500864,42.81249664
1.0250000000000001e-07,24.42649998656,1.813437508352,44.374996736
1.0300000000000001e-07,24.47337498944,1.813437508352,42.81249664
1.0350000000000001e-07,24.4889999904,1.819687508736,44.374996736
1.04e-07,24.50462499136,1.822812508928,44.374996736
1.045e-07,24.47337498944,1.821250008832,47.499996928
1.05e-07,24.44212498752,1.81812500864,47.499996928
1.0550000000000001e-07,24.42649998656,1.81812500864,49.062497024
1.0600000000000001e-07,24.4108749856,1.81812500864,49.062497024
1.0650000000000001e-07,24.42649998656,1.822812508928,49.062497024
1.07e-07,24.44212498752,1.82593750912,50.62499712
1.075e-07,24.47337498944,1.824375009024,50.62499712
1.08e-07,24.44212498752,1.822812508928,50.62499712
1.0850000000000001e-07,24.39524998464,1.821250008832,53.749997312000005
1.0900000000000001e-07,24.34837498176,1.819687508736,55.312497408
1.0950000000000001e-07,24.36399998272,1.81812500864,52.187497216000004
1.1e-07,24.42649998656,1.819687508736,55.312497408
1.105e-07,24.4889999904,1.821250008832,55.312497408
1.11e-07,24.47337498944,1.819687508736,55.312497408
1.1150000000000001e-07,24.37962498368,1.819687508736,55.312497408
1.1200000000000001e-07,24.3327499808,1.821250008832,55.312497408
1.1250000000000001e-07,24.4108749856,1.819687508736,58.4374976
1.13e-07,24.5671249952,1.81812500864,56.874997504
1.135e-07,24.62962499904,1.821250008832,56.874997504
1.14e-07,24.55149999424,1.81812500864,56.874997504
1.1450000000000001e-07,24.37962498368,1.816562508544,58.4374976
1.1500000000000001e-07,24.285874977920002,1.815000008448,61.562497792
1.1550000000000001e-07,24.37962498368,1.815000008448,59.999997696
1.16e-07,24.53587499328,1.81812500864,58.4374976
1.165e-07,24.59837499712,1.81812500864,61.562497792
1.17e-07,24.4889999904,1.819687508736,61.562497792
1.1750000000000001e-07,24.34837498176,1.819687508736,59.999997696
1.1800000000000001e-07,24.34837498176,1.816562508544,59.999997696
1.1850000000000001e-07,24.45774998848,1.816562508544,61.562497792
1.1900000000000001e-07,24.58274999616,1.819687508736,61.562497792
1.195e-07,24.58274999616,1.821250008832,59.999997696
1.2000000000000002e-07,24.50462499136,1.81812500864,59.999997696
1.205e-07,24.44212498752,1.813437508352,63.124997888
1.21e-07,24.47337498944,1.815000008448,63.124997888
1.215e-07,24.50462499136,1.81812500864,61.562497792
1.22e-07,24.50462499136,1.81812500864,61.562497792
1.2250000000000002e-07,24.45774998848,1.81812500864,61.562497792
1.23e-07,24.37962498368,1.815000008448,61.562497792
1.2350000000000001e-07,24.39524998464,1.813437508352,61.562497792
1.24e-07,24.42649998656,1.813437508352,61.562497792
1.245e-07,24.52024999232,1.816562508544,63.124997888
1.2500000000000002e-07,24.50462499136,1.81812500864,63.124997888
1.255e-07,24.4889999904,1.816562508544,59.999997696
1.2600000000000002e-07,24.44212498752,1.813437508352,61.562497792
1.265e-07,24.42649998656,1.813437508352,61.562497792
1.27e-07,24.4889999904,1.816562508544,61.562497792
1.275e-07,24.50462499136,1.815000008448,61.562497792
1.28e-07,24.4889999904,1.813437508352,59.999997696
1.2850000000000002e-07,24.44212498752,1.81031250816,63.124997888
1.29e-07,24.42649998656,1.811875008256,61.562497792
1.2950000000000001e-07,24.42649998656,1.815000008448,58.4374976
1.3e-07,24.47337498944,1.815000008448,58.4374976
1.305e-07,24.50462499136,1.815000008448,59.999997696
1.31e-07,24.42649998656,1.813437508352,58.4374976
1.315e-07,24.39524998464,1.81031250816,59.999997696
1.3200000000000002e-07,24.42649998656,1.808750008064,56.874997504
1.325e-07,24.52024999232,1.813437508352,58.4374976
1.33e-07,24.55149999424,1.813437508352,56.874997504
1.335e-07,24.53587499328,1.813437508352,55.312497408
1.34e-07,24.44212498752,1.811875008256,56.874997504
1.3450000000000002e-07,24.37962498368,1.808750008064,55.312497408
1.35e-07,24.45774998848,1.808750008064,53.749997312000005
1.3550000000000002e-07,24.55149999424,1.811875008256,53.749997312000005
1.36e-07,24.59837499712,1.811875008256,52.187497216000004
1.365e-07,24.50462499136,1.811875008256,52.187497216000004
1.37e-07,24.39524998464,1.813437508352,50.62499712
1.375e-07,24.36399998272,1.815000008448,50.62499712
1.3800000000000002e-07,24.45774998848,1.813437508352,47.499996928
1.385e-07,24.53587499328,1.811875008256,47.499996928
1.3900000000000001e-07,24.4889999904,1.808750008064,47.499996928
1.395e-07,24.4108749856,1.804062507776,45.937496832
1.4e-07,24.39524998464,1.805625007872,44.374996736
1.4050000000000002e-07,24.47337498944,1.81031250816,45.937496832
1.41e-07,24.55149999424,1.811875008256,44.374996736
1.4150000000000002e-07,24.5671249952,1.807187507968,41.249996544
1.42e-07,24.4889999904,1.80250000768,41.249996544
1.425e-07,24.39524998464,1.800937507584,41.249996544
1.43e-07,24.44212498752,1.804062507776,38.124996352000004
1.435e-07,24.52024999232,1.805625007872,38.124996352000004
1.4400000000000002e-07,24.5671249952,1.807187507968,36.562496256
1.445e-07,24.4889999904,1.807187507968,36.562496256
1.4500000000000001e-07,24.39524998464,1.805625007872,34.99999616
1.455e-07,24.34837498176,1.807187507968,34.99999616
1.46e-07,24.44212498752,1.807187507968,31.874995968000007
1.4650000000000002e-07,24.55149999424,1.808750008064,30.312495872
1.47e-07,24.55149999424,1.807187507968,30.312495872
1.4750000000000002e-07,24.47337498944,1.805625007872,28.749995776000006
1.48e-07,24.4108749856,1.805625007872,25.624995584000004
1.485e-07,24.4889999904,1.81031250816,28.749995776000006
1.49e-07,24.5671249952,1.808750008064,25.624995584000004
1.495e-07,24.61399999808,1.805625007872,22.499995392000002
1.5000000000000002e-07,24.5671249952,1.804062507776,22.499995392000002
1.505e-07,24.47337498944,1.804062507776,20.93749529600001
1.5100000000000002e-07,24.47337498944,1.805625007872,19.3749952
1.515e-07,24.50462499136,1.807187507968,17.812495104000007
1.52e-07,24.55149999424,1.805625007872,16.249995008
1.5250000000000002e-07,24.50462499136,1.800937507584,16.249995008
1.53e-07,24.4889999904,1.800937507584,13.124994815999997
1.5350000000000002e-07,24.45774998848,1.805625007872,14.687494912000005
1.54e-07,24.47337498944,1.807187507968,11.562494720000004
1.5450000000000001e-07,24.53587499328,1.807187507968,9.99999462400001
1.55e-07,24.53587499328,1.804062507776,8.437494528000002
1.555e-07,24.50462499136,1.799375007488,6.874994432000008
1.5600000000000002e-07,24.4889999904,1.80250000768,3.7499942400000066
1.565e-07,24.55149999424,1.81031250816,5.312494336
1.5700000000000002e-07,24.59837499712,1.815000008448,5.312494336
1.575e-07,24.58274999616,1.811875008256,2.1874941439999986
1.58e-07,24.55149999424,1.807187507968,2.1874941439999986
1.5850000000000002e-07,24.4889999904,1.81031250816,0.6249940480000049
1.59e-07,24.52024999232,1.808750008064,-2.5000061439999968
1.5950000000000002e-07,24.53587499328,1.807187507968,-4.0625062399999905
1.6e-07,24.5671249952,1.808750008064,-5.625006335999998
1.6050000000000001e-07,24.52024999232,1.808750008064,-7.187506431999992
1.61e-07,24.50462499136,1.81031250816,-7.187506431999992
1.615e-07,24.50462499136,1.813437508352,-8.750006528
1.6200000000000002e-07,24.53587499328,1.813437508352,-11.875006720000002
1.625e-07,24.58274999616,1.81031250816,-13.437506815999996
1.6300000000000002e-07,24.58274999616,1.807187507968,-13.437506815999996
1.635e-07,24.58274999616,1.808750008064,-15.000006912000003
1.64e-07,24.58274999616,1.811875008256,-18.12500710399999
