Time (s),VIN,IIN,VOUT,IOUT,"[""CRTL_A"", ""IN_A"", ""CRTL_B"", ""IN_B"", ""nEN"", ""GATE_1"", ""GATE_2""]"
0.0,24.808875018240002,1.64482500672,30.312495872,0.31250007040000005,8960
5e-10,24.88700002304,1.6479500069119999,27.187495679999998,0.31250007040000005,8960
1e-09,25.01200003072,1.651075007104,27.187495679999998,0.2500000768,8960
1.5000000000000002e-09,25.10575003648,1.651075007104,25.624995584000004,0.2500000768,8960
2e-09,25.10575003648,1.6479500069119999,24.062495487999996,0.21875008000000007,8960
2.5e-09,25.02762503168,1.64482500672,24.062495487999996,0.1875000832,8960
3.0000000000000004e-09,24.96512502784,1.6479500069119999,24.062495487999996,0.1875000832,8960
3.5000000000000003e-09,24.94950002688,1.6526375072,20.93749529600001,0.09375009280000002,8960
4e-09,24.99637502976,1.654200007296,19.3749952,0.09375009280000002,8960
4.500000000000001e-09,25.01200003072,1.654200007296,17.812495104000007,0.06250009600000006,8960
5e-09,24.99637502976,1.651075007104,19.3749952,0.03125009919999999,8960
5.5000000000000004e-09,24.96512502784,1.6479500069119999,14.687494912000005,1.02400000034919e-07,8960
6.000000000000001e-09,24.96512502784,1.651075007104,14.687494912000005,1.02400000034919e-07,8704
6.5e-09,24.99637502976,1.6479500069119999,11.562494720000004,-0.031249894399999922,8704
7.000000000000001e-09,25.01200003072,1.6479500069119999,11.562494720000004,-0.06249989119999988,8192
7.500000000000001e-09,25.02762503168,1.6479500069119999,9.99999462400001,-0.06249989119999988,8192
8e-09,25.01200003072,1.6479500069119999,8.437494528000002,-0.12499988480000002,8192
8.5e-09,25.01200003072,1.6479500069119999,6.874994432000008,-0.15624988159999997,8192
9.000000000000001e-09,24.99637502976,1.651075007104,6.874994432000008,-0.18749987839999993,8192
9.5e-09,25.01200003072,1.6526375072,5.312494336,-0.2187498751999999,8192
1e-08,25.01200003072,1.654200007296,3.7499942400000066,-0.24999987200000007,8192
1.0500000000000001e-08,24.99637502976,1.6526375072,2.1874941439999986,-0.24999987200000007,8192
1.1000000000000001e-08,24.99637502976,1.6526375072,3.7499942400000066,-0.2812498688,8192
1.15e-08,25.01200003072,1.655762507392,-0.937506048000003,-0.3124998656,8192
1.2000000000000002e-08,25.04325003264,1.655762507392,-0.937506048000003,-0.34374986239999994,8192
1.2500000000000001e-08,25.0588750336,1.655762507392,-4.0625062399999905,-0.34374986239999994,8192
1.3e-08,25.07450003456,1.654200007296,-2.5000061439999968,-0.40624985599999985,8192
1.35e-08,25.09012503552,1.6526375072,-7.187506431999992,-0.40624985599999985,8192
1.4000000000000001e-08,25.10575003648,1.655762507392,-7.187506431999992,-0.43749985280000003,8192
1.45e-08,25.1370000384,1.655762507392,-8.750006528,-0.43749985280000003,8192
1.5000000000000002e-08,25.12137503744,1.655762507392,-8.750006528,-0.49999984639999995,8192
1.55e-08,25.12137503744,1.657325007488,-10.312506623999994,-0.49999984639999995,8192
1.6e-08,25.07450003456,1.655762507392,-11.875006720000002,-0.49999984639999995,8192
1.6500000000000002e-08,25.0588750336,1.655762507392,-13.437506815999996,-0.5312498431999999,8192
1.7e-08,25.04325003264,1.657325007488,-13.437506815999996,-0.5624998399999999,8192
1.75e-08,25.10575003648,1.657325007488,-16.562507007999997,-0.5937498368,8192
1.8000000000000002e-08,25.12137503744,1.658887507584,-18.12500710399999,-0.5937498368,8192
1.85e-08,25.15262503936,1.658887507584,-16.562507007999997,-0.6562498304,8192
1.9e-08,25.16825004032,1.655762507392,-18.12500710399999,-0.6562498304,8192
1.9500000000000003e-08,25.15262503936,1.655762507392,-21.250007295999993,-0.6874998271999999,8192
2e-08,25.16825004032,1.655762507392,-22.812507392,-0.7187498239999999,8192
2.05e-08,25.16825004032,1.657325007488,-24.375007487999994,-0.7187498239999999,8192
2.1000000000000003e-08,25.18387504128,1.655762507392,-22.812507392,-0.7812498176,8192
2.15e-08,25.16825004032,1.654200007296,-25.937507584000002,-0.7499998207999998,8192
2.2000000000000002e-08,25.16825004032,1.655762507392,-25.937507584000002,-0.7812498176,8192
2.2500000000000003e-08,25.16825004032,1.655762507392,-27.500007679999996,-0.7812498176,8192
2.3e-08,25.15262503936,1.657325007488,-29.06250777599999,-0.8437498111999999,8192
2.3500000000000002e-08,25.15262503936,1.658887507584,-30.625007871999998,-0.8437498111999999,8192
2.4000000000000003e-08,25.15262503936,1.655762507392,-30.625007871999998,-0.8437498111999999,8192
2.45e-08,25.16825004032,1.654200007296,-32.187507968000006,-0.8749998079999999,8192
2.5000000000000002e-08,25.16825004032,1.657325007488,-32.187507968000006,-0.9062498047999998,8192
2.55e-08,25.23075004416,1.658887507584,-33.750008063999985,-0.9062498047999998,8192
2.6e-08,25.24637504512,1.658887507584,-35.31250815999999,-0.8749998079999999,8192
2.6500000000000002e-08,25.24637504512,1.66045000768,-36.875008256,-0.9062498047999998,8192
2.7e-08,25.2151250432,1.66045000768,-35.31250815999999,-0.9374998016,8192
2.75e-08,25.15262503936,1.658887507584,-36.875008256,-0.9687497984,9216
2.8000000000000003e-08,25.15262503936,1.657325007488,-38.43750835200001,-0.9687497984,1024
2.85e-08,25.1370000384,1.657325007488,-41.562508543999996,-0.9999997951999999,1024
2.9e-08,25.15262503936,1.657325007488,-38.43750835200001,-1.031249792,1024
2.9500000000000003e-08,25.15262503936,1.654200007296,-43.125008640000004,-1.031249792,3072
3.0000000000000004e-08,25.12137503744,1.654200007296,-41.562508543999996,-1.031249792,3072
3.05e-08,25.10575003648,1.655762507392,-44.687508735999984,-1.0624997887999998,3072
3.1e-08,25.1370000384,1.658887507584,-43.125008640000004,-1.0937497856,3072
3.1500000000000004e-08,25.24637504512,1.66045000768,-44.687508735999984,-1.0937497856,3072
3.2e-08,25.293250048,1.657325007488,-46.25000883199999,-1.0624997887999998,3072
3.25e-08,25.30887504896,1.657325007488,-47.812508928,-1.0937497856,3072
3.3000000000000004e-08,25.30887504896,1.657325007488,-47.812508928,-1.1249997823999998,3072
3.35e-08,25.30887504896,1.657325007488,-47.812508928,-1.1249997823999998,3072
3.4e-08,25.293250048,1.658887507584,-49.37500902400001,-1.1249997823999998,3072
3.4500000000000005e-08,25.30887504896,1.657325007488,-49.37500902400001,-1.1249997823999998,3072
3.5e-08,25.30887504896,1.657325007488,-49.37500902400001,-1.1249997823999998,3072
3.55e-08,25.26200004608,1.66045000768,-52.500009215999995,-1.1562497792,3072
3.6000000000000005e-08,25.24637504512,1.662012507776,-50.93750911999999,-1.1874997760000001,3072
3.65e-08,25.2151250432,1.662012507776,-54.062509312,-1.1874997760000001,3072
3.7e-08,25.2151250432,1.657325007488,-50.93750911999999,-1.2187497727999999,3072
3.7500000000000005e-08,25.24637504512,1.654200007296,-54.062509312,-1.1562497792,3072
3.8e-08,25.27762504704,1.654200007296,-54.062509312,-1.1562497792,3072
3.85e-08,25.26200004608,1.655762507392,-55.62500940799998,-1.1874997760000001,3072
3.9000000000000005e-08,25.23075004416,1.658887507584,-55.62500940799998,-1.2187497727999999,3072
3.95e-08,25.24637504512,1.66045000768,-55.62500940799998,-1.1874997760000001,3072
4e-08,25.2151250432,1.658887507584,-57.18750950399999,-1.2187497727999999,3072
4.0500000000000005e-08,25.19950004224,1.658887507584,-57.18750950399999,-1.1874997760000001,3072
4.1e-08,25.19950004224,1.66045000768,-55.62500940799998,-1.2187497727999999,3072
4.15e-08,25.19950004224,1.663575007872,-57.18750950399999,-1.2499997696,3072
4.2000000000000006e-08,25.19950004224,1.665137507968,-58.7500096,-1.2187497727999999,3072
4.2500000000000003e-08,25.23075004416,1.663575007872,-58.7500096,-1.2499997696,3072
4.3e-08,25.23075004416,1.662012507776,-55.62500940799998,-1.1874997760000001,3072
4.3500000000000006e-08,25.26200004608,1.662012507776,-58.7500096,-1.2187497727999999,3072
4.4000000000000004e-08,25.293250048,1.66045000768,-58.7500096,-1.2187497727999999,3072
4.45e-08,25.30887504896,1.662012507776,-58.7500096,-1.2187497727999999,3072
4.5000000000000006e-08,25.30887504896,1.665137507968,-57.18750950399999,-1.2187497727999999,3072
4.5500000000000004e-08,25.30887504896,1.663575007872,-61.875009791999986,-1.2187497727999999,3072
4.6e-08,25.30887504896,1.662012507776,-60.312509696000006,-1.2187497727999999,3072
4.6500000000000006e-08,25.34012505088,1.658887507584,-58.7500096,-1.2187497727999999,3072
4.7000000000000004e-08,25.34012505088,1.662012507776,-58.7500096,-1.1874997760000001,3072
4.75e-08,25.3713750528,1.663575007872,-60.312509696000006,-1.2187497727999999,3072
4.8000000000000006e-08,25.3713750528,1.66045000768,-60.312509696000006,-1.2187497727999999,3072
4.8500000000000004e-08,25.35575005184,1.658887507584,-60.312509696000006,-1.1874997760000001,3072
4.9e-08,25.34012505088,1.66045000768,-58.7500096,-1.2187497727999999,3072
4.95e-08,25.34012505088,1.658887507584,-60.312509696000006,-1.2187497727999999,3072
5.0000000000000004e-08,25.38700005376,1.655762507392,-61.875009791999986,-1.1562497792,3072
5.05e-08,25.4495000576,1.657325007488,-60.312509696000006,-1.1874997760000001,3072
5.1e-08,25.46512505856,1.657325007488,-58.7500096,-1.1249997823999998,3072
5.1500000000000005e-08,25.38700005376,1.657325007488,-58.7500096,-1.1874997760000001,3072
5.2e-08,25.293250048,1.657325007488,-60.312509696000006,-1.1562497792,3072
5.25e-08,25.27762504704,1.66045000768,-60.312509696000006,-1.1562497792,19456
5.3000000000000005e-08,25.34012505088,1.66045000768,-58.7500096,-1.1874997760000001,19456
5.35e-08,25.40262505472,1.658887507584,-60.312509696000006,-1.1249997823999998,19456
5.4e-08,25.40262505472,1.654200007296,-60.312509696000006,-1.1249997823999998,19456
5.4500000000000005e-08,25.35575005184,1.649512507008,-58.7500096,-1.1562497792,19456
5.5e-08,25.27762504704,1.651075007104,-58.7500096,-1.0937497856,19456
5.55e-08,25.34012505088,1.657325007488,-58.7500096,-1.0624997887999998,19456
5.6000000000000005e-08,25.41825005568,1.66045000768,-57.18750950399999,-1.0624997887999998,19456
5.65e-08,25.512000061440002,1.66045000768,-58.7500096,-1.0624997887999998,19456
5.7e-08,25.46512505856,1.658887507584,-57.18750950399999,-1.0624997887999998,19456
5.7500000000000005e-08,25.38700005376,1.655762507392,-57.18750950399999,-1.031249792,19456
5.8e-08,25.34012505088,1.654200007296,-57.18750950399999,-0.9999997951999999,19456
5.85e-08,25.34012505088,1.657325007488,-57.18750950399999,-0.9999997951999999,19456
5.9000000000000006e-08,25.32450004992,1.657325007488,-55.62500940799998,-0.9374998016,19456
5.9500000000000003e-08,25.30887504896,1.658887507584,-55.62500940799998,-0.9999997951999999,19456
6.000000000000001e-08,25.32450004992,1.657325007488,-54.062509312,-0.9687497984,19456
6.05e-08,25.34012505088,1.658887507584,-55.62500940799998,-0.9687497984,19456
6.1e-08,25.3713750528,1.658887507584,-52.500009215999995,-0.9999997951999999,19456
6.15e-08,25.38700005376,1.654200007296,-55.62500940799998,-0.8749998079999999,19456
6.2e-08,25.38700005376,1.649512507008,-54.062509312,-0.8749998079999999,19456
6.250000000000001e-08,25.41825005568,1.649512507008,-52.500009215999995,-0.8437498111999999,19456
6.300000000000001e-08,25.4495000576,1.6526375072,-50.93750911999999,-0.8437498111999999,19456
6.35e-08,25.480750059520002,1.657325007488,-50.93750911999999,-0.8124998144,19456
6.4e-08,25.496375060480002,1.657325007488,-50.93750911999999,-0.8437498111999999,19456
6.45e-08,25.46512505856,1.6526375072,-49.37500902400001,-0.7812498176,19456
6.5e-08,25.41825005568,1.649512507008,-46.25000883199999,-0.7499998207999998,19456
6.55e-08,25.35575005184,1.6463875068159999,-47.812508928,-0.7499998207999998,19456
6.600000000000001e-08,25.30887504896,1.649512507008,-47.812508928,-0.7187498239999999,19456
6.65e-08,25.26200004608,1.6526375072,-46.25000883199999,-0.6874998271999999,19456
6.7e-08,25.27762504704,1.654200007296,-43.125008640000004,-0.6874998271999999,19456
6.75e-08,25.35575005184,1.6526375072,-43.125008640000004,-0.6874998271999999,19456
6.8e-08,25.4495000576,1.649512507008,-43.125008640000004,-0.6562498304,19456
6.85e-08,25.480750059520002,1.651075007104,-41.562508543999996,-0.6249998336,19456
6.900000000000001e-08,25.41825005568,1.651075007104,-38.43750835200001,-0.6249998336,19456
6.950000000000001e-08,25.30887504896,1.649512507008,-41.562508543999996,-0.5937498368,19456
7e-08,25.24637504512,1.6526375072,-38.43750835200001,-0.5624998399999999,19456
7.05e-08,25.26200004608,1.654200007296,-38.43750835200001,-0.5312498431999999,19456
7.1e-08,25.26200004608,1.655762507392,-36.875008256,-0.49999984639999995,19456
7.15e-08,25.293250048,1.655762507392,-35.31250815999999,-0.4687498496,19456
7.200000000000001e-08,25.24637504512,1.654200007296,-33.750008063999985,-0.43749985280000003,19456
7.250000000000001e-08,25.19950004224,1.649512507008,-33.750008063999985,-0.40624985599999985,19456
7.3e-08,25.19950004224,1.649512507008,-32.187507968000006,-0.40624985599999985,19456
7.35e-08,25.24637504512,1.6526375072,-29.06250777599999,-0.3749998591999999,19456
7.4e-08,25.27762504704,1.6526375072,-30.625007871999998,-0.3749998591999999,19456
7.45e-08,25.30887504896,1.651075007104,-27.500007679999996,-0.3124998656,19456
7.500000000000001e-08,25.35575005184,1.6479500069119999,-27.500007679999996,-0.2812498688,19456
7.550000000000001e-08,25.3713750528,1.6463875068159999,-25.937507584000002,-0.3124998656,19456
7.6e-08,25.3713750528,1.64482500672,-25.937507584000002,-0.2812498688,19456
7.65e-08,25.32450004992,1.64482500672,-25.937507584000002,-0.24999987200000007,19456
7.7e-08,25.26200004608,1.6463875068159999,-19.6875072,-0.2187498751999999,19456
7.75e-08,25.2151250432,1.6463875068159999,-21.250007295999993,-0.18749987839999993,19456
7.800000000000001e-08,25.18387504128,1.6479500069119999,-19.6875072,-0.15624988159999997,19456
7.850000000000001e-08,25.2151250432,1.6463875068159999,-18.12500710399999,-0.12499988480000002,19456
7.9e-08,25.19950004224,1.643262506624,-16.562507007999997,-0.09374988800000006,18432
7.95e-08,25.2151250432,1.6479500069119999,-16.562507007999997,-0.06249989119999988,18432
8e-08,25.24637504512,1.6479500069119999,-15.000006912000003,-0.031249894399999922,18432
8.05e-08,25.30887504896,1.6463875068159999,-11.875006720000002,1.02400000034919e-07,18432
8.100000000000001e-08,25.34012505088,1.6479500069119999,-10.312506623999994,1.02400000034919e-07,16384
8.150000000000001e-08,25.30887504896,1.6463875068159999,-8.750006528,0.03125009919999999,16384
8.2e-08,25.2151250432,1.643262506624,-8.750006528,0.06250009600000006,16384
8.25e-08,25.15262503936,1.641700006528,-7.187506431999992,0.12500008960000009,16384
8.3e-08,25.10575003648,1.641700006528,-5.625006335999998,0.12500008960000009,16384
8.35e-08,25.10575003648,1.640137506432,-4.0625062399999905,0.12500008960000009,16384
8.400000000000001e-08,25.15262503936,1.640137506432,-4.0625062399999905,0.15625008640000004,16384
8.450000000000001e-08,25.18387504128,1.640137506432,-4.0625062399999905,0.21875008000000007,16384
8.500000000000001e-08,25.18387504128,1.643262506624,-0.937506048000003,0.21875008000000007,16384
8.55e-08,25.18387504128,1.64482500672,-0.937506048000003,0.2500000768,16384
8.6e-08,25.18387504128,1.641700006528,2.1874941439999986,0.31250007040000005,16384
8.65e-08,25.19950004224,1.638575006336,2.1874941439999986,0.31250007040000005,16384
8.700000000000001e-08,25.18387504128,1.640137506432,3.7499942400000066,0.3437500672,16384
8.750000000000001e-08,25.23075004416,1.643262506624,5.312494336,0.3437500672,16384
8.800000000000001e-08,25.24637504512,1.643262506624,6.874994432000008,0.37500006399999997,16384
8.85e-08,25.24637504512,1.643262506624,6.874994432000008,0.40625006080000003,16384
8.9e-08,25.19950004224,1.643262506624,9.99999462400001,0.4375000576,16384
8.95e-08,25.15262503936,1.64482500672,11.562494720000004,0.4375000576,16384
9.000000000000001e-08,25.0588750336,1.641700006528,11.562494720000004,0.46875005440000006,16384
9.050000000000001e-08,25.0588750336,1.641700006528,13.124994815999997,0.5000000512,16384
9.100000000000001e-08,25.09012503552,1.64482500672,16.249995008,0.531250048,16384
9.15e-08,25.16825004032,1.6463875068159999,16.249995008,0.531250048,16384
9.2e-08,25.24637504512,1.6479500069119999,16.249995008,0.5625000448,16384
9.25e-08,25.26200004608,1.643262506624,16.249995008,0.6250000384000001,16384
9.300000000000001e-08,25.2151250432,1.643262506624,19.3749952,0.5625000448,16384
9.350000000000001e-08,25.16825004032,1.640137506432,19.3749952,0.6250000384000001,16384
9.400000000000001e-08,25.12137503744,1.641700006528,22.499995392000002,0.6250000384000001,16384
9.45e-08,25.10575003648,1.638575006336,20.93749529600001,0.687500032,16384
9.5e-08,25.07450003456,1.633887506048,22.499995392000002,0.687500032,16384
9.55e-08,25.12137503744,1.635450006144,24.062495487999996,0.7187500287999999,16384
9.600000000000001e-08,25.1370000384,1.635450006144,27.187495679999998,0.7500000256,16384
9.650000000000001e-08,25.15262503936,1.638575006336,25.624995584000004,0.7187500287999999,16384
9.700000000000001e-08,25.12137503744,1.640137506432,28.749995776000006,0.7500000256,16384
9.75e-08,25.09012503552,1.640137506432,28.749995776000006,0.7812500224000001,16384
9.8e-08,25.0588750336,1.635450006144,28.749995776000006,0.7812500224000001,16384
9.85e-08,25.07450003456,1.638575006336,31.874995968000007,0.8125000192,16384
9.9e-08,25.1370000384,1.641700006528,33.437496064,0.843750016,16384
9.950000000000001e-08,25.1370000384,1.640137506432,33.437496064,0.843750016,16384
1.0000000000000001e-07,25.10575003648,1.638575006336,34.99999616,0.8750000128,16384
1.005e-07,25.04325003264,1.63701250624,33.437496064,0.9062500096,16384
1.01e-07,24.99637502976,1.635450006144,36.562496256,0.8750000128,0
1.015e-07,24.9807500288,1.635450006144,36.562496256,0.9062500096,256
1.02e-07,24.9807500288,1.638575006336,38.124996352000004,0.9375000064,256
1.0250000000000001e-07,24.9807500288,1.638575006336,38.124996352000004,0.9375000064,256
1.0300000000000001e-07,24.93387502592,1.640137506432,39.687496448000005,0.9687500032,256
1.0350000000000001e-07,24.94950002688,1.640137506432,41.249996544,0.9375000064,768
1.04e-07,24.99637502976,1.640137506432,41.249996544,0.9687500032,768
1.045e-07,25.0588750336,1.638575006336,41.249996544,0.9687500032,768
1.05e-07,25.07450003456,1.638575006336,44.374996736,1.0,768
1.0550000000000001e-07,25.09012503552,1.638575006336,42.81249664,1.0,768
1.0600000000000001e-07,25.0588750336,1.633887506048,42.81249664,1.0,768
1.0650000000000001e-07,25.0588750336,1.632325005952,45.937496832,1.0,768
1.07e-07,25.04325003264,1.632325005952,47.499996928,1.0937499904,768
1.075e-07,25.02762503168,1.635450006144,45.937496832,1.0312499968,768
1.08e-07,25.02762503168,1.633887506048,47.499996928,1.0624999936,768
1.0850000000000001e-07,25.01200003072,1.635450006144,45.937496832,1.0624999936,768
1.0900000000000001e-07,24.9807500288,1.633887506048,49.062497024,1.0937499904,768
1.0950000000000001e-07,24.9807500288,1.633887506048,47.499996928,1.0937499904,768
1.1e-07,24.94950002688,1.633887506048,49.062497024,1.1249999872,768
1.105e-07,24.91825002496,1.632325005952,49.062497024,1.0937499904,768
1.11e-07,24.88700002304,1.632325005952,50.62499712,1.1249999872,768
1.1150000000000001e-07,24.94950002688,1.632325005952,50.62499712,1.1249999872,768
1.1200000000000001e-07,24.99637502976,1.633887506048,52.187497216000004,1.1249999872,768
1.1250000000000001e-07,25.01200003072,1.632325005952,50.62499712,1.1249999872,768
1.13e-07,24.93387502592,1.633887506048,52.187497216000004,1.1249999872,768
1.135e-07,24.87137502208,1.633887506048,52.187497216000004,1.1249999872,768
1.14e-07,24.855750021120002,1.635450006144,52.187497216000004,1.1249999872,768
1.1450000000000001e-07,24.840125020160002,1.638575006336,53.749997312000005,1.156249984,768
1.1500000000000001e-07,24.840125020160002,1.640137506432,55.312497408,1.156249984,768
1.1550000000000001e-07,24.824500019200002,1.640137506432,53.749997312000005,1.1249999872,768
1.16e-07,24.840125020160002,1.641700006528,53.749997312000005,1.1249999872,768
1.165e-07,24.793250017280002,1.640137506432,53.749997312000005,1.1249999872,768
1.17e-07,24.777625016320002,1.63701250624,56.874997504,1.1249999872,768
