Time (s),V_PRI,V_SEC,V_IN,V_OUT
0.0,257.6251084799999,141.00004223999997,24.51837496448,49.69175000704
5e-10,273.25010943999996,141.00004223999997,24.53399996544,49.6980000064
1e-09,257.6251084799999,141.00004223999997,24.53399996544,49.7136250048
1.5000000000000002e-09,257.6251084799999,156.62504319999994,24.5496249664,49.73862500224
2e-09,273.25010943999996,172.25004416000002,24.5496249664,49.7605
2.5e-09,257.6251084799999,172.25004416000002,24.5496249664,49.77299999872
3.0000000000000004e-09,257.6251084799999,156.62504319999994,24.56524996736,49.77924999808
3.5000000000000003e-09,273.25010943999996,172.25004416000002,24.5496249664,49.76987499904
4e-09,242.00010752000003,187.87504511999998,24.51837496448,49.75737500032
4.500000000000001e-09,257.6251084799999,187.87504511999998,24.48712496256,49.75425000064
5e-09,273.25010943999996,203.50004607999995,24.42462495872,49.75425000064
5.5000000000000004e-09,257.6251084799999,203.50004607999995,24.42462495872,49.75112500096
6.000000000000001e-09,273.25010943999996,219.12504704000003,24.37774995584,49.7448750016
6.5e-09,242.00010752000003,234.750048,24.34649995392,49.73237500288
7.000000000000001e-09,257.6251084799999,203.50004607999995,24.34649995392,49.72300000384
7.500000000000001e-09,257.6251084799999,250.37504895999996,24.36212495488,49.7292500032
8e-09,257.6251084799999,219.12504704000003,24.3933749568,49.74175000192
8.5e-09,257.6251084799999,219.12504704000003,24.42462495872,49.75112500096
9.000000000000001e-09,257.6251084799999,234.750048,24.4714999616,49.75737500032
9.5e-09,257.6251084799999,234.750048,24.48712496256,49.76362499968
1e-08,273.25010943999996,250.37504895999996,24.51837496448,49.7605
1.0500000000000001e-08,242.00010752000003,234.750048,24.51837496448,49.75425000064
1.1000000000000001e-08,257.6251084799999,250.37504895999996,24.53399996544,49.74800000128
1.15e-08,257.6251084799999,250.37504895999996,24.48712496256,49.73550000256
1.2000000000000002e-08,257.6251084799999,250.37504895999996,24.45587496064,49.72612500352
1.2500000000000001e-08,242.00010752000003,250.37504895999996,24.42462495872,49.73237500288
1.3e-08,257.6251084799999,281.62505088,24.37774995584,49.73862500224
1.35e-08,257.6251084799999,250.37504895999996,24.40899995776,49.7448750016
1.4000000000000001e-08,242.00010752000003,266.0000499199999,24.3933749568,49.75737500032
1.45e-08,242.00010752000003,281.62505088,24.37774995584,49.75425000064
1.5000000000000002e-08,226.37510655999995,250.37504895999996,24.37774995584,49.75112500096
1.55e-08,226.37510655999995,281.62505088,24.40899995776,49.75112500096
1.6e-08,226.37510655999995,266.0000499199999,24.44024995968,49.76362499968
1.6500000000000002e-08,226.37510655999995,250.37504895999996,24.44024995968,49.7605
1.7e-08,210.75010559999987,234.750048,24.42462495872,49.76674999936
1.75e-08,210.75010559999987,266.0000499199999,24.3933749568,49.76362499968
1.8000000000000002e-08,226.37510655999995,266.0000499199999,24.3933749568,49.77299999872
1.85e-08,210.75010559999987,250.37504895999996,24.37774995584,49.7761249984
1.9e-08,179.50010367999994,266.0000499199999,24.3933749568,49.77924999808
1.9500000000000003e-08,210.75010559999987,250.37504895999996,24.36212495488,49.78549999744
2e-08,195.12510464000002,250.37504895999996,24.37774995584,49.78237499776
2.05e-08,179.50010367999994,266.0000499199999,24.3933749568,49.78237499776
2.1000000000000003e-08,179.50010367999994,266.0000499199999,24.3933749568,49.76987499904
2.15e-08,195.12510464000002,266.0000499199999,24.42462495872,49.75737500032
2.2000000000000002e-08,179.50010367999994,281.62505088,24.45587496064,49.75112500096
2.2500000000000003e-08,179.50010367999994,281.62505088,24.4714999616,49.73862500224
2.3e-08,163.87510271999986,266.0000499199999,24.4714999616,49.73550000256
2.3500000000000002e-08,163.87510271999986,281.62505088,24.48712496256,49.7448750016
2.4000000000000003e-08,163.87510271999986,281.62505088,24.4714999616,49.76362499968
2.45e-08,179.50010367999994,266.0000499199999,24.45587496064,49.7761249984
2.5000000000000002e-08,148.25010176,266.0000499199999,24.44024995968,49.79487499648
2.55e-08,163.87510271999986,266.0000499199999,24.42462495872,49.81049999488
2.6e-08,163.87510271999986,250.37504895999996,24.40899995776,49.81674999424
2.6500000000000002e-08,132.62510079999993,250.37504895999996,24.37774995584,49.81362499456
2.7e-08,132.62510079999993,266.0000499199999,24.37774995584,49.8073749952
2.75e-08,148.25010176,266.0000499199999,24.36212495488,49.79487499648
2.8000000000000003e-08,132.62510079999993,250.37504895999996,24.37774995584,49.78237499776
2.85e-08,132.62510079999993,250.37504895999996,24.3933749568,49.78549999744
2.9e-08,117.00009983999985,250.37504895999996,24.37774995584,49.7917499968
2.9500000000000003e-08,132.62510079999993,250.37504895999996,24.44024995968,49.8073749952
3.0000000000000004e-08,117.00009983999985,250.37504895999996,24.48712496256,49.82612499328
3.05e-08,101.37509888,250.37504895999996,24.50274996352,49.84174999168
3.1e-08,85.75009791999992,219.12504704000003,24.56524996736,49.85112499072
3.1500000000000004e-08,101.37509888,250.37504895999996,24.59649996928,49.8542499904
3.2e-08,85.75009791999992,219.12504704000003,24.6277499712,49.85112499072
3.25e-08,101.37509888,203.50004607999995,24.64337497216,49.83237499264
3.3000000000000004e-08,70.12509695999984,172.25004416000002,24.67462497408,49.81362499456
3.35e-08,85.75009791999992,203.50004607999995,24.67462497408,49.78549999744
3.4e-08,70.12509695999984,187.87504511999998,24.64337497216,49.7605
3.4500000000000005e-08,70.12509695999984,187.87504511999998,24.61212497024,49.7292500032
3.5e-08,54.500095999999985,172.25004416000002,24.61212497024,49.70737500544
3.55e-08,70.12509695999984,172.25004416000002,24.56524996736,49.70112500608
3.6000000000000005e-08,38.875095039999906,172.25004416000002,24.5496249664,49.70425000576
3.65e-08,38.875095039999906,172.25004416000002,24.56524996736,49.71987500416
3.7e-08,38.875095039999906,172.25004416000002,24.58087496832,49.74175000192
3.7500000000000005e-08,38.875095039999906,172.25004416000002,24.59649996928,49.75737500032
3.8e-08,23.250094080000054,172.25004416000002,24.64337497216,49.7761249984
3.85e-08,23.250094080000054,172.25004416000002,24.6277499712,49.7761249984
3.9000000000000005e-08,-7.999907840000105,156.62504319999994,24.65899997312,49.77299999872
3.95e-08,23.250094080000054,187.87504511999998,24.64337497216,49.7605
4e-08,23.250094080000054,156.62504319999994,24.61212497024,49.74800000128
4.0500000000000005e-08,23.250094080000054,141.00004223999997,24.5496249664,49.73237500288
4.1e-08,-7.999907840000105,141.00004223999997,24.50274996352,49.71987500416
4.15e-08,7.625093119999974,156.62504319999994,24.48712496256,49.70425000576
4.2000000000000006e-08,-7.999907840000105,156.62504319999994,24.4714999616,49.694875006720004
4.2500000000000003e-08,-7.999907840000105,156.62504319999994,24.4714999616,49.68862500736
4.3e-08,-23.624908799999957,172.25004416000002,24.53399996544,49.69175000704
4.3500000000000006e-08,-39.24990976000004,156.62504319999994,24.56524996736,49.70112500608
4.4000000000000004e-08,-23.624908799999957,141.00004223999997,24.6277499712,49.710500005120004
4.45e-08,-39.24990976000004,141.00004223999997,24.69024997504,49.73237500288
4.5000000000000006e-08,-39.24990976000004,156.62504319999994,24.705874976,49.7448750016
4.5500000000000004e-08,-23.624908799999957,156.62504319999994,24.73712497792,49.75425000064
4.6e-08,-39.24990976000004,156.62504319999994,24.72149997696,49.77299999872
4.6500000000000006e-08,-54.874910720000116,172.25004416000002,24.65899997312,49.7761249984
4.7000000000000004e-08,-54.874910720000116,141.00004223999997,24.61212497024,49.78549999744
4.75e-08,-54.874910720000116,172.25004416000002,24.56524996736,49.79799999616
4.8000000000000006e-08,-70.49991167999997,125.37504128,24.53399996544,49.81362499456
4.8500000000000004e-08,-54.874910720000116,125.37504128,24.51837496448,49.8229999936
4.9e-08,-70.49991167999997,109.75004031999993,24.53399996544,49.82612499328
4.95e-08,-86.12491264000005,109.75004031999993,24.5496249664,49.82612499328
5.0000000000000004e-08,-86.12491264000005,125.37504128,24.58087496832,49.81674999424
5.05e-08,-86.12491264000005,94.12503935999996,24.61212497024,49.80112499584
5.1e-08,-101.74991360000013,94.12503935999996,24.65899997312,49.78549999744
5.1500000000000005e-08,-86.12491264000005,94.12503935999996,24.61212497024,49.76362499968
5.2e-08,-117.37491455999998,78.5000384,24.56524996736,49.74175000192
5.25e-08,-101.74991360000013,78.5000384,24.53399996544,49.7292500032
5.3000000000000005e-08,-117.37491455999998,78.5000384,24.45587496064,49.72300000384
5.35e-08,-117.37491455999998,78.5000384,24.44024995968,49.73550000256
5.4e-08,-117.37491455999998,62.87503744000003,24.42462495872,49.75425000064
5.4500000000000005e-08,-132.99991552000006,62.87503744000003,24.40899995776,49.76362499968
5.5e-08,-132.99991552000006,47.25003647999995,24.44024995968,49.78237499776
5.55e-08,-132.99991552000006,62.87503744000003,24.50274996352,49.7917499968
5.6000000000000005e-08,-132.99991552000006,47.25003647999995,24.5496249664,49.79487499648
5.65e-08,-132.99991552000006,31.625035519999983,24.59649996928,49.77924999808
5.7e-08,-148.62491648000014,16.000034560000017,24.61212497024,49.76674999936
5.7500000000000005e-08,-164.24991744,31.625035519999983,24.6277499712,49.74800000128
5.8e-08,-148.62491648000014,31.625035519999983,24.6277499712,49.72612500352
5.85e-08,-164.24991744,31.625035519999983,24.58087496832,49.710500005120004
5.9000000000000006e-08,-164.24991744,31.625035519999983,24.58087496832,49.6980000064
5.9500000000000003e-08,-164.24991744,31.625035519999983,24.48712496256,49.69175000704
6.000000000000001e-08,-179.87491840000007,16.000034560000017,24.4714999616,49.68862500736
6.05e-08,-195.49991936000015,16.000034560000017,24.44024995968,49.70112500608
6.1e-08,-179.87491840000007,31.625035519999983,24.40899995776,49.710500005120004
6.15e-08,-164.24991744,0.3750335999999379,24.4714999616,49.72612500352
6.2e-08,-195.49991936000015,16.000034560000017,24.50274996352,49.73862500224
6.250000000000001e-08,-179.87491840000007,16.000034560000017,24.50274996352,49.7448750016
6.300000000000001e-08,-179.87491840000007,0.3750335999999379,24.53399996544,49.75112500096
6.35e-08,-195.49991936000015,16.000034560000017,24.53399996544,49.7605
6.4e-08,-195.49991936000015,0.3750335999999379,24.53399996544,49.77299999872
6.45e-08,-179.87491840000007,-30.874968319999994,24.53399996544,49.7761249984
6.5e-08,-195.49991936000015,-30.874968319999994,24.48712496256,49.78862499712
6.55e-08,-195.49991936000015,-30.874968319999994,24.45587496064,49.79487499648
6.600000000000001e-08,-195.49991936000015,-30.874968319999994,24.45587496064,49.8073749952
6.65e-08,-211.12492032,-30.874968319999994,24.44024995968,49.81049999488
6.7e-08,-211.12492032,-30.874968319999994,24.50274996352,49.81362499456
6.75e-08,-211.12492032,-46.499969280000016,24.50274996352,49.8073749952
6.8e-08,-211.12492032,-62.12497024000004,24.53399996544,49.78862499712
6.85e-08,-226.74992128000008,-62.12497024000004,24.58087496832,49.77299999872
6.900000000000001e-08,-211.12492032,-62.12497024000004,24.59649996928,49.75425000064
6.950000000000001e-08,-211.12492032,-62.12497024000004,24.64337497216,49.7292500032
7e-08,-226.74992128000008,-77.7499712,24.65899997312,49.71675000448
7.05e-08,-226.74992128000008,-77.7499712,24.6277499712,49.710500005120004
7.1e-08,-226.74992128000008,-108.99997311999999,24.6277499712,49.710500005120004
7.15e-08,-226.74992128000008,-77.7499712,24.59649996928,49.73550000256
7.200000000000001e-08,-242.37492223999993,-108.99997311999999,24.59649996928,49.76362499968
7.250000000000001e-08,-226.74992128000008,-124.62497408000002,24.58087496832,49.78549999744
7.3e-08,-242.37492223999993,-140.24997504000004,24.56524996736,49.80424999552
7.35e-08,-242.37492223999993,-124.62497408000002,24.58087496832,49.81049999488
7.4e-08,-242.37492223999993,-124.62497408000002,24.58087496832,49.80424999552
7.45e-08,-242.37492223999993,-140.24997504000004,24.58087496832,49.78237499776
7.500000000000001e-08,-242.37492223999993,-140.24997504000004,24.61212497024,49.75737500032
7.550000000000001e-08,-242.37492223999993,-140.24997504000004,24.59649996928,49.72612500352
7.6e-08,-242.37492223999993,-155.874976,24.58087496832,49.69175000704
7.65e-08,-257.9999232,-171.49997696000003,24.56524996736,49.66987500928
7.7e-08,-242.37492223999993,-155.874976,24.5496249664,49.6511250112
7.75e-08,-242.37492223999993,-171.49997696000003,24.56524996736,49.6511250112
7.800000000000001e-08,-242.37492223999993,-171.49997696000003,24.58087496832,49.66362500992
7.850000000000001e-08,-242.37492223999993,-171.49997696000003,24.56524996736,49.67612500864
7.9e-08,-257.9999232,-187.12497792,24.59649996928,49.694875006720004
7.95e-08,-257.9999232,-155.874976,24.64337497216,49.71675000448
8e-08,-257.9999232,-171.49997696000003,24.67462497408,49.73550000256
8.05e-08,-242.37492223999993,-187.12497792,24.69024997504,49.7448750016
8.100000000000001e-08,-257.9999232,-202.74997888000001,24.69024997504,49.75112500096
8.150000000000001e-08,-257.9999232,-187.12497792,24.69024997504,49.75425000064
8.2e-08,-257.9999232,-187.12497792,24.67462497408,49.74800000128
8.25e-08,-257.9999232,-202.74997888000001,24.65899997312,49.7448750016
8.3e-08,-273.6249241600001,-202.74997888000001,24.69024997504,49.74800000128
8.35e-08,-273.6249241600001,-202.74997888000001,24.65899997312,49.75425000064
8.400000000000001e-08,-273.6249241600001,-202.74997888000001,24.6277499712,49.75737500032
8.450000000000001e-08,-273.6249241600001,-218.37497984000004,24.64337497216,49.76674999936
8.500000000000001e-08,-273.6249241600001,-202.74997888000001,24.6277499712,49.77299999872
8.55e-08,-273.6249241600001,-218.37497984000004,24.65899997312,49.76987499904
8.6e-08,-273.6249241600001,-218.37497984000004,24.65899997312,49.76674999936
8.65e-08,-289.24992511999994,-218.37497984000004,24.6277499712,49.75112500096
8.700000000000001e-08,-273.6249241600001,-249.62498176000003,24.61212497024,49.73237500288
8.750000000000001e-08,-289.24992511999994,-218.37497984000004,24.61212497024,49.72300000384
8.800000000000001e-08,-289.24992511999994,-249.62498176000003,24.61212497024,49.72300000384
8.85e-08,-273.6249241600001,-265.24998272,24.61212497024,49.71987500416
8.9e-08,-289.24992511999994,-265.24998272,24.61212497024,49.73550000256
8.95e-08,-273.6249241600001,-265.24998272,24.59649996928,49.75425000064
9.000000000000001e-08,-273.6249241600001,-249.62498176000003,24.59649996928,49.77299999872
9.050000000000001e-08,-289.24992511999994,-280.87498368,24.59649996928,49.78549999744
9.100000000000001e-08,-289.24992511999994,-280.87498368,24.6277499712,49.7917499968
9.15e-08,-273.6249241600001,-280.87498368,24.6277499712,49.79487499648
9.2e-08,-289.24992511999994,-280.87498368,24.6277499712,49.78862499712
9.25e-08,-289.24992511999994,-296.49998464,24.64337497216,49.77299999872
9.300000000000001e-08,-273.6249241600001,-296.49998464,24.61212497024,49.75112500096
9.350000000000001e-08,-273.6249241600001,-280.87498368,24.6277499712,49.710500005120004
9.400000000000001e-08,-273.6249241600001,-296.49998464,24.61212497024,49.679250008320004
9.45e-08,-273.6249241600001,-296.49998464,24.58087496832,49.6511250112
9.5e-08,-273.6249241600001,-312.1249856,24.58087496832,49.6355000128
9.55e-08,-273.6249241600001,-280.87498368,24.58087496832,49.63862501248
9.600000000000001e-08,-273.6249241600001,-312.1249856,24.58087496832,49.66987500928
9.650000000000001e-08,-257.9999232,-312.1249856,24.58087496832,49.694875006720004
9.700000000000001e-08,-273.6249241600001,-327.74998656,24.59649996928,49.7292500032
9.75e-08,-257.9999232,-312.1249856,24.61212497024,49.75737500032
9.8e-08,-257.9999232,-312.1249856,24.61212497024,49.7761249984
9.85e-08,-257.9999232,-327.74998656,24.6277499712,49.79799999616
9.9e-08,-257.9999232,-327.74998656,24.6277499712,49.81362499456
9.950000000000001e-08,-257.9999232,-312.1249856,24.61212497024,49.82612499328
1.0000000000000001e-07,-242.37492223999993,-327.74998656,24.59649996928,49.8229999936
1.005e-07,-257.9999232,-327.74998656,24.61212497024,49.81674999424
1.01e-07,-242.37492223999993,-312.1249856,24.59649996928,49.79487499648
1.015e-07,-226.74992128000008,-312.1249856,24.61212497024,49.77924999808
1.02e-07,-226.74992128000008,-312.1249856,24.61212497024,49.76987499904
1.0250000000000001e-07,-226.74992128000008,-312.1249856,24.59649996928,49.75737500032
1.0300000000000001e-07,-226.74992128000008,-327.74998656,24.61212497024,49.75737500032
1.0350000000000001e-07,-211.12492032,-296.49998464,24.64337497216,49.75112500096
1.04e-07,-211.12492032,-327.74998656,24.65899997312,49.7605
1.045e-07,-195.49991936000015,-343.37498752,24.67462497408,49.7605
1.05e-07,-211.12492032,-343.37498752,24.67462497408,49.7761249984
1.0550000000000001e-07,-195.49991936000015,-327.74998656,24.705874976,49.79487499648
1.0600000000000001e-07,-195.49991936000015,-327.74998656,24.705874976,49.80424999552
1.0650000000000001e-07,-195.49991936000015,-343.37498752,24.72149997696,49.81049999488
1.07e-07,-195.49991936000015,-327.74998656,24.73712497792,49.8073749952
1.075e-07,-179.87491840000007,-327.74998656,24.72149997696,49.8073749952
1.08e-07,-179.87491840000007,-343.37498752,24.705874976,49.79799999616
1.0850000000000001e-07,-179.87491840000007,-327.74998656,24.72149997696,49.7917499968
1.0900000000000001e-07,-164.24991744,-327.74998656,24.705874976,49.77299999872
1.0950000000000001e-07,-164.24991744,-312.1249856,24.73712497792,49.75737500032
1.1e-07,-164.24991744,-312.1249856,24.72149997696,49.75112500096
1.105e-07,-164.24991744,-312.1249856,24.69024997504,49.75112500096
1.11e-07,-148.62491648000014,-312.1249856,24.69024997504,49.7605
1.1150000000000001e-07,-148.62491648000014,-296.49998464,24.67462497408,49.77299999872
1.1200000000000001e-07,-117.37491455999998,-312.1249856,24.67462497408,49.78862499712
1.1250000000000001e-07,-117.37491455999998,-312.1249856,24.67462497408,49.80112499584
1.13e-07,-132.99991552000006,-312.1249856,24.67462497408,49.82612499328
1.135e-07,-117.37491455999998,-280.87498368,24.67462497408,49.8542499904
1.14e-07,-117.37491455999998,-280.87498368,24.72149997696,49.8698749888
1.1450000000000001e-07,-117.37491455999998,-280.87498368,24.73712497792,49.86362498944
1.1500000000000001e-07,-117.37491455999998,-265.24998272,24.799624981759997,49.84487499136
1.1550000000000001e-07,-101.74991360000013,-265.24998272,24.815249982719997,49.81987499392
1.16e-07,-101.74991360000013,-265.24998272,24.846499984639998,49.78237499776
1.165e-07,-101.74991360000013,-265.24998272,24.877749986559998,49.7605
1.17e-07,-101.74991360000013,-233.9999808,24.877749986559998,49.74175000192
1.1750000000000001e-07,-70.49991167999997,-233.9999808,24.908999988479998,49.72612500352
1.1800000000000001e-07,-70.49991167999997,-233.9999808,24.893374987519998,49.72612500352
1.1850000000000001e-07,-70.49991167999997,-218.37497984000004,24.846499984639998,49.73237500288
1.1900000000000001e-07,-70.49991167999997,-233.9999808,24.815249982719997,49.74175000192
1.195e-07,-54.874910720000116,-202.74997888000001,24.799624981759997,49.75425000064
1.2000000000000002e-07,-54.874910720000116,-218.37497984000004,24.783999980799997,49.77299999872
1.205e-07,-23.624908799999957,-233.9999808,24.783999980799997,49.7917499968
1.21e-07,-54.874910720000116,-233.9999808,24.783999980799997,49.81987499392
1.215e-07,-39.24990976000004,-202.74997888000001,24.783999980799997,49.83237499264
1.22e-07,-23.624908799999957,-218.37497984000004,24.783999980799997,49.82612499328
1.2250000000000002e-07,-23.624908799999957,-202.74997888000001,24.799624981759997,49.81049999488
1.23e-07,-39.24990976000004,-202.74997888000001,24.830874983679998,49.7761249984
1.2350000000000001e-07,-7.999907840000105,-202.74997888000001,24.815249982719997,49.73862500224
1.24e-07,-7.999907840000105,-202.74997888000001,24.799624981759997,49.70112500608
1.245e-07,-23.624908799999957,-218.37497984000004,24.815249982719997,49.66987500928
