Time (s),V_PRI,V_SEC,V_IN,V_OUT
0.0,71.62509695999984,-154.374976,25.10762497408,42.20850000576
5e-10,71.62509695999984,-154.374976,25.07637497216,42.2022500064
1e-09,71.62509695999984,-154.374976,25.09199997312,42.20537500608
1.5000000000000002e-09,71.62509695999984,-138.74997504000004,25.09199997312,42.20850000576
2e-09,87.25009791999992,-154.374976,25.10762497408,42.21475000512
2.5e-09,87.25009791999992,-154.374976,25.09199997312,42.22412500416
3.0000000000000004e-09,71.62509695999984,-169.99997696000003,25.09199997312,42.23037500352
3.5000000000000003e-09,87.25009791999992,-154.374976,25.09199997312,42.22725000384
4e-09,102.87509888,-138.74997504000004,25.07637497216,42.21475000512
4.500000000000001e-09,87.25009791999992,-138.74997504000004,25.07637497216,42.20537500608
5e-09,71.62509695999984,-138.74997504000004,25.09199997312,42.19912500672
5.5000000000000004e-09,102.87509888,-138.74997504000004,25.0607499712,42.2022500064
6.000000000000001e-09,102.87509888,-138.74997504000004,25.04512497024,42.2022500064
6.5e-09,87.25009791999992,-154.374976,25.04512497024,42.21162500544
7.000000000000001e-09,102.87509888,-138.74997504000004,25.01387496832,42.21475000512
7.500000000000001e-09,118.50009983999985,-138.74997504000004,25.0607499712,42.22100000448
8e-09,102.87509888,-138.74997504000004,25.0607499712,42.23662500288
8.5e-09,102.87509888,-123.12497408000002,25.04512497024,42.24600000192
9.000000000000001e-09,102.87509888,-154.374976,25.07637497216,42.25537500096
9.5e-09,102.87509888,-123.12497408000002,25.07637497216,42.25850000064
1e-08,118.50009983999985,-138.74997504000004,25.10762497408,42.26787499968
1.0500000000000001e-08,118.50009983999985,-154.374976,25.10762497408,42.25850000064
1.1000000000000001e-08,118.50009983999985,-154.374976,25.09199997312,42.26162500032
1.15e-08,118.50009983999985,-138.74997504000004,25.07637497216,42.26162500032
1.2000000000000002e-08,134.12510079999993,-123.12497408000002,25.0607499712,42.25225000128
1.2500000000000001e-08,134.12510079999993,-123.12497408000002,25.0607499712,42.23975000256
1.3e-08,118.50009983999985,-123.12497408000002,25.07637497216,42.23037500352
1.35e-08,134.12510079999993,-107.49997311999999,25.07637497216,42.2178750048
1.4000000000000001e-08,134.12510079999993,-123.12497408000002,25.09199997312,42.20537500608
1.45e-08,134.12510079999993,-107.49997311999999,25.10762497408,42.19912500672
1.5000000000000002e-08,134.12510079999993,-91.87497216000003,25.10762497408,42.18350000832
1.55e-08,149.75010176,-91.87497216000003,25.12324997504,42.18350000832
1.6e-08,149.75010176,-76.2499712,25.138874976,42.19287500736
1.6500000000000002e-08,149.75010176,-76.2499712,25.10762497408,42.20537500608
1.7e-08,134.12510079999993,-91.87497216000003,25.10762497408,42.2178750048
1.75e-08,149.75010176,-44.999969280000016,25.09199997312,42.22725000384
1.8000000000000002e-08,149.75010176,-60.62497024000004,25.09199997312,42.2335000032
1.85e-08,165.37510271999986,-76.2499712,25.09199997312,42.23662500288
1.9e-08,134.12510079999993,-60.62497024000004,25.07637497216,42.23975000256
1.9500000000000003e-08,149.75010176,-44.999969280000016,25.0607499712,42.24600000192
2e-08,165.37510271999986,-44.999969280000016,25.0607499712,42.2491250016
2.05e-08,165.37510271999986,-44.999969280000016,25.04512497024,42.24287500224
2.1000000000000003e-08,165.37510271999986,-29.374968319999994,25.04512497024,42.23662500288
2.15e-08,181.00010367999994,-29.374968319999994,25.01387496832,42.22412500416
2.2000000000000002e-08,181.00010367999994,-44.999969280000016,24.99824996736,42.21162500544
2.2500000000000003e-08,165.37510271999986,-13.749967360000028,25.02949996928,42.20537500608
2.3e-08,165.37510271999986,-13.749967360000028,25.01387496832,42.19912500672
2.3500000000000002e-08,196.62510464000002,-13.749967360000028,25.02949996928,42.20537500608
2.4000000000000003e-08,181.00010367999994,1.875033599999938,25.01387496832,42.21162500544
2.45e-08,181.00010367999994,1.875033599999938,24.9826249664,42.21162500544
2.5000000000000002e-08,181.00010367999994,-29.374968319999994,24.99824996736,42.20850000576
2.55e-08,181.00010367999994,17.500034560000017,25.01387496832,42.20537500608
2.6e-08,181.00010367999994,-13.749967360000028,25.01387496832,42.20850000576
2.6500000000000002e-08,212.25010559999987,-13.749967360000028,25.02949996928,42.2178750048
2.7e-08,181.00010367999994,-29.374968319999994,25.02949996928,42.22412500416
2.75e-08,196.62510464000002,1.875033599999938,25.02949996928,42.23037500352
2.8000000000000003e-08,196.62510464000002,1.875033599999938,25.01387496832,42.22725000384
2.85e-08,196.62510464000002,1.875033599999938,25.02949996928,42.21162500544
2.9e-08,181.00010367999994,33.12503551999998,25.04512497024,42.20537500608
2.9500000000000003e-08,212.25010559999987,33.12503551999998,25.02949996928,42.20537500608
3.0000000000000004e-08,181.00010367999994,17.500034560000017,25.02949996928,42.19912500672
3.05e-08,181.00010367999994,33.12503551999998,25.02949996928,42.19912500672
3.1e-08,196.62510464000002,48.75003647999995,25.01387496832,42.18975000768
3.1500000000000004e-08,212.25010559999987,48.75003647999995,25.04512497024,42.186625008
3.2e-08,196.62510464000002,48.75003647999995,25.01387496832,42.19912500672
3.25e-08,196.62510464000002,64.37503744000003,24.9826249664,42.2022500064
3.3000000000000004e-08,196.62510464000002,48.75003647999995,24.95137496448,42.20850000576
3.35e-08,196.62510464000002,80.0000384,24.93574996352,42.20537500608
3.4e-08,196.62510464000002,64.37503744000003,24.92012496256,42.21162500544
3.4500000000000005e-08,212.25010559999987,48.75003647999995,24.92012496256,42.22100000448
3.5e-08,196.62510464000002,64.37503744000003,24.92012496256,42.23662500288
3.55e-08,196.62510464000002,80.0000384,24.9044999616,42.24600000192
3.6000000000000005e-08,212.25010559999987,80.0000384,24.9044999616,42.24287500224
3.65e-08,181.00010367999994,95.62503935999996,24.9044999616,42.2335000032
3.7e-08,181.00010367999994,111.25004031999993,24.92012496256,42.22725000384
3.7500000000000005e-08,196.62510464000002,111.25004031999993,24.92012496256,42.22725000384
3.8e-08,181.00010367999994,95.62503935999996,24.93574996352,42.22412500416
3.85e-08,181.00010367999994,111.25004031999993,24.93574996352,42.22100000448
3.9000000000000005e-08,165.37510271999986,142.50004223999997,24.92012496256,42.20850000576
3.95e-08,196.62510464000002,111.25004031999993,24.95137496448,42.19912500672
4e-08,181.00010367999994,126.87504128,24.95137496448,42.19912500672
4.0500000000000005e-08,181.00010367999994,142.50004223999997,24.93574996352,42.19600000704
4.1e-08,165.37510271999986,142.50004223999997,24.95137496448,42.19912500672
4.15e-08,165.37510271999986,142.50004223999997,24.96699996544,42.19912500672
4.2000000000000006e-08,165.37510271999986,142.50004223999997,24.9826249664,42.2022500064
4.2500000000000003e-08,181.00010367999994,126.87504128,24.9826249664,42.19912500672
4.3e-08,149.75010176,126.87504128,24.96699996544,42.20537500608
4.3500000000000006e-08,149.75010176,142.50004223999997,24.95137496448,42.20850000576
4.4000000000000004e-08,165.37510271999986,142.50004223999997,24.95137496448,42.2022500064
4.45e-08,149.75010176,142.50004223999997,24.93574996352,42.19912500672
4.5000000000000006e-08,134.12510079999993,142.50004223999997,24.93574996352,42.19600000704
4.5500000000000004e-08,149.75010176,158.12504319999994,24.9044999616,42.19912500672
4.6e-08,134.12510079999993,142.50004223999997,24.9044999616,42.19600000704
4.6500000000000006e-08,134.12510079999993,158.12504319999994,24.88887496064,42.20537500608
4.7000000000000004e-08,134.12510079999993,173.75004416000002,24.88887496064,42.20537500608
4.75e-08,149.75010176,158.12504319999994,24.92012496256,42.20850000576
4.8000000000000006e-08,134.12510079999993,173.75004416000002,24.93574996352,42.22100000448
4.8500000000000004e-08,134.12510079999993,173.75004416000002,24.9044999616,42.22100000448
4.9e-08,118.50009983999985,142.50004223999997,24.93574996352,42.22412500416
4.95e-08,102.87509888,189.37504511999998,24.95137496448,42.22725000384
5.0000000000000004e-08,118.50009983999985,158.12504319999994,24.96699996544,42.2335000032
5.05e-08,134.12510079999993,158.12504319999994,24.9826249664,42.23975000256
5.1e-08,102.87509888,173.75004416000002,24.9826249664,42.25225000128
5.1500000000000005e-08,87.25009791999992,189.37504511999998,24.9826249664,42.26162500032
5.2e-08,118.50009983999985,189.37504511999998,24.9826249664,42.26162500032
5.25e-08,102.87509888,189.37504511999998,24.99824996736,42.2491250016
5.3000000000000005e-08,87.25009791999992,189.37504511999998,25.02949996928,42.23662500288
5.35e-08,102.87509888,205.00004607999995,25.02949996928,42.22100000448
5.4e-08,87.25009791999992,205.00004607999995,25.01387496832,42.20537500608
5.4500000000000005e-08,71.62509695999984,205.00004607999995,25.02949996928,42.19600000704
5.5e-08,71.62509695999984,205.00004607999995,25.02949996928,42.17725000896
5.55e-08,87.25009791999992,220.62504704000003,25.04512497024,42.16475001024
5.6000000000000005e-08,71.62509695999984,220.62504704000003,25.02949996928,42.16162501056
5.65e-08,56.000095999999985,220.62504704000003,24.99824996736,42.167875009919996
5.7e-08,56.000095999999985,205.00004607999995,24.99824996736,42.17725000896
5.7500000000000005e-08,56.000095999999985,236.250048,24.99824996736,42.19287500736
5.8e-08,71.62509695999984,205.00004607999995,24.99824996736,42.20850000576
5.85e-08,71.62509695999984,189.37504511999998,24.99824996736,42.22412500416
5.9000000000000006e-08,56.000095999999985,220.62504704000003,24.9826249664,42.24600000192
5.9500000000000003e-08,24.750094080000054,205.00004607999995,24.9826249664,42.26162500032
6.000000000000001e-08,56.000095999999985,220.62504704000003,24.9826249664,42.25850000064
6.05e-08,24.750094080000054,205.00004607999995,25.01387496832,42.2491250016
6.1e-08,24.750094080000054,205.00004607999995,25.04512497024,42.23975000256
6.15e-08,40.375095039999906,220.62504704000003,25.01387496832,42.2335000032
6.2e-08,24.750094080000054,220.62504704000003,24.99824996736,42.22725000384
6.250000000000001e-08,9.125093119999974,220.62504704000003,24.99824996736,42.2335000032
6.300000000000001e-08,24.750094080000054,205.00004607999995,24.99824996736,42.23037500352
6.35e-08,24.750094080000054,220.62504704000003,25.02949996928,42.2335000032
6.4e-08,9.125093119999974,236.250048,25.02949996928,42.25225000128
6.45e-08,9.125093119999974,220.62504704000003,24.99824996736,42.26162500032
6.5e-08,-6.499907840000105,205.00004607999995,24.9826249664,42.27099999936
6.55e-08,-6.499907840000105,236.250048,24.99824996736,42.27412499904
6.600000000000001e-08,-6.499907840000105,205.00004607999995,25.01387496832,42.27412499904
6.65e-08,9.125093119999974,189.37504511999998,25.01387496832,42.26475
6.7e-08,-22.124908799999957,189.37504511999998,24.99824996736,42.26162500032
6.75e-08,-6.499907840000105,205.00004607999995,24.99824996736,42.25537500096
6.8e-08,-22.124908799999957,205.00004607999995,24.9826249664,42.23662500288
6.85e-08,-22.124908799999957,189.37504511999998,24.96699996544,42.22412500416
6.900000000000001e-08,-37.74990976000004,189.37504511999998,24.9826249664,42.2178750048
6.950000000000001e-08,-37.74990976000004,189.37504511999998,24.96699996544,42.22725000384
7e-08,-22.124908799999957,189.37504511999998,24.96699996544,42.23975000256
7.05e-08,-53.374910720000116,173.75004416000002,24.96699996544,42.25850000064
7.1e-08,-37.74990976000004,189.37504511999998,24.96699996544,42.27412499904
7.15e-08,-37.74990976000004,158.12504319999994,24.99824996736,42.2803749984
7.200000000000001e-08,-37.74990976000004,173.75004416000002,24.99824996736,42.29287499712
7.250000000000001e-08,-53.374910720000116,173.75004416000002,24.95137496448,42.28974999744
7.3e-08,-53.374910720000116,142.50004223999997,24.95137496448,42.2803749984
7.35e-08,-68.99991167999997,189.37504511999998,24.93574996352,42.26475
7.4e-08,-68.99991167999997,142.50004223999997,24.93574996352,42.2491250016
7.45e-08,-53.374910720000116,126.87504128,24.93574996352,42.2335000032
7.500000000000001e-08,-68.99991167999997,126.87504128,24.92012496256,42.22412500416
7.550000000000001e-08,-68.99991167999997,142.50004223999997,24.92012496256,42.2178750048
7.6e-08,-68.99991167999997,142.50004223999997,24.93574996352,42.20850000576
7.65e-08,-68.99991167999997,111.25004031999993,24.96699996544,42.19912500672
7.7e-08,-100.24991360000013,126.87504128,24.99824996736,42.19600000704
7.75e-08,-68.99991167999997,111.25004031999993,24.9826249664,42.19912500672
7.800000000000001e-08,-84.62491264000005,111.25004031999993,24.9826249664,42.20850000576
7.850000000000001e-08,-84.62491264000005,111.25004031999993,24.96699996544,42.21475000512
7.9e-08,-100.24991360000013,111.25004031999993,24.95137496448,42.20850000576
7.95e-08,-84.62491264000005,95.62503935999996,24.95137496448,42.20537500608
8e-08,-84.62491264000005,95.62503935999996,24.95137496448,42.20850000576
8.05e-08,-100.24991360000013,111.25004031999993,24.92012496256,42.20850000576
8.100000000000001e-08,-100.24991360000013,111.25004031999993,24.93574996352,42.21162500544
8.150000000000001e-08,-115.87491455999998,111.25004031999993,24.93574996352,42.21475000512
8.2e-08,-115.87491455999998,95.62503935999996,24.93574996352,42.22100000448
8.25e-08,-100.24991360000013,80.0000384,24.96699996544,42.22412500416
8.3e-08,-115.87491455999998,64.37503744000003,24.9826249664,42.2335000032
8.35e-08,-115.87491455999998,95.62503935999996,24.99824996736,42.23975000256
8.400000000000001e-08,-115.87491455999998,80.0000384,25.01387496832,42.2335000032
8.450000000000001e-08,-115.87491455999998,80.0000384,25.01387496832,42.22725000384
8.500000000000001e-08,-131.49991552000006,95.62503935999996,25.02949996928,42.22412500416
8.55e-08,-115.87491455999998,80.0000384,24.99824996736,42.2335000032
8.6e-08,-131.49991552000006,80.0000384,24.9826249664,42.23975000256
8.65e-08,-147.12491648000014,80.0000384,24.95137496448,42.25225000128
8.700000000000001e-08,-131.49991552000006,80.0000384,24.93574996352,42.25225000128
8.750000000000001e-08,-115.87491455999998,80.0000384,24.96699996544,42.25225000128
8.800000000000001e-08,-115.87491455999998,80.0000384,24.9826249664,42.26162500032
8.85e-08,-147.12491648000014,80.0000384,24.96699996544,42.25850000064
8.9e-08,-147.12491648000014,80.0000384,24.9826249664,42.26162500032
8.95e-08,-147.12491648000014,80.0000384,24.9826249664,42.25537500096
9.000000000000001e-08,-147.12491648000014,64.37503744000003,24.99824996736,42.25225000128
9.050000000000001e-08,-147.12491648000014,48.75003647999995,24.99824996736,42.24287500224
9.100000000000001e-08,-147.12491648000014,48.75003647999995,24.9826249664,42.23975000256
9.15e-08,-147.12491648000014,48.75003647999995,24.9826249664,42.23037500352
9.2e-08,-147.12491648000014,33.12503551999998,24.9826249664,42.22100000448
9.25e-08,-162.74991744,33.12503551999998,24.9826249664,42.20537500608
9.300000000000001e-08,-162.74991744,33.12503551999998,25.01387496832,42.19600000704
9.350000000000001e-08,-147.12491648000014,33.12503551999998,24.99824996736,42.19287500736
9.400000000000001e-08,-162.74991744,17.500034560000017,25.01387496832,42.186625008
9.45e-08,-178.37491840000007,1.875033599999938,25.04512497024,42.19287500736
9.5e-08,-162.74991744,17.500034560000017,25.0607499712,42.18975000768
9.55e-08,-162.74991744,1.875033599999938,25.09199997312,42.18350000832
9.600000000000001e-08,-162.74991744,17.500034560000017,25.12324997504,42.19287500736
9.650000000000001e-08,-162.74991744,1.875033599999938,25.10762497408,42.19912500672
9.700000000000001e-08,-178.37491840000007,-13.749967360000028,25.10762497408,42.20850000576
9.75e-08,-178.37491840000007,1.875033599999938,25.10762497408,42.21475000512
9.8e-08,-193.99991936000015,-13.749967360000028,25.10762497408,42.22725000384
9.85e-08,-178.37491840000007,-29.374968319999994,25.138874976,42.23662500288
9.9e-08,-178.37491840000007,-44.999969280000016,25.138874976,42.2491250016
9.950000000000001e-08,-193.99991936000015,-29.374968319999994,25.12324997504,42.25537500096
1.0000000000000001e-07,-178.37491840000007,-29.374968319999994,25.12324997504,42.25225000128
1.005e-07,-193.99991936000015,-29.374968319999994,25.12324997504,42.24287500224
1.01e-07,-209.62492032,-29.374968319999994,25.138874976,42.2335000032
1.015e-07,-209.62492032,-29.374968319999994,25.12324997504,42.22412500416
1.02e-07,-209.62492032,-60.62497024000004,25.10762497408,42.21162500544
1.0250000000000001e-07,-225.24992128000008,-60.62497024000004,25.07637497216,42.20537500608
1.0300000000000001e-07,-225.24992128000008,-29.374968319999994,25.04512497024,42.19912500672
1.0350000000000001e-07,-193.99991936000015,-29.374968319999994,25.07637497216,42.19912500672
1.04e-07,-209.62492032,-44.999969280000016,25.09199997312,42.20850000576
1.045e-07,-209.62492032,-44.999969280000016,25.09199997312,42.2178750048
1.05e-07,-209.62492032,-76.2499712,25.10762497408,42.22725000384
1.0550000000000001e-07,-225.24992128000008,-44.999969280000016,25.10762497408,42.23037500352
1.0600000000000001e-07,-209.62492032,-76.2499712,25.10762497408,42.2335000032
1.0650000000000001e-07,-193.99991936000015,-91.87497216000003,25.09199997312,42.22412500416
1.07e-07,-225.24992128000008,-107.49997311999999,25.10762497408,42.22100000448
1.075e-07,-225.24992128000008,-91.87497216000003,25.10762497408,42.2178750048
1.08e-07,-225.24992128000008,-91.87497216000003,25.10762497408,42.21475000512
1.0850000000000001e-07,-225.24992128000008,-91.87497216000003,25.09199997312,42.20537500608
1.0900000000000001e-07,-225.24992128000008,-91.87497216000003,25.09199997312,42.19912500672
1.0950000000000001e-07,-209.62492032,-91.87497216000003,25.0607499712,42.19287500736
1.1e-07,-209.62492032,-107.49997311999999,25.07637497216,42.18350000832
1.105e-07,-225.24992128000008,-107.49997311999999,25.07637497216,42.18037500864
1.11e-07,-209.62492032,-107.49997311999999,25.0607499712,42.17725000896
1.1150000000000001e-07,-209.62492032,-123.12497408000002,25.07637497216,42.18350000832
1.1200000000000001e-07,-209.62492032,-123.12497408000002,25.07637497216,42.19600000704
1.1250000000000001e-07,-209.62492032,-123.12497408000002,25.0607499712,42.20537500608
1.13e-07,-209.62492032,-138.74997504000004,25.07637497216,42.21475000512
1.135e-07,-209.62492032,-123.12497408000002,25.09199997312,42.21475000512
1.14e-07,-209.62492032,-154.374976,25.09199997312,42.22412500416
1.1450000000000001e-07,-193.99991936000015,-154.374976,25.07637497216,42.22412500416
1.1500000000000001e-07,-193.99991936000015,-185.62497792,25.09199997312,42.2335000032
1.1550000000000001e-07,-193.99991936000015,-154.374976,25.07637497216,42.23662500288
1.16e-07,-193.99991936000015,-169.99997696000003,25.09199997312,42.2335000032
1.165e-07,-193.99991936000015,-169.99997696000003,25.09199997312,42.23037500352
1.17e-07,-209.62492032,-169.99997696000003,25.12324997504,42.22412500416
1.1750000000000001e-07,-193.99991936000015,-169.99997696000003,25.09199997312,42.22100000448
1.1800000000000001e-07,-193.99991936000015,-169.99997696000003,25.09199997312,42.22100000448
1.1850000000000001e-07,-193.99991936000015,-185.62497792,25.10762497408,42.22100000448
1.1900000000000001e-07,-193.99991936000015,-185.62497792,25.09199997312,42.20850000576
1.195e-07,-162.74991744,-201.24997888000001,25.10762497408,42.20537500608
1.2000000000000002e-07,-178.37491840000007,-185.62497792,25.10762497408,42.19912500672
1.205e-07,-178.37491840000007,-185.62497792,25.09199997312,42.19600000704
1.21e-07,-162.74991744,-201.24997888000001,25.09199997312,42.19600000704
1.215e-07,-178.37491840000007,-185.62497792,25.07637497216,42.19912500672
1.22e-07,-178.37491840000007,-216.87497984000004,25.07637497216,42.2022500064
1.2250000000000002e-07,-162.74991744,-216.87497984000004,25.07637497216,42.19912500672
1.23e-07,-162.74991744,-232.4999808,25.0607499712,42.2022500064
1.2350000000000001e-07,-147.12491648000014,-216.87497984000004,25.0607499712,42.20537500608
1.24e-07,-147.12491648000014,-216.87497984000004,25.0607499712,42.22100000448
