Time (s),V_PRI,V_SEC,V_IN,V_OUT
0.0,-36.24990976000004,-216.87497984000004,25.0849999808,42.32312500544
5e-10,-36.24990976000004,-248.12498176000003,25.0849999808,42.32625000512
1e-09,10.625093119999974,-263.74998272,25.06937497984,42.32312500544
1.5000000000000002e-09,-20.624908799999957,-263.74998272,25.06937497984,42.3293750048
2e-09,-20.624908799999957,-263.74998272,25.06937497984,42.332500004479996
2.5e-09,-4.999907840000105,-248.12498176000003,25.06937497984,42.33875000384
3.0000000000000004e-09,-20.624908799999957,-263.74998272,25.06937497984,42.33875000384
3.5000000000000003e-09,-36.24990976000004,-248.12498176000003,25.0849999808,42.33562500416
4e-09,10.625093119999974,-263.74998272,25.05374997888,42.332500004479996
4.500000000000001e-09,-4.999907840000105,-263.74998272,25.038124977920003,42.3293750048
5e-09,-20.624908799999957,-279.37498368,25.05374997888,42.3293750048
5.5000000000000004e-09,10.625093119999974,-263.74998272,25.038124977920003,42.32000000576
6.000000000000001e-09,10.625093119999974,-263.74998272,25.05374997888,42.30750000704
6.5e-09,10.625093119999974,-232.4999808,25.022499976960002,42.30437500736
7.000000000000001e-09,26.250094080000054,-263.74998272,24.991249975040002,42.29500000832
7.500000000000001e-09,10.625093119999974,-263.74998272,24.991249975040002,42.30125000768
8e-09,26.250094080000054,-248.12498176000003,24.991249975040002,42.30437500736
8.5e-09,26.250094080000054,-248.12498176000003,24.991249975040002,42.31062500672
9.000000000000001e-09,41.875095039999906,-279.37498368,24.959999973120002,42.31687500608
9.5e-09,26.250094080000054,-263.74998272,24.959999973120002,42.3293750048
1e-08,41.875095039999906,-263.74998272,24.975624974080002,42.3450000032
1.0500000000000001e-08,41.875095039999906,-248.12498176000003,24.959999973120002,42.3606250016
1.1000000000000001e-08,41.875095039999906,-248.12498176000003,24.959999973120002,42.37312500032
1.15e-08,41.875095039999906,-248.12498176000003,24.975624974080002,42.379374999679996
1.2000000000000002e-08,57.500095999999985,-232.4999808,24.959999973120002,42.38249999936
1.2500000000000001e-08,57.500095999999985,-248.12498176000003,24.944374972160002,42.379374999679996
1.3e-08,57.500095999999985,-232.4999808,24.975624974080002,42.379374999679996
1.35e-08,57.500095999999985,-232.4999808,24.959999973120002,42.37312500032
1.4000000000000001e-08,73.12509695999984,-216.87497984000004,25.006874976000002,42.36687500096
1.45e-08,73.12509695999984,-232.4999808,25.006874976000002,42.37000000064
1.5000000000000002e-08,57.500095999999985,-216.87497984000004,24.991249975040002,42.37000000064
1.55e-08,73.12509695999984,-232.4999808,25.006874976000002,42.37312500032
1.6e-08,73.12509695999984,-201.24997888000001,25.006874976000002,42.38249999936
1.6500000000000002e-08,73.12509695999984,-216.87497984000004,25.022499976960002,42.3918749984
1.7e-08,104.37509888,-216.87497984000004,25.022499976960002,42.38249999936
1.75e-08,73.12509695999984,-232.4999808,25.022499976960002,42.379374999679996
1.8000000000000002e-08,88.75009791999992,-216.87497984000004,25.022499976960002,42.37625
1.85e-08,88.75009791999992,-201.24997888000001,25.038124977920003,42.36687500096
1.9e-08,88.75009791999992,-185.62497792,25.05374997888,42.3606250016
1.9500000000000003e-08,88.75009791999992,-185.62497792,25.06937497984,42.35437500224
2e-08,88.75009791999992,-185.62497792,25.05374997888,42.35125000256
2.05e-08,88.75009791999992,-169.99997696000003,25.038124977920003,42.34187500352
2.1000000000000003e-08,88.75009791999992,-185.62497792,25.05374997888,42.33562500416
2.15e-08,104.37509888,-169.99997696000003,25.038124977920003,42.332500004479996
2.2000000000000002e-08,120.00009983999985,-154.374976,25.0849999808,42.32312500544
2.2500000000000003e-08,104.37509888,-154.374976,25.06937497984,42.32000000576
2.3e-08,104.37509888,-138.74997504000004,25.022499976960002,42.31687500608
2.3500000000000002e-08,88.75009791999992,-154.374976,25.038124977920003,42.31687500608
2.4000000000000003e-08,104.37509888,-123.12497408000002,25.022499976960002,42.32000000576
2.45e-08,104.37509888,-154.374976,25.038124977920003,42.32625000512
2.5000000000000002e-08,135.62510079999993,-154.374976,25.038124977920003,42.32000000576
2.55e-08,120.00009983999985,-169.99997696000003,25.038124977920003,42.3137500064
2.6e-08,120.00009983999985,-138.74997504000004,25.038124977920003,42.30437500736
2.6500000000000002e-08,135.62510079999993,-123.12497408000002,25.06937497984,42.29187500864
2.7e-08,120.00009983999985,-138.74997504000004,25.0849999808,42.28562500928
2.75e-08,120.00009983999985,-138.74997504000004,25.10062498176,42.2825000096
2.8000000000000003e-08,151.25010176,-123.12497408000002,25.0849999808,42.279375009919995
2.85e-08,135.62510079999993,-123.12497408000002,25.06937497984,42.27312501056
2.9e-08,135.62510079999993,-123.12497408000002,25.06937497984,42.279375009919995
2.9500000000000003e-08,151.25010176,-123.12497408000002,25.05374997888,42.28875000896
3.0000000000000004e-08,151.25010176,-107.49997311999999,25.10062498176,42.298125008
3.05e-08,151.25010176,-123.12497408000002,25.06937497984,42.32000000576
3.1e-08,151.25010176,-107.49997311999999,25.022499976960002,42.332500004479996
3.1500000000000004e-08,135.62510079999993,-123.12497408000002,25.006874976000002,42.348125002879996
3.2e-08,151.25010176,-107.49997311999999,24.991249975040002,42.36687500096
3.25e-08,151.25010176,-107.49997311999999,25.006874976000002,42.38249999936
3.3000000000000004e-08,182.50010367999994,-123.12497408000002,25.006874976000002,42.38249999936
3.35e-08,151.25010176,-123.12497408000002,25.006874976000002,42.38249999936
3.4e-08,182.50010367999994,-91.87497216000003,25.006874976000002,42.379374999679996
3.4500000000000005e-08,182.50010367999994,-91.87497216000003,24.991249975040002,42.37000000064
3.5e-08,166.87510271999986,-91.87497216000003,24.991249975040002,42.3606250016
3.55e-08,166.87510271999986,-91.87497216000003,25.006874976000002,42.35437500224
3.6000000000000005e-08,182.50010367999994,-76.2499712,24.991249975040002,42.35125000256
3.65e-08,166.87510271999986,-91.87497216000003,24.991249975040002,42.34187500352
3.7e-08,166.87510271999986,-76.2499712,24.991249975040002,42.33562500416
3.7500000000000005e-08,182.50010367999994,-60.62497024000004,24.975624974080002,42.32312500544
3.8e-08,198.12510464000002,-60.62497024000004,24.991249975040002,42.31687500608
3.85e-08,198.12510464000002,-44.999969280000016,25.006874976000002,42.3137500064
3.9000000000000005e-08,213.75010559999987,-44.999969280000016,25.006874976000002,42.31062500672
3.95e-08,198.12510464000002,-60.62497024000004,25.006874976000002,42.30750000704
4e-08,198.12510464000002,-13.749967360000028,25.006874976000002,42.30750000704
4.0500000000000005e-08,182.50010367999994,-44.999969280000016,25.022499976960002,42.3137500064
4.1e-08,213.75010559999987,-44.999969280000016,25.038124977920003,42.31687500608
4.15e-08,198.12510464000002,-60.62497024000004,25.05374997888,42.32625000512
4.2000000000000006e-08,213.75010559999987,-29.374968319999994,25.038124977920003,42.32625000512
4.2500000000000003e-08,213.75010559999987,-13.749967360000028,25.022499976960002,42.32625000512
4.3e-08,198.12510464000002,-29.374968319999994,24.991249975040002,42.32000000576
4.3500000000000006e-08,182.50010367999994,1.875033599999938,24.991249975040002,42.31687500608
4.4000000000000004e-08,213.75010559999987,-13.749967360000028,24.928749971200002,42.31062500672
4.45e-08,198.12510464000002,1.875033599999938,24.913124970240002,42.29500000832
4.5000000000000006e-08,182.50010367999994,1.875033599999938,24.913124970240002,42.28875000896
4.5500000000000004e-08,198.12510464000002,1.875033599999938,24.897499969280002,42.279375009919995
4.6e-08,213.75010559999987,1.875033599999938,24.928749971200002,42.279375009919995
4.6500000000000006e-08,198.12510464000002,1.875033599999938,24.928749971200002,42.29187500864
4.7000000000000004e-08,213.75010559999987,33.12503551999998,24.897499969280002,42.29500000832
4.75e-08,198.12510464000002,1.875033599999938,24.928749971200002,42.29500000832
4.8000000000000006e-08,182.50010367999994,33.12503551999998,24.944374972160002,42.30125000768
4.8500000000000004e-08,182.50010367999994,17.500034560000017,24.959999973120002,42.3137500064
4.9e-08,213.75010559999987,1.875033599999938,24.959999973120002,42.3293750048
4.95e-08,198.12510464000002,17.500034560000017,24.944374972160002,42.3450000032
5.0000000000000004e-08,213.75010559999987,33.12503551999998,24.928749971200002,42.35125000256
5.05e-08,198.12510464000002,33.12503551999998,24.913124970240002,42.3450000032
5.1e-08,182.50010367999994,48.75003647999995,24.897499969280002,42.3450000032
5.1500000000000005e-08,182.50010367999994,48.75003647999995,24.913124970240002,42.35125000256
5.2e-08,198.12510464000002,48.75003647999995,24.897499969280002,42.3606250016
5.25e-08,182.50010367999994,33.12503551999998,24.881874968320002,42.3606250016
5.3000000000000005e-08,166.87510271999986,48.75003647999995,24.913124970240002,42.35437500224
5.35e-08,166.87510271999986,64.37503744000003,24.897499969280002,42.34187500352
5.4e-08,182.50010367999994,80.0000384,24.944374972160002,42.332500004479996
5.4500000000000005e-08,182.50010367999994,80.0000384,24.928749971200002,42.332500004479996
5.5e-08,182.50010367999994,80.0000384,24.897499969280002,42.32625000512
5.55e-08,151.25010176,80.0000384,24.881874968320002,42.3137500064
5.6000000000000005e-08,166.87510271999986,95.62503935999996,24.86624996736,42.30750000704
5.65e-08,151.25010176,111.25004031999993,24.86624996736,42.30750000704
5.7e-08,166.87510271999986,80.0000384,24.8506249664,42.31062500672
5.7500000000000005e-08,135.62510079999993,80.0000384,24.83499996544,42.31687500608
5.8e-08,151.25010176,95.62503935999996,24.8506249664,42.32312500544
5.85e-08,135.62510079999993,95.62503935999996,24.8506249664,42.32000000576
5.9000000000000006e-08,135.62510079999993,111.25004031999993,24.881874968320002,42.32000000576
5.9500000000000003e-08,120.00009983999985,111.25004031999993,24.913124970240002,42.32000000576
6.000000000000001e-08,135.62510079999993,126.87504128,24.913124970240002,42.32625000512
6.05e-08,120.00009983999985,111.25004031999993,24.928749971200002,42.32312500544
6.1e-08,120.00009983999985,126.87504128,24.944374972160002,42.32625000512
6.15e-08,120.00009983999985,142.50004223999997,24.944374972160002,42.3137500064
6.2e-08,120.00009983999985,142.50004223999997,24.959999973120002,42.30750000704
6.250000000000001e-08,120.00009983999985,142.50004223999997,24.944374972160002,42.30750000704
6.300000000000001e-08,120.00009983999985,142.50004223999997,24.881874968320002,42.298125008
6.35e-08,88.75009791999992,142.50004223999997,24.86624996736,42.29187500864
6.4e-08,88.75009791999992,173.75004416000002,24.881874968320002,42.27625001024
6.45e-08,104.37509888,142.50004223999997,24.897499969280002,42.27312501056
6.5e-08,120.00009983999985,126.87504128,24.913124970240002,42.2668750112
6.55e-08,88.75009791999992,142.50004223999997,24.928749971200002,42.279375009919995
6.600000000000001e-08,88.75009791999992,142.50004223999997,24.959999973120002,42.28562500928
6.65e-08,104.37509888,158.12504319999994,24.959999973120002,42.29500000832
6.7e-08,88.75009791999992,158.12504319999994,24.959999973120002,42.298125008
6.75e-08,57.500095999999985,142.50004223999997,24.959999973120002,42.30437500736
6.8e-08,73.12509695999984,173.75004416000002,24.913124970240002,42.3137500064
6.85e-08,73.12509695999984,173.75004416000002,24.881874968320002,42.31687500608
6.900000000000001e-08,41.875095039999906,158.12504319999994,24.86624996736,42.32000000576
6.950000000000001e-08,57.500095999999985,189.37504511999998,24.8506249664,42.31687500608
7e-08,57.500095999999985,173.75004416000002,24.881874968320002,42.31687500608
7.05e-08,57.500095999999985,189.37504511999998,24.881874968320002,42.32312500544
7.1e-08,41.875095039999906,189.37504511999998,24.897499969280002,42.32312500544
7.15e-08,41.875095039999906,173.75004416000002,24.959999973120002,42.32625000512
7.200000000000001e-08,26.250094080000054,205.00004607999995,24.991249975040002,42.3293750048
7.250000000000001e-08,26.250094080000054,173.75004416000002,25.038124977920003,42.33875000384
7.3e-08,41.875095039999906,158.12504319999994,25.038124977920003,42.34187500352
7.35e-08,26.250094080000054,158.12504319999994,25.022499976960002,42.348125002879996
7.4e-08,41.875095039999906,189.37504511999998,24.991249975040002,42.35437500224
7.45e-08,26.250094080000054,205.00004607999995,24.959999973120002,42.35437500224
7.500000000000001e-08,10.625093119999974,189.37504511999998,24.913124970240002,42.35437500224
7.550000000000001e-08,-4.999907840000105,189.37504511999998,24.897499969280002,42.35125000256
7.6e-08,10.625093119999974,205.00004607999995,24.8506249664,42.34187500352
7.65e-08,10.625093119999974,205.00004607999995,24.8506249664,42.33562500416
7.7e-08,-4.999907840000105,205.00004607999995,24.881874968320002,42.33562500416
7.75e-08,-4.999907840000105,220.62504704000003,24.913124970240002,42.32625000512
7.800000000000001e-08,10.625093119999974,220.62504704000003,24.975624974080002,42.31687500608
7.850000000000001e-08,-4.999907840000105,220.62504704000003,24.991249975040002,42.31062500672
7.9e-08,-4.999907840000105,220.62504704000003,24.991249975040002,42.30125000768
7.95e-08,-20.624908799999957,189.37504511999998,24.975624974080002,42.29187500864
8e-08,-20.624908799999957,220.62504704000003,24.944374972160002,42.29187500864
8.05e-08,-20.624908799999957,205.00004607999995,24.897499969280002,42.298125008
8.100000000000001e-08,-4.999907840000105,205.00004607999995,24.8506249664,42.30125000768
8.150000000000001e-08,-36.24990976000004,189.37504511999998,24.81937496448,42.31687500608
8.2e-08,-20.624908799999957,205.00004607999995,24.78812496256,42.332500004479996
8.25e-08,-20.624908799999957,205.00004607999995,24.78812496256,42.34187500352
8.3e-08,-36.24990976000004,189.37504511999998,24.80374996352,42.3450000032
8.35e-08,-51.874910720000116,189.37504511999998,24.86624996736,42.3450000032
8.400000000000001e-08,-36.24990976000004,205.00004607999995,24.881874968320002,42.34187500352
8.450000000000001e-08,-51.874910720000116,205.00004607999995,24.928749971200002,42.33562500416
8.500000000000001e-08,-67.49991167999997,189.37504511999998,24.959999973120002,42.34187500352
8.55e-08,-67.49991167999997,205.00004607999995,24.944374972160002,42.33562500416
8.6e-08,-36.24990976000004,189.37504511999998,24.959999973120002,42.332500004479996
8.65e-08,-67.49991167999997,189.37504511999998,24.944374972160002,42.34187500352
8.700000000000001e-08,-83.12491264000005,205.00004607999995,24.86624996736,42.34187500352
8.750000000000001e-08,-83.12491264000005,158.12504319999994,24.83499996544,42.35125000256
8.800000000000001e-08,-83.12491264000005,189.37504511999998,24.81937496448,42.363750001279996
8.85e-08,-83.12491264000005,173.75004416000002,24.83499996544,42.38562499904
8.9e-08,-51.874910720000116,173.75004416000002,24.8506249664,42.3918749984
8.95e-08,-98.74991360000013,158.12504319999994,24.86624996736,42.40437499712
9.000000000000001e-08,-83.12491264000005,158.12504319999994,24.897499969280002,42.410624996479996
9.050000000000001e-08,-83.12491264000005,158.12504319999994,24.913124970240002,42.40437499712
9.100000000000001e-08,-98.74991360000013,158.12504319999994,24.928749971200002,42.3918749984
9.15e-08,-98.74991360000013,158.12504319999994,24.959999973120002,42.379374999679996
9.2e-08,-98.74991360000013,142.50004223999997,24.928749971200002,42.36687500096
9.25e-08,-98.74991360000013,142.50004223999997,24.897499969280002,42.35125000256
9.300000000000001e-08,-114.37491455999998,142.50004223999997,24.881874968320002,42.33875000384
9.350000000000001e-08,-98.74991360000013,142.50004223999997,24.81937496448,42.32625000512
9.400000000000001e-08,-98.74991360000013,126.87504128,24.83499996544,42.32000000576
9.45e-08,-114.37491455999998,126.87504128,24.83499996544,42.32625000512
9.5e-08,-114.37491455999998,142.50004223999997,24.83499996544,42.32625000512
9.55e-08,-114.37491455999998,111.25004031999993,24.8506249664,42.32000000576
9.600000000000001e-08,-114.37491455999998,142.50004223999997,24.881874968320002,42.32000000576
9.650000000000001e-08,-114.37491455999998,111.25004031999993,24.928749971200002,42.31687500608
9.700000000000001e-08,-98.74991360000013,95.62503935999996,24.928749971200002,42.31687500608
9.75e-08,-129.99991552000006,80.0000384,24.959999973120002,42.32312500544
9.8e-08,-114.37491455999998,95.62503935999996,24.959999973120002,42.32312500544
9.85e-08,-114.37491455999998,95.62503935999996,24.959999973120002,42.32000000576
9.9e-08,-145.62491648000014,95.62503935999996,24.928749971200002,42.31687500608
9.950000000000001e-08,-145.62491648000014,95.62503935999996,24.928749971200002,42.3137500064
1.0000000000000001e-07,-145.62491648000014,80.0000384,24.913124970240002,42.31062500672
1.005e-07,-145.62491648000014,80.0000384,24.928749971200002,42.30125000768
1.01e-07,-161.24991744,80.0000384,24.975624974080002,42.298125008
1.015e-07,-145.62491648000014,80.0000384,24.991249975040002,42.28562500928
1.02e-07,-145.62491648000014,80.0000384,25.05374997888,42.27625001024
1.0250000000000001e-07,-161.24991744,80.0000384,25.06937497984,42.2825000096
1.0300000000000001e-07,-161.24991744,95.62503935999996,25.022499976960002,42.2825000096
1.0350000000000001e-07,-161.24991744,80.0000384,25.006874976000002,42.28562500928
1.04e-07,-176.87491840000007,95.62503935999996,24.991249975040002,42.29500000832
1.045e-07,-161.24991744,64.37503744000003,24.975624974080002,42.3137500064
1.05e-07,-161.24991744,48.75003647999995,24.959999973120002,42.32625000512
1.0550000000000001e-07,-176.87491840000007,64.37503744000003,24.959999973120002,42.3450000032
1.0600000000000001e-07,-176.87491840000007,64.37503744000003,24.944374972160002,42.36687500096
1.0650000000000001e-07,-176.87491840000007,48.75003647999995,24.959999973120002,42.379374999679996
1.07e-07,-176.87491840000007,48.75003647999995,24.959999973120002,42.38249999936
1.075e-07,-208.12492032,48.75003647999995,25.022499976960002,42.38874999872
1.08e-07,-192.49991936000015,48.75003647999995,25.006874976000002,42.38562499904
1.0850000000000001e-07,-192.49991936000015,48.75003647999995,25.006874976000002,42.37312500032
1.0900000000000001e-07,-208.12492032,33.12503551999998,24.991249975040002,42.37312500032
1.0950000000000001e-07,-192.49991936000015,48.75003647999995,24.944374972160002,42.35437500224
1.1e-07,-192.49991936000015,33.12503551999998,24.959999973120002,42.3450000032
1.105e-07,-208.12492032,33.12503551999998,24.959999973120002,42.33562500416
1.11e-07,-192.49991936000015,33.12503551999998,24.959999973120002,42.32312500544
1.1150000000000001e-07,-208.12492032,17.500034560000017,24.975624974080002,42.31062500672
1.1200000000000001e-07,-208.12492032,33.12503551999998,24.975624974080002,42.30125000768
1.1250000000000001e-07,-208.12492032,17.500034560000017,24.991249975040002,42.30437500736
1.13e-07,-192.49991936000015,1.875033599999938,25.022499976960002,42.30437500736
1.135e-07,-223.74992128000008,-13.749967360000028,25.05374997888,42.3137500064
1.14e-07,-223.74992128000008,-13.749967360000028,25.06937497984,42.31687500608
1.1450000000000001e-07,-208.12492032,1.875033599999938,25.10062498176,42.31687500608
1.1500000000000001e-07,-223.74992128000008,-13.749967360000028,25.0849999808,42.31687500608
1.1550000000000001e-07,-239.37492223999993,1.875033599999938,25.06937497984,42.32625000512
1.16e-07,-223.74992128000008,-13.749967360000028,25.022499976960002,42.332500004479996
1.165e-07,-223.74992128000008,-29.374968319999994,24.975624974080002,42.332500004479996
1.17e-07,-239.37492223999993,-29.374968319999994,24.975624974080002,42.3293750048
1.1750000000000001e-07,-223.74992128000008,-29.374968319999994,24.944374972160002,42.32000000576
1.1800000000000001e-07,-208.12492032,-44.999969280000016,24.944374972160002,42.32000000576
1.1850000000000001e-07,-223.74992128000008,-29.374968319999994,24.944374972160002,42.32000000576
