Time (s),V_PRI,V_SEC,V_IN,V_OUT
0.0,-36.24990976000004,-232.4999808,25.08212497984,43.209375002879995
5e-10,-20.624908799999957,-248.12498176000003,25.066499978880003,43.209375002879995
1e-09,-20.624908799999957,-248.12498176000003,25.050874977920003,43.209375002879995
1.5000000000000002e-09,-20.624908799999957,-216.87497984000004,25.050874977920003,43.21250000256
2e-09,-20.624908799999957,-248.12498176000003,25.066499978880003,43.21875000192
2.5e-09,10.625093119999974,-263.74998272,25.066499978880003,43.21875000192
3.0000000000000004e-09,-20.624908799999957,-279.37498368,25.066499978880003,43.225000001279994
3.5000000000000003e-09,-20.624908799999957,-263.74998272,25.050874977920003,43.225000001279994
4e-09,-4.999907840000105,-279.37498368,25.035249976960003,43.215625002239996
4.500000000000001e-09,-4.999907840000105,-263.74998272,25.035249976960003,43.209375002879995
5e-09,-20.624908799999957,-279.37498368,25.050874977920003,43.20312500352
5.5000000000000004e-09,10.625093119999974,-263.74998272,25.035249976960003,43.19687500416
6.000000000000001e-09,-4.999907840000105,-263.74998272,25.019624976000003,43.18125000576
6.5e-09,-4.999907840000105,-263.74998272,25.003999975040003,43.178125006079995
7.000000000000001e-09,26.250094080000054,-263.74998272,24.988374974080003,43.17187500672
7.500000000000001e-09,26.250094080000054,-263.74998272,24.988374974080003,43.1750000064
8e-09,26.250094080000054,-263.74998272,24.988374974080003,43.18750000512
8.5e-09,26.250094080000054,-263.74998272,24.957124972160003,43.1906250048
9.000000000000001e-09,10.625093119999974,-263.74998272,24.972749973120003,43.200000003839996
9.5e-09,41.875095039999906,-232.4999808,24.957124972160003,43.215625002239996
1e-08,41.875095039999906,-248.12498176000003,24.957124972160003,43.23437500032
1.0500000000000001e-08,41.875095039999906,-263.74998272,24.957124972160003,43.240624999679994
1.1000000000000001e-08,26.250094080000054,-263.74998272,24.957124972160003,43.25937499776
1.15e-08,41.875095039999906,-263.74998272,24.941499971200003,43.2687499968
1.2000000000000002e-08,57.500095999999985,-248.12498176000003,24.941499971200003,43.26562499712
1.2500000000000001e-08,57.500095999999985,-248.12498176000003,24.941499971200003,43.25937499776
1.3e-08,41.875095039999906,-232.4999808,24.972749973120003,43.256249998079994
1.35e-08,73.12509695999984,-232.4999808,24.972749973120003,43.246874999039996
1.4000000000000001e-08,57.500095999999985,-232.4999808,24.972749973120003,43.2375
1.45e-08,41.875095039999906,-232.4999808,24.972749973120003,43.24374999936
1.5000000000000002e-08,73.12509695999984,-216.87497984000004,24.957124972160003,43.24374999936
1.55e-08,88.75009791999992,-216.87497984000004,25.003999975040003,43.2531249984
1.6e-08,88.75009791999992,-216.87497984000004,25.035249976960003,43.271874996479994
1.6500000000000002e-08,73.12509695999984,-201.24997888000001,25.003999975040003,43.278124995839995
1.7e-08,73.12509695999984,-232.4999808,25.019624976000003,43.27499999616
1.75e-08,88.75009791999992,-185.62497792,25.003999975040003,43.26562499712
1.8000000000000002e-08,88.75009791999992,-201.24997888000001,25.019624976000003,43.25937499776
1.85e-08,104.37509888,-216.87497984000004,25.019624976000003,43.24374999936
1.9e-08,73.12509695999984,-201.24997888000001,25.035249976960003,43.240624999679994
1.9500000000000003e-08,88.75009791999992,-185.62497792,25.050874977920003,43.24374999936
2e-08,104.37509888,-185.62497792,25.035249976960003,43.23437500032
2.05e-08,104.37509888,-169.99997696000003,25.050874977920003,43.225000001279994
2.1000000000000003e-08,88.75009791999992,-185.62497792,25.066499978880003,43.215625002239996
2.15e-08,104.37509888,-169.99997696000003,25.066499978880003,43.209375002879995
2.2000000000000002e-08,88.75009791999992,-154.374976,25.050874977920003,43.20312500352
2.2500000000000003e-08,104.37509888,-169.99997696000003,25.050874977920003,43.20312500352
2.3e-08,120.00009983999985,-154.374976,25.035249976960003,43.200000003839996
2.3500000000000002e-08,120.00009983999985,-154.374976,25.066499978880003,43.20312500352
2.4000000000000003e-08,104.37509888,-138.74997504000004,25.066499978880003,43.209375002879995
2.45e-08,120.00009983999985,-138.74997504000004,25.050874977920003,43.209375002879995
2.5000000000000002e-08,104.37509888,-154.374976,25.050874977920003,43.209375002879995
2.55e-08,120.00009983999985,-123.12497408000002,25.050874977920003,43.19687500416
2.6e-08,135.62510079999993,-138.74997504000004,25.066499978880003,43.184375005439996
2.6500000000000002e-08,151.25010176,-154.374976,25.08212497984,43.1750000064
2.7e-08,120.00009983999985,-154.374976,25.0977499808,43.17187500672
2.75e-08,120.00009983999985,-138.74997504000004,25.11337498176,43.168750007039996
2.8000000000000003e-08,135.62510079999993,-138.74997504000004,25.11337498176,43.159375008
2.85e-08,135.62510079999993,-123.12497408000002,25.0977499808,43.15312500864
2.9e-08,135.62510079999993,-138.74997504000004,25.11337498176,43.15312500864
2.9500000000000003e-08,151.25010176,-123.12497408000002,25.0977499808,43.162500007679995
3.0000000000000004e-08,151.25010176,-138.74997504000004,25.08212497984,43.17187500672
3.05e-08,151.25010176,-123.12497408000002,25.066499978880003,43.19687500416
3.1e-08,151.25010176,-107.49997311999999,25.050874977920003,43.215625002239996
3.1500000000000004e-08,166.87510271999986,-107.49997311999999,25.050874977920003,43.231250000639996
3.2e-08,151.25010176,-107.49997311999999,25.035249976960003,43.24999999872
3.25e-08,166.87510271999986,-107.49997311999999,25.019624976000003,43.26562499712
3.3000000000000004e-08,151.25010176,-107.49997311999999,25.035249976960003,43.26562499712
3.35e-08,166.87510271999986,-91.87497216000003,25.035249976960003,43.26562499712
3.4e-08,166.87510271999986,-107.49997311999999,25.035249976960003,43.25937499776
3.4500000000000005e-08,198.12510464000002,-107.49997311999999,25.019624976000003,43.246874999039996
3.5e-08,166.87510271999986,-107.49997311999999,25.019624976000003,43.24374999936
3.55e-08,182.50010367999994,-76.2499712,25.019624976000003,43.24374999936
3.6000000000000005e-08,182.50010367999994,-76.2499712,25.003999975040003,43.23437500032
3.65e-08,182.50010367999994,-76.2499712,25.003999975040003,43.225000001279994
3.7e-08,182.50010367999994,-76.2499712,25.019624976000003,43.21250000256
3.7500000000000005e-08,198.12510464000002,-60.62497024000004,24.988374974080003,43.20312500352
3.8e-08,198.12510464000002,-76.2499712,24.988374974080003,43.1906250048
3.85e-08,198.12510464000002,-60.62497024000004,25.019624976000003,43.1906250048
3.9000000000000005e-08,198.12510464000002,-60.62497024000004,25.019624976000003,43.18125000576
3.95e-08,213.75010559999987,-60.62497024000004,25.035249976960003,43.18125000576
4e-08,198.12510464000002,-29.374968319999994,25.035249976960003,43.1906250048
4.0500000000000005e-08,198.12510464000002,-29.374968319999994,25.019624976000003,43.19687500416
4.1e-08,198.12510464000002,-29.374968319999994,25.035249976960003,43.20312500352
4.15e-08,198.12510464000002,-13.749967360000028,25.050874977920003,43.209375002879995
4.2000000000000006e-08,213.75010559999987,-13.749967360000028,25.050874977920003,43.21250000256
4.2500000000000003e-08,213.75010559999987,-29.374968319999994,25.019624976000003,43.2062500032
4.3e-08,198.12510464000002,-29.374968319999994,24.972749973120003,43.2062500032
4.3500000000000006e-08,198.12510464000002,-13.749967360000028,24.925874970240002,43.20312500352
4.4000000000000004e-08,213.75010559999987,-13.749967360000028,24.910249969280002,43.193750004479995
4.45e-08,213.75010559999987,1.875033599999938,24.910249969280002,43.178125006079995
4.5000000000000006e-08,198.12510464000002,1.875033599999938,24.925874970240002,43.16562500736
4.5500000000000004e-08,213.75010559999987,1.875033599999938,24.894624968320002,43.159375008
4.6e-08,198.12510464000002,1.875033599999938,24.894624968320002,43.159375008
4.6500000000000006e-08,198.12510464000002,1.875033599999938,24.894624968320002,43.1750000064
4.7000000000000004e-08,198.12510464000002,17.500034560000017,24.878999967360002,43.17187500672
4.75e-08,213.75010559999987,17.500034560000017,24.910249969280002,43.1750000064
4.8000000000000006e-08,213.75010559999987,33.12503551999998,24.957124972160003,43.18125000576
4.8500000000000004e-08,182.50010367999994,33.12503551999998,24.941499971200003,43.19687500416
4.9e-08,166.87510271999986,17.500034560000017,24.941499971200003,43.215625002239996
4.95e-08,198.12510464000002,48.75003647999995,24.925874970240002,43.231250000639996
5.0000000000000004e-08,198.12510464000002,33.12503551999998,24.910249969280002,43.23437500032
5.05e-08,213.75010559999987,33.12503551999998,24.894624968320002,43.225000001279994
5.1e-08,182.50010367999994,17.500034560000017,24.878999967360002,43.231250000639996
5.1500000000000005e-08,182.50010367999994,33.12503551999998,24.878999967360002,43.2375
5.2e-08,198.12510464000002,33.12503551999998,24.863374966400002,43.246874999039996
5.25e-08,182.50010367999994,48.75003647999995,24.878999967360002,43.240624999679994
5.3000000000000005e-08,166.87510271999986,64.37503744000003,24.910249969280002,43.231250000639996
5.35e-08,198.12510464000002,64.37503744000003,24.894624968320002,43.225000001279994
5.4e-08,166.87510271999986,64.37503744000003,24.894624968320002,43.209375002879995
5.4500000000000005e-08,182.50010367999994,64.37503744000003,24.894624968320002,43.21250000256
5.5e-08,151.25010176,80.0000384,24.878999967360002,43.20312500352
5.55e-08,182.50010367999994,80.0000384,24.894624968320002,43.1906250048
5.6000000000000005e-08,166.87510271999986,95.62503935999996,24.863374966400002,43.18750000512
5.65e-08,151.25010176,111.25004031999993,24.847749965440002,43.184375005439996
5.7e-08,151.25010176,95.62503935999996,24.832124964480002,43.1906250048
5.7500000000000005e-08,151.25010176,126.87504128,24.847749965440002,43.19687500416
5.8e-08,151.25010176,95.62503935999996,24.832124964480002,43.2062500032
5.85e-08,166.87510271999986,95.62503935999996,24.847749965440002,43.200000003839996
5.9000000000000006e-08,135.62510079999993,95.62503935999996,24.863374966400002,43.20312500352
5.9500000000000003e-08,135.62510079999993,111.25004031999993,24.894624968320002,43.2062500032
6.000000000000001e-08,151.25010176,142.50004223999997,24.910249969280002,43.209375002879995
6.05e-08,135.62510079999993,126.87504128,24.941499971200003,43.21250000256
6.1e-08,104.37509888,142.50004223999997,24.972749973120003,43.209375002879995
6.15e-08,135.62510079999993,126.87504128,24.941499971200003,43.19687500416
6.2e-08,120.00009983999985,142.50004223999997,24.925874970240002,43.18750000512
6.250000000000001e-08,120.00009983999985,142.50004223999997,24.910249969280002,43.1906250048
6.300000000000001e-08,120.00009983999985,158.12504319999994,24.878999967360002,43.18125000576
6.35e-08,104.37509888,158.12504319999994,24.878999967360002,43.17187500672
6.4e-08,104.37509888,158.12504319999994,24.878999967360002,43.162500007679995
6.45e-08,104.37509888,158.12504319999994,24.878999967360002,43.15312500864
6.5e-08,73.12509695999984,142.50004223999997,24.910249969280002,43.15312500864
6.55e-08,104.37509888,173.75004416000002,24.957124972160003,43.159375008
6.600000000000001e-08,88.75009791999992,158.12504319999994,24.941499971200003,43.168750007039996
6.65e-08,120.00009983999985,142.50004223999997,24.957124972160003,43.1750000064
6.7e-08,73.12509695999984,142.50004223999997,24.941499971200003,43.184375005439996
6.75e-08,73.12509695999984,158.12504319999994,24.925874970240002,43.1906250048
6.8e-08,73.12509695999984,173.75004416000002,24.894624968320002,43.200000003839996
6.85e-08,73.12509695999984,173.75004416000002,24.894624968320002,43.200000003839996
6.900000000000001e-08,41.875095039999906,158.12504319999994,24.878999967360002,43.2062500032
6.950000000000001e-08,73.12509695999984,173.75004416000002,24.847749965440002,43.20312500352
7e-08,57.500095999999985,173.75004416000002,24.863374966400002,43.200000003839996
7.05e-08,41.875095039999906,173.75004416000002,24.878999967360002,43.20312500352
7.1e-08,57.500095999999985,189.37504511999998,24.910249969280002,43.20312500352
7.15e-08,57.500095999999985,173.75004416000002,24.988374974080003,43.2062500032
7.200000000000001e-08,41.875095039999906,189.37504511999998,25.019624976000003,43.215625002239996
7.250000000000001e-08,26.250094080000054,205.00004607999995,25.019624976000003,43.21875000192
7.3e-08,41.875095039999906,158.12504319999994,25.019624976000003,43.225000001279994
7.35e-08,41.875095039999906,220.62504704000003,25.003999975040003,43.231250000639996
7.4e-08,26.250094080000054,189.37504511999998,24.972749973120003,43.2375
7.45e-08,41.875095039999906,173.75004416000002,24.925874970240002,43.231250000639996
7.500000000000001e-08,10.625093119999974,189.37504511999998,24.878999967360002,43.231250000639996
7.550000000000001e-08,26.250094080000054,189.37504511999998,24.847749965440002,43.23437500032
7.6e-08,10.625093119999974,189.37504511999998,24.832124964480002,43.22812500096
7.65e-08,-4.999907840000105,205.00004607999995,24.863374966400002,43.2218750016
7.7e-08,-4.999907840000105,205.00004607999995,24.894624968320002,43.215625002239996
7.75e-08,10.625093119999974,220.62504704000003,24.925874970240002,43.209375002879995
7.800000000000001e-08,-20.624908799999957,220.62504704000003,24.941499971200003,43.19687500416
7.850000000000001e-08,-20.624908799999957,205.00004607999995,24.988374974080003,43.1906250048
7.9e-08,-20.624908799999957,220.62504704000003,24.972749973120003,43.178125006079995
7.95e-08,-4.999907840000105,220.62504704000003,24.988374974080003,43.17187500672
8e-08,-4.999907840000105,220.62504704000003,24.957124972160003,43.1750000064
8.05e-08,-20.624908799999957,220.62504704000003,24.878999967360002,43.18125000576
8.100000000000001e-08,-36.24990976000004,205.00004607999995,24.847749965440002,43.1906250048
8.150000000000001e-08,-36.24990976000004,236.250048,24.816499963520002,43.20312500352
8.2e-08,-36.24990976000004,189.37504511999998,24.800874962560002,43.21875000192
8.25e-08,-20.624908799999957,189.37504511999998,24.800874962560002,43.2218750016
8.3e-08,-36.24990976000004,189.37504511999998,24.816499963520002,43.231250000639996
8.35e-08,-36.24990976000004,205.00004607999995,24.847749965440002,43.23437500032
8.400000000000001e-08,-36.24990976000004,205.00004607999995,24.894624968320002,43.22812500096
8.450000000000001e-08,-67.49991167999997,189.37504511999998,24.941499971200003,43.225000001279994
8.500000000000001e-08,-67.49991167999997,189.37504511999998,24.988374974080003,43.215625002239996
8.55e-08,-36.24990976000004,205.00004607999995,24.972749973120003,43.215625002239996
8.6e-08,-67.49991167999997,189.37504511999998,24.941499971200003,43.21250000256
8.65e-08,-67.49991167999997,173.75004416000002,24.910249969280002,43.2218750016
8.700000000000001e-08,-67.49991167999997,189.37504511999998,24.878999967360002,43.225000001279994
8.750000000000001e-08,-67.49991167999997,158.12504319999994,24.863374966400002,43.22812500096
8.800000000000001e-08,-67.49991167999997,189.37504511999998,24.847749965440002,43.246874999039996
8.85e-08,-83.12491264000005,173.75004416000002,24.847749965440002,43.262499997439996
8.9e-08,-83.12491264000005,158.12504319999994,24.878999967360002,43.278124995839995
8.95e-08,-83.12491264000005,189.37504511999998,24.878999967360002,43.29062499456
9.000000000000001e-08,-83.12491264000005,158.12504319999994,24.925874970240002,43.293749994239995
9.050000000000001e-08,-67.49991167999997,158.12504319999994,24.925874970240002,43.2843749952
9.100000000000001e-08,-98.74991360000013,142.50004223999997,24.941499971200003,43.27499999616
9.15e-08,-83.12491264000005,158.12504319999994,24.925874970240002,43.26562499712
9.2e-08,-83.12491264000005,158.12504319999994,24.910249969280002,43.246874999039996
9.25e-08,-98.74991360000013,142.50004223999997,24.894624968320002,43.231250000639996
9.300000000000001e-08,-114.37491455999998,158.12504319999994,24.878999967360002,43.215625002239996
9.350000000000001e-08,-98.74991360000013,126.87504128,24.832124964480002,43.209375002879995
9.400000000000001e-08,-114.37491455999998,126.87504128,24.800874962560002,43.200000003839996
9.45e-08,-114.37491455999998,126.87504128,24.816499963520002,43.2062500032
9.5e-08,-114.37491455999998,142.50004223999997,24.816499963520002,43.20312500352
9.55e-08,-98.74991360000013,111.25004031999993,24.878999967360002,43.200000003839996
9.600000000000001e-08,-114.37491455999998,111.25004031999993,24.894624968320002,43.20312500352
9.650000000000001e-08,-129.99991552000006,126.87504128,24.894624968320002,43.20312500352
9.700000000000001e-08,-145.62491648000014,95.62503935999996,24.925874970240002,43.200000003839996
9.75e-08,-129.99991552000006,111.25004031999993,24.941499971200003,43.20312500352
9.8e-08,-129.99991552000006,95.62503935999996,24.957124972160003,43.2062500032
9.85e-08,-114.37491455999998,95.62503935999996,24.957124972160003,43.2062500032
9.9e-08,-145.62491648000014,64.37503744000003,24.941499971200003,43.2062500032
9.950000000000001e-08,-145.62491648000014,95.62503935999996,24.910249969280002,43.20312500352
1.0000000000000001e-07,-129.99991552000006,95.62503935999996,24.910249969280002,43.19687500416
1.005e-07,-145.62491648000014,80.0000384,24.925874970240002,43.184375005439996
1.01e-07,-161.24991744,80.0000384,24.988374974080003,43.1750000064
1.015e-07,-145.62491648000014,64.37503744000003,25.003999975040003,43.16562500736
1.02e-07,-161.24991744,64.37503744000003,25.019624976000003,43.159375008
1.0250000000000001e-07,-161.24991744,64.37503744000003,25.035249976960003,43.162500007679995
1.0300000000000001e-07,-145.62491648000014,80.0000384,25.019624976000003,43.159375008
1.0350000000000001e-07,-161.24991744,80.0000384,25.019624976000003,43.168750007039996
1.04e-07,-176.87491840000007,80.0000384,24.988374974080003,43.18125000576
1.045e-07,-176.87491840000007,95.62503935999996,24.925874970240002,43.19687500416
1.05e-07,-176.87491840000007,64.37503744000003,24.941499971200003,43.209375002879995
1.0550000000000001e-07,-176.87491840000007,80.0000384,24.925874970240002,43.23437500032
1.0600000000000001e-07,-176.87491840000007,64.37503744000003,24.941499971200003,43.246874999039996
1.0650000000000001e-07,-161.24991744,48.75003647999995,24.957124972160003,43.256249998079994
1.07e-07,-192.49991936000015,33.12503551999998,24.957124972160003,43.2687499968
1.075e-07,-176.87491840000007,48.75003647999995,24.988374974080003,43.27499999616
1.08e-07,-176.87491840000007,48.75003647999995,24.988374974080003,43.2687499968
1.0850000000000001e-07,-192.49991936000015,33.12503551999998,25.003999975040003,43.25937499776
1.0900000000000001e-07,-208.12492032,48.75003647999995,25.003999975040003,43.24374999936
1.0950000000000001e-07,-192.49991936000015,48.75003647999995,24.957124972160003,43.2375
1.1e-07,-208.12492032,33.12503551999998,24.941499971200003,43.2218750016
1.105e-07,-223.74992128000008,17.500034560000017,24.957124972160003,43.2218750016
1.11e-07,-223.74992128000008,33.12503551999998,24.957124972160003,43.20312500352
1.1150000000000001e-07,-208.12492032,33.12503551999998,25.003999975040003,43.18750000512
1.1200000000000001e-07,-208.12492032,17.500034560000017,25.003999975040003,43.18125000576
1.1250000000000001e-07,-223.74992128000008,33.12503551999998,25.003999975040003,43.18125000576
1.13e-07,-223.74992128000008,1.875033599999938,25.019624976000003,43.18750000512
1.135e-07,-223.74992128000008,17.500034560000017,25.050874977920003,43.193750004479995
1.14e-07,-208.12492032,1.875033599999938,25.0977499808,43.19687500416
1.1450000000000001e-07,-208.12492032,-29.374968319999994,25.0977499808,43.193750004479995
1.1500000000000001e-07,-223.74992128000008,-29.374968319999994,25.066499978880003,43.20312500352
1.1550000000000001e-07,-239.37492223999993,-13.749967360000028,25.035249976960003,43.21250000256
1.16e-07,-223.74992128000008,-13.749967360000028,25.003999975040003,43.215625002239996
1.165e-07,-223.74992128000008,-29.374968319999994,24.988374974080003,43.215625002239996
