Time (s),VIN,IIN,VOUT
0.0,25.13100003648,1.17293750624,36.33650000832
5e-10,25.30287504704,1.17293750624,36.36462500544
1e-09,25.38100005184,1.17293750624,36.4021250016
1.5000000000000002e-09,25.25600004416,1.171375006144,36.38025000384
2e-09,25.14662503744,1.171375006144,36.327125009279996
2.5e-09,25.14662503744,1.17293750624,36.305250011519995
3.0000000000000004e-09,25.28725004608,1.174500006336,36.3552500064
3.5000000000000003e-09,25.42787505472,1.174500006336,36.41775
4e-09,25.36537505088,1.17293750624,36.44587499712
4.500000000000001e-09,25.20912504128,1.171375006144,36.42399999936
5e-09,25.09975003456,1.17293750624,36.4021250016
5.5000000000000004e-09,25.19350004032,1.171375006144,36.41150000064
6.000000000000001e-09,25.27162504512,1.171375006144,36.4489999968
6.5e-09,25.318500048,1.171375006144,36.467749994879995
7.000000000000001e-09,25.22475004224,1.168250005952,36.4333749984
7.500000000000001e-09,25.09975003456,1.168250005952,36.3708750048
8e-09,25.11537503552,1.168250005952,36.339625008
8.5e-09,25.27162504512,1.171375006144,36.374000004479996
9.000000000000001e-09,25.36537505088,1.171375006144,36.41775
9.5e-09,25.28725004608,1.17293750624,36.405250001279995
1e-08,25.09975003456,1.174500006336,36.36462500544
1.0500000000000001e-08,25.05287503168,1.176062506432,36.35212500672
1.1000000000000001e-08,25.1622500384,1.174500006336,36.39587500224
1.15e-08,25.30287504704,1.174500006336,36.4489999968
1.2000000000000002e-08,25.27162504512,1.171375006144,36.45524999616
1.2500000000000001e-08,25.11537503552,1.169812506048,36.389625002879995
1.3e-08,25.02162502976,1.166687505856,36.327125009279996
1.35e-08,25.11537503552,1.166687505856,36.33337500864
1.4000000000000001e-08,25.27162504512,1.168250005952,36.39587500224
1.45e-08,25.33412504896,1.171375006144,36.46149999552
1.5000000000000002e-08,25.25600004416,1.169812506048,36.467749994879995
1.55e-08,25.1622500384,1.169812506048,36.41150000064
1.6e-08,25.19350004032,1.171375006144,36.36775000512
1.6500000000000002e-08,25.27162504512,1.177625006528,36.36775000512
1.7e-08,25.318500048,1.1791875066239998,36.36775000512
1.75e-08,25.25600004416,1.177625006528,36.3240000096
1.8000000000000002e-08,25.13100003648,1.17293750624,36.25212501696
1.85e-08,25.0841250336,1.171375006144,36.20525002176
1.9e-08,25.14662503744,1.169812506048,36.2302500192
1.9500000000000003e-08,25.19350004032,1.169812506048,36.28337501376
2e-08,25.17787503936,1.166687505856,36.320875009919995
2.05e-08,25.09975003456,1.163562505664,36.311500010879996
2.1000000000000003e-08,25.0060000288,1.166687505856,36.29900001216
2.15e-08,25.05287503168,1.16512500576,36.31775001024
2.2000000000000002e-08,25.14662503744,1.166687505856,36.36150000576
2.2500000000000003e-08,25.22475004224,1.17293750624,36.389625002879995
2.3e-08,25.19350004032,1.176062506432,36.374000004479996
2.3500000000000002e-08,25.13100003648,1.177625006528,36.33337500864
2.4000000000000003e-08,25.13100003648,1.176062506432,36.30212501184
2.45e-08,25.19350004032,1.176062506432,36.305250011519995
2.5000000000000002e-08,25.28725004608,1.174500006336,36.3240000096
2.55e-08,25.28725004608,1.171375006144,36.320875009919995
2.6e-08,25.19350004032,1.171375006144,36.28650001344
2.6500000000000002e-08,25.09975003456,1.17293750624,36.25525001664
2.7e-08,25.09975003456,1.171375006144,36.27087501504
2.75e-08,25.17787503936,1.171375006144,36.311500010879996
2.8000000000000003e-08,25.2403750432,1.17293750624,36.342750007679996
2.85e-08,25.19350004032,1.176062506432,36.34587500736
2.9e-08,25.09975003456,1.17293750624,36.33025000896
2.9500000000000003e-08,25.11537503552,1.171375006144,36.320875009919995
3.0000000000000004e-08,25.20912504128,1.169812506048,36.31775001024
3.05e-08,25.27162504512,1.17293750624,36.29900001216
3.1e-08,25.22475004224,1.171375006144,36.26775001536
3.1500000000000004e-08,25.13100003648,1.166687505856,36.23337501888
3.2e-08,25.14662503744,1.166687505856,36.22400001984
3.25e-08,25.19350004032,1.169812506048,36.25212501696
3.3000000000000004e-08,25.2403750432,1.17293750624,36.295875012479996
3.35e-08,25.19350004032,1.177625006528,36.3240000096
3.4e-08,25.13100003648,1.176062506432,36.327125009279996
3.4500000000000005e-08,25.0841250336,1.177625006528,36.31462501056
3.5e-08,25.1622500384,1.177625006528,36.311500010879996
3.55e-08,25.25600004416,1.177625006528,36.31462501056
3.6000000000000005e-08,25.25600004416,1.176062506432,36.31775001024
3.65e-08,25.20912504128,1.17293750624,36.305250011519995
3.7e-08,25.11537503552,1.169812506048,36.28337501376
3.7500000000000005e-08,25.11537503552,1.169812506048,36.26462501568
3.8e-08,25.19350004032,1.17293750624,36.24900001728
3.85e-08,25.25600004416,1.174500006336,36.2458750176
3.9000000000000005e-08,25.22475004224,1.169812506048,36.242750017919995
3.95e-08,25.14662503744,1.16512500576,36.23650001856
4e-08,25.09975003456,1.162000005568,36.242750017919995
4.0500000000000005e-08,25.1622500384,1.168250005952,36.261500016
4.1e-08,25.25600004416,1.176062506432,36.25525001664
4.15e-08,25.27162504512,1.174500006336,36.23337501888
4.2000000000000006e-08,25.17787503936,1.169812506048,36.2302500192
4.2500000000000003e-08,25.09975003456,1.166687505856,36.258375016319995
4.3e-08,25.14662503744,1.17293750624,36.29900001216
4.3500000000000006e-08,25.22475004224,1.176062506432,36.31462501056
4.4000000000000004e-08,25.2403750432,1.1791875066239998,36.305250011519995
4.45e-08,25.1622500384,1.1791875066239998,36.289625013119995
4.5000000000000006e-08,25.09975003456,1.177625006528,36.28650001344
4.5500000000000004e-08,25.1622500384,1.176062506432,36.280250014079996
4.6e-08,25.22475004224,1.176062506432,36.258375016319995
4.6500000000000006e-08,25.2403750432,1.177625006528,36.23337501888
4.7000000000000004e-08,25.17787503936,1.177625006528,36.22087502016
4.75e-08,25.09975003456,1.174500006336,36.211500021119996
4.8000000000000006e-08,25.13100003648,1.169812506048,36.227125019519995
4.8500000000000004e-08,25.25600004416,1.169812506048,36.242750017919995
4.9e-08,25.30287504704,1.171375006144,36.2302500192
4.95e-08,25.2403750432,1.174500006336,36.18962502336
5.0000000000000004e-08,25.14662503744,1.17293750624,36.18650002368
5.05e-08,25.09975003456,1.17293750624,36.21775002048
5.1e-08,25.14662503744,1.169812506048,36.25525001664
5.1500000000000005e-08,25.27162504512,1.169812506048,36.23337501888
5.2e-08,25.25600004416,1.17293750624,36.17087502528
5.25e-08,25.14662503744,1.17293750624,36.12400003008
5.3000000000000005e-08,25.02162502976,1.174500006336,36.117750030719996
5.35e-08,25.02162502976,1.176062506432,36.1677500256
5.4e-08,25.14662503744,1.176062506432,36.22400001984
5.4500000000000005e-08,25.22475004224,1.174500006336,36.23962501824
5.5e-08,25.17787503936,1.174500006336,36.21775002048
5.55e-08,25.09975003456,1.171375006144,36.195875022719996
5.6000000000000005e-08,25.0841250336,1.17293750624,36.22087502016
5.65e-08,25.14662503744,1.174500006336,36.28337501376
5.7e-08,25.2403750432,1.174500006336,36.3083750112
5.7500000000000005e-08,25.25600004416,1.176062506432,36.26462501568
5.8e-08,25.1622500384,1.177625006528,36.20212502208
5.85e-08,25.0841250336,1.174500006336,36.16150002624
5.9000000000000006e-08,25.0841250336,1.169812506048,36.17087502528
5.9500000000000003e-08,25.17787503936,1.171375006144,36.1677500256
6.000000000000001e-08,25.27162504512,1.17293750624,36.1365000288
6.05e-08,25.22475004224,1.171375006144,36.07712503488
6.1e-08,25.13100003648,1.169812506048,36.06150003648
6.15e-08,25.06850003264,1.169812506048,36.105250032
6.2e-08,25.11537503552,1.169812506048,36.180250024319996
6.250000000000001e-08,25.19350004032,1.171375006144,36.2302500192
6.300000000000001e-08,25.22475004224,1.17293750624,36.23650001856
6.35e-08,25.1622500384,1.176062506432,36.20212502208
6.4e-08,25.06850003264,1.1791875066239998,36.18650002368
6.45e-08,25.05287503168,1.1823125068159999,36.20212502208
6.5e-08,25.13100003648,1.1807500067199999,36.22400001984
6.55e-08,25.20912504128,1.176062506432,36.211500021119996
6.600000000000001e-08,25.22475004224,1.177625006528,36.17400002496
6.65e-08,25.11537503552,1.177625006528,36.1521250272
6.7e-08,25.0841250336,1.176062506432,36.20212502208
6.75e-08,25.17787503936,1.174500006336,36.289625013119995
6.8e-08,25.27162504512,1.17293750624,36.34587500736
6.85e-08,25.318500048,1.171375006144,36.3240000096
6.900000000000001e-08,25.25600004416,1.176062506432,36.26462501568
6.950000000000001e-08,25.19350004032,1.177625006528,36.2302500192
7e-08,25.1622500384,1.174500006336,36.23962501824
7.05e-08,25.19350004032,1.171375006144,36.25525001664
7.1e-08,25.20912504128,1.166687505856,36.23962501824
7.15e-08,25.19350004032,1.171375006144,36.180250024319996
7.200000000000001e-08,25.14662503744,1.174500006336,36.14587502784
7.250000000000001e-08,25.13100003648,1.177625006528,36.180250024319996
7.3e-08,25.19350004032,1.177625006528,36.25525001664
7.35e-08,25.22475004224,1.177625006528,36.30212501184
7.4e-08,25.20912504128,1.176062506432,36.2927500128
7.45e-08,25.20912504128,1.177625006528,36.25525001664
7.500000000000001e-08,25.17787503936,1.1791875066239998,36.258375016319995
7.550000000000001e-08,25.17787503936,1.177625006528,36.295875012479996
7.6e-08,25.20912504128,1.177625006528,36.339625008
7.65e-08,25.22475004224,1.1791875066239998,36.33025000896
7.7e-08,25.19350004032,1.1807500067199999,36.274000014719995
7.75e-08,25.19350004032,1.1807500067199999,36.22400001984
7.800000000000001e-08,25.19350004032,1.1807500067199999,36.211500021119996
7.850000000000001e-08,25.25600004416,1.1791875066239998,36.242750017919995
7.9e-08,25.28725004608,1.174500006336,36.26775001536
7.95e-08,25.27162504512,1.174500006336,36.24900001728
8e-08,25.22475004224,1.176062506432,36.22087502016
8.05e-08,25.19350004032,1.177625006528,36.25212501696
8.100000000000001e-08,25.22475004224,1.171375006144,36.3240000096
8.150000000000001e-08,25.20912504128,1.168250005952,36.39275000256
8.2e-08,25.19350004032,1.169812506048,36.405250001279995
8.25e-08,25.17787503936,1.174500006336,36.35212500672
8.3e-08,25.17787503936,1.174500006336,36.295875012479996
8.35e-08,25.17787503936,1.176062506432,36.258375016319995
8.400000000000001e-08,25.19350004032,1.1791875066239998,36.25525001664
8.450000000000001e-08,25.19350004032,1.1807500067199999,36.2458750176
8.500000000000001e-08,25.1622500384,1.1838750069119999,36.22087502016
8.55e-08,25.14662503744,1.1838750069119999,36.1990000224
8.6e-08,25.11537503552,1.1807500067199999,36.22400001984
8.65e-08,25.09975003456,1.1807500067199999,36.289625013119995
8.700000000000001e-08,25.13100003648,1.1807500067199999,36.358375006079996
8.750000000000001e-08,25.17787503936,1.1791875066239998,36.39275000256
8.800000000000001e-08,25.17787503936,1.1791875066239998,36.39587500224
8.85e-08,25.1622500384,1.1807500067199999,36.3865000032
8.9e-08,25.14662503744,1.1823125068159999,36.38337500352
8.95e-08,25.1622500384,1.1791875066239998,36.3708750048
9.000000000000001e-08,25.22475004224,1.1791875066239998,36.34587500736
9.050000000000001e-08,25.25600004416,1.1791875066239998,36.2927500128
9.100000000000001e-08,25.22475004224,1.1791875066239998,36.23337501888
9.15e-08,25.1622500384,1.177625006528,36.180250024319996
9.2e-08,25.14662503744,1.176062506432,36.16150002624
9.25e-08,25.19350004032,1.177625006528,36.16150002624
9.300000000000001e-08,25.20912504128,1.1791875066239998,36.17087502528
9.350000000000001e-08,25.19350004032,1.177625006528,36.18650002368
9.400000000000001e-08,25.09975003456,1.176062506432,36.23650001856
9.45e-08,25.05287503168,1.1791875066239998,36.29900001216
9.5e-08,25.03725003072,1.1823125068159999,36.36775000512
9.55e-08,25.0841250336,1.1838750069119999,36.4021250016
9.600000000000001e-08,25.13100003648,1.1838750069119999,36.39900000192
9.650000000000001e-08,25.13100003648,1.1870000071039999,36.36150000576
9.700000000000001e-08,25.09975003456,1.1838750069119999,36.311500010879996
9.75e-08,25.0841250336,1.1838750069119999,36.2771250144
9.8e-08,25.13100003648,1.1823125068159999,36.27087501504
9.85e-08,25.20912504128,1.1791875066239998,36.261500016
9.9e-08,25.2403750432,1.1807500067199999,36.25212501696
9.950000000000001e-08,25.20912504128,1.1838750069119999,36.23650001856
1.0000000000000001e-07,25.11537503552,1.1823125068159999,36.25525001664
1.005e-07,25.14662503744,1.1807500067199999,36.295875012479996
1.01e-07,25.20912504128,1.1823125068159999,36.36150000576
1.015e-07,25.28725004608,1.1823125068159999,36.39900000192
1.02e-07,25.20912504128,1.1838750069119999,36.4021250016
1.0250000000000001e-07,25.09975003456,1.1838750069119999,36.36775000512
1.0300000000000001e-07,25.06850003264,1.1823125068159999,36.33025000896
1.0350000000000001e-07,25.13100003648,1.1791875066239998,36.305250011519995
1.04e-07,25.17787503936,1.1807500067199999,36.2927500128
1.045e-07,25.1622500384,1.1838750069119999,36.289625013119995
1.05e-07,25.13100003648,1.1823125068159999,36.28650001344
1.0550000000000001e-07,25.09975003456,1.1838750069119999,36.280250014079996
1.0600000000000001e-07,25.13100003648,1.1823125068159999,36.28337501376
1.0650000000000001e-07,25.20912504128,1.1823125068159999,36.29900001216
1.07e-07,25.25600004416,1.1854375070079999,36.33025000896
1.075e-07,25.27162504512,1.190125007296,36.36150000576
1.08e-07,25.25600004416,1.1885625072,36.4021250016
1.0850000000000001e-07,25.20912504128,1.1870000071039999,36.42712499904
1.0900000000000001e-07,25.17787503936,1.1870000071039999,36.42712499904
1.0950000000000001e-07,25.20912504128,1.1854375070079999,36.41150000064
1.1e-07,25.2403750432,1.1838750069119999,36.37712500416
1.105e-07,25.19350004032,1.1838750069119999,36.34900000704
1.11e-07,25.0841250336,1.1807500067199999,36.33650000832
1.1150000000000001e-07,25.03725003072,1.174500006336,36.3240000096
1.1200000000000001e-07,25.0841250336,1.17293750624,36.305250011519995
1.1250000000000001e-07,25.22475004224,1.177625006528,36.2927500128
1.13e-07,25.318500048,1.1823125068159999,36.28650001344
1.135e-07,25.2403750432,1.1807500067199999,36.289625013119995
1.14e-07,25.11537503552,1.176062506432,36.31775001024
1.1450000000000001e-07,25.14662503744,1.174500006336,36.34587500736
1.1500000000000001e-07,25.318500048,1.177625006528,36.36462500544
1.1550000000000001e-07,25.41225005376,1.1823125068159999,36.36462500544
1.16e-07,25.318500048,1.1838750069119999,36.36775000512
1.165e-07,25.09975003456,1.1838750069119999,36.374000004479996
1.17e-07,24.97475002688,1.1823125068159999,36.37712500416
1.1750000000000001e-07,25.0841250336,1.177625006528,36.3708750048
1.1800000000000001e-07,25.2403750432,1.1791875066239998,36.34900000704
1.1850000000000001e-07,25.25600004416,1.1807500067199999,36.339625008
1.1900000000000001e-07,25.11537503552,1.1823125068159999,36.35212500672
1.195e-07,24.99037502784,1.1791875066239998,36.374000004479996
1.2000000000000002e-07,25.05287503168,1.174500006336,36.39275000256
1.205e-07,25.28725004608,1.174500006336,36.4021250016
1.21e-07,25.4747500576,1.1791875066239998,36.38025000384
1.215e-07,25.41225005376,1.1823125068159999,36.342750007679996
1.22e-07,25.19350004032,1.1791875066239998,36.305250011519995
1.2250000000000002e-07,25.06850003264,1.176062506432,36.30212501184
1.23e-07,25.19350004032,1.174500006336,36.33650000832
1.2350000000000001e-07,25.38100005184,1.174500006336,36.374000004479996
1.24e-07,25.38100005184,1.176062506432,36.38337500352
1.245e-07,25.1622500384,1.1791875066239998,36.34900000704
1.2500000000000002e-07,24.91225002304,1.176062506432,36.320875009919995
1.255e-07,24.97475002688,1.174500006336,36.3083750112
1.2600000000000002e-07,25.17787503936,1.176062506432,36.33025000896
1.265e-07,25.33412504896,1.1791875066239998,36.3552500064
1.27e-07,25.27162504512,1.1823125068159999,36.36150000576
1.275e-07,25.0841250336,1.1823125068159999,36.33650000832
1.28e-07,25.0060000288,1.1807500067199999,36.3083750112
1.2850000000000002e-07,25.13100003648,1.1838750069119999,36.320875009919995
1.29e-07,25.30287504704,1.1885625072,36.358375006079996
1.2950000000000001e-07,25.318500048,1.1870000071039999,36.38337500352
1.3e-07,25.17787503936,1.1854375070079999,36.37712500416
1.305e-07,25.02162502976,1.1807500067199999,36.35212500672
1.31e-07,25.06850003264,1.176062506432,36.342750007679996
1.315e-07,25.20912504128,1.174500006336,36.34900000704
1.3200000000000002e-07,25.30287504704,1.174500006336,36.3708750048
1.325e-07,25.2403750432,1.174500006336,36.36775000512
1.33e-07,25.05287503168,1.171375006144,36.339625008
1.335e-07,25.03725003072,1.171375006144,36.31775001024
1.34e-07,25.1622500384,1.174500006336,36.3240000096
1.3450000000000002e-07,25.318500048,1.177625006528,36.35212500672
1.35e-07,25.34975004992,1.1791875066239998,36.3552500064
1.3550000000000002e-07,25.2403750432,1.177625006528,36.3083750112
1.36e-07,25.13100003648,1.174500006336,36.25525001664
1.365e-07,25.11537503552,1.174500006336,36.2458750176
1.37e-07,25.22475004224,1.1791875066239998,36.311500010879996
1.375e-07,25.28725004608,1.1791875066239998,36.3865000032
1.3800000000000002e-07,25.20912504128,1.176062506432,36.41462500032
1.385e-07,25.03725003072,1.174500006336,36.39275000256
1.3900000000000001e-07,24.97475002688,1.17293750624,36.36462500544
1.395e-07,25.06850003264,1.17293750624,36.3708750048
1.4e-07,25.22475004224,1.174500006336,36.41775
1.4050000000000002e-07,25.27162504512,1.176062506432,36.44587499712
1.41e-07,25.1622500384,1.174500006336,36.42712499904
1.4150000000000002e-07,25.11537503552,1.17293750624,36.37712500416
1.42e-07,25.17787503936,1.17293750624,36.342750007679996
1.425e-07,25.34975004992,1.176062506432,36.34900000704
1.43e-07,25.42787505472,1.174500006336,36.37712500416
1.435e-07,25.30287504704,1.171375006144,36.38025000384
1.4400000000000002e-07,25.13100003648,1.169812506048,36.36462500544
1.445e-07,25.06850003264,1.171375006144,36.36775000512
1.4500000000000001e-07,25.17787503936,1.174500006336,36.41462500032
1.455e-07,25.28725004608,1.177625006528,36.467749994879995
1.46e-07,25.25600004416,1.174500006336,36.483374993279995
1.4650000000000002e-07,25.11537503552,1.17293750624,36.43024999872
1.47e-07,25.02162502976,1.171375006144,36.36775000512
1.4750000000000002e-07,25.11537503552,1.171375006144,36.339625008
1.48e-07,25.28725004608,1.171375006144,36.37712500416
1.485e-07,25.34975004992,1.17293750624,36.405250001279995
1.49e-07,25.22475004224,1.171375006144,36.3865000032
1.495e-07,25.11537503552,1.171375006144,36.33025000896
1.5000000000000002e-07,25.09975003456,1.171375006144,36.311500010879996
1.505e-07,25.28725004608,1.17293750624,36.358375006079996
1.5100000000000002e-07,25.41225005376,1.17293750624,36.436499998079995
1.515e-07,25.34975004992,1.174500006336,36.458374995839996
1.52e-07,25.17787503936,1.174500006336,36.4333749984
1.5250000000000002e-07,25.0841250336,1.17293750624,36.41462500032
1.53e-07,25.1622500384,1.17293750624,36.42712499904
1.5350000000000002e-07,25.27162504512,1.169812506048,36.467749994879995
1.54e-07,25.27162504512,1.169812506048,36.48649999296
1.5450000000000001e-07,25.1622500384,1.168250005952,36.44587499712
1.55e-07,25.06850003264,1.168250005952,36.38025000384
1.555e-07,25.09975003456,1.166687505856,36.35212500672
1.5600000000000002e-07,25.2403750432,1.169812506048,36.3865000032
1.565e-07,25.34975004992,1.171375006144,36.42712499904
1.5700000000000002e-07,25.27162504512,1.17293750624,36.41462500032
1.575e-07,25.09975003456,1.174500006336,36.36775000512
1.58e-07,25.03725003072,1.171375006144,36.358375006079996
1.5850000000000002e-07,25.17787503936,1.176062506432,36.39900000192
1.59e-07,25.30287504704,1.176062506432,36.46149999552
1.5950000000000002e-07,25.25600004416,1.176062506432,36.46149999552
1.6e-07,25.0841250336,1.171375006144,36.389625002879995
1.6050000000000001e-07,25.02162502976,1.169812506048,36.327125009279996
1.61e-07,25.11537503552,1.166687505856,36.33650000832
1.615e-07,25.27162504512,1.166687505856,36.39900000192
1.6200000000000002e-07,25.33412504896,1.166687505856,36.458374995839996
1.625e-07,25.2403750432,1.169812506048,36.458374995839996
1.6300000000000002e-07,25.14662503744,1.171375006144,36.41462500032
1.635e-07,25.17787503936,1.174500006336,36.374000004479996
