Time (s),VIN,IIN,VOUT
0.0,25.0693750336,1.236362506432,38.4400000064
5e-10,25.27250004608,1.237925006528,38.48375000192
1e-09,25.36625005184,1.237925006528,38.48062500224
1.5000000000000002e-09,25.31937504896,1.237925006528,38.4400000064
2e-09,25.21000004224,1.236362506432,38.43062500736
2.5e-09,25.2256250432,1.23323750624,38.490000001279995
3.0000000000000004e-09,25.35062505088,1.234800006336,38.57124999296
3.5000000000000003e-09,25.39750005376,1.236362506432,38.60249998976
4e-09,25.28812504704,1.236362506432,38.55562499456
4.500000000000001e-09,25.13187503744,1.234800006336,38.511874999039996
5e-09,25.03812503168,1.236362506432,38.5025
5.5000000000000004e-09,25.05375003264,1.234800006336,38.5337499968
6.000000000000001e-09,25.1475000384,1.231675006144,38.54624999552
6.5e-09,25.16312503936,1.230112506048,38.50874999936
7.000000000000001e-09,25.10062503552,1.230112506048,38.44625000576
7.500000000000001e-09,25.05375003264,1.231675006144,38.43375000704
8e-09,25.1475000384,1.231675006144,38.474375002879995
8.5e-09,25.28812504704,1.231675006144,38.527499997439996
9.000000000000001e-09,25.33500004992,1.234800006336,38.5337499968
9.5e-09,25.25687504512,1.24105000672,38.48375000192
1e-08,25.13187503744,1.239487506624,38.443125006079995
1.0500000000000001e-08,25.13187503744,1.237925006528,38.46187500416
1.1000000000000001e-08,25.21000004224,1.234800006336,38.505624999679995
1.15e-08,25.24125004416,1.234800006336,38.527499997439996
1.2000000000000002e-08,25.1475000384,1.236362506432,38.49937500032
1.2500000000000001e-08,25.02250003072,1.234800006336,38.474375002879995
1.3e-08,25.00687502976,1.23323750624,38.4868750016
1.35e-08,25.08500003456,1.234800006336,38.5337499968
1.4000000000000001e-08,25.2256250432,1.236362506432,38.558749994239996
1.45e-08,25.27250004608,1.234800006336,38.521249998079995
1.5000000000000002e-08,25.25687504512,1.236362506432,38.4556250048
1.55e-08,25.24125004416,1.236362506432,38.411875009279996
1.6e-08,25.27250004608,1.236362506432,38.41812500864
1.6500000000000002e-08,25.28812504704,1.237925006528,38.43687500672
1.7e-08,25.25687504512,1.234800006336,38.42125000832
1.75e-08,25.17875004032,1.234800006336,38.365000014079996
1.8000000000000002e-08,25.08500003456,1.23323750624,38.311875019519995
1.85e-08,25.03812503168,1.231675006144,38.30875001984
1.9e-08,25.05375003264,1.230112506048,38.349375015679996
1.9500000000000003e-08,25.08500003456,1.228550005952,38.405625009919994
2e-08,25.0693750336,1.230112506048,38.4400000064
2.05e-08,25.00687502976,1.231675006144,38.458750004479995
2.1000000000000003e-08,25.03812503168,1.230112506048,38.48062500224
2.15e-08,25.08500003456,1.231675006144,38.505624999679995
2.2000000000000002e-08,25.21000004224,1.236362506432,38.51499999872
2.2500000000000003e-08,25.25687504512,1.237925006528,38.48062500224
2.3e-08,25.25687504512,1.239487506624,38.41500000896
2.3500000000000002e-08,25.19437504128,1.237925006528,38.35562501504
2.4000000000000003e-08,25.16312503936,1.237925006528,38.3150000192
2.45e-08,25.16312503936,1.234800006336,38.3150000192
2.5000000000000002e-08,25.16312503936,1.228550005952,38.333750017279996
2.55e-08,25.1475000384,1.226987505856,38.358750014719995
2.6e-08,25.10062503552,1.226987505856,38.3775000128
2.6500000000000002e-08,25.03812503168,1.226987505856,38.41812500864
2.7e-08,25.05375003264,1.230112506048,38.474375002879995
2.75e-08,25.1475000384,1.23323750624,38.5181249984
2.8000000000000003e-08,25.19437504128,1.231675006144,38.511874999039996
2.85e-08,25.16312503936,1.23323750624,38.45250000512
2.9e-08,25.17875004032,1.234800006336,38.37125001344
2.9500000000000003e-08,25.17875004032,1.234800006336,38.318125018879996
3.0000000000000004e-08,25.2256250432,1.231675006144,38.296250021119995
3.05e-08,25.17875004032,1.231675006144,38.296250021119995
3.1e-08,25.11625003648,1.23323750624,38.296250021119995
3.1500000000000004e-08,25.13187503744,1.231675006144,38.30250002048
3.2e-08,25.16312503936,1.234800006336,38.32125001856
3.25e-08,25.1475000384,1.234800006336,38.3618750144
3.3000000000000004e-08,25.11625003648,1.234800006336,38.42125000832
3.35e-08,25.10062503552,1.234800006336,38.4556250048
3.4e-08,25.10062503552,1.23323750624,38.44625000576
3.4500000000000005e-08,25.16312503936,1.23323750624,38.411875009279996
3.5e-08,25.19437504128,1.237925006528,38.380625012479996
3.55e-08,25.17875004032,1.2426125068159999,38.374375013119995
3.6000000000000005e-08,25.13187503744,1.24105000672,38.3775000128
3.65e-08,25.11625003648,1.237925006528,38.358750014719995
3.7e-08,25.13187503744,1.231675006144,38.311875019519995
3.7500000000000005e-08,25.1475000384,1.231675006144,38.265000024319995
3.8e-08,25.19437504128,1.234800006336,38.25875002496
3.85e-08,25.17875004032,1.234800006336,38.28687502208
3.9000000000000005e-08,25.11625003648,1.230112506048,38.318125018879996
3.95e-08,25.11625003648,1.228550005952,38.34000001664
4e-08,25.16312503936,1.228550005952,38.34000001664
4.0500000000000005e-08,25.19437504128,1.234800006336,38.35250001536
4.1e-08,25.17875004032,1.237925006528,38.374375013119995
4.15e-08,25.1475000384,1.239487506624,38.3931250112
4.2000000000000006e-08,25.11625003648,1.237925006528,38.40250001024
4.2500000000000003e-08,25.16312503936,1.236362506432,38.390000011519994
4.3e-08,25.2256250432,1.236362506432,38.36812501376
4.3500000000000006e-08,25.19437504128,1.236362506432,38.358750014719995
4.4000000000000004e-08,25.13187503744,1.236362506432,38.346250016
4.45e-08,25.0693750336,1.237925006528,38.33687501696
4.5000000000000006e-08,25.11625003648,1.23323750624,38.32125001856
4.5500000000000004e-08,25.17875004032,1.228550005952,38.30562502016
4.6e-08,25.21000004224,1.231675006144,38.30875001984
4.6500000000000006e-08,25.1475000384,1.231675006144,38.32437501824
4.7000000000000004e-08,25.08500003456,1.230112506048,38.3306250176
4.75e-08,25.10062503552,1.226987505856,38.318125018879996
4.8000000000000006e-08,25.24125004416,1.226987505856,38.29000002176
4.8500000000000004e-08,25.303750048,1.231675006144,38.26187502464
4.9e-08,25.25687504512,1.23323750624,38.243125026559994
4.95e-08,25.16312503936,1.234800006336,38.2525000256
5.0000000000000004e-08,25.0693750336,1.23323750624,38.27125002368
5.05e-08,25.11625003648,1.234800006336,38.28687502208
5.1e-08,25.19437504128,1.234800006336,38.29312502144
5.1500000000000005e-08,25.19437504128,1.236362506432,38.30250002048
5.2e-08,25.10062503552,1.239487506624,38.2993750208
5.25e-08,24.9912500288,1.24105000672,38.28687502208
5.3000000000000005e-08,24.9912500288,1.24105000672,38.26187502464
5.35e-08,25.0693750336,1.239487506624,38.243125026559994
5.4e-08,25.19437504128,1.239487506624,38.24625002624
5.4500000000000005e-08,25.21000004224,1.239487506624,38.265000024319995
5.5e-08,25.1475000384,1.239487506624,38.280625022719995
5.55e-08,25.08500003456,1.239487506624,38.3150000192
5.6000000000000005e-08,25.1475000384,1.236362506432,38.35562501504
5.65e-08,25.19437504128,1.234800006336,38.390000011519994
5.7e-08,25.21000004224,1.234800006336,38.390000011519994
5.7500000000000005e-08,25.21000004224,1.234800006336,38.349375015679996
5.8e-08,25.13187503744,1.23323750624,38.29312502144
5.85e-08,25.0693750336,1.230112506048,38.24625002624
5.9000000000000006e-08,25.10062503552,1.230112506048,38.218125029119996
5.9500000000000003e-08,25.17875004032,1.23323750624,38.202500030719996
6.000000000000001e-08,25.16312503936,1.23323750624,38.17750003328
6.05e-08,25.10062503552,1.234800006336,38.17750003328
6.1e-08,25.0693750336,1.236362506432,38.196250031359995
6.15e-08,25.03812503168,1.234800006336,38.243125026559994
6.2e-08,25.1475000384,1.237925006528,38.2837500224
6.250000000000001e-08,25.21000004224,1.24105000672,38.2993750208
6.300000000000001e-08,25.19437504128,1.244175006912,38.2837500224
6.35e-08,25.1475000384,1.244175006912,38.27437502336
6.4e-08,25.11625003648,1.24105000672,38.280625022719995
6.45e-08,25.11625003648,1.237925006528,38.311875019519995
6.5e-08,25.16312503936,1.24105000672,38.343125016319995
6.55e-08,25.17875004032,1.244175006912,38.343125016319995
6.600000000000001e-08,25.11625003648,1.2426125068159999,38.311875019519995
6.65e-08,25.05375003264,1.239487506624,38.30250002048
6.7e-08,25.05375003264,1.237925006528,38.32125001856
6.75e-08,25.1475000384,1.237925006528,38.343125016319995
6.8e-08,25.19437504128,1.236362506432,38.30875001984
6.85e-08,25.21000004224,1.234800006336,38.2525000256
6.900000000000001e-08,25.21000004224,1.23323750624,38.218125029119996
6.950000000000001e-08,25.17875004032,1.231675006144,38.2525000256
7e-08,25.21000004224,1.234800006336,38.333750017279996
7.05e-08,25.2256250432,1.234800006336,38.38375001216
7.1e-08,25.19437504128,1.23323750624,38.374375013119995
7.15e-08,25.1475000384,1.239487506624,38.34000001664
7.200000000000001e-08,25.1475000384,1.24105000672,38.327500017919995
7.250000000000001e-08,25.1475000384,1.239487506624,38.349375015679996
7.3e-08,25.11625003648,1.24105000672,38.3775000128
7.35e-08,25.10062503552,1.24105000672,38.365000014079996
7.4e-08,25.0693750336,1.239487506624,38.32125001856
7.45e-08,25.0693750336,1.236362506432,38.296250021119995
7.500000000000001e-08,25.11625003648,1.236362506432,38.3150000192
7.550000000000001e-08,25.17875004032,1.239487506624,38.35562501504
7.6e-08,25.24125004416,1.2426125068159999,38.3618750144
7.65e-08,25.24125004416,1.245737507008,38.327500017919995
7.7e-08,25.25687504512,1.245737507008,38.27437502336
7.75e-08,25.25687504512,1.2426125068159999,38.25562502528
7.800000000000001e-08,25.28812504704,1.2426125068159999,38.30250002048
7.850000000000001e-08,25.25687504512,1.24105000672,38.374375013119995
7.9e-08,25.2256250432,1.237925006528,38.41812500864
7.95e-08,25.17875004032,1.237925006528,38.43375000704
8e-08,25.16312503936,1.237925006528,38.43375000704
8.05e-08,25.17875004032,1.24105000672,38.443125006079995
8.100000000000001e-08,25.17875004032,1.2426125068159999,38.4556250048
8.150000000000001e-08,25.1475000384,1.237925006528,38.43687500672
8.2e-08,25.13187503744,1.236362506432,38.3618750144
8.25e-08,25.13187503744,1.237925006528,38.268125024
8.3e-08,25.16312503936,1.2426125068159999,38.19937503104
8.35e-08,25.17875004032,1.247300007104,38.211875029759995
8.400000000000001e-08,25.13187503744,1.247300007104,38.265000024319995
8.450000000000001e-08,25.08500003456,1.247300007104,38.33687501696
8.500000000000001e-08,25.1475000384,1.247300007104,38.390000011519994
8.55e-08,25.17875004032,1.245737507008,38.43687500672
8.6e-08,25.17875004032,1.245737507008,38.48375000192
8.65e-08,25.16312503936,1.2426125068159999,38.511874999039996
8.700000000000001e-08,25.16312503936,1.239487506624,38.51499999872
8.750000000000001e-08,25.17875004032,1.237925006528,38.4868750016
8.800000000000001e-08,25.21000004224,1.24105000672,38.43375000704
8.85e-08,25.19437504128,1.24105000672,38.36812501376
8.9e-08,25.17875004032,1.24105000672,38.318125018879996
8.95e-08,25.16312503936,1.2426125068159999,38.280625022719995
9.000000000000001e-08,25.17875004032,1.2426125068159999,38.24625002624
9.050000000000001e-08,25.17875004032,1.24105000672,38.211875029759995
9.100000000000001e-08,25.19437504128,1.237925006528,38.19312503168
9.15e-08,25.16312503936,1.237925006528,38.2212500288
9.2e-08,25.13187503744,1.24105000672,38.28687502208
9.25e-08,25.11625003648,1.2426125068159999,38.3618750144
9.300000000000001e-08,25.16312503936,1.244175006912,38.411875009279996
9.350000000000001e-08,25.16312503936,1.244175006912,38.4400000064
9.400000000000001e-08,25.16312503936,1.245737507008,38.458750004479995
9.45e-08,25.13187503744,1.2426125068159999,38.4712500032
9.5e-08,25.10062503552,1.244175006912,38.46187500416
9.55e-08,25.08500003456,1.245737507008,38.41812500864
9.600000000000001e-08,25.10062503552,1.2426125068159999,38.34000001664
9.650000000000001e-08,25.11625003648,1.24105000672,38.265000024319995
9.700000000000001e-08,25.08500003456,1.2426125068159999,38.233750027519996
9.75e-08,25.08500003456,1.2426125068159999,38.268125024
9.8e-08,25.11625003648,1.2426125068159999,38.333750017279996
9.85e-08,25.19437504128,1.2426125068159999,38.38687501184
9.9e-08,25.2256250432,1.24105000672,38.41500000896
9.950000000000001e-08,25.25687504512,1.239487506624,38.43687500672
1.0000000000000001e-07,25.2256250432,1.239487506624,38.46187500416
1.005e-07,25.24125004416,1.24105000672,38.48375000192
1.01e-07,25.28812504704,1.2426125068159999,38.474375002879995
1.015e-07,25.24125004416,1.2426125068159999,38.427500007679996
1.02e-07,25.13187503744,1.2426125068159999,38.343125016319995
1.0250000000000001e-07,25.05375003264,1.24105000672,38.27437502336
1.0300000000000001e-07,25.03812503168,1.239487506624,38.26187502464
1.0350000000000001e-07,25.03812503168,1.236362506432,38.30562502016
1.04e-07,25.02250003072,1.236362506432,38.349375015679996
1.045e-07,25.03812503168,1.239487506624,38.38375001216
1.05e-07,25.11625003648,1.244175006912,38.4087500096
1.0550000000000001e-07,25.19437504128,1.245737507008,38.43375000704
1.0600000000000001e-07,25.25687504512,1.2488625072,38.458750004479995
1.0650000000000001e-07,25.33500004992,1.247300007104,38.4712500032
1.07e-07,25.3818750528,1.247300007104,38.474375002879995
1.075e-07,25.36625005184,1.247300007104,38.48375000192
1.08e-07,25.303750048,1.245737507008,38.48375000192
1.0850000000000001e-07,25.17875004032,1.244175006912,38.46187500416
1.0900000000000001e-07,25.10062503552,1.2426125068159999,38.42125000832
1.0950000000000001e-07,25.11625003648,1.24105000672,38.396250010879996
1.1e-07,25.13187503744,1.24105000672,38.390000011519994
1.105e-07,25.03812503168,1.237925006528,38.396250010879996
1.11e-07,24.94437502592,1.237925006528,38.40250001024
1.1150000000000001e-07,24.94437502592,1.236362506432,38.39937501056
1.1200000000000001e-07,25.13187503744,1.236362506432,38.38687501184
1.1250000000000001e-07,25.33500004992,1.239487506624,38.38375001216
1.13e-07,25.3818750528,1.2426125068159999,38.39937501056
1.135e-07,25.28812504704,1.247300007104,38.42125000832
1.14e-07,25.2256250432,1.247300007104,38.43375000704
1.1450000000000001e-07,25.303750048,1.244175006912,38.43062500736
1.1500000000000001e-07,25.39750005376,1.244175006912,38.411875009279996
1.1550000000000001e-07,25.33500004992,1.245737507008,38.4087500096
1.16e-07,25.16312503936,1.247300007104,38.42125000832
1.165e-07,24.94437502592,1.2488625072,38.44625000576
1.17e-07,24.94437502592,1.244175006912,38.46500000384
1.1750000000000001e-07,25.0693750336,1.239487506624,38.46187500416
1.1800000000000001e-07,25.17875004032,1.239487506624,38.458750004479995
1.1850000000000001e-07,25.1475000384,1.237925006528,38.46500000384
1.1900000000000001e-07,25.03812503168,1.24105000672,38.474375002879995
1.195e-07,25.03812503168,1.2426125068159999,38.46812500352
1.2000000000000002e-07,25.19437504128,1.239487506624,38.43375000704
1.205e-07,25.428750055680002,1.24105000672,38.396250010879996
1.21e-07,25.506875060480002,1.2426125068159999,38.374375013119995
1.215e-07,25.35062505088,1.244175006912,38.3618750144
1.22e-07,25.16312503936,1.2426125068159999,38.35562501504
1.2250000000000002e-07,25.1475000384,1.237925006528,38.3775000128
1.23e-07,25.25687504512,1.234800006336,38.41812500864
1.2350000000000001e-07,25.28812504704,1.23323750624,38.46500000384
1.24e-07,25.16312503936,1.234800006336,38.47750000256
1.245e-07,24.92875002496,1.234800006336,38.4556250048
1.2500000000000002e-07,24.835000019200002,1.234800006336,38.424375008
1.255e-07,24.94437502592,1.234800006336,38.411875009279996
1.2600000000000002e-07,25.16312503936,1.237925006528,38.41812500864
1.265e-07,25.27250004608,1.24105000672,38.41500000896
1.27e-07,25.25687504512,1.244175006912,38.3931250112
1.275e-07,25.21000004224,1.2488625072,38.38375001216
1.28e-07,25.24125004416,1.2488625072,38.380625012479996
1.2850000000000002e-07,25.303750048,1.245737507008,38.405625009919994
1.29e-07,25.35062505088,1.2426125068159999,38.4400000064
1.2950000000000001e-07,25.28812504704,1.2426125068159999,38.44937500544
1.3e-07,25.1475000384,1.2426125068159999,38.44625000576
1.305e-07,25.00687502976,1.237925006528,38.458750004479995
1.31e-07,24.9912500288,1.23323750624,38.474375002879995
1.315e-07,25.0693750336,1.230112506048,38.49312500096
1.3200000000000002e-07,25.11625003648,1.231675006144,38.47750000256
1.325e-07,25.08500003456,1.234800006336,38.42125000832
1.33e-07,25.05375003264,1.23323750624,38.36812501376
1.335e-07,25.10062503552,1.234800006336,38.36812501376
1.34e-07,25.25687504512,1.236362506432,38.411875009279996
1.3450000000000002e-07,25.39750005376,1.237925006528,38.4400000064
1.35e-07,25.413125054720002,1.2426125068159999,38.4087500096
1.3550000000000002e-07,25.303750048,1.244175006912,38.365000014079996
1.36e-07,25.16312503936,1.2426125068159999,38.3618750144
1.365e-07,25.11625003648,1.24105000672,38.43062500736
1.37e-07,25.1475000384,1.239487506624,38.51499999872
1.375e-07,25.16312503936,1.237925006528,38.53999999616
1.3800000000000002e-07,25.10062503552,1.237925006528,38.49312500096
1.385e-07,24.97562502784,1.234800006336,38.46187500416
1.3900000000000001e-07,24.92875002496,1.234800006336,38.48375000192
1.395e-07,25.03812503168,1.23323750624,38.536874996479995
1.4e-07,25.16312503936,1.236362506432,38.536874996479995
1.4050000000000002e-07,25.2256250432,1.24105000672,38.47750000256
1.41e-07,25.2256250432,1.2426125068159999,38.3931250112
1.4150000000000002e-07,25.17875004032,1.239487506624,38.38375001216
1.42e-07,25.27250004608,1.239487506624,38.443125006079995
1.425e-07,25.39750005376,1.239487506624,38.511874999039996
1.43e-07,25.413125054720002,1.237925006528,38.53062499712
1.435e-07,25.25687504512,1.236362506432,38.50874999936
1.4400000000000002e-07,25.11625003648,1.231675006144,38.4868750016
1.445e-07,25.05375003264,1.230112506048,38.527499997439996
1.4500000000000001e-07,25.13187503744,1.231675006144,38.5962499904
1.455e-07,25.2256250432,1.23323750624,38.59937499008
1.46e-07,25.1475000384,1.234800006336,38.521249998079995
1.4650000000000002e-07,24.97562502784,1.23323750624,38.424375008
1.47e-07,24.92875002496,1.23323750624,38.390000011519994
1.4750000000000002e-07,25.0693750336,1.234800006336,38.43687500672
1.48e-07,25.27250004608,1.237925006528,38.48062500224
1.485e-07,25.35062505088,1.236362506432,38.4712500032
1.49e-07,25.303750048,1.236362506432,38.424375008
1.495e-07,25.21000004224,1.234800006336,38.427500007679996
1.5000000000000002e-07,25.25687504512,1.23323750624,38.496250000639996
1.505e-07,25.35062505088,1.23323750624,38.580624992
1.5100000000000002e-07,25.39750005376,1.23323750624,38.59312499072
1.515e-07,25.28812504704,1.23323750624,38.54624999552
1.52e-07,25.11625003648,1.230112506048,38.505624999679995
1.5250000000000002e-07,25.05375003264,1.231675006144,38.505624999679995
1.53e-07,25.08500003456,1.231675006144,38.53999999616
1.5350000000000002e-07,25.17875004032,1.230112506048,38.54624999552
1.54e-07,25.17875004032,1.226987505856,38.5025
1.5450000000000001e-07,25.10062503552,1.228550005952,38.443125006079995
1.55e-07,25.05375003264,1.228550005952,38.43062500736
1.555e-07,25.1475000384,1.228550005952,38.48062500224
1.5600000000000002e-07,25.303750048,1.231675006144,38.536874996479995
1.565e-07,25.33500004992,1.234800006336,38.53999999616
1.5700000000000002e-07,25.24125004416,1.236362506432,38.48062500224
1.575e-07,25.11625003648,1.237925006528,38.443125006079995
1.58e-07,25.13187503744,1.236362506432,38.4712500032
1.5850000000000002e-07,25.2256250432,1.234800006336,38.51499999872
1.59e-07,25.25687504512,1.23323750624,38.53062499712
1.5950000000000002e-07,25.1475000384,1.23323750624,38.50874999936
1.6e-07,25.00687502976,1.230112506048,38.48062500224
1.6050000000000001e-07,24.9912500288,1.230112506048,38.49312500096
1.61e-07,25.10062503552,1.228550005952,38.53999999616
1.615e-07,25.2256250432,1.231675006144,38.56187499392
1.6200000000000002e-07,25.27250004608,1.231675006144,38.521249998079995
1.625e-07,25.24125004416,1.231675006144,38.4556250048
1.6300000000000002e-07,25.2256250432,1.234800006336,38.411875009279996
1.635e-07,25.27250004608,1.236362506432,38.42125000832
1.64e-07,25.303750048,1.236362506432,38.43687500672
1.645e-07,25.24125004416,1.236362506432,38.42125000832
