Time (s),VIN,IIN,VOUT
0.0,25.2406250432,1.3013750063360001,40.6392500096
5e-10,25.365625050880002,1.3029375064320001,40.68300000512
1e-09,25.428125054720002,1.3045000065280001,40.733
1.5000000000000002e-09,25.350000049920002,1.3045000065280001,40.75487499776
2e-09,25.22500004224,1.29981250624,40.767374996479994
2.5e-09,25.13125003648,1.29981250624,40.789249994239995
3.0000000000000004e-09,25.17812503936,1.296687506048,40.798624993279994
3.5000000000000003e-09,25.25625004416,1.295125005952,40.7798749952
4e-09,25.19375004032,1.296687506048,40.742374999039995
4.500000000000001e-09,25.10000003456,1.296687506048,40.726750000639996
5e-09,25.06875003264,1.293562505856,40.72362500096
5.5000000000000004e-09,25.11562503552,1.29200000576,40.742374999039995
6.000000000000001e-09,25.2406250432,1.296687506048,40.77049999616
6.5e-09,25.318750048000002,1.3013750063360001,40.77674999552
7.000000000000001e-09,25.30312504704,1.29981250624,40.767374996479994
7.500000000000001e-09,25.22500004224,1.296687506048,40.7642499968
8e-09,25.2406250432,1.293562505856,40.7642499968
8.5e-09,25.30312504704,1.298250006144,40.7642499968
9.000000000000001e-09,25.334375048960002,1.298250006144,40.7486249984
9.5e-09,25.27187504512,1.298250006144,40.72987500032
1e-08,25.14687503744,1.298250006144,40.72987500032
1.0500000000000001e-08,25.10000003456,1.296687506048,40.757999997439995
1.1000000000000001e-08,25.10000003456,1.29981250624,40.78612499456
1.15e-08,25.14687503744,1.3013750063360001,40.804874992639995
1.2000000000000002e-08,25.11562503552,1.3029375064320001,40.78612499456
1.2500000000000001e-08,25.11562503552,1.3029375064320001,40.751749998079994
1.3e-08,25.14687503744,1.29981250624,40.733
1.35e-08,25.20937504128,1.29981250624,40.72987500032
1.4000000000000001e-08,25.28750004608,1.3029375064320001,40.72987500032
1.45e-08,25.28750004608,1.29981250624,40.7173750016
1.5000000000000002e-08,25.27187504512,1.296687506048,40.69237500416
1.55e-08,25.25625004416,1.29981250624,40.673625006079995
1.6e-08,25.28750004608,1.298250006144,40.658000007679995
1.6500000000000002e-08,25.28750004608,1.29981250624,40.654875008
1.7e-08,25.20937504128,1.29981250624,40.642375009279995
1.75e-08,25.10000003456,1.29981250624,40.620500011519994
1.8000000000000002e-08,25.0062500288,1.295125005952,40.5923750144
1.85e-08,25.02187502976,1.29200000576,40.595500014079995
1.9e-08,25.0843750336,1.295125005952,40.6236250112
1.9500000000000003e-08,25.11562503552,1.296687506048,40.679875005439996
2e-08,25.11562503552,1.298250006144,40.726750000639996
2.05e-08,25.11562503552,1.298250006144,40.73924999936
2.1000000000000003e-08,25.1625000384,1.295125005952,40.7173750016
2.15e-08,25.20937504128,1.295125005952,40.673625006079995
2.2000000000000002e-08,25.28750004608,1.3013750063360001,40.6236250112
2.2500000000000003e-08,25.28750004608,1.306062506624,40.58300001536
2.3e-08,25.27187504512,1.3045000065280001,40.564250017279996
2.3500000000000002e-08,25.20937504128,1.3029375064320001,40.558000017919994
2.4000000000000003e-08,25.14687503744,1.3013750063360001,40.564250017279996
2.45e-08,25.13125003648,1.3029375064320001,40.589250014719994
2.5000000000000002e-08,25.0843750336,1.3013750063360001,40.6392500096
2.55e-08,25.06875003264,1.3013750063360001,40.7017500032
2.6e-08,25.06875003264,1.29981250624,40.733
2.6500000000000002e-08,25.06875003264,1.295125005952,40.72987500032
2.7e-08,25.11562503552,1.298250006144,40.689250004479995
2.75e-08,25.20937504128,1.29981250624,40.654875008
2.8000000000000003e-08,25.25625004416,1.298250006144,40.61737501184
2.85e-08,25.25625004416,1.295125005952,40.5923750144
2.9e-08,25.25625004416,1.293562505856,40.564250017279996
2.9500000000000003e-08,25.2406250432,1.296687506048,40.53925001984
3.0000000000000004e-08,25.2406250432,1.3013750063360001,40.526750021119994
3.05e-08,25.1625000384,1.3013750063360001,40.53925001984
3.1e-08,25.11562503552,1.3029375064320001,40.576750016
3.1500000000000004e-08,25.11562503552,1.3029375064320001,40.626750010879995
3.2e-08,25.13125003648,1.3013750063360001,40.66112500736
3.25e-08,25.10000003456,1.3029375064320001,40.66737500672
3.3000000000000004e-08,25.06875003264,1.3045000065280001,40.658000007679995
3.35e-08,25.10000003456,1.3045000065280001,40.648625008639996
3.4e-08,25.17812503936,1.3045000065280001,40.63612500991999
3.4500000000000005e-08,25.25625004416,1.3029375064320001,40.61737501184
3.5e-08,25.30312504704,1.3029375064320001,40.58300001536
3.55e-08,25.27187504512,1.3045000065280001,40.548625018879996
3.6000000000000005e-08,25.19375004032,1.3029375064320001,40.526750021119994
3.65e-08,25.17812503936,1.3013750063360001,40.53612502016
3.7e-08,25.20937504128,1.29981250624,40.5455000192
3.7500000000000005e-08,25.19375004032,1.29981250624,40.5455000192
3.8e-08,25.17812503936,1.3013750063360001,40.53925001984
3.85e-08,25.13125003648,1.29981250624,40.55175001856
3.9000000000000005e-08,25.10000003456,1.296687506048,40.576750016
3.95e-08,25.11562503552,1.298250006144,40.6236250112
4e-08,25.17812503936,1.298250006144,40.654875008
4.0500000000000005e-08,25.22500004224,1.3013750063360001,40.648625008639996
4.1e-08,25.22500004224,1.3045000065280001,40.626750010879995
4.15e-08,25.17812503936,1.306062506624,40.595500014079995
4.2000000000000006e-08,25.13125003648,1.3045000065280001,40.576750016
4.2500000000000003e-08,25.19375004032,1.3013750063360001,40.573625016319994
4.3e-08,25.2406250432,1.29981250624,40.558000017919994
4.3500000000000006e-08,25.22500004224,1.29981250624,40.55175001856
4.4000000000000004e-08,25.11562503552,1.3013750063360001,40.548625018879996
4.45e-08,25.06875003264,1.3029375064320001,40.576750016
4.5000000000000006e-08,25.11562503552,1.29981250624,40.60175001344
4.5500000000000004e-08,25.20937504128,1.298250006144,40.604875013119994
4.6e-08,25.2406250432,1.295125005952,40.576750016
4.6500000000000006e-08,25.19375004032,1.293562505856,40.542375019519994
4.7000000000000004e-08,25.11562503552,1.295125005952,40.52050002176
4.75e-08,25.13125003648,1.296687506048,40.5142500224
4.8000000000000006e-08,25.22500004224,1.296687506048,40.5142500224
4.8500000000000004e-08,25.30312504704,1.298250006144,40.50800002304
4.9e-08,25.2406250432,1.298250006144,40.49237502464
4.95e-08,25.13125003648,1.3013750063360001,40.48925002496
5.0000000000000004e-08,25.05312503168,1.3013750063360001,40.5142500224
5.05e-08,25.10000003456,1.296687506048,40.564250017279996
5.1e-08,25.17812503936,1.296687506048,40.58300001536
5.1500000000000005e-08,25.19375004032,1.3013750063360001,40.5455000192
5.2e-08,25.11562503552,1.3045000065280001,40.470500026879996
5.25e-08,25.06875003264,1.3045000065280001,40.420500032
5.3000000000000005e-08,25.05312503168,1.3013750063360001,40.426750031359994
5.35e-08,25.11562503552,1.3013750063360001,40.47362502655999
5.4e-08,25.22500004224,1.306062506624,40.52362502144
5.4500000000000005e-08,25.2406250432,1.309187506816,40.542375019519994
5.5e-08,25.19375004032,1.30762500672,40.526750021119994
5.55e-08,25.13125003648,1.3045000065280001,40.53612502016
5.6000000000000005e-08,25.13125003648,1.29981250624,40.57050001664
5.65e-08,25.19375004032,1.29981250624,40.5923750144
5.7e-08,25.20937504128,1.3013750063360001,40.573625016319994
5.7500000000000005e-08,25.17812503936,1.29981250624,40.498625024
5.8e-08,25.0843750336,1.296687506048,40.426750031359994
5.85e-08,25.03750003072,1.293562505856,40.420500032
5.9000000000000006e-08,25.05312503168,1.296687506048,40.4673750272
5.9500000000000003e-08,25.11562503552,1.296687506048,40.50487502336
6.000000000000001e-08,25.17812503936,1.298250006144,40.4830000256
6.05e-08,25.13125003648,1.3029375064320001,40.4361250304
6.1e-08,25.0843750336,1.3013750063360001,40.41425003264
6.15e-08,25.06875003264,1.3013750063360001,40.442375029759994
6.2e-08,25.14687503744,1.3045000065280001,40.498625024
6.250000000000001e-08,25.2406250432,1.306062506624,40.526750021119994
6.300000000000001e-08,25.22500004224,1.30762500672,40.50487502336
6.35e-08,25.19375004032,1.3045000065280001,40.479875025919995
6.4e-08,25.13125003648,1.3013750063360001,40.4830000256
6.45e-08,25.10000003456,1.3013750063360001,40.52050002176
6.5e-08,25.11562503552,1.29981250624,40.55175001856
6.55e-08,25.14687503744,1.298250006144,40.53925001984
6.600000000000001e-08,25.10000003456,1.29981250624,40.49237502464
6.65e-08,25.06875003264,1.3013750063360001,40.470500026879996
6.7e-08,25.0843750336,1.3013750063360001,40.501750023679996
6.75e-08,25.14687503744,1.3029375064320001,40.558000017919994
6.8e-08,25.20937504128,1.3029375064320001,40.573625016319994
6.85e-08,25.25625004416,1.3045000065280001,40.548625018879996
6.900000000000001e-08,25.27187504512,1.3029375064320001,40.5142500224
6.950000000000001e-08,25.2406250432,1.3045000065280001,40.52362502144
7e-08,25.2406250432,1.3045000065280001,40.5611250176
7.05e-08,25.22500004224,1.3013750063360001,40.59862501376
7.1e-08,25.20937504128,1.29981250624,40.58612501504
7.15e-08,25.1625000384,1.29981250624,40.548625018879996
7.200000000000001e-08,25.10000003456,1.29981250624,40.5298750208
7.250000000000001e-08,25.06875003264,1.298250006144,40.548625018879996
7.3e-08,25.06875003264,1.3013750063360001,40.58612501504
7.35e-08,25.10000003456,1.3045000065280001,40.60175001344
7.4e-08,25.14687503744,1.306062506624,40.58300001536
7.45e-08,25.1625000384,1.306062506624,40.55487501824
7.500000000000001e-08,25.1625000384,1.306062506624,40.548625018879996
7.550000000000001e-08,25.17812503936,1.3029375064320001,40.55175001856
7.6e-08,25.30312504704,1.3029375064320001,40.53925001984
7.65e-08,25.350000049920002,1.3045000065280001,40.517375022079996
7.7e-08,25.396875052800002,1.3045000065280001,40.501750023679996
7.75e-08,25.318750048000002,1.3045000065280001,40.52362502144
7.800000000000001e-08,25.22500004224,1.3029375064320001,40.58300001536
7.850000000000001e-08,25.1625000384,1.29981250624,40.658000007679995
7.9e-08,25.19375004032,1.29981250624,40.711125002239996
7.95e-08,25.20937504128,1.3045000065280001,40.72362500096
8e-08,25.17812503936,1.3045000065280001,40.70800000256
8.05e-08,25.13125003648,1.3045000065280001,40.68300000512
8.100000000000001e-08,25.10000003456,1.3029375064320001,40.658000007679995
8.150000000000001e-08,25.13125003648,1.3029375064320001,40.61737501184
8.2e-08,25.19375004032,1.3045000065280001,40.55175001856
8.25e-08,25.2406250432,1.306062506624,40.495500024319995
8.3e-08,25.2406250432,1.309187506816,40.470500026879996
8.35e-08,25.2406250432,1.309187506816,40.49237502464
8.400000000000001e-08,25.22500004224,1.30762500672,40.55175001856
8.450000000000001e-08,25.2406250432,1.309187506816,40.6236250112
8.500000000000001e-08,25.28750004608,1.310750006912,40.68300000512
8.55e-08,25.2406250432,1.310750006912,40.726750000639996
8.6e-08,25.1625000384,1.30762500672,40.7642499968
8.65e-08,25.10000003456,1.30762500672,40.773624995839995
8.700000000000001e-08,25.0843750336,1.30762500672,40.751749998079994
8.750000000000001e-08,25.14687503744,1.306062506624,40.711125002239996
8.800000000000001e-08,25.20937504128,1.306062506624,40.633000010239996
8.85e-08,25.2406250432,1.306062506624,40.5611250176
8.9e-08,25.17812503936,1.306062506624,40.511125022719995
8.95e-08,25.1625000384,1.306062506624,40.47675002624
9.000000000000001e-08,25.19375004032,1.306062506624,40.458000028159994
9.050000000000001e-08,25.2406250432,1.30762500672,40.45487502848
9.100000000000001e-08,25.25625004416,1.310750006912,40.470500026879996
9.15e-08,25.20937504128,1.310750006912,40.53612502016
9.2e-08,25.14687503744,1.309187506816,40.620500011519994
9.25e-08,25.11562503552,1.30762500672,40.70800000256
9.300000000000001e-08,25.11562503552,1.306062506624,40.742374999039995
9.350000000000001e-08,25.13125003648,1.306062506624,40.742374999039995
9.400000000000001e-08,25.13125003648,1.309187506816,40.72362500096
9.45e-08,25.0843750336,1.30762500672,40.689250004479995
9.5e-08,25.05312503168,1.306062506624,40.6392500096
9.55e-08,25.03750003072,1.30762500672,40.58300001536
9.600000000000001e-08,25.11562503552,1.310750006912,40.50800002304
9.650000000000001e-08,25.22500004224,1.312312507008,40.46112502784
9.700000000000001e-08,25.2406250432,1.309187506816,40.470500026879996
9.75e-08,25.22500004224,1.310750006912,40.533000020479996
9.8e-08,25.22500004224,1.3154375072,40.61425001216
9.85e-08,25.2406250432,1.313875007104,40.6861250048
9.9e-08,25.25625004416,1.313875007104,40.720500001279994
9.950000000000001e-08,25.19375004032,1.312312507008,40.74549999872
1.0000000000000001e-07,25.11562503552,1.310750006912,40.751749998079994
1.005e-07,25.03750003072,1.30762500672,40.74549999872
1.01e-07,25.03750003072,1.306062506624,40.70800000256
1.015e-07,25.06875003264,1.306062506624,40.65175000832
1.02e-07,25.0843750336,1.30762500672,40.579875015679995
1.0250000000000001e-07,25.10000003456,1.30762500672,40.52362502144
1.0300000000000001e-07,25.1625000384,1.3045000065280001,40.50487502336
1.0350000000000001e-07,25.19375004032,1.3045000065280001,40.5298750208
1.04e-07,25.20937504128,1.30762500672,40.57050001664
1.045e-07,25.2406250432,1.310750006912,40.6236250112
1.05e-07,25.2406250432,1.310750006912,40.679875005439996
1.0550000000000001e-07,25.27187504512,1.313875007104,40.72362500096
1.0600000000000001e-07,25.27187504512,1.313875007104,40.73924999936
1.0650000000000001e-07,25.25625004416,1.313875007104,40.742374999039995
1.07e-07,25.2406250432,1.313875007104,40.72987500032
1.075e-07,25.20937504128,1.313875007104,40.726750000639996
1.08e-07,25.17812503936,1.312312507008,40.7173750016
1.0850000000000001e-07,25.10000003456,1.309187506816,40.689250004479995
1.0900000000000001e-07,25.05312503168,1.30762500672,40.62987501056
1.0950000000000001e-07,25.10000003456,1.309187506816,40.595500014079995
1.1e-07,25.19375004032,1.312312507008,40.58612501504
1.105e-07,25.14687503744,1.309187506816,40.604875013119994
1.11e-07,25.05312503168,1.30762500672,40.62987501056
1.1150000000000001e-07,25.03750003072,1.306062506624,40.64550000896
1.1200000000000001e-07,25.20937504128,1.306062506624,40.648625008639996
1.1250000000000001e-07,25.443750055680002,1.306062506624,40.664250007039996
1.13e-07,25.490625058560003,1.30762500672,40.695500003839996
1.135e-07,25.334375048960002,1.309187506816,40.72362500096
1.14e-07,25.1625000384,1.306062506624,40.720500001279994
1.1450000000000001e-07,25.19375004032,1.306062506624,40.704875002879994
1.1500000000000001e-07,25.318750048000002,1.30762500672,40.67675000576
1.1550000000000001e-07,25.30312504704,1.309187506816,40.679875005439996
1.16e-07,25.13125003648,1.309187506816,40.704875002879994
1.165e-07,24.928125024,1.30762500672,40.736124999679994
1.17e-07,24.928125024,1.306062506624,40.733
1.1750000000000001e-07,25.11562503552,1.3045000065280001,40.695500003839996
1.1800000000000001e-07,25.334375048960002,1.306062506624,40.66737500672
1.1850000000000001e-07,25.350000049920002,1.30762500672,40.66112500736
1.1900000000000001e-07,25.20937504128,1.310750006912,40.689250004479995
1.195e-07,25.11562503552,1.310750006912,40.720500001279994
1.2000000000000002e-07,25.2406250432,1.30762500672,40.7017500032
1.205e-07,25.428125054720002,1.306062506624,40.67675000576
1.21e-07,25.475000057600003,1.306062506624,40.66737500672
1.215e-07,25.318750048000002,1.30762500672,40.67675000576
1.22e-07,25.06875003264,1.306062506624,40.69862500352
1.2250000000000002e-07,25.0062500288,1.3013750063360001,40.720500001279994
1.23e-07,25.13125003648,1.29981250624,40.720500001279994
1.2350000000000001e-07,25.27187504512,1.3013750063360001,40.72362500096
1.24e-07,25.22500004224,1.306062506624,40.720500001279994
1.245e-07,25.0843750336,1.30762500672,40.70800000256
1.2500000000000002e-07,25.03750003072,1.306062506624,40.68300000512
1.255e-07,25.13125003648,1.306062506624,40.654875008
1.2600000000000002e-07,25.334375048960002,1.310750006912,40.6392500096
1.265e-07,25.381250051840002,1.310750006912,40.633000010239996
1.27e-07,25.30312504704,1.310750006912,40.62987501056
1.275e-07,25.19375004032,1.312312507008,40.63612500991999
1.28e-07,25.19375004032,1.309187506816,40.6392500096
1.2850000000000002e-07,25.25625004416,1.306062506624,40.658000007679995
1.29e-07,25.25625004416,1.306062506624,40.711125002239996
1.2950000000000001e-07,25.1625000384,1.306062506624,40.75487499776
1.3e-07,25.03750003072,1.3029375064320001,40.757999997439995
1.305e-07,24.928125024,1.3013750063360001,40.733
1.31e-07,24.99062502784,1.296687506048,40.69862500352
1.315e-07,25.13125003648,1.296687506048,40.7017500032
1.3200000000000002e-07,25.25625004416,1.296687506048,40.71425000192
1.325e-07,25.25625004416,1.3013750063360001,40.695500003839996
1.33e-07,25.2406250432,1.298250006144,40.62987501056
1.335e-07,25.19375004032,1.298250006144,40.5923750144
1.34e-07,25.318750048000002,1.29981250624,40.626750010879995
1.3450000000000002e-07,25.396875052800002,1.306062506624,40.7017500032
1.35e-07,25.381250051840002,1.306062506624,40.742374999039995
1.3550000000000002e-07,25.22500004224,1.3045000065280001,40.72362500096
1.36e-07,25.06875003264,1.29981250624,40.6705000064
1.365e-07,24.99062502784,1.296687506048,40.658000007679995
1.37e-07,25.0062500288,1.3013750063360001,40.70800000256
1.375e-07,25.0843750336,1.3029375064320001,40.767374996479994
1.3800000000000002e-07,25.05312503168,1.3013750063360001,40.7642499968
1.385e-07,25.02187502976,1.3013750063360001,40.72362500096
1.3900000000000001e-07,25.06875003264,1.29981250624,40.6861250048
1.395e-07,25.20937504128,1.3029375064320001,40.7017500032
1.4e-07,25.350000049920002,1.306062506624,40.72987500032
1.4050000000000002e-07,25.396875052800002,1.3045000065280001,40.736124999679994
1.41e-07,25.318750048000002,1.298250006144,40.704875002879994
1.4150000000000002e-07,25.2406250432,1.298250006144,40.6861250048
1.42e-07,25.2406250432,1.3029375064320001,40.71425000192
1.425e-07,25.30312504704,1.3013750063360001,40.77674999552
1.43e-07,25.318750048000002,1.29981250624,40.820499991039995
1.435e-07,25.17812503936,1.298250006144,40.82362499072
1.4400000000000002e-07,25.0062500288,1.295125005952,40.78612499456
1.445e-07,24.95937502592,1.296687506048,40.76112499712
1.4500000000000001e-07,25.06875003264,1.296687506048,40.76112499712
1.455e-07,25.22500004224,1.3013750063360001,40.7642499968
1.46e-07,25.25625004416,1.29981250624,40.72362500096
1.4650000000000002e-07,25.17812503936,1.29981250624,40.66737500672
1.47e-07,25.13125003648,1.3013750063360001,40.626750010879995
1.4750000000000002e-07,25.22500004224,1.29981250624,40.648625008639996
1.48e-07,25.365625050880002,1.29981250624,40.69237500416
1.485e-07,25.428125054720002,1.29981250624,40.736124999679994
1.49e-07,25.365625050880002,1.29981250624,40.751749998079994
1.495e-07,25.22500004224,1.298250006144,40.767374996479994
1.5000000000000002e-07,25.14687503744,1.296687506048,40.782999994879994
1.505e-07,25.17812503936,1.298250006144,40.79237499392
1.5100000000000002e-07,25.27187504512,1.296687506048,40.77049999616
1.515e-07,25.19375004032,1.295125005952,40.736124999679994
1.52e-07,25.10000003456,1.293562505856,40.71425000192
1.5250000000000002e-07,25.05312503168,1.293562505856,40.7173750016
1.53e-07,25.11562503552,1.295125005952,40.742374999039995
1.5350000000000002e-07,25.2406250432,1.296687506048,40.7642499968
1.54e-07,25.318750048000002,1.295125005952,40.7642499968
1.5450000000000001e-07,25.28750004608,1.295125005952,40.751749998079994
1.55e-07,25.22500004224,1.298250006144,40.73924999936
1.555e-07,25.22500004224,1.29981250624,40.74549999872
1.5600000000000002e-07,25.28750004608,1.29981250624,40.7486249984
1.565e-07,25.318750048000002,1.3013750063360001,40.733
1.5700000000000002e-07,25.2406250432,1.3013750063360001,40.70800000256
1.575e-07,25.13125003648,1.298250006144,40.711125002239996
1.58e-07,25.0843750336,1.298250006144,40.736124999679994
1.5850000000000002e-07,25.10000003456,1.29981250624,40.767374996479994
1.59e-07,25.13125003648,1.3013750063360001,40.773624995839995
1.5950000000000002e-07,25.10000003456,1.3045000065280001,40.76112499712
1.6e-07,25.10000003456,1.3029375064320001,40.733
1.6050000000000001e-07,25.13125003648,1.29981250624,40.71425000192
1.61e-07,25.20937504128,1.298250006144,40.70800000256
