Time (s),VIN,IIN,VOUT
0.0,24.27187498944,1.5926125073919999,45.29762500096
5e-10,24.27187498944,1.594175007488,45.34450000384
1e-09,24.2874999904,1.595737507584,45.29762500096
1.5000000000000002e-09,24.34999999424,1.5910500072959999,45.235124997119996
2e-09,24.31874999232,1.5894875071999999,45.250749998079996
2.5e-09,24.25624998848,1.5863625070079999,45.31325000192
3.0000000000000004e-09,24.2874999904,1.5879250071039999,45.32887500288
3.5000000000000003e-09,24.31874999232,1.5926125073919999,45.34450000384
4e-09,24.33437499328,1.5910500072959999,45.282
4.500000000000001e-09,24.31874999232,1.5879250071039999,45.266374999039996
5e-09,24.30312499136,1.5879250071039999,45.282
5.5000000000000004e-09,24.27187498944,1.5894875071999999,45.31325000192
6.000000000000001e-09,24.30312499136,1.595737507584,45.282
6.5e-09,24.34999999424,1.59730000768,45.250749998079996
7.000000000000001e-09,24.33437499328,1.5926125073919999,45.203874995199996
7.500000000000001e-09,24.24062498752,1.5848000069119998,45.203874995199996
8e-09,24.19374998464,1.5848000069119998,45.235124997119996
8.5e-09,24.24062498752,1.5863625070079999,45.282
9.000000000000001e-09,24.30312499136,1.5894875071999999,45.219499996159996
9.5e-09,24.3656249952,1.5848000069119998,45.141374991359996
1e-08,24.3656249952,1.5848000069119998,45.188249994239996
1.0500000000000001e-08,24.2874999904,1.5832375068159998,45.250749998079996
1.1000000000000001e-08,24.25624998848,1.5848000069119998,45.29762500096
1.15e-08,24.25624998848,1.5863625070079999,45.32887500288
1.2000000000000002e-08,24.33437499328,1.5863625070079999,45.266374999039996
1.2500000000000001e-08,24.34999999424,1.5816750067199998,45.235124997119996
1.3e-08,24.31874999232,1.5832375068159998,45.219499996159996
1.35e-08,24.30312499136,1.5848000069119998,45.250749998079996
1.4000000000000001e-08,24.30312499136,1.5879250071039999,45.235124997119996
1.45e-08,24.38124999616,1.5926125073919999,45.188249994239996
1.5000000000000002e-08,24.38124999616,1.5910500072959999,45.125749990399996
1.55e-08,24.3656249952,1.5848000069119998,45.125749990399996
1.6e-08,24.30312499136,1.5832375068159998,45.188249994239996
1.6500000000000002e-08,24.30312499136,1.5848000069119998,45.29762500096
1.7e-08,24.33437499328,1.5879250071039999,45.32887500288
1.75e-08,24.3656249952,1.5863625070079999,45.29762500096
1.8000000000000002e-08,24.33437499328,1.5863625070079999,45.282
1.85e-08,24.24062498752,1.5832375068159998,45.29762500096
1.9e-08,24.2093749856,1.5848000069119998,45.32887500288
1.9500000000000003e-08,24.27187498944,1.5894875071999999,45.34450000384
2e-08,24.39687499712,1.5894875071999999,45.29762500096
2.05e-08,24.38124999616,1.5863625070079999,45.266374999039996
2.1000000000000003e-08,24.3656249952,1.5848000069119998,45.235124997119996
2.15e-08,24.3656249952,1.5832375068159998,45.250749998079996
2.2000000000000002e-08,24.38124999616,1.5832375068159998,45.219499996159996
2.2500000000000003e-08,24.44375,1.5832375068159998,45.188249994239996
2.3e-08,24.44375,1.5832375068159998,45.172624993279996
2.3500000000000002e-08,24.42812499904,1.5816750067199998,45.188249994239996
2.4000000000000003e-08,24.3656249952,1.5848000069119998,45.203874995199996
2.45e-08,24.31874999232,1.5832375068159998,45.282
2.5000000000000002e-08,24.34999999424,1.5832375068159998,45.266374999039996
2.55e-08,24.41249999808,1.5816750067199998,45.282
2.6e-08,24.39687499712,1.5832375068159998,45.31325000192
2.6500000000000002e-08,24.25624998848,1.5863625070079999,45.3601250048
2.7e-08,24.14687498176,1.5879250071039999,45.40700000768
2.75e-08,24.14687498176,1.5894875071999999,45.40700000768
2.8000000000000003e-08,24.31874999232,1.5832375068159998,45.3601250048
2.85e-08,24.42812499904,1.5816750067199998,45.34450000384
2.9e-08,24.42812499904,1.5816750067199998,45.29762500096
2.9500000000000003e-08,24.34999999424,1.5832375068159998,45.29762500096
3.0000000000000004e-08,24.31874999232,1.5863625070079999,45.282
3.05e-08,24.31874999232,1.5863625070079999,45.250749998079996
3.1e-08,24.41249999808,1.5816750067199998,45.266374999039996
3.1500000000000004e-08,24.47500000192,1.5801125066239998,45.250749998079996
3.2e-08,24.42812499904,1.5832375068159998,45.282
3.25e-08,24.2874999904,1.5863625070079999,45.34450000384
3.3000000000000004e-08,24.2093749856,1.5848000069119998,45.39137500672
3.35e-08,24.22499998656,1.5816750067199998,45.39137500672
3.4e-08,24.22499998656,1.5816750067199998,45.3601250048
3.4500000000000005e-08,24.22499998656,1.5832375068159998,45.31325000192
3.5e-08,24.25624998848,1.5848000069119998,45.266374999039996
3.55e-08,24.27187498944,1.5879250071039999,45.282
3.6000000000000005e-08,24.33437499328,1.5848000069119998,45.29762500096
3.65e-08,24.31874999232,1.5816750067199998,45.34450000384
3.7e-08,24.33437499328,1.5816750067199998,45.29762500096
3.7500000000000005e-08,24.3656249952,1.5816750067199998,45.29762500096
3.8e-08,24.34999999424,1.5848000069119998,45.282
3.85e-08,24.3656249952,1.5879250071039999,45.31325000192
3.9000000000000005e-08,24.33437499328,1.5863625070079999,45.42262500864
3.95e-08,24.33437499328,1.5863625070079999,45.46950001152
4e-08,24.34999999424,1.5910500072959999,45.39137500672
4.0500000000000005e-08,24.3656249952,1.5926125073919999,45.3601250048
4.1e-08,24.33437499328,1.5926125073919999,45.34450000384
4.15e-08,24.2874999904,1.5863625070079999,45.3601250048
4.2000000000000006e-08,24.22499998656,1.5879250071039999,45.42262500864
4.2500000000000003e-08,24.2093749856,1.5926125073919999,45.40700000768
4.3e-08,24.27187498944,1.594175007488,45.32887500288
4.3500000000000006e-08,24.31874999232,1.595737507584,45.266374999039996
4.4000000000000004e-08,24.34999999424,1.5879250071039999,45.266374999039996
4.45e-08,24.27187498944,1.5816750067199998,45.34450000384
4.5000000000000006e-08,24.16249998272,1.5848000069119998,45.42262500864
4.5500000000000004e-08,24.19374998464,1.5894875071999999,45.46950001152
4.6e-08,24.2874999904,1.5926125073919999,45.3601250048
4.6500000000000006e-08,24.38124999616,1.5910500072959999,45.29762500096
4.7000000000000004e-08,24.33437499328,1.5832375068159998,45.3601250048
4.75e-08,24.17812498368,1.5816750067199998,45.46950001152
4.8000000000000006e-08,24.084374977920003,1.5863625070079999,45.50075001344
4.8500000000000004e-08,24.11562497984,1.5910500072959999,45.42262500864
4.9e-08,24.22499998656,1.5879250071039999,45.31325000192
4.95e-08,24.3656249952,1.5863625070079999,45.282
5.0000000000000004e-08,24.39687499712,1.5848000069119998,45.31325000192
5.05e-08,24.30312499136,1.5879250071039999,45.39137500672
5.1e-08,24.27187498944,1.5926125073919999,45.3601250048
5.1500000000000005e-08,24.27187498944,1.594175007488,45.282
5.2e-08,24.30312499136,1.5863625070079999,45.235124997119996
5.25e-08,24.27187498944,1.5832375068159998,45.34450000384
5.3000000000000005e-08,24.2093749856,1.5879250071039999,45.48512501248
5.35e-08,24.17812498368,1.5926125073919999,45.56325001728
5.4e-08,24.22499998656,1.594175007488,45.50075001344
5.4500000000000005e-08,24.22499998656,1.594175007488,45.37575000576
5.5e-08,24.14687498176,1.5894875071999999,45.39137500672
5.55e-08,24.1312499808,1.5894875071999999,45.46950001152
5.6000000000000005e-08,24.16249998272,1.594175007488,45.50075001344
5.65e-08,24.2874999904,1.600425007872,45.4382500096
5.7e-08,24.3656249952,1.600425007872,45.31325000192
5.7500000000000005e-08,24.34999999424,1.5910500072959999,45.266374999039996
5.8e-08,24.2093749856,1.5894875071999999,45.34450000384
5.85e-08,24.16249998272,1.5926125073919999,45.4382500096
5.9000000000000006e-08,24.2093749856,1.59730000768,45.42262500864
5.9500000000000003e-08,24.2874999904,1.598862507776,45.37575000576
6.000000000000001e-08,24.33437499328,1.5926125073919999,45.34450000384
6.05e-08,24.22499998656,1.5863625070079999,45.45387501056
6.1e-08,24.11562497984,1.5894875071999999,45.5163750144
6.15e-08,24.09999997888,1.595737507584,45.56325001728
6.2e-08,24.17812498368,1.59730000768,45.46950001152
6.250000000000001e-08,24.25624998848,1.595737507584,45.37575000576
6.300000000000001e-08,24.22499998656,1.5910500072959999,45.39137500672
6.35e-08,24.16249998272,1.5926125073919999,45.46950001152
6.4e-08,24.14687498176,1.598862507776,45.48512501248
6.45e-08,24.22499998656,1.600425007872,45.48512501248
6.5e-08,24.27187498944,1.59730000768,45.39137500672
6.55e-08,24.24062498752,1.5926125073919999,45.32887500288
6.600000000000001e-08,24.19374998464,1.595737507584,45.37575000576
6.65e-08,24.17812498368,1.601987507968,45.42262500864
6.7e-08,24.22499998656,1.60511250816,45.42262500864
6.75e-08,24.27187498944,1.600425007872,45.40700000768
6.8e-08,24.27187498944,1.594175007488,45.39137500672
6.85e-08,24.16249998272,1.5926125073919999,45.45387501056
6.900000000000001e-08,24.068749976960003,1.59730000768,45.46950001152
6.950000000000001e-08,24.1312499808,1.600425007872,45.48512501248
7e-08,24.25624998848,1.601987507968,45.46950001152
7.05e-08,24.31874999232,1.598862507776,45.42262500864
7.1e-08,24.2093749856,1.594175007488,45.42262500864
7.15e-08,24.11562497984,1.594175007488,45.42262500864
7.200000000000001e-08,24.11562497984,1.600425007872,45.42262500864
7.250000000000001e-08,24.16249998272,1.601987507968,45.4382500096
7.3e-08,24.24062498752,1.601987507968,45.42262500864
7.35e-08,24.30312499136,1.59730000768,45.40700000768
7.4e-08,24.2093749856,1.598862507776,45.45387501056
7.45e-08,24.1312499808,1.603550008064,45.46950001152
7.500000000000001e-08,24.17812498368,1.603550008064,45.4382500096
7.550000000000001e-08,24.19374998464,1.600425007872,45.42262500864
7.6e-08,24.2093749856,1.59730000768,45.4382500096
7.65e-08,24.19374998464,1.598862507776,45.46950001152
7.7e-08,24.17812498368,1.603550008064,45.42262500864
7.75e-08,24.2093749856,1.606675008256,45.39137500672
7.800000000000001e-08,24.25624998848,1.60511250816,45.32887500288
7.850000000000001e-08,24.25624998848,1.603550008064,45.29762500096
7.9e-08,24.17812498368,1.600425007872,45.34450000384
7.95e-08,24.14687498176,1.601987507968,45.39137500672
8e-08,24.17812498368,1.60511250816,45.37575000576
8.05e-08,24.24062498752,1.603550008064,45.4382500096
8.100000000000001e-08,24.27187498944,1.601987507968,45.46950001152
8.150000000000001e-08,24.24062498752,1.601987507968,45.50075001344
8.2e-08,24.09999997888,1.601987507968,45.53200001536
8.25e-08,24.053124976000003,1.606675008256,45.5163750144
8.3e-08,24.11562497984,1.606675008256,45.4382500096
8.35e-08,24.19374998464,1.603550008064,45.42262500864
8.400000000000001e-08,24.22499998656,1.600425007872,45.4382500096
8.450000000000001e-08,24.19374998464,1.601987507968,45.45387501056
8.500000000000001e-08,24.14687498176,1.609800008448,45.3601250048
8.55e-08,24.19374998464,1.609800008448,45.32887500288
8.6e-08,24.27187498944,1.606675008256,45.29762500096
8.65e-08,24.3656249952,1.603550008064,45.32887500288
8.700000000000001e-08,24.30312499136,1.603550008064,45.39137500672
8.750000000000001e-08,24.2093749856,1.606675008256,45.42262500864
8.800000000000001e-08,24.17812498368,1.611362508544,45.42262500864
8.85e-08,24.19374998464,1.609800008448,45.46950001152
8.9e-08,24.2093749856,1.609800008448,45.48512501248
8.95e-08,24.2093749856,1.608237508352,45.48512501248
9.000000000000001e-08,24.14687498176,1.611362508544,45.46950001152
9.050000000000001e-08,24.14687498176,1.614487508736,45.45387501056
9.100000000000001e-08,24.19374998464,1.611362508544,45.42262500864
9.15e-08,24.22499998656,1.606675008256,45.4382500096
9.2e-08,24.22499998656,1.603550008064,45.46950001152
9.25e-08,24.19374998464,1.606675008256,45.46950001152
9.300000000000001e-08,24.17812498368,1.611362508544,45.40700000768
9.350000000000001e-08,24.2093749856,1.609800008448,45.40700000768
9.400000000000001e-08,24.25624998848,1.608237508352,45.40700000768
9.45e-08,24.27187498944,1.60511250816,45.45387501056
9.5e-08,24.22499998656,1.603550008064,45.50075001344
9.55e-08,24.19374998464,1.606675008256,45.53200001536
9.600000000000001e-08,24.17812498368,1.611362508544,45.50075001344
9.650000000000001e-08,24.19374998464,1.609800008448,45.53200001536
9.700000000000001e-08,24.22499998656,1.611362508544,45.54762501632
9.75e-08,24.25624998848,1.611362508544,45.50075001344
9.8e-08,24.2093749856,1.61292500864,45.46950001152
9.85e-08,24.17812498368,1.61292500864,45.42262500864
9.9e-08,24.2093749856,1.606675008256,45.40700000768
9.950000000000001e-08,24.27187498944,1.603550008064,45.39137500672
1.0000000000000001e-07,24.2874999904,1.603550008064,45.37575000576
1.005e-07,24.24062498752,1.60511250816,45.40700000768
1.01e-07,24.25624998848,1.606675008256,45.42262500864
1.015e-07,24.25624998848,1.60511250816,45.48512501248
1.02e-07,24.22499998656,1.603550008064,45.53200001536
1.0250000000000001e-07,24.24062498752,1.601987507968,45.54762501632
1.0300000000000001e-07,24.22499998656,1.601987507968,45.54762501632
1.0350000000000001e-07,24.17812498368,1.603550008064,45.53200001536
1.04e-07,24.14687498176,1.606675008256,45.48512501248
1.045e-07,24.16249998272,1.606675008256,45.46950001152
1.05e-07,24.14687498176,1.60511250816,45.4382500096
1.0550000000000001e-07,24.1312499808,1.603550008064,45.3601250048
1.0600000000000001e-07,24.14687498176,1.606675008256,45.31325000192
1.0650000000000001e-07,24.2093749856,1.608237508352,45.282
1.07e-07,24.30312499136,1.60511250816,45.250749998079996
1.075e-07,24.31874999232,1.600425007872,45.31325000192
1.08e-07,24.30312499136,1.598862507776,45.3601250048
1.0850000000000001e-07,24.2093749856,1.601987507968,45.42262500864
1.0900000000000001e-07,24.16249998272,1.606675008256,45.42262500864
1.0950000000000001e-07,24.2093749856,1.609800008448,45.42262500864
1.1e-07,24.27187498944,1.608237508352,45.42262500864
1.105e-07,24.2874999904,1.603550008064,45.4382500096
1.11e-07,24.2093749856,1.600425007872,45.48512501248
1.1150000000000001e-07,24.1312499808,1.600425007872,45.46950001152
1.1200000000000001e-07,24.1312499808,1.603550008064,45.39137500672
1.1250000000000001e-07,24.22499998656,1.603550008064,45.34450000384
1.13e-07,24.30312499136,1.601987507968,45.31325000192
1.135e-07,24.2874999904,1.598862507776,45.29762500096
1.14e-07,24.22499998656,1.603550008064,45.34450000384
1.1450000000000001e-07,24.16249998272,1.606675008256,45.3601250048
1.1500000000000001e-07,24.22499998656,1.606675008256,45.37575000576
1.1550000000000001e-07,24.2874999904,1.606675008256,45.3601250048
1.16e-07,24.27187498944,1.601987507968,45.37575000576
1.165e-07,24.14687498176,1.601987507968,45.46950001152
1.17e-07,24.084374977920003,1.608237508352,45.48512501248
1.1750000000000001e-07,24.17812498368,1.609800008448,45.46950001152
1.1800000000000001e-07,24.30312499136,1.611362508544,45.39137500672
1.1850000000000001e-07,24.34999999424,1.609800008448,45.29762500096
1.1900000000000001e-07,24.27187498944,1.60511250816,45.282
1.195e-07,24.17812498368,1.603550008064,45.29762500096
1.2000000000000002e-07,24.16249998272,1.603550008064,45.29762500096
1.205e-07,24.24062498752,1.606675008256,45.31325000192
1.21e-07,24.31874999232,1.608237508352,45.266374999039996
1.215e-07,24.33437499328,1.608237508352,45.250749998079996
1.22e-07,24.2874999904,1.606675008256,45.34450000384
1.2250000000000002e-07,24.2093749856,1.603550008064,45.46950001152
1.23e-07,24.19374998464,1.601987507968,45.53200001536
1.2350000000000001e-07,24.2093749856,1.600425007872,45.50075001344
1.24e-07,24.24062498752,1.601987507968,45.42262500864
1.245e-07,24.19374998464,1.601987507968,45.4382500096
1.2500000000000002e-07,24.19374998464,1.603550008064,45.45387501056
1.255e-07,24.24062498752,1.60511250816,45.48512501248
1.2600000000000002e-07,24.2874999904,1.601987507968,45.40700000768
1.265e-07,24.2874999904,1.603550008064,45.282
1.27e-07,24.27187498944,1.603550008064,45.219499996159996
1.275e-07,24.25624998848,1.603550008064,45.250749998079996
1.28e-07,24.25624998848,1.603550008064,45.34450000384
1.2850000000000002e-07,24.2874999904,1.601987507968,45.45387501056
1.29e-07,24.30312499136,1.600425007872,45.42262500864
1.2950000000000001e-07,24.25624998848,1.600425007872,45.37575000576
1.3e-07,24.22499998656,1.601987507968,45.39137500672
1.305e-07,24.22499998656,1.600425007872,45.45387501056
1.31e-07,24.27187498944,1.59730000768,45.50075001344
1.315e-07,24.24062498752,1.598862507776,45.50075001344
1.3200000000000002e-07,24.24062498752,1.598862507776,45.37575000576
1.325e-07,24.19374998464,1.601987507968,45.32887500288
1.33e-07,24.2093749856,1.603550008064,45.32887500288
1.335e-07,24.24062498752,1.59730000768,45.37575000576
1.34e-07,24.30312499136,1.59730000768,45.34450000384
1.3450000000000002e-07,24.34999999424,1.59730000768,45.34450000384
1.35e-07,24.33437499328,1.59730000768,45.32887500288
1.3550000000000002e-07,24.30312499136,1.59730000768,45.3601250048
1.36e-07,24.2874999904,1.595737507584,45.4382500096
1.365e-07,24.30312499136,1.5926125073919999,45.53200001536
1.37e-07,24.31874999232,1.595737507584,45.50075001344
1.375e-07,24.33437499328,1.59730000768,45.4382500096
1.3800000000000002e-07,24.31874999232,1.600425007872,45.42262500864
1.385e-07,24.27187498944,1.598862507776,45.4382500096
1.3900000000000001e-07,24.27187498944,1.59730000768,45.45387501056
1.395e-07,24.22499998656,1.595737507584,45.42262500864
1.4e-07,24.24062498752,1.59730000768,45.32887500288
1.4050000000000002e-07,24.24062498752,1.598862507776,45.266374999039996
1.41e-07,24.25624998848,1.59730000768,45.250749998079996
1.4150000000000002e-07,24.27187498944,1.5926125073919999,45.29762500096
1.42e-07,24.27187498944,1.594175007488,45.34450000384
1.425e-07,24.2874999904,1.594175007488,45.37575000576
1.43e-07,24.2874999904,1.594175007488,45.3601250048
1.435e-07,24.2874999904,1.5910500072959999,45.34450000384
1.4400000000000002e-07,24.2874999904,1.5894875071999999,45.3601250048
1.445e-07,24.25624998848,1.5910500072959999,45.42262500864
1.4500000000000001e-07,24.2093749856,1.5926125073919999,45.4382500096
1.455e-07,24.27187498944,1.594175007488,45.40700000768
1.46e-07,24.33437499328,1.5926125073919999,45.32887500288
1.4650000000000002e-07,24.31874999232,1.5926125073919999,45.266374999039996
1.47e-07,24.2874999904,1.5894875071999999,45.250749998079996
1.4750000000000002e-07,24.25624998848,1.5894875071999999,45.31325000192
1.48e-07,24.22499998656,1.5926125073919999,45.31325000192
1.485e-07,24.25624998848,1.594175007488,45.29762500096
1.49e-07,24.33437499328,1.594175007488,45.266374999039996
1.495e-07,24.33437499328,1.5910500072959999,45.266374999039996
1.5000000000000002e-07,24.25624998848,1.5894875071999999,45.282
1.505e-07,24.25624998848,1.5894875071999999,45.32887500288
1.5100000000000002e-07,24.2874999904,1.5879250071039999,45.32887500288
1.515e-07,24.31874999232,1.5894875071999999,45.282
1.52e-07,24.31874999232,1.5894875071999999,45.266374999039996
1.5250000000000002e-07,24.2874999904,1.5879250071039999,45.34450000384
1.53e-07,24.24062498752,1.5910500072959999,45.34450000384
1.5350000000000002e-07,24.30312499136,1.594175007488,45.32887500288
1.54e-07,24.33437499328,1.595737507584,45.266374999039996
1.5450000000000001e-07,24.31874999232,1.5926125073919999,45.235124997119996
1.55e-07,24.25624998848,1.5879250071039999,45.219499996159996
1.555e-07,24.17812498368,1.5863625070079999,45.266374999039996
1.5600000000000002e-07,24.2093749856,1.5863625070079999,45.266374999039996
1.565e-07,24.27187498944,1.5863625070079999,45.235124997119996
1.5700000000000002e-07,24.3656249952,1.5879250071039999,45.156999992319996
1.575e-07,24.33437499328,1.5863625070079999,45.172624993279996
1.58e-07,24.25624998848,1.5848000069119998,45.219499996159996
1.5850000000000002e-07,24.24062498752,1.5863625070079999,45.29762500096
1.59e-07,24.25624998848,1.5879250071039999,45.32887500288
1.5950000000000002e-07,24.31874999232,1.5863625070079999,45.266374999039996
1.6e-07,24.34999999424,1.5894875071999999,45.203874995199996
1.6050000000000001e-07,24.33437499328,1.5894875071999999,45.266374999039996
1.61e-07,24.2874999904,1.5894875071999999,45.266374999039996
1.615e-07,24.30312499136,1.5894875071999999,45.235124997119996
1.6200000000000002e-07,24.3656249952,1.5894875071999999,45.203874995199996
1.625e-07,24.39687499712,1.5863625070079999,45.141374991359996
