Time (s),VIN,IIN,VOUT
0.0,25.17837503936,1.370212506624,42.84337500544
5e-10,25.28775004608,1.365525006336,42.893375000320006
1e-09,25.35025004992,1.36396250624,42.933999996160004
1.5000000000000002e-09,25.28775004608,1.362400006144,42.940249995520006
2e-09,25.14712503744,1.36396250624,42.918374997760004
2.5e-09,25.053375031679998,1.362400006144,42.908999998720006
3.0000000000000004e-09,25.0846250336,1.360837506048,42.902749999360005
3.5000000000000003e-09,25.19400004032,1.359275005952,42.893375000320006
4e-09,25.22525004224,1.362400006144,42.86837500288
4.500000000000001e-09,25.1627500384,1.362400006144,42.85900000384
5e-09,25.14712503744,1.36396250624,42.871500002560005
5.5000000000000004e-09,25.1627500384,1.368650006528,42.8965
6.000000000000001e-09,25.28775004608,1.368650006528,42.924624997120006
6.5e-09,25.36587505088,1.367087506432,42.933999996160004
7.000000000000001e-09,25.35025004992,1.36396250624,42.92149999744
7.500000000000001e-09,25.22525004224,1.362400006144,42.92149999744
8e-09,25.1627500384,1.362400006144,42.93087499648
8.5e-09,25.20962504128,1.36396250624,42.933999996160004
9.000000000000001e-09,25.25650004416,1.362400006144,42.9277499968
9.5e-09,25.20962504128,1.360837506048,42.89962499968
1e-08,25.11587503552,1.360837506048,42.88400000128
1.0500000000000001e-08,25.069000032639998,1.36396250624,42.902749999360005
1.1000000000000001e-08,25.11587503552,1.365525006336,42.92149999744
1.15e-08,25.19400004032,1.367087506432,42.9277499968
1.2000000000000002e-08,25.20962504128,1.367087506432,42.8965
1.2500000000000001e-08,25.20962504128,1.365525006336,42.8652500032
1.3e-08,25.22525004224,1.36396250624,42.862125003520006
1.35e-08,25.2408750432,1.360837506048,42.877750001920006
1.4000000000000001e-08,25.30337504704,1.362400006144,42.887125000960005
1.45e-08,25.25650004416,1.36396250624,42.871500002560005
1.5000000000000002e-08,25.19400004032,1.365525006336,42.83712500608
1.55e-08,25.1627500384,1.367087506432,42.81212500864
1.6e-08,25.17837503936,1.365525006336,42.79025001088
1.6500000000000002e-08,25.19400004032,1.362400006144,42.78400001152
1.7e-08,25.1627500384,1.362400006144,42.777750012160006
1.75e-08,25.0846250336,1.362400006144,42.755875014400004
1.8000000000000002e-08,25.006500028799998,1.360837506048,42.740250016000005
1.85e-08,25.053375031679998,1.360837506048,42.75275001472
1.9e-08,25.14712503744,1.36396250624,42.793375010560005
1.9500000000000003e-08,25.20962504128,1.367087506432,42.840250005760005
2e-08,25.20962504128,1.370212506624,42.85900000384
2.05e-08,25.1627500384,1.367087506432,42.84650000512001
2.1000000000000003e-08,25.1627500384,1.365525006336,42.81525000832001
2.15e-08,25.17837503936,1.368650006528,42.787125011200004
2.2000000000000002e-08,25.22525004224,1.36396250624,42.746500015360006
2.2500000000000003e-08,25.20962504128,1.36396250624,42.72775001728
2.3e-08,25.1627500384,1.36396250624,42.715250018560006
2.3500000000000002e-08,25.10025003456,1.362400006144,42.72150001792
2.4000000000000003e-08,25.069000032639998,1.365525006336,42.730875016960006
2.45e-08,25.053375031679998,1.368650006528,42.75275001472
2.5000000000000002e-08,25.069000032639998,1.370212506624,42.793375010560005
2.55e-08,25.10025003456,1.370212506624,42.84650000512001
2.6e-08,25.11587503552,1.368650006528,42.877750001920006
2.6500000000000002e-08,25.13150003648,1.367087506432,42.86837500288
2.7e-08,25.1627500384,1.36396250624,42.834000006400004
2.75e-08,25.22525004224,1.365525006336,42.79025001088
2.8000000000000003e-08,25.28775004608,1.367087506432,42.74962501504
2.85e-08,25.27212504512,1.365525006336,42.730875016960006
2.9e-08,25.22525004224,1.367087506432,42.71212501888
2.9500000000000003e-08,25.1627500384,1.368650006528,42.69650002048
3.0000000000000004e-08,25.1627500384,1.37177500672,42.68712502144
3.05e-08,25.10025003456,1.3733375068159999,42.699625020160006
3.1e-08,25.037750030719998,1.3733375068159999,42.73400001664
3.1500000000000004e-08,25.037750030719998,1.37177500672,42.79025001088
3.2e-08,25.11587503552,1.37177500672,42.824625007360005
3.25e-08,25.14712503744,1.37177500672,42.82775000704
3.3000000000000004e-08,25.13150003648,1.370212506624,42.80587500928
3.35e-08,25.1627500384,1.37177500672,42.78400001152
3.4e-08,25.19400004032,1.37177500672,42.76525001344
3.4500000000000005e-08,25.27212504512,1.37177500672,42.74337501568
3.5e-08,25.30337504704,1.37177500672,42.709000019200005
3.55e-08,25.27212504512,1.370212506624,42.677750022400005
3.6000000000000005e-08,25.1627500384,1.368650006528,42.65275002496001
3.65e-08,25.10025003456,1.36396250624,42.66525002368
3.7e-08,25.11587503552,1.36396250624,42.693375020800005
3.7500000000000005e-08,25.13150003648,1.368650006528,42.71212501888
3.8e-08,25.11587503552,1.368650006528,42.71837501824
3.85e-08,25.10025003456,1.368650006528,42.72775001728
3.9000000000000005e-08,25.10025003456,1.368650006528,42.746500015360006
3.95e-08,25.11587503552,1.367087506432,42.78400001152
4e-08,25.17837503936,1.370212506624,42.79962500992
4.0500000000000005e-08,25.2408750432,1.3733375068159999,42.78087501184
4.1e-08,25.25650004416,1.3764625070079999,42.74337501568
4.15e-08,25.20962504128,1.3733375068159999,42.69650002048
4.2000000000000006e-08,25.14712503744,1.367087506432,42.66837502336001
4.2500000000000003e-08,25.14712503744,1.365525006336,42.66525002368
4.3e-08,25.20962504128,1.367087506432,42.67462502272
4.3500000000000006e-08,25.19400004032,1.368650006528,42.693375020800005
4.4000000000000004e-08,25.0846250336,1.370212506624,42.70587501952
4.45e-08,25.006500028799998,1.367087506432,42.73712501632
4.5000000000000006e-08,25.037750030719998,1.36396250624,42.75900001408
4.5500000000000004e-08,25.14712503744,1.36396250624,42.75275001472
4.6e-08,25.20962504128,1.367087506432,42.724625017600005
4.6500000000000006e-08,25.19400004032,1.370212506624,42.68712502144
4.7000000000000004e-08,25.14712503744,1.370212506624,42.655875024640004
4.75e-08,25.14712503744,1.365525006336,42.64962502528
4.8000000000000006e-08,25.20962504128,1.367087506432,42.64962502528
4.8500000000000004e-08,25.30337504704,1.370212506624,42.655875024640004
4.9e-08,25.25650004416,1.370212506624,42.64962502528
4.95e-08,25.13150003648,1.370212506624,42.640250026240004
5.0000000000000004e-08,24.990875027839998,1.370212506624,42.64337502592
5.05e-08,25.006500028799998,1.367087506432,42.677750022400005
5.1e-08,25.10025003456,1.368650006528,42.699625020160006
5.1500000000000005e-08,25.1627500384,1.370212506624,42.677750022400005
5.2e-08,25.11587503552,1.368650006528,42.62150002816
5.25e-08,25.069000032639998,1.370212506624,42.58087503232
5.3000000000000005e-08,25.0846250336,1.37177500672,42.577750032640004
5.35e-08,25.11587503552,1.37177500672,42.615250028800006
5.4e-08,25.2408750432,1.3733375068159999,42.662125024000005
5.4500000000000005e-08,25.27212504512,1.3733375068159999,42.67462502272
5.5e-08,25.22525004224,1.37177500672,42.64962502528
5.55e-08,25.14712503744,1.370212506624,42.63400002688
5.6000000000000005e-08,25.11587503552,1.368650006528,42.65275002496001
5.65e-08,25.13150003648,1.368650006528,42.68712502144
5.7e-08,25.1627500384,1.36396250624,42.69025002112
5.7500000000000005e-08,25.14712503744,1.362400006144,42.640250026240004
5.8e-08,25.069000032639998,1.360837506048,42.577750032640004
5.85e-08,25.022125029759998,1.36396250624,42.562125034240005
5.9000000000000006e-08,25.037750030719998,1.36396250624,42.59025003136
5.9500000000000003e-08,25.13150003648,1.367087506432,42.630875027200005
6.000000000000001e-08,25.20962504128,1.370212506624,42.615250028800006
6.05e-08,25.20962504128,1.370212506624,42.57150003328
6.1e-08,25.1627500384,1.3733375068159999,42.54025003648
6.15e-08,25.11587503552,1.3764625070079999,42.562125034240005
6.2e-08,25.1627500384,1.37177500672,42.62775002752
6.250000000000001e-08,25.22525004224,1.37177500672,42.671500023040004
6.300000000000001e-08,25.22525004224,1.368650006528,42.662125024000005
6.35e-08,25.14712503744,1.367087506432,42.630875027200005
6.4e-08,25.053375031679998,1.368650006528,42.61837502848
6.45e-08,25.006500028799998,1.370212506624,42.65275002496001
6.5e-08,25.053375031679998,1.370212506624,42.69025002112
6.55e-08,25.10025003456,1.368650006528,42.677750022400005
6.600000000000001e-08,25.11587503552,1.370212506624,42.624625027840004
6.65e-08,25.10025003456,1.3749000069119999,42.59650003072
6.7e-08,25.10025003456,1.3733375068159999,42.630875027200005
6.75e-08,25.1627500384,1.370212506624,42.709000019200005
6.8e-08,25.25650004416,1.370212506624,42.746500015360006
6.85e-08,25.28775004608,1.3733375068159999,42.724625017600005
6.900000000000001e-08,25.28775004608,1.3733375068159999,42.677750022400005
6.950000000000001e-08,25.19400004032,1.3733375068159999,42.67462502272
7e-08,25.17837503936,1.37177500672,42.715250018560006
7.05e-08,25.1627500384,1.370212506624,42.74962501504
7.1e-08,25.1627500384,1.37177500672,42.740250016000005
7.15e-08,25.13150003648,1.3733375068159999,42.70275001984
7.200000000000001e-08,25.0846250336,1.3733375068159999,42.66525002368
7.250000000000001e-08,25.022125029759998,1.37177500672,42.671500023040004
7.3e-08,25.053375031679998,1.3733375068159999,42.71212501888
7.35e-08,25.11587503552,1.3733375068159999,42.73400001664
7.4e-08,25.17837503936,1.3733375068159999,42.715250018560006
7.45e-08,25.22525004224,1.3749000069119999,42.68712502144
7.500000000000001e-08,25.20962504128,1.3764625070079999,42.67462502272
7.550000000000001e-08,25.2408750432,1.3733375068159999,42.693375020800005
7.6e-08,25.28775004608,1.3733375068159999,42.693375020800005
7.65e-08,25.319000048,1.3733375068159999,42.677750022400005
7.7e-08,25.319000048,1.3749000069119999,42.662125024000005
7.75e-08,25.25650004416,1.3780250071039999,42.68087502208
7.800000000000001e-08,25.1627500384,1.3749000069119999,42.740250016000005
7.850000000000001e-08,25.11587503552,1.3733375068159999,42.81525000832001
7.9e-08,25.13150003648,1.3733375068159999,42.85275000448
7.95e-08,25.1627500384,1.3733375068159999,42.85275000448
8e-08,25.14712503744,1.3733375068159999,42.824625007360005
8.05e-08,25.13150003648,1.3733375068159999,42.78400001152
8.100000000000001e-08,25.11587503552,1.3733375068159999,42.75275001472
8.150000000000001e-08,25.1627500384,1.3733375068159999,42.72775001728
8.2e-08,25.22525004224,1.37177500672,42.69650002048
8.25e-08,25.28775004608,1.3749000069119999,42.66837502336001
8.3e-08,25.25650004416,1.3749000069119999,42.662125024000005
8.35e-08,25.2408750432,1.3749000069119999,42.69650002048
8.400000000000001e-08,25.19400004032,1.3749000069119999,42.762125013760006
8.450000000000001e-08,25.19400004032,1.3749000069119999,42.82775000704
8.500000000000001e-08,25.22525004224,1.3749000069119999,42.85900000384
8.55e-08,25.19400004032,1.3764625070079999,42.877750001920006
8.6e-08,25.14712503744,1.3764625070079999,42.8808750016
8.65e-08,25.053375031679998,1.3764625070079999,42.877750001920006
8.700000000000001e-08,25.069000032639998,1.3764625070079999,42.85275000448
8.750000000000001e-08,25.14712503744,1.3749000069119999,42.80587500928
8.800000000000001e-08,25.22525004224,1.3749000069119999,42.73400001664
8.85e-08,25.25650004416,1.3733375068159999,42.66837502336001
8.9e-08,25.22525004224,1.3733375068159999,42.64337502592
8.95e-08,25.17837503936,1.3733375068159999,42.64337502592
9.000000000000001e-08,25.17837503936,1.3733375068159999,42.64337502592
9.050000000000001e-08,25.2408750432,1.3733375068159999,42.65275002496001
9.100000000000001e-08,25.2408750432,1.3733375068159999,42.671500023040004
9.15e-08,25.20962504128,1.3733375068159999,42.72150001792
9.2e-08,25.13150003648,1.3749000069119999,42.793375010560005
9.25e-08,25.0846250336,1.3733375068159999,42.8652500032
9.300000000000001e-08,25.0846250336,1.3764625070079999,42.8808750016
9.350000000000001e-08,25.0846250336,1.3795875072,42.85275000448
9.400000000000001e-08,25.13150003648,1.3764625070079999,42.79962500992
9.45e-08,25.10025003456,1.3733375068159999,42.75275001472
9.5e-08,25.0846250336,1.3749000069119999,42.715250018560006
9.55e-08,25.10025003456,1.3780250071039999,42.684000021760006
9.600000000000001e-08,25.1627500384,1.3780250071039999,42.64337502592
9.650000000000001e-08,25.22525004224,1.3780250071039999,42.62150002816
9.700000000000001e-08,25.28775004608,1.3780250071039999,42.64962502528
9.75e-08,25.2408750432,1.3780250071039999,42.72775001728
9.8e-08,25.20962504128,1.3780250071039999,42.81525000832001
9.85e-08,25.17837503936,1.3795875072,42.87462500224
9.9e-08,25.1627500384,1.3733375068159999,42.877750001920006
9.950000000000001e-08,25.11587503552,1.37177500672,42.862125003520006
1.0000000000000001e-07,25.053375031679998,1.37177500672,42.84337500544
1.005e-07,24.990875027839998,1.3733375068159999,42.834000006400004
1.01e-07,25.006500028799998,1.3749000069119999,42.802750009600004
1.015e-07,25.069000032639998,1.3749000069119999,42.762125013760006
1.02e-07,25.13150003648,1.3749000069119999,42.71212501888
1.0250000000000001e-07,25.1627500384,1.3749000069119999,42.677750022400005
1.0300000000000001e-07,25.22525004224,1.3764625070079999,42.684000021760006
1.0350000000000001e-07,25.25650004416,1.3749000069119999,42.730875016960006
1.04e-07,25.27212504512,1.3749000069119999,42.77462501248
1.045e-07,25.25650004416,1.3764625070079999,42.818375008000004
1.05e-07,25.22525004224,1.3780250071039999,42.855875004160005
1.0550000000000001e-07,25.22525004224,1.3780250071039999,42.89025000064
1.0600000000000001e-07,25.19400004032,1.3780250071039999,42.902749999360005
1.0650000000000001e-07,25.17837503936,1.3780250071039999,42.89962499968
1.07e-07,25.1627500384,1.381150007296,42.871500002560005
1.075e-07,25.14712503744,1.3795875072,42.85275000448
1.08e-07,25.11587503552,1.3780250071039999,42.834000006400004
1.0850000000000001e-07,25.069000032639998,1.3749000069119999,42.79962500992
1.0900000000000001e-07,25.053375031679998,1.3733375068159999,42.75275001472
1.0950000000000001e-07,25.10025003456,1.3764625070079999,42.71837501824
1.1e-07,25.2408750432,1.3764625070079999,42.72150001792
1.105e-07,25.25650004416,1.3749000069119999,42.746500015360006
1.11e-07,25.13150003648,1.3749000069119999,42.78400001152
1.1150000000000001e-07,25.069000032639998,1.370212506624,42.82150000768
1.1200000000000001e-07,25.17837503936,1.37177500672,42.83087500672001
1.1250000000000001e-07,25.36587505088,1.37177500672,42.84337500544
1.13e-07,25.44400005568,1.3749000069119999,42.8652500032
1.135e-07,25.30337504704,1.3733375068159999,42.87462500224
1.14e-07,25.069000032639998,1.370212506624,42.86837500288
1.1450000000000001e-07,25.053375031679998,1.37177500672,42.84650000512001
1.1500000000000001e-07,25.20962504128,1.37177500672,42.818375008000004
1.1550000000000001e-07,25.319000048,1.37177500672,42.80587500928
1.16e-07,25.2408750432,1.3749000069119999,42.81525000832001
1.165e-07,25.037750030719998,1.3764625070079999,42.849625004800004
1.17e-07,24.975250026879998,1.3733375068159999,42.8652500032
1.1750000000000001e-07,25.13150003648,1.3733375068159999,42.84650000512001
1.1800000000000001e-07,25.36587505088,1.3749000069119999,42.81525000832001
1.1850000000000001e-07,25.41275005376,1.3780250071039999,42.80587500928
1.1900000000000001e-07,25.25650004416,1.3795875072,42.83087500672001
1.195e-07,25.0846250336,1.3733375068159999,42.871500002560005
1.2000000000000002e-07,25.11587503552,1.37177500672,42.877750001920006
1.205e-07,25.27212504512,1.37177500672,42.855875004160005
1.21e-07,25.3971250528,1.3733375068159999,42.83712500608
1.215e-07,25.28775004608,1.3733375068159999,42.834000006400004
1.22e-07,25.053375031679998,1.370212506624,42.840250005760005
1.2250000000000002e-07,24.944000024959998,1.368650006528,42.85275000448
1.23e-07,25.10025003456,1.370212506624,42.855875004160005
1.2350000000000001e-07,25.30337504704,1.3733375068159999,42.855875004160005
1.24e-07,25.319000048,1.3780250071039999,42.840250005760005
1.245e-07,25.20962504128,1.3764625070079999,42.82775000704
1.2500000000000002e-07,25.10025003456,1.3749000069119999,42.81525000832001
1.255e-07,25.14712503744,1.3749000069119999,42.80587500928
1.2600000000000002e-07,25.319000048,1.3764625070079999,42.79962500992
1.265e-07,25.36587505088,1.3764625070079999,42.79650001024
1.27e-07,25.30337504704,1.3749000069119999,42.79650001024
1.275e-07,25.14712503744,1.37177500672,42.809000008960005
1.28e-07,25.069000032639998,1.370212506624,42.81212500864
1.2850000000000002e-07,25.11587503552,1.37177500672,42.818375008000004
1.29e-07,25.1627500384,1.3749000069119999,42.849625004800004
1.2950000000000001e-07,25.1627500384,1.3733375068159999,42.877750001920006
1.3e-07,25.069000032639998,1.37177500672,42.877750001920006
1.305e-07,24.990875027839998,1.367087506432,42.85900000384
1.31e-07,25.053375031679998,1.367087506432,42.82775000704
1.315e-07,25.22525004224,1.368650006528,42.83087500672001
1.3200000000000002e-07,25.35025004992,1.37177500672,42.85275000448
1.325e-07,25.36587505088,1.370212506624,42.855875004160005
1.33e-07,25.30337504704,1.368650006528,42.818375008000004
1.335e-07,25.19400004032,1.370212506624,42.78087501184
1.34e-07,25.22525004224,1.370212506624,42.79650001024
1.3450000000000002e-07,25.27212504512,1.370212506624,42.85275000448
1.35e-07,25.27212504512,1.37177500672,42.893375000320006
1.3550000000000002e-07,25.14712503744,1.370212506624,42.89025000064
1.36e-07,25.022125029759998,1.368650006528,42.834000006400004
1.365e-07,24.944000024959998,1.370212506624,42.79962500992
1.37e-07,25.006500028799998,1.37177500672,42.824625007360005
1.375e-07,25.13150003648,1.37177500672,42.8808750016
1.3800000000000002e-07,25.17837503936,1.370212506624,42.8965
1.385e-07,25.1627500384,1.370212506624,42.87462500224
1.3900000000000001e-07,25.1627500384,1.370212506624,42.840250005760005
1.395e-07,25.25650004416,1.37177500672,42.85275000448
1.4e-07,25.36587505088,1.3733375068159999,42.893375000320006
1.4050000000000002e-07,25.38150005184,1.370212506624,42.92149999744
1.41e-07,25.28775004608,1.367087506432,42.908999998720006
1.4150000000000002e-07,25.13150003648,1.370212506624,42.89025000064
1.42e-07,25.0846250336,1.3733375068159999,42.908999998720006
1.425e-07,25.1627500384,1.3733375068159999,42.949624994560004
1.43e-07,25.2408750432,1.370212506624,42.971499992320005
1.435e-07,25.1627500384,1.367087506432,42.965249992960004
1.4400000000000002e-07,25.037750030719998,1.367087506432,42.91524999808
1.445e-07,24.990875027839998,1.367087506432,42.8808750016
1.4500000000000001e-07,25.10025003456,1.365525006336,42.8808750016
1.455e-07,25.27212504512,1.368650006528,42.887125000960005
1.46e-07,25.36587505088,1.368650006528,42.86837500288
1.4650000000000002e-07,25.28775004608,1.370212506624,42.83712500608
1.47e-07,25.17837503936,1.368650006528,42.818375008000004
1.4750000000000002e-07,25.20962504128,1.367087506432,42.849625004800004
1.48e-07,25.30337504704,1.368650006528,42.893375000320006
1.485e-07,25.36587505088,1.36396250624,42.93087499648
1.49e-07,25.30337504704,1.362400006144,42.93087499648
1.495e-07,25.14712503744,1.36396250624,42.91524999808
1.5000000000000002e-07,25.069000032639998,1.36396250624,42.908999998720006
1.505e-07,25.10025003456,1.360837506048,42.908999998720006
1.5100000000000002e-07,25.22525004224,1.362400006144,42.89025000064
1.515e-07,25.25650004416,1.362400006144,42.871500002560005
1.52e-07,25.17837503936,1.362400006144,42.862125003520006
1.5250000000000002e-07,25.13150003648,1.362400006144,42.871500002560005
1.53e-07,25.19400004032,1.365525006336,42.90587499904
1.5350000000000002e-07,25.30337504704,1.367087506432,42.940249995520006
1.54e-07,25.38150005184,1.365525006336,42.9433749952
1.5450000000000001e-07,25.35025004992,1.365525006336,42.933999996160004
1.55e-07,25.2408750432,1.365525006336,42.924624997120006
1.555e-07,25.1627500384,1.367087506432,42.93712499584
1.5600000000000002e-07,25.22525004224,1.368650006528,42.940249995520006
1.565e-07,25.27212504512,1.367087506432,42.93087499648
1.5700000000000002e-07,25.2408750432,1.365525006336,42.89962499968
1.575e-07,25.11587503552,1.365525006336,42.887125000960005
1.58e-07,25.069000032639998,1.367087506432,42.9121249984
1.5850000000000002e-07,25.13150003648,1.368650006528,42.93712499584
