Time (s),VIN,IIN,VOUT,IOUT,"[""CRTL_A"", ""IN_A"", ""CRTL_B"", ""IN_B"", ""nEN"", ""GATE_1"", ""GATE_2""]"
0.0,24.881375022079997,1.600262506624,47.44974999808,0.753562492992,8960
5e-10,24.912625023999997,1.603387506816,47.4028749952,0.751999992896,8960
1e-09,24.990750028799997,1.604950006912,47.37162499328,0.751999992896,8960
1.5000000000000002e-09,25.037625031679998,1.604950006912,47.37162499328,0.7488749927039999,8960
2e-09,25.084500034559998,1.603387506816,47.38724999424,0.745749992512,8960
2.5e-09,25.100125035519998,1.604950006912,47.38724999424,0.745749992512,8960
3.0000000000000004e-09,25.084500034559998,1.608075007104,47.4028749952,0.747312492608,8704
3.5000000000000003e-09,25.037625031679998,1.606512507008,47.4028749952,0.7488749927039999,8704
4e-09,24.975125027839997,1.604950006912,47.4028749952,0.7488749927039999,8192
4.500000000000001e-09,24.959500026879997,1.604950006912,47.43412499712,0.7504374927999999,8192
5e-09,24.975125027839997,1.60182500672,47.43412499712,0.751999992896,8192
5.5000000000000004e-09,25.068875033599998,1.600262506624,47.41849999616,0.759812493376,8192
6.000000000000001e-09,25.100125035519998,1.60182500672,47.43412499712,0.761374993472,8192
6.5e-09,25.100125035519998,1.603387506816,47.41849999616,0.761374993472,8192
7.000000000000001e-09,25.068875033599998,1.604950006912,47.4028749952,0.755124993088,8192
7.500000000000001e-09,25.068875033599998,1.606512507008,47.4028749952,0.7504374927999999,8192
8e-09,25.100125035519998,1.606512507008,47.4028749952,0.7504374927999999,8192
8.5e-09,25.100125035519998,1.606512507008,47.35599999232,0.747312492608,8192
9.000000000000001e-09,25.084500034559998,1.606512507008,47.34037499136,0.7488749927039999,8192
9.5e-09,25.068875033599998,1.60182500672,47.30912498944,0.7488749927039999,8192
1e-08,25.068875033599998,1.600262506624,47.37162499328,0.751999992896,8192
1.0500000000000001e-08,25.162625039359998,1.60182500672,47.37162499328,0.751999992896,8192
1.1000000000000001e-08,25.2251250432,1.604950006912,47.37162499328,0.756687493184,8192
1.15e-08,25.27200004608,1.604950006912,47.38724999424,0.755124993088,8192
1.2000000000000002e-08,25.24075004416,1.608075007104,47.4028749952,0.755124993088,8192
1.2500000000000001e-08,25.17825004032,1.608075007104,47.43412499712,0.756687493184,8192
1.3e-08,25.147000038399998,1.60182500672,47.46537499904,0.755124993088,8192
1.35e-08,25.147000038399998,1.60182500672,47.44974999808,0.755124993088,8192
1.4000000000000001e-08,25.17825004032,1.604950006912,47.46537499904,0.7504374927999999,8192
1.45e-08,25.17825004032,1.604950006912,47.41849999616,0.7488749927039999,8192
1.5000000000000002e-08,25.17825004032,1.603387506816,47.35599999232,0.747312492608,8192
1.55e-08,25.147000038399998,1.60182500672,47.35599999232,0.7488749927039999,8192
1.6e-08,25.17825004032,1.60182500672,47.35599999232,0.7504374927999999,8192
1.6500000000000002e-08,25.20950004224,1.600262506624,47.34037499136,0.7488749927039999,8192
1.7e-08,25.20950004224,1.600262506624,47.34037499136,0.7504374927999999,8192
1.75e-08,25.19387504128,1.60182500672,47.3247499904,0.7488749927039999,8192
1.8000000000000002e-08,25.162625039359998,1.60182500672,47.38724999424,0.7488749927039999,8192
1.85e-08,25.131375037439998,1.603387506816,47.4028749952,0.753562492992,8192
1.9e-08,25.115750036479998,1.603387506816,47.4028749952,0.753562492992,8192
1.9500000000000003e-08,25.147000038399998,1.603387506816,47.38724999424,0.753562492992,8192
2e-08,25.131375037439998,1.603387506816,47.35599999232,0.753562492992,8192
2.05e-08,25.131375037439998,1.603387506816,47.34037499136,0.753562492992,8192
2.1000000000000003e-08,25.131375037439998,1.600262506624,47.3247499904,0.753562492992,8192
2.15e-08,25.20950004224,1.60182500672,47.34037499136,0.7504374927999999,8192
2.2000000000000002e-08,25.25637504512,1.603387506816,47.38724999424,0.7488749927039999,8192
2.2500000000000003e-08,25.28762504704,1.604950006912,47.35599999232,0.747312492608,8192
2.3e-08,25.28762504704,1.606512507008,47.3247499904,0.7488749927039999,8192
2.3500000000000002e-08,25.2251250432,1.608075007104,47.3247499904,0.751999992896,8192
2.4000000000000003e-08,25.19387504128,1.611200007296,47.37162499328,0.753562492992,8192
2.45e-08,25.17825004032,1.611200007296,47.37162499328,0.7504374927999999,8192
2.5000000000000002e-08,25.20950004224,1.608075007104,47.35599999232,0.7488749927039999,8192
2.55e-08,25.2251250432,1.608075007104,47.34037499136,0.751999992896,8192
2.6e-08,25.2251250432,1.603387506816,47.34037499136,0.753562492992,0
2.6500000000000002e-08,25.19387504128,1.60182500672,47.34037499136,0.753562492992,0
2.7e-08,25.162625039359998,1.60182500672,47.37162499328,0.7488749927039999,0
2.75e-08,25.17825004032,1.603387506816,47.37162499328,0.747312492608,1024
2.8000000000000003e-08,25.17825004032,1.603387506816,47.35599999232,0.7488749927039999,1024
2.85e-08,25.20950004224,1.606512507008,47.3247499904,0.7504374927999999,1024
2.9e-08,25.19387504128,1.603387506816,47.30912498944,0.7504374927999999,1024
2.9500000000000003e-08,25.20950004224,1.60182500672,47.3247499904,0.7504374927999999,3072
3.0000000000000004e-08,25.27200004608,1.603387506816,47.35599999232,0.7504374927999999,3072
3.05e-08,25.303250048,1.603387506816,47.3247499904,0.755124993088,3072
3.1e-08,25.31887504896,1.603387506816,47.29349998848,0.755124993088,3072
3.1500000000000004e-08,25.33450004992,1.60182500672,47.27787498752,0.755124993088,3072
3.2e-08,25.31887504896,1.606512507008,47.30912498944,0.753562492992,3072
3.25e-08,25.27200004608,1.606512507008,47.3247499904,0.7504374927999999,3072
3.3000000000000004e-08,25.303250048,1.604950006912,47.35599999232,0.747312492608,3072
3.35e-08,25.27200004608,1.603387506816,47.35599999232,0.74262499232,3072
3.4e-08,25.19387504128,1.603387506816,47.37162499328,0.745749992512,3072
3.4500000000000005e-08,25.19387504128,1.60182500672,47.34037499136,0.747312492608,3072
3.5e-08,25.2251250432,1.600262506624,47.35599999232,0.7504374927999999,3072
3.55e-08,25.27200004608,1.603387506816,47.35599999232,0.753562492992,3072
3.6000000000000005e-08,25.28762504704,1.6096375072,47.37162499328,0.751999992896,3072
3.65e-08,25.33450004992,1.611200007296,47.34037499136,0.7504374927999999,3072
3.7e-08,25.303250048,1.604950006912,47.34037499136,0.7488749927039999,3072
3.7500000000000005e-08,25.27200004608,1.5987000065280002,47.3247499904,0.7488749927039999,3072
3.8e-08,25.303250048,1.5987000065280002,47.3247499904,0.7488749927039999,3072
3.85e-08,25.303250048,1.60182500672,47.29349998848,0.7504374927999999,3072
3.9000000000000005e-08,25.27200004608,1.604950006912,47.26224998656,0.753562492992,3072
3.95e-08,25.2251250432,1.6096375072,47.27787498752,0.755124993088,3072
4e-08,25.17825004032,1.608075007104,47.3247499904,0.751999992896,3072
4.0500000000000005e-08,25.20950004224,1.604950006912,47.3247499904,0.7504374927999999,3072
4.1e-08,25.35012505088,1.60182500672,47.30912498944,0.7488749927039999,3072
4.15e-08,25.42825005568,1.604950006912,47.26224998656,0.7504374927999999,3072
4.2000000000000006e-08,25.41262505472,1.603387506816,47.29349998848,0.751999992896,3072
4.2500000000000003e-08,25.303250048,1.606512507008,47.3247499904,0.753562492992,3072
4.3e-08,25.20950004224,1.606512507008,47.37162499328,0.7488749927039999,3072
4.3500000000000006e-08,25.27200004608,1.606512507008,47.34037499136,0.7504374927999999,3072
4.4000000000000004e-08,25.42825005568,1.608075007104,47.26224998656,0.753562492992,3072
4.45e-08,25.553250063359997,1.611200007296,47.23099998464,0.753562492992,3072
4.5000000000000006e-08,25.52200006144,1.608075007104,47.2466249856,0.753562492992,3072
4.5500000000000004e-08,25.39700005376,1.606512507008,47.30912498944,0.7504374927999999,3072
4.6e-08,25.303250048,1.604950006912,47.35599999232,0.7488749927039999,3072
4.6500000000000006e-08,25.36575005184,1.60182500672,47.30912498944,0.7504374927999999,3072
4.7000000000000004e-08,25.52200006144,1.603387506816,47.26224998656,0.751999992896,3072
4.75e-08,25.5376250624,1.60182500672,47.26224998656,0.755124993088,3072
4.8000000000000006e-08,25.44387505664,1.603387506816,47.30912498944,0.756687493184,3072
4.8500000000000004e-08,25.28762504704,1.603387506816,47.35599999232,0.753562492992,3072
4.9e-08,25.24075004416,1.604950006912,47.37162499328,0.7504374927999999,3072
4.95e-08,25.35012505088,1.608075007104,47.3247499904,0.7488749927039999,3072
5.0000000000000004e-08,25.47512505856,1.611200007296,47.30912498944,0.7504374927999999,3072
5.05e-08,25.50637506048,1.606512507008,47.30912498944,0.755124993088,3072
5.1e-08,25.41262505472,1.60182500672,47.34037499136,0.753562492992,3072
5.1500000000000005e-08,25.303250048,1.5987000065280002,47.34037499136,0.753562492992,3072
5.2e-08,25.27200004608,1.60182500672,47.3247499904,0.751999992896,19456
5.25e-08,25.3813750528,1.608075007104,47.29349998848,0.7504374927999999,19456
5.3000000000000005e-08,25.47512505856,1.608075007104,47.29349998848,0.7488749927039999,19456
5.35e-08,25.49075005952,1.604950006912,47.3247499904,0.7504374927999999,19456
5.4e-08,25.41262505472,1.603387506816,47.35599999232,0.7504374927999999,19456
5.4500000000000005e-08,25.39700005376,1.600262506624,47.30912498944,0.7504374927999999,19456
5.5e-08,25.41262505472,1.5971375064320001,47.2466249856,0.751999992896,19456
5.55e-08,25.41262505472,1.600262506624,47.23099998464,0.756687493184,19456
5.6000000000000005e-08,25.3813750528,1.603387506816,47.26224998656,0.756687493184,19456
5.65e-08,25.303250048,1.603387506816,47.30912498944,0.753562492992,19456
5.7e-08,25.35012505088,1.60182500672,47.3247499904,0.7504374927999999,19456
5.7500000000000005e-08,25.4595000576,1.603387506816,47.29349998848,0.747312492608,19456
5.8e-08,25.50637506048,1.606512507008,47.29349998848,0.7488749927039999,19456
5.85e-08,25.44387505664,1.60182500672,47.26224998656,0.755124993088,19456
5.9000000000000006e-08,25.31887504896,1.600262506624,47.2466249856,0.756687493184,19456
5.9500000000000003e-08,25.24075004416,1.600262506624,47.2466249856,0.75824999328,19456
6.000000000000001e-08,25.27200004608,1.604950006912,47.26224998656,0.756687493184,19456
6.05e-08,25.39700005376,1.608075007104,47.26224998656,0.755124993088,19456
6.1e-08,25.47512505856,1.608075007104,47.26224998656,0.755124993088,19456
6.15e-08,25.4595000576,1.603387506816,47.27787498752,0.75824999328,19456
6.2e-08,25.3813750528,1.5987000065280002,47.30912498944,0.75824999328,19456
6.250000000000001e-08,25.31887504896,1.5971375064320001,47.3247499904,0.756687493184,19456
6.300000000000001e-08,25.28762504704,1.600262506624,47.30912498944,0.753562492992,19456
6.35e-08,25.303250048,1.604950006912,47.29349998848,0.751999992896,19456
6.4e-08,25.28762504704,1.608075007104,47.29349998848,0.751999992896,19456
6.45e-08,25.27200004608,1.603387506816,47.27787498752,0.751999992896,19456
6.5e-08,25.33450004992,1.5987000065280002,47.29349998848,0.755124993088,19456
6.55e-08,25.42825005568,1.5955750063360001,47.29349998848,0.755124993088,19456
6.600000000000001e-08,25.44387505664,1.5987000065280002,47.27787498752,0.755124993088,19456
6.65e-08,25.41262505472,1.60182500672,47.2466249856,0.755124993088,19456
6.7e-08,25.35012505088,1.60182500672,47.23099998464,0.756687493184,19456
6.75e-08,25.35012505088,1.5987000065280002,47.26224998656,0.756687493184,19456
6.8e-08,25.3813750528,1.600262506624,47.29349998848,0.755124993088,19456
6.85e-08,25.42825005568,1.603387506816,47.3247499904,0.751999992896,19456
6.900000000000001e-08,25.41262505472,1.604950006912,47.30912498944,0.753562492992,19456
6.950000000000001e-08,25.28762504704,1.60182500672,47.29349998848,0.756687493184,19456
7e-08,25.19387504128,1.603387506816,47.3247499904,0.753562492992,19456
7.05e-08,25.147000038399998,1.60182500672,47.30912498944,0.7504374927999999,19456
7.1e-08,25.20950004224,1.600262506624,47.30912498944,0.7488749927039999,19456
7.15e-08,25.25637504512,1.600262506624,47.3247499904,0.7504374927999999,19456
7.200000000000001e-08,25.27200004608,1.600262506624,47.3247499904,0.75824999328,19456
7.250000000000001e-08,25.24075004416,1.5971375064320001,47.27787498752,0.755124993088,19456
7.3e-08,25.2251250432,1.5955750063360001,47.27787498752,0.751999992896,19456
7.35e-08,25.28762504704,1.5971375064320001,47.30912498944,0.7504374927999999,19456
7.4e-08,25.39700005376,1.600262506624,47.30912498944,0.7504374927999999,19456
7.45e-08,25.4595000576,1.60182500672,47.29349998848,0.751999992896,19456
7.500000000000001e-08,25.44387505664,1.60182500672,47.27787498752,0.753562492992,19456
7.550000000000001e-08,25.33450004992,1.5971375064320001,47.27787498752,0.753562492992,19456
7.6e-08,25.17825004032,1.5924500061440001,47.29349998848,0.751999992896,18432
7.65e-08,25.147000038399998,1.5971375064320001,47.3247499904,0.751999992896,18432
7.7e-08,25.162625039359998,1.60182500672,47.3247499904,0.755124993088,18432
7.75e-08,25.20950004224,1.603387506816,47.30912498944,0.755124993088,18432
7.800000000000001e-08,25.2251250432,1.604950006912,47.3247499904,0.75824999328,16384
7.850000000000001e-08,25.20950004224,1.604950006912,47.3247499904,0.759812493376,16384
7.9e-08,25.147000038399998,1.600262506624,47.29349998848,0.761374993472,16384
7.95e-08,25.147000038399998,1.600262506624,47.26224998656,0.76606249376,16384
8e-08,25.19387504128,1.60182500672,47.26224998656,0.76606249376,16384
8.05e-08,25.20950004224,1.600262506624,47.2466249856,0.764499993664,16384
8.100000000000001e-08,25.28762504704,1.600262506624,47.26224998656,0.761374993472,16384
8.150000000000001e-08,25.33450004992,1.60182500672,47.29349998848,0.75824999328,16384
8.2e-08,25.31887504896,1.60182500672,47.3247499904,0.756687493184,16384
8.25e-08,25.28762504704,1.5987000065280002,47.3247499904,0.759812493376,16384
8.3e-08,25.2251250432,1.5955750063360001,47.3247499904,0.761374993472,16384
8.35e-08,25.131375037439998,1.5955750063360001,47.34037499136,0.762937493568,16384
8.400000000000001e-08,25.068875033599998,1.5955750063360001,47.38724999424,0.761374993472,16384
8.450000000000001e-08,25.084500034559998,1.600262506624,47.4028749952,0.761374993472,16384
8.500000000000001e-08,25.162625039359998,1.600262506624,47.38724999424,0.762937493568,16384
8.55e-08,25.24075004416,1.5987000065280002,47.35599999232,0.764499993664,16384
8.6e-08,25.24075004416,1.600262506624,47.35599999232,0.76606249376,16384
8.65e-08,25.162625039359998,1.5987000065280002,47.37162499328,0.769187493952,16384
8.700000000000001e-08,25.100125035519998,1.5971375064320001,47.34037499136,0.764499993664,16384
8.750000000000001e-08,25.084500034559998,1.5987000065280002,47.3247499904,0.75824999328,16384
8.800000000000001e-08,25.147000038399998,1.5987000065280002,47.34037499136,0.756687493184,16384
8.85e-08,25.2251250432,1.600262506624,47.35599999232,0.755124993088,16384
8.9e-08,25.24075004416,1.5955750063360001,47.4028749952,0.756687493184,16384
8.95e-08,25.19387504128,1.5955750063360001,47.41849999616,0.75824999328,16384
9.000000000000001e-08,25.147000038399998,1.5971375064320001,47.43412499712,0.759812493376,16384
9.050000000000001e-08,25.115750036479998,1.603387506816,47.41849999616,0.761374993472,16384
9.100000000000001e-08,25.068875033599998,1.606512507008,47.4028749952,0.764499993664,16384
9.15e-08,25.068875033599998,1.606512507008,47.4028749952,0.764499993664,16384
9.2e-08,25.053250032639998,1.600262506624,47.41849999616,0.762937493568,16384
9.25e-08,25.084500034559998,1.5987000065280002,47.38724999424,0.764499993664,16384
9.300000000000001e-08,25.115750036479998,1.5987000065280002,47.34037499136,0.761374993472,16384
9.350000000000001e-08,25.17825004032,1.5987000065280002,47.3247499904,0.75824999328,16384
9.400000000000001e-08,25.147000038399998,1.5971375064320001,47.34037499136,0.756687493184,16384
9.45e-08,25.100125035519998,1.5955750063360001,47.35599999232,0.756687493184,16384
9.5e-08,25.084500034559998,1.5955750063360001,47.37162499328,0.75824999328,16384
9.55e-08,25.115750036479998,1.5955750063360001,47.37162499328,0.759812493376,16384
9.600000000000001e-08,25.147000038399998,1.5955750063360001,47.4028749952,0.761374993472,16384
9.650000000000001e-08,25.162625039359998,1.5971375064320001,47.41849999616,0.75824999328,16384
9.700000000000001e-08,25.131375037439998,1.5987000065280002,47.46537499904,0.761374993472,16384
9.75e-08,25.037625031679998,1.600262506624,47.44974999808,0.764499993664,16384
9.8e-08,24.990750028799997,1.5987000065280002,47.46537499904,0.764499993664,16384
9.85e-08,25.037625031679998,1.600262506624,47.38724999424,0.76606249376,0
9.9e-08,25.037625031679998,1.600262506624,47.37162499328,0.76606249376,0
9.950000000000001e-08,25.006375029759997,1.600262506624,47.34037499136,0.76606249376,0
1.0000000000000001e-07,24.912625023999997,1.5955750063360001,47.3247499904,0.764499993664,0
1.005e-07,24.897000023039997,1.5924500061440001,47.30912498944,0.762937493568,0
1.01e-07,24.975125027839997,1.5924500061440001,47.30912498944,0.761374993472,0
1.015e-07,25.068875033599998,1.5940125062400001,47.30912498944,0.761374993472,256
1.02e-07,25.115750036479998,1.5955750063360001,47.35599999232,0.761374993472,256
1.0250000000000001e-07,25.115750036479998,1.5940125062400001,47.38724999424,0.762937493568,256
1.0300000000000001e-07,25.084500034559998,1.5940125062400001,47.41849999616,0.761374993472,256
1.0350000000000001e-07,25.068875033599998,1.5987000065280002,47.4028749952,0.764499993664,768
1.04e-07,25.068875033599998,1.600262506624,47.4028749952,0.767624993856,768
1.045e-07,25.053250032639998,1.600262506624,47.41849999616,0.769187493952,768
1.05e-07,25.053250032639998,1.5987000065280002,47.43412499712,0.767624993856,768
1.0550000000000001e-07,25.006375029759997,1.5955750063360001,47.43412499712,0.762937493568,768
1.0600000000000001e-07,24.990750028799997,1.5940125062400001,47.43412499712,0.75824999328,768
1.0650000000000001e-07,25.022000030719997,1.5955750063360001,47.35599999232,0.755124993088,768
1.07e-07,25.022000030719997,1.5955750063360001,47.34037499136,0.753562492992,768
1.075e-07,25.006375029759997,1.5940125062400001,47.3247499904,0.753562492992,768
1.08e-07,24.975125027839997,1.5924500061440001,47.35599999232,0.753562492992,768
1.0850000000000001e-07,25.006375029759997,1.5924500061440001,47.37162499328,0.755124993088,768
1.0900000000000001e-07,25.006375029759997,1.5955750063360001,47.34037499136,0.755124993088,768
1.0950000000000001e-07,25.037625031679998,1.5971375064320001,47.37162499328,0.756687493184,768
1.1e-07,25.006375029759997,1.5987000065280002,47.41849999616,0.75824999328,768
1.105e-07,24.975125027839997,1.5971375064320001,47.46537499904,0.759812493376,768
1.11e-07,24.912625023999997,1.5955750063360001,47.46537499904,0.761374993472,768
1.1150000000000001e-07,24.86575002112,1.5955750063360001,47.481,0.762937493568,768
1.1200000000000001e-07,24.80325001728,1.5987000065280002,47.44974999808,0.762937493568,768
1.1250000000000001e-07,24.7563750144,1.5987000065280002,47.41849999616,0.75824999328,768
1.13e-07,24.74075001344,1.5971375064320001,47.37162499328,0.756687493184,768
1.135e-07,24.7563750144,1.5971375064320001,47.35599999232,0.756687493184,768
1.14e-07,24.8345000192,1.5971375064320001,47.35599999232,0.756687493184,768
1.1450000000000001e-07,24.959500026879997,1.5955750063360001,47.30912498944,0.755124993088,768
1.1500000000000001e-07,25.022000030719997,1.5940125062400001,47.3247499904,0.755124993088,768
1.1550000000000001e-07,25.053250032639998,1.5924500061440001,47.3247499904,0.75824999328,768
1.16e-07,25.006375029759997,1.5955750063360001,47.37162499328,0.762937493568,768
1.165e-07,24.959500026879997,1.60182500672,47.4028749952,0.764499993664,768
1.17e-07,24.912625023999997,1.604950006912,47.41849999616,0.762937493568,768
1.1750000000000001e-07,24.912625023999997,1.60182500672,47.41849999616,0.761374993472,768
1.1800000000000001e-07,24.928250024959997,1.5987000065280002,47.46537499904,0.762937493568,768
1.1850000000000001e-07,24.912625023999997,1.5940125062400001,47.46537499904,0.762937493568,768
1.1900000000000001e-07,24.912625023999997,1.5924500061440001,47.44974999808,0.761374993472,768
1.195e-07,24.86575002112,1.5924500061440001,47.4028749952,0.761374993472,768
