Time (s),VIN,IIN,VOUT
0.0,24.25399998848,1.6999625068159998,49.08212500096
5e-10,24.23837498752,1.7030875070079998,49.12900000384
1e-09,24.23837498752,1.7046500071039998,49.11337500288
1.5000000000000002e-09,24.30087499136,1.7077750072959998,49.05087499904
2e-09,24.2852499904,1.7030875070079998,49.0665
2.5e-09,24.23837498752,1.7015250069119998,49.0665
3.0000000000000004e-09,24.25399998848,1.7015250069119998,49.11337500288
3.5000000000000003e-09,24.26962498944,1.7046500071039998,49.0665
4e-09,24.33212499328,1.7046500071039998,49.03524999808
4.500000000000001e-09,24.33212499328,1.69840000672,48.9883749952
5e-09,24.30087499136,1.696837506624,49.00399999616
5.5000000000000004e-09,24.26962498944,1.696837506624,49.05087499904
6.000000000000001e-09,24.30087499136,1.6999625068159998,49.09775000192
6.5e-09,24.33212499328,1.7030875070079998,49.05087499904
7.000000000000001e-09,24.33212499328,1.7015250069119998,49.01962499712
7.500000000000001e-09,24.26962498944,1.6999625068159998,49.01962499712
8e-09,24.2071249856,1.69840000672,49.0665
8.5e-09,24.23837498752,1.7015250069119998,49.0665
9.000000000000001e-09,24.2852499904,1.7015250069119998,49.00399999616
9.5e-09,24.33212499328,1.69840000672,48.95712499328
1e-08,24.31649999232,1.696837506624,48.97274999424
1.0500000000000001e-08,24.23837498752,1.696837506624,49.01962499712
1.1000000000000001e-08,24.2071249856,1.696837506624,49.0665
1.15e-08,24.26962498944,1.6999625068159998,49.03524999808
1.2000000000000002e-08,24.3633749952,1.7030875070079998,48.97274999424
1.2500000000000001e-08,24.37899999616,1.69840000672,48.92587499136
1.3e-08,24.3633749952,1.693712506432,48.95712499328
1.35e-08,24.31649999232,1.693712506432,49.00399999616
1.4000000000000001e-08,24.31649999232,1.69840000672,49.05087499904
1.45e-08,24.3633749952,1.6999625068159998,49.01962499712
1.5000000000000002e-08,24.3633749952,1.6999625068159998,48.97274999424
1.55e-08,24.30087499136,1.696837506624,49.00399999616
1.6e-08,24.2071249856,1.696837506624,49.09775000192
1.6500000000000002e-08,24.2071249856,1.695275006528,49.11337500288
1.7e-08,24.26962498944,1.695275006528,49.12900000384
1.75e-08,24.33212499328,1.695275006528,49.05087499904
1.8000000000000002e-08,24.31649999232,1.693712506432,49.01962499712
1.85e-08,24.25399998848,1.696837506624,48.9883749952
1.9e-08,24.26962498944,1.69840000672,49.05087499904
1.9500000000000003e-08,24.33212499328,1.7015250069119998,49.05087499904
2e-08,24.4415,1.7030875070079998,49.03524999808
2.05e-08,24.41024999808,1.69840000672,49.01962499712
2.1000000000000003e-08,24.37899999616,1.692150006336,49.01962499712
2.15e-08,24.33212499328,1.693712506432,49.03524999808
2.2000000000000002e-08,24.3633749952,1.695275006528,49.08212500096
2.2500000000000003e-08,24.37899999616,1.696837506624,49.08212500096
2.3e-08,24.37899999616,1.693712506432,49.01962499712
2.3500000000000002e-08,24.3633749952,1.696837506624,49.03524999808
2.4000000000000003e-08,24.2852499904,1.696837506624,49.05087499904
2.45e-08,24.26962498944,1.7015250069119998,49.05087499904
2.5000000000000002e-08,24.30087499136,1.6999625068159998,49.0665
2.55e-08,24.39462499712,1.69840000672,49.0665
2.6e-08,24.39462499712,1.696837506624,49.08212500096
2.6500000000000002e-08,24.2852499904,1.696837506624,49.09775000192
2.7e-08,24.16024998272,1.69840000672,49.1446250048
2.75e-08,24.2071249856,1.6999625068159998,49.12900000384
2.8000000000000003e-08,24.39462499712,1.7015250069119998,49.08212500096
2.85e-08,24.50400000384,1.696837506624,49.0665
2.9e-08,24.47275000192,1.695275006528,49.09775000192
2.9500000000000003e-08,24.37899999616,1.696837506624,49.11337500288
3.0000000000000004e-08,24.30087499136,1.6999625068159998,49.1446250048
3.05e-08,24.25399998848,1.69840000672,49.11337500288
3.1e-08,24.33212499328,1.696837506624,49.09775000192
3.1500000000000004e-08,24.41024999808,1.696837506624,49.09775000192
3.2e-08,24.37899999616,1.695275006528,49.09775000192
3.25e-08,24.2852499904,1.695275006528,49.09775000192
3.3000000000000004e-08,24.2071249856,1.695275006528,49.12900000384
3.35e-08,24.22274998656,1.693712506432,49.09775000192
3.4e-08,24.22274998656,1.695275006528,49.08212500096
3.4500000000000005e-08,24.25399998848,1.69840000672,49.05087499904
3.5e-08,24.26962498944,1.6999625068159998,49.0665
3.55e-08,24.2852499904,1.7015250069119998,49.09775000192
3.6000000000000005e-08,24.31649999232,1.6999625068159998,49.16025000576
3.65e-08,24.2852499904,1.695275006528,49.19150000768
3.7e-08,24.2852499904,1.695275006528,49.17587500672
3.7500000000000005e-08,24.30087499136,1.7015250069119998,49.11337500288
3.8e-08,24.30087499136,1.7046500071039998,49.12900000384
3.85e-08,24.30087499136,1.7030875070079998,49.11337500288
3.9000000000000005e-08,24.31649999232,1.6999625068159998,49.1446250048
3.95e-08,24.3633749952,1.6999625068159998,49.19150000768
4e-08,24.3633749952,1.7015250069119998,49.12900000384
4.0500000000000005e-08,24.37899999616,1.7046500071039998,49.03524999808
4.1e-08,24.33212499328,1.7046500071039998,49.05087499904
4.15e-08,24.26962498944,1.69840000672,49.11337500288
4.2000000000000006e-08,24.17587498368,1.696837506624,49.20712500864
4.2500000000000003e-08,24.14462498176,1.7015250069119998,49.20712500864
4.3e-08,24.2071249856,1.7077750072959998,49.16025000576
4.3500000000000006e-08,24.26962498944,1.7093375073919999,49.09775000192
4.4000000000000004e-08,24.31649999232,1.7030875070079998,49.11337500288
4.45e-08,24.23837498752,1.693712506432,49.17587500672
4.5000000000000006e-08,24.14462498176,1.693712506432,49.25400001152
4.5500000000000004e-08,24.1289999808,1.7030875070079998,49.23837501056
4.6e-08,24.25399998848,1.7062125071999998,49.16025000576
4.6500000000000006e-08,24.34774999424,1.7030875070079998,49.05087499904
4.7000000000000004e-08,24.34774999424,1.69840000672,49.0665
4.75e-08,24.23837498752,1.69840000672,49.16025000576
4.8000000000000006e-08,24.14462498176,1.6999625068159998,49.2227500096
4.8500000000000004e-08,24.16024998272,1.7015250069119998,49.1446250048
4.9e-08,24.26962498944,1.6999625068159998,49.08212500096
4.95e-08,24.37899999616,1.6999625068159998,49.05087499904
5.0000000000000004e-08,24.34774999424,1.6999625068159998,49.11337500288
5.05e-08,24.26962498944,1.7030875070079998,49.19150000768
5.1e-08,24.19149998464,1.7046500071039998,49.23837501056
5.1500000000000005e-08,24.17587498368,1.7046500071039998,49.16025000576
5.2e-08,24.23837498752,1.7030875070079998,49.11337500288
5.25e-08,24.22274998656,1.696837506624,49.16025000576
5.3000000000000005e-08,24.2071249856,1.69840000672,49.26962501248
5.35e-08,24.2071249856,1.7077750072959998,49.3008750144
5.4e-08,24.23837498752,1.7109000074879999,49.25400001152
5.4500000000000005e-08,24.26962498944,1.7093375073919999,49.11337500288
5.5e-08,24.23837498752,1.7015250069119998,49.09775000192
5.55e-08,24.19149998464,1.6999625068159998,49.17587500672
5.6000000000000005e-08,24.2071249856,1.7046500071039998,49.25400001152
5.65e-08,24.31649999232,1.7093375073919999,49.20712500864
5.7e-08,24.37899999616,1.7093375073919999,49.1446250048
5.7500000000000005e-08,24.33212499328,1.7046500071039998,49.09775000192
5.8e-08,24.2071249856,1.7046500071039998,49.19150000768
5.85e-08,24.11337497984,1.7062125071999998,49.23837501056
5.9000000000000006e-08,24.16024998272,1.7077750072959998,49.23837501056
5.9500000000000003e-08,24.23837498752,1.7093375073919999,49.16025000576
6.000000000000001e-08,24.31649999232,1.7077750072959998,49.12900000384
6.05e-08,24.22274998656,1.7046500071039998,49.17587500672
6.1e-08,24.14462498176,1.7046500071039998,49.25400001152
6.15e-08,24.1289999808,1.7093375073919999,49.26962501248
6.2e-08,24.22274998656,1.7109000074879999,49.23837501056
6.250000000000001e-08,24.26962498944,1.7093375073919999,49.16025000576
6.300000000000001e-08,24.25399998848,1.7046500071039998,49.16025000576
6.35e-08,24.17587498368,1.7046500071039998,49.26962501248
6.4e-08,24.16024998272,1.7093375073919999,49.34775001728
6.45e-08,24.2071249856,1.7109000074879999,49.31650001536
6.5e-08,24.26962498944,1.7093375073919999,49.2227500096
6.55e-08,24.22274998656,1.7077750072959998,49.1446250048
6.600000000000001e-08,24.19149998464,1.7062125071999998,49.16025000576
6.65e-08,24.16024998272,1.7109000074879999,49.17587500672
6.7e-08,24.2071249856,1.7109000074879999,49.16025000576
6.75e-08,24.26962498944,1.7124625075839999,49.1446250048
6.8e-08,24.2852499904,1.7124625075839999,49.1446250048
6.85e-08,24.16024998272,1.7093375073919999,49.17587500672
6.900000000000001e-08,24.097749978880003,1.7109000074879999,49.23837501056
6.950000000000001e-08,24.1289999808,1.7155875077759999,49.25400001152
7e-08,24.26962498944,1.717150007872,49.25400001152
7.05e-08,24.31649999232,1.7124625075839999,49.2227500096
7.1e-08,24.2071249856,1.7077750072959998,49.20712500864
7.15e-08,24.097749978880003,1.7077750072959998,49.26962501248
7.200000000000001e-08,24.066499976960003,1.7124625075839999,49.26962501248
7.250000000000001e-08,24.1289999808,1.7140250076799999,49.23837501056
7.3e-08,24.22274998656,1.7140250076799999,49.2227500096
7.35e-08,24.30087499136,1.7109000074879999,49.2227500096
7.4e-08,24.22274998656,1.7109000074879999,49.23837501056
7.45e-08,24.14462498176,1.7155875077759999,49.2227500096
7.500000000000001e-08,24.14462498176,1.7155875077759999,49.20712500864
7.550000000000001e-08,24.17587498368,1.7140250076799999,49.20712500864
7.6e-08,24.19149998464,1.7124625075839999,49.2227500096
7.65e-08,24.17587498368,1.7124625075839999,49.23837501056
7.7e-08,24.16024998272,1.7140250076799999,49.20712500864
7.75e-08,24.17587498368,1.720275008064,49.17587500672
7.800000000000001e-08,24.23837498752,1.717150007872,49.16025000576
7.850000000000001e-08,24.22274998656,1.7140250076799999,49.1446250048
7.9e-08,24.19149998464,1.7109000074879999,49.19150000768
7.95e-08,24.16024998272,1.7124625075839999,49.23837501056
8e-08,24.16024998272,1.7155875077759999,49.23837501056
8.05e-08,24.22274998656,1.718712507968,49.23837501056
8.100000000000001e-08,24.26962498944,1.7155875077759999,49.25400001152
8.150000000000001e-08,24.22274998656,1.7140250076799999,49.23837501056
8.2e-08,24.097749978880003,1.7140250076799999,49.23837501056
8.25e-08,24.035249975040003,1.718712507968,49.20712500864
8.3e-08,24.082124977920003,1.718712507968,49.19150000768
8.35e-08,24.19149998464,1.7155875077759999,49.19150000768
8.400000000000001e-08,24.23837498752,1.7155875077759999,49.19150000768
8.450000000000001e-08,24.2071249856,1.7155875077759999,49.2227500096
8.500000000000001e-08,24.17587498368,1.718712507968,49.20712500864
8.55e-08,24.16024998272,1.723400008256,49.16025000576
8.6e-08,24.23837498752,1.72183750816,49.17587500672
8.65e-08,24.2852499904,1.718712507968,49.20712500864
8.700000000000001e-08,24.23837498752,1.7155875077759999,49.25400001152
8.750000000000001e-08,24.14462498176,1.720275008064,49.26962501248
8.800000000000001e-08,24.11337497984,1.724962508352,49.23837501056
8.85e-08,24.14462498176,1.723400008256,49.2227500096
8.9e-08,24.19149998464,1.72183750816,49.23837501056
8.95e-08,24.2071249856,1.72183750816,49.19150000768
9.000000000000001e-08,24.17587498368,1.723400008256,49.19150000768
9.050000000000001e-08,24.16024998272,1.724962508352,49.16025000576
9.100000000000001e-08,24.2071249856,1.723400008256,49.17587500672
9.15e-08,24.23837498752,1.720275008064,49.19150000768
9.2e-08,24.22274998656,1.723400008256,49.25400001152
9.25e-08,24.17587498368,1.724962508352,49.28525001344
9.300000000000001e-08,24.14462498176,1.728087508544,49.26962501248
9.350000000000001e-08,24.14462498176,1.726525008448,49.25400001152
9.400000000000001e-08,24.17587498368,1.720275008064,49.28525001344
9.45e-08,24.17587498368,1.7155875077759999,49.3008750144
9.5e-08,24.16024998272,1.7155875077759999,49.28525001344
9.55e-08,24.14462498176,1.72183750816,49.28525001344
9.600000000000001e-08,24.1289999808,1.723400008256,49.25400001152
9.650000000000001e-08,24.17587498368,1.72183750816,49.2227500096
9.700000000000001e-08,24.23837498752,1.720275008064,49.23837501056
9.75e-08,24.30087499136,1.720275008064,49.19150000768
9.8e-08,24.26962498944,1.723400008256,49.19150000768
9.85e-08,24.2071249856,1.726525008448,49.16025000576
9.9e-08,24.22274998656,1.724962508352,49.20712500864
9.950000000000001e-08,24.26962498944,1.720275008064,49.20712500864
1.0000000000000001e-07,24.2852499904,1.718712507968,49.2227500096
1.005e-07,24.2071249856,1.720275008064,49.25400001152
1.01e-07,24.2071249856,1.72183750816,49.28525001344
1.015e-07,24.17587498368,1.724962508352,49.31650001536
1.02e-07,24.14462498176,1.72183750816,49.31650001536
1.0250000000000001e-07,24.16024998272,1.718712507968,49.3008750144
1.0300000000000001e-07,24.19149998464,1.717150007872,49.25400001152
1.0350000000000001e-07,24.16024998272,1.723400008256,49.23837501056
1.04e-07,24.17587498368,1.724962508352,49.20712500864
1.045e-07,24.2071249856,1.72183750816,49.17587500672
1.05e-07,24.19149998464,1.717150007872,49.19150000768
1.0550000000000001e-07,24.17587498368,1.7155875077759999,49.1446250048
1.0600000000000001e-07,24.17587498368,1.720275008064,49.1446250048
1.0650000000000001e-07,24.2071249856,1.723400008256,49.11337500288
1.07e-07,24.30087499136,1.718712507968,49.16025000576
1.075e-07,24.30087499136,1.7155875077759999,49.19150000768
1.08e-07,24.25399998848,1.7140250076799999,49.2227500096
1.0850000000000001e-07,24.14462498176,1.717150007872,49.25400001152
1.0900000000000001e-07,24.14462498176,1.72183750816,49.20712500864
1.0950000000000001e-07,24.2071249856,1.723400008256,49.1446250048
1.1e-07,24.30087499136,1.72183750816,49.1446250048
1.105e-07,24.30087499136,1.717150007872,49.16025000576
1.11e-07,24.25399998848,1.7155875077759999,49.16025000576
1.1150000000000001e-07,24.17587498368,1.718712507968,49.19150000768
1.1200000000000001e-07,24.17587498368,1.723400008256,49.17587500672
1.1250000000000001e-07,24.25399998848,1.723400008256,49.11337500288
1.13e-07,24.30087499136,1.720275008064,49.12900000384
1.135e-07,24.26962498944,1.718712507968,49.1446250048
1.14e-07,24.2071249856,1.717150007872,49.2227500096
1.1450000000000001e-07,24.16024998272,1.723400008256,49.25400001152
1.1500000000000001e-07,24.2071249856,1.724962508352,49.25400001152
1.1550000000000001e-07,24.2852499904,1.720275008064,49.2227500096
1.16e-07,24.30087499136,1.720275008064,49.20712500864
1.165e-07,24.17587498368,1.72183750816,49.2227500096
1.17e-07,24.1289999808,1.723400008256,49.23837501056
1.1750000000000001e-07,24.22274998656,1.726525008448,49.17587500672
1.1800000000000001e-07,24.34774999424,1.723400008256,49.11337500288
1.1850000000000001e-07,24.3633749952,1.720275008064,49.05087499904
1.1900000000000001e-07,24.31649999232,1.7155875077759999,49.03524999808
1.195e-07,24.19149998464,1.7155875077759999,49.11337500288
1.2000000000000002e-07,24.14462498176,1.717150007872,49.1446250048
1.205e-07,24.19149998464,1.717150007872,49.1446250048
1.21e-07,24.25399998848,1.7155875077759999,49.1446250048
1.215e-07,24.26962498944,1.7140250076799999,49.12900000384
1.22e-07,24.17587498368,1.7155875077759999,49.23837501056
1.2250000000000002e-07,24.14462498176,1.717150007872,49.3008750144
1.23e-07,24.14462498176,1.7140250076799999,49.31650001536
1.2350000000000001e-07,24.23837498752,1.7124625075839999,49.2227500096
1.24e-07,24.2852499904,1.7109000074879999,49.11337500288
1.245e-07,24.25399998848,1.7140250076799999,49.11337500288
1.2500000000000002e-07,24.23837498752,1.7155875077759999,49.17587500672
1.255e-07,24.30087499136,1.717150007872,49.19150000768
1.2600000000000002e-07,24.31649999232,1.7155875077759999,49.16025000576
1.265e-07,24.30087499136,1.7124625075839999,49.09775000192
1.27e-07,24.2852499904,1.7124625075839999,49.08212500096
1.275e-07,24.22274998656,1.717150007872,49.16025000576
1.28e-07,24.2071249856,1.7155875077759999,49.25400001152
1.2850000000000002e-07,24.22274998656,1.7140250076799999,49.28525001344
1.29e-07,24.22274998656,1.7124625075839999,49.23837501056
1.2950000000000001e-07,24.19149998464,1.7124625075839999,49.1446250048
1.3e-07,24.17587498368,1.7124625075839999,49.12900000384
1.305e-07,24.2071249856,1.7140250076799999,49.1446250048
1.31e-07,24.25399998848,1.7109000074879999,49.19150000768
1.315e-07,24.2852499904,1.7124625075839999,49.19150000768
1.3200000000000002e-07,24.30087499136,1.7140250076799999,49.11337500288
1.325e-07,24.23837498752,1.7140250076799999,49.05087499904
1.33e-07,24.23837498752,1.7124625075839999,49.09775000192
1.335e-07,24.26962498944,1.7140250076799999,49.16025000576
1.34e-07,24.30087499136,1.7140250076799999,49.2227500096
1.3450000000000002e-07,24.30087499136,1.7093375073919999,49.20712500864
1.35e-07,24.2852499904,1.7077750072959998,49.16025000576
1.3550000000000002e-07,24.23837498752,1.7093375073919999,49.19150000768
1.36e-07,24.22274998656,1.7093375073919999,49.25400001152
1.365e-07,24.2852499904,1.7093375073919999,49.25400001152
1.37e-07,24.33212499328,1.7093375073919999,49.20712500864
1.375e-07,24.33212499328,1.7124625075839999,49.11337500288
1.3800000000000002e-07,24.30087499136,1.7155875077759999,49.09775000192
1.385e-07,24.30087499136,1.7155875077759999,49.11337500288
1.3900000000000001e-07,24.26962498944,1.7109000074879999,49.17587500672
1.395e-07,24.2852499904,1.7077750072959998,49.16025000576
1.4e-07,24.30087499136,1.7124625075839999,49.11337500288
1.4050000000000002e-07,24.2852499904,1.7109000074879999,49.08212500096
1.41e-07,24.26962498944,1.7093375073919999,49.11337500288
1.4150000000000002e-07,24.25399998848,1.7093375073919999,49.12900000384
1.42e-07,24.25399998848,1.7062125071999998,49.19150000768
1.425e-07,24.22274998656,1.7077750072959998,49.19150000768
1.43e-07,24.23837498752,1.7062125071999998,49.12900000384
1.435e-07,24.25399998848,1.7077750072959998,49.11337500288
1.4400000000000002e-07,24.22274998656,1.7062125071999998,49.09775000192
1.445e-07,24.23837498752,1.7046500071039998,49.11337500288
1.4500000000000001e-07,24.25399998848,1.7062125071999998,49.1446250048
1.455e-07,24.30087499136,1.7046500071039998,49.08212500096
1.46e-07,24.34774999424,1.7046500071039998,49.05087499904
1.4650000000000002e-07,24.34774999424,1.7046500071039998,48.9883749952
1.47e-07,24.30087499136,1.6999625068159998,49.03524999808
1.4750000000000002e-07,24.25399998848,1.7015250069119998,49.08212500096
1.48e-07,24.23837498752,1.7046500071039998,49.12900000384
1.485e-07,24.23837498752,1.6999625068159998,49.08212500096
1.49e-07,24.30087499136,1.6999625068159998,49.05087499904
1.495e-07,24.30087499136,1.7030875070079998,49.01962499712
1.5000000000000002e-07,24.25399998848,1.7030875070079998,49.0665
1.505e-07,24.23837498752,1.7030875070079998,49.09775000192
1.5100000000000002e-07,24.30087499136,1.7062125071999998,49.08212500096
1.515e-07,24.33212499328,1.7077750072959998,49.05087499904
1.52e-07,24.31649999232,1.7046500071039998,49.01962499712
1.5250000000000002e-07,24.30087499136,1.7015250069119998,49.03524999808
1.53e-07,24.25399998848,1.7015250069119998,49.05087499904
1.5350000000000002e-07,24.2852499904,1.7046500071039998,49.08212500096
1.54e-07,24.33212499328,1.7046500071039998,49.0665
1.5450000000000001e-07,24.31649999232,1.7046500071039998,49.03524999808
1.55e-07,24.25399998848,1.7015250069119998,49.05087499904
1.555e-07,24.2071249856,1.69840000672,49.05087499904
1.5600000000000002e-07,24.25399998848,1.6999625068159998,49.0665
1.565e-07,24.30087499136,1.6999625068159998,49.01962499712
1.5700000000000002e-07,24.34774999424,1.69840000672,48.95712499328
1.575e-07,24.31649999232,1.696837506624,48.97274999424
1.58e-07,24.25399998848,1.69840000672,49.03524999808
1.5850000000000002e-07,24.23837498752,1.7015250069119998,49.0665
1.59e-07,24.30087499136,1.7015250069119998,49.03524999808
1.5950000000000002e-07,24.3633749952,1.6999625068159998,48.9883749952
1.6e-07,24.37899999616,1.69840000672,48.92587499136
1.6050000000000001e-07,24.3633749952,1.693712506432,48.94149999232
1.61e-07,24.31649999232,1.695275006528,49.00399999616
1.615e-07,24.33212499328,1.6999625068159998,49.01962499712
1.6200000000000002e-07,24.3633749952,1.6999625068159998,49.03524999808
1.625e-07,24.37899999616,1.69840000672,48.9883749952
1.6300000000000002e-07,24.30087499136,1.696837506624,49.00399999616
