Time (s),VIN,IIN,VOUT
0.0,25.14637503744,1.4268500063360001,44.994625000320006
5e-10,25.22450004224,1.4284125064320001,45.0289999968
1e-09,25.28700004608,1.4299750065280001,45.04774999488
1.5000000000000002e-09,25.27137504512,1.4284125064320001,45.03212499648
2e-09,25.14637503744,1.4252875062400001,44.994625000320006
2.5e-09,25.052625031679998,1.423725006144,44.96962500288
3.0000000000000004e-09,25.09950003456,1.423725006144,44.966500003200004
3.5000000000000003e-09,25.22450004224,1.422162506048,44.972750002560005
4e-09,25.30262504704,1.423725006144,44.96962500288
4.500000000000001e-09,25.25575004416,1.4252875062400001,44.97587500224
5e-09,25.20887504128,1.4299750065280001,44.99150000064
5.5000000000000004e-09,25.19325004032,1.4268500063360001,45.03212499648
6.000000000000001e-09,25.25575004416,1.423725006144,45.072749992320006
6.5e-09,25.33387504896,1.422162506048,45.09462499008001
7.000000000000001e-09,25.318250048,1.423725006144,45.08524999104
7.500000000000001e-09,25.20887504128,1.423725006144,45.066499992960004
8e-09,25.11512503552,1.423725006144,45.041499995520006
8.5e-09,25.14637503744,1.422162506048,45.035249996160005
9.000000000000001e-09,25.19325004032,1.423725006144,45.01649999808
9.5e-09,25.22450004224,1.423725006144,45.00087499968
1e-08,25.14637503744,1.4252875062400001,44.982125001600004
1.0500000000000001e-08,25.0838750336,1.4284125064320001,44.994625000320006
1.1000000000000001e-08,25.14637503744,1.4299750065280001,45.01649999808
1.15e-08,25.20887504128,1.4331000067200002,45.0289999968
1.2000000000000002e-08,25.22450004224,1.4299750065280001,45.01649999808
1.2500000000000001e-08,25.20887504128,1.4315375066240001,45.00087499968
1.3e-08,25.19325004032,1.4331000067200002,44.99150000064
1.35e-08,25.22450004224,1.4315375066240001,45.010249998720006
1.4000000000000001e-08,25.2401250432,1.4284125064320001,45.003999999360005
1.45e-08,25.20887504128,1.4268500063360001,44.97900000192001
1.5000000000000002e-08,25.13075003648,1.4284125064320001,44.941500005760005
1.55e-08,25.11512503552,1.4268500063360001,44.90087500992
1.6e-08,25.11512503552,1.4268500063360001,44.879000012160006
1.6500000000000002e-08,25.1620000384,1.4252875062400001,44.87587501248
1.7e-08,25.1620000384,1.4268500063360001,44.87587501248
1.75e-08,25.13075003648,1.4252875062400001,44.888375011200004
1.8000000000000002e-08,25.068250032639998,1.420600005952,44.88525001152
1.85e-08,25.09950003456,1.422162506048,44.90087500992
1.9e-08,25.19325004032,1.4252875062400001,44.92900000704
1.9500000000000003e-08,25.25575004416,1.4299750065280001,44.95400000448
2e-08,25.25575004416,1.4299750065280001,44.957125004160005
2.05e-08,25.19325004032,1.4252875062400001,44.92900000704
2.1000000000000003e-08,25.14637503744,1.4252875062400001,44.888375011200004
2.15e-08,25.13075003648,1.423725006144,44.863375013760006
2.2000000000000002e-08,25.14637503744,1.4252875062400001,44.841500016000005
2.2500000000000003e-08,25.14637503744,1.422162506048,44.825875017600005
2.3e-08,25.11512503552,1.423725006144,44.832125016960006
2.3500000000000002e-08,25.0838750336,1.4252875062400001,44.841500016000005
2.4000000000000003e-08,25.068250032639998,1.4268500063360001,44.857125014400005
2.45e-08,25.09950003456,1.4268500063360001,44.879000012160006
2.5000000000000002e-08,25.14637503744,1.4268500063360001,44.90712500928
2.55e-08,25.1620000384,1.4268500063360001,44.95400000448
2.6e-08,25.17762503936,1.4252875062400001,44.97587500224
2.6500000000000002e-08,25.19325004032,1.422162506048,44.96962500288
2.7e-08,25.22450004224,1.423725006144,44.92275000768
2.75e-08,25.2401250432,1.4252875062400001,44.87587501248
2.8000000000000003e-08,25.27137504512,1.4252875062400001,44.83837501632
2.85e-08,25.25575004416,1.422162506048,44.81337501888
2.9e-08,25.19325004032,1.423725006144,44.80087502016001
2.9500000000000003e-08,25.11512503552,1.4284125064320001,44.810250019200005
3.0000000000000004e-08,25.11512503552,1.4299750065280001,44.81337501888
3.05e-08,25.0838750336,1.4284125064320001,44.832125016960006
3.1e-08,25.037000030719998,1.4268500063360001,44.86650001344
3.1500000000000004e-08,25.068250032639998,1.4268500063360001,44.91337500864
3.2e-08,25.1620000384,1.4268500063360001,44.935250006400004
3.25e-08,25.20887504128,1.4284125064320001,44.93212500672001
3.3000000000000004e-08,25.19325004032,1.4284125064320001,44.89775001024
3.35e-08,25.17762503936,1.4299750065280001,44.86650001344
3.4e-08,25.19325004032,1.4299750065280001,44.841500016000005
3.4500000000000005e-08,25.2401250432,1.4284125064320001,44.82900001728
3.5e-08,25.30262504704,1.4299750065280001,44.79775002048
3.55e-08,25.25575004416,1.4299750065280001,44.772750023040004
3.6000000000000005e-08,25.14637503744,1.4299750065280001,44.76025002432
3.65e-08,25.068250032639998,1.4268500063360001,44.779000022400005
3.7e-08,25.09950003456,1.4252875062400001,44.810250019200005
3.7500000000000005e-08,25.14637503744,1.4268500063360001,44.83525001664
3.8e-08,25.1620000384,1.4299750065280001,44.841500016000005
3.85e-08,25.14637503744,1.4299750065280001,44.85087501504
3.9000000000000005e-08,25.11512503552,1.4268500063360001,44.863375013760006
3.95e-08,25.14637503744,1.423725006144,44.88525001152
4e-08,25.19325004032,1.4268500063360001,44.89150001088
4.0500000000000005e-08,25.25575004416,1.4299750065280001,44.872750012800005
4.1e-08,25.25575004416,1.4315375066240001,44.825875017600005
4.15e-08,25.20887504128,1.4284125064320001,44.779000022400005
4.2000000000000006e-08,25.14637503744,1.4284125064320001,44.74462502592
4.2500000000000003e-08,25.13075003648,1.4252875062400001,44.75087502528
4.3e-08,25.19325004032,1.4268500063360001,44.772750023040004
4.3500000000000006e-08,25.1620000384,1.4331000067200002,44.80087502016001
4.4000000000000004e-08,25.09950003456,1.4299750065280001,44.82900001728
4.45e-08,25.005750028799998,1.4284125064320001,44.857125014400005
4.5000000000000006e-08,25.052625031679998,1.4284125064320001,44.888375011200004
4.5500000000000004e-08,25.17762503936,1.4299750065280001,44.888375011200004
4.6e-08,25.25575004416,1.4331000067200002,44.84462501568
4.6500000000000006e-08,25.25575004416,1.4331000067200002,44.794625020800005
4.7000000000000004e-08,25.17762503936,1.4315375066240001,44.75400002496001
4.75e-08,25.1620000384,1.4299750065280001,44.73525002688
4.8000000000000006e-08,25.20887504128,1.4315375066240001,44.741500026240004
4.8500000000000004e-08,25.27137504512,1.4284125064320001,44.75400002496001
4.9e-08,25.2401250432,1.4284125064320001,44.747750025600006
4.95e-08,25.09950003456,1.4268500063360001,44.741500026240004
5.0000000000000004e-08,24.974500026879998,1.4252875062400001,44.741500026240004
5.05e-08,24.958875025919998,1.423725006144,44.77587502272
5.1e-08,25.0838750336,1.423725006144,44.80712501952
5.1500000000000005e-08,25.1620000384,1.4268500063360001,44.794625020800005
5.2e-08,25.14637503744,1.4252875062400001,44.747750025600006
5.25e-08,25.11512503552,1.4252875062400001,44.700875030400006
5.3000000000000005e-08,25.14637503744,1.4268500063360001,44.68212503232
5.35e-08,25.19325004032,1.4284125064320001,44.71337502912
5.4e-08,25.27137504512,1.4299750065280001,44.75087502528
5.4500000000000005e-08,25.30262504704,1.4284125064320001,44.76025002432
5.5e-08,25.22450004224,1.4284125064320001,44.73525002688
5.55e-08,25.11512503552,1.4252875062400001,44.716500028800006
5.6000000000000005e-08,25.052625031679998,1.4268500063360001,44.732125027200006
5.65e-08,25.052625031679998,1.4268500063360001,44.779000022400005
5.7e-08,25.0838750336,1.4268500063360001,44.79775002048
5.7500000000000005e-08,25.0838750336,1.4252875062400001,44.76962502336001
5.8e-08,25.068250032639998,1.4268500063360001,44.71337502912
5.85e-08,25.052625031679998,1.4252875062400001,44.69150003136
5.9000000000000006e-08,25.09950003456,1.4268500063360001,44.70400003008
5.9500000000000003e-08,25.17762503936,1.4299750065280001,44.73525002688
6.000000000000001e-08,25.27137504512,1.4299750065280001,44.725875027840004
6.05e-08,25.25575004416,1.4299750065280001,44.679000032640005
6.1e-08,25.20887504128,1.4315375066240001,44.63837503680001
6.15e-08,25.14637503744,1.4315375066240001,44.663375034240005
6.2e-08,25.14637503744,1.4268500063360001,44.72275002816
6.250000000000001e-08,25.17762503936,1.4252875062400001,44.779000022400005
6.300000000000001e-08,25.14637503744,1.4284125064320001,44.788375021440004
6.35e-08,25.09950003456,1.4268500063360001,44.76025002432
6.4e-08,25.005750028799998,1.4284125064320001,44.73837502656
6.45e-08,25.005750028799998,1.4299750065280001,44.757125024640004
6.5e-08,25.052625031679998,1.4299750065280001,44.788375021440004
6.55e-08,25.13075003648,1.4299750065280001,44.79775002048
6.600000000000001e-08,25.19325004032,1.4299750065280001,44.75087502528
6.65e-08,25.17762503936,1.4315375066240001,44.71337502912
6.7e-08,25.19325004032,1.4315375066240001,44.732125027200006
6.75e-08,25.20887504128,1.4331000067200002,44.804000019840004
6.8e-08,25.27137504512,1.4331000067200002,44.857125014400005
6.85e-08,25.27137504512,1.4331000067200002,44.85087501504
6.900000000000001e-08,25.25575004416,1.4315375066240001,44.816500018560006
6.950000000000001e-08,25.1620000384,1.4331000067200002,44.80712501952
7e-08,25.11512503552,1.4315375066240001,44.832125016960006
7.05e-08,25.09950003456,1.4299750065280001,44.863375013760006
7.1e-08,25.11512503552,1.4268500063360001,44.863375013760006
7.15e-08,25.11512503552,1.4284125064320001,44.819625018240004
7.200000000000001e-08,25.0838750336,1.4299750065280001,44.77587502272
7.250000000000001e-08,25.0838750336,1.4299750065280001,44.772750023040004
7.3e-08,25.0838750336,1.4299750065280001,44.804000019840004
7.35e-08,25.1620000384,1.4331000067200002,44.832125016960006
7.4e-08,25.25575004416,1.436225006912,44.819625018240004
7.45e-08,25.30262504704,1.436225006912,44.79775002048
7.500000000000001e-08,25.28700004608,1.434662506816,44.79150002112
7.550000000000001e-08,25.22450004224,1.4331000067200002,44.804000019840004
7.6e-08,25.2401250432,1.4315375066240001,44.819625018240004
7.65e-08,25.27137504512,1.4284125064320001,44.819625018240004
7.7e-08,25.28700004608,1.4284125064320001,44.810250019200005
7.75e-08,25.22450004224,1.4315375066240001,44.825875017600005
7.800000000000001e-08,25.13075003648,1.4315375066240001,44.86650001344
7.850000000000001e-08,25.068250032639998,1.4315375066240001,44.92275000768
7.9e-08,25.09950003456,1.4315375066240001,44.95400000448
7.95e-08,25.17762503936,1.4315375066240001,44.935250006400004
8e-08,25.19325004032,1.4299750065280001,44.888375011200004
8.05e-08,25.19325004032,1.4315375066240001,44.84462501568
8.100000000000001e-08,25.1620000384,1.4315375066240001,44.82275001792
8.150000000000001e-08,25.19325004032,1.4315375066240001,44.816500018560006
8.2e-08,25.25575004416,1.4331000067200002,44.80712501952
8.25e-08,25.27137504512,1.4315375066240001,44.804000019840004
8.3e-08,25.27137504512,1.4315375066240001,44.810250019200005
8.35e-08,25.19325004032,1.4315375066240001,44.84462501568
8.400000000000001e-08,25.14637503744,1.4315375066240001,44.90087500992
8.450000000000001e-08,25.11512503552,1.4315375066240001,44.950875004800004
8.500000000000001e-08,25.14637503744,1.4331000067200002,44.966500003200004
8.55e-08,25.14637503744,1.434662506816,44.96025000384
8.6e-08,25.13075003648,1.434662506816,44.94462500544
8.65e-08,25.0838750336,1.4331000067200002,44.92900000704
8.700000000000001e-08,25.0838750336,1.436225006912,44.90712500928
8.750000000000001e-08,25.17762503936,1.436225006912,44.86962501312
8.800000000000001e-08,25.25575004416,1.4331000067200002,44.819625018240004
8.85e-08,25.27137504512,1.4299750065280001,44.78212502208
8.9e-08,25.22450004224,1.4299750065280001,44.76962502336001
8.95e-08,25.1620000384,1.4299750065280001,44.79150002112
9.000000000000001e-08,25.14637503744,1.4315375066240001,44.804000019840004
9.050000000000001e-08,25.17762503936,1.4315375066240001,44.82275001792
9.100000000000001e-08,25.20887504128,1.4315375066240001,44.83525001664
9.15e-08,25.1620000384,1.4315375066240001,44.86650001344
9.2e-08,25.11512503552,1.4331000067200002,44.919625008000004
9.25e-08,25.052625031679998,1.4331000067200002,44.96337500352001
9.300000000000001e-08,25.052625031679998,1.436225006912,44.96025000384
9.350000000000001e-08,25.11512503552,1.437787507008,44.92275000768
9.400000000000001e-08,25.1620000384,1.439350007104,44.86025001408
9.45e-08,25.14637503744,1.434662506816,44.819625018240004
9.5e-08,25.13075003648,1.4331000067200002,44.80087502016001
9.55e-08,25.13075003648,1.434662506816,44.79150002112
9.600000000000001e-08,25.17762503936,1.436225006912,44.779000022400005
9.650000000000001e-08,25.2401250432,1.436225006912,44.77587502272
9.700000000000001e-08,25.27137504512,1.434662506816,44.81337501888
9.75e-08,25.22450004224,1.434662506816,44.88525001152
9.8e-08,25.1620000384,1.434662506816,44.957125004160005
9.85e-08,25.09950003456,1.434662506816,44.99775
9.9e-08,25.11512503552,1.4331000067200002,44.982125001600004
9.950000000000001e-08,25.0838750336,1.4331000067200002,44.93837500608
1.0000000000000001e-07,25.052625031679998,1.4299750065280001,44.90712500928
1.005e-07,25.005750028799998,1.4315375066240001,44.888375011200004
1.01e-07,25.021375029759998,1.4331000067200002,44.87587501248
1.015e-07,25.13075003648,1.434662506816,44.857125014400005
1.02e-07,25.2401250432,1.4299750065280001,44.82900001728
1.0250000000000001e-07,25.27137504512,1.4268500063360001,44.819625018240004
1.0300000000000001e-07,25.27137504512,1.4268500063360001,44.83837501632
1.0350000000000001e-07,25.28700004608,1.434662506816,44.88212501184
1.04e-07,25.27137504512,1.436225006912,44.92900000704
1.045e-07,25.2401250432,1.434662506816,44.966500003200004
1.05e-07,25.20887504128,1.434662506816,44.99775
1.0550000000000001e-07,25.1620000384,1.436225006912,45.02274999744
1.0600000000000001e-07,25.14637503744,1.436225006912,45.02274999744
1.0650000000000001e-07,25.14637503744,1.434662506816,45.00712499904
1.07e-07,25.1620000384,1.434662506816,44.96962500288
1.075e-07,25.1620000384,1.437787507008,44.93212500672001
1.08e-07,25.17762503936,1.436225006912,44.90712500928
1.0850000000000001e-07,25.14637503744,1.4331000067200002,44.888375011200004
1.0900000000000001e-07,25.11512503552,1.434662506816,44.85400001472
1.0950000000000001e-07,25.1620000384,1.434662506816,44.83837501632
1.1e-07,25.27137504512,1.436225006912,44.84462501568
1.105e-07,25.318250048,1.436225006912,44.872750012800005
1.11e-07,25.19325004032,1.434662506816,44.92275000768
1.1150000000000001e-07,25.068250032639998,1.4331000067200002,44.95400000448
1.1200000000000001e-07,25.0838750336,1.4299750065280001,44.96337500352001
1.1250000000000001e-07,25.2401250432,1.4299750065280001,44.96962500288
1.13e-07,25.36512505088,1.4331000067200002,44.96962500288
1.135e-07,25.30262504704,1.4331000067200002,44.96962500288
1.14e-07,25.11512503552,1.4315375066240001,44.95400000448
1.1450000000000001e-07,25.021375029759998,1.4299750065280001,44.925875007360005
1.1500000000000001e-07,25.19325004032,1.4299750065280001,44.894625010560006
1.1550000000000001e-07,25.34950004992,1.4331000067200002,44.879000012160006
1.16e-07,25.33387504896,1.4331000067200002,44.894625010560006
1.165e-07,25.14637503744,1.4315375066240001,44.925875007360005
1.17e-07,25.021375029759998,1.4315375066240001,44.950875004800004
1.1750000000000001e-07,25.09950003456,1.4299750065280001,44.95400000448
1.1800000000000001e-07,25.33387504896,1.4315375066240001,44.93837500608
1.1850000000000001e-07,25.44325005568,1.4331000067200002,44.92900000704
1.1900000000000001e-07,25.27137504512,1.434662506816,44.94462500544
1.195e-07,25.068250032639998,1.4331000067200002,44.982125001600004
1.2000000000000002e-07,24.990125027839998,1.4284125064320001,44.98525000128
1.205e-07,25.1620000384,1.4268500063360001,44.96962500288
1.21e-07,25.30262504704,1.4284125064320001,44.941500005760005
1.215e-07,25.28700004608,1.4315375066240001,44.935250006400004
1.22e-07,25.09950003456,1.4284125064320001,44.93212500672001
1.2250000000000002e-07,24.974500026879998,1.4268500063360001,44.94462500544
1.23e-07,25.0838750336,1.4284125064320001,44.950875004800004
1.2350000000000001e-07,25.30262504704,1.4315375066240001,44.94775000512001
1.24e-07,25.3963750528,1.4331000067200002,44.941500005760005
1.245e-07,25.28700004608,1.434662506816,44.93837500608
1.2500000000000002e-07,25.13075003648,1.434662506816,44.935250006400004
1.255e-07,25.09950003456,1.4315375066240001,44.93212500672001
1.2600000000000002e-07,25.20887504128,1.4299750065280001,44.92275000768
1.265e-07,25.30262504704,1.4315375066240001,44.91650000832001
1.27e-07,25.2401250432,1.434662506816,44.91337500864
1.275e-07,25.09950003456,1.434662506816,44.91337500864
1.28e-07,24.990125027839998,1.4299750065280001,44.910250008960006
1.2850000000000002e-07,25.021375029759998,1.4284125064320001,44.910250008960006
1.29e-07,25.13075003648,1.4315375066240001,44.925875007360005
1.2950000000000001e-07,25.19325004032,1.4331000067200002,44.95400000448
1.3e-07,25.14637503744,1.4299750065280001,44.95400000448
1.305e-07,25.068250032639998,1.4268500063360001,44.94775000512001
1.31e-07,25.0838750336,1.4284125064320001,44.93212500672001
1.315e-07,25.19325004032,1.4331000067200002,44.935250006400004
1.3200000000000002e-07,25.34950004992,1.4331000067200002,44.96025000384
1.325e-07,25.36512505088,1.4315375066240001,44.982125001600004
1.33e-07,25.25575004416,1.4284125064320001,44.96025000384
1.335e-07,25.14637503744,1.4252875062400001,44.925875007360005
1.34e-07,25.09950003456,1.4268500063360001,44.90712500928
1.3450000000000002e-07,25.19325004032,1.4284125064320001,44.93837500608
1.35e-07,25.2401250432,1.4299750065280001,44.982125001600004
1.3550000000000002e-07,25.14637503744,1.4284125064320001,44.982125001600004
1.36e-07,25.021375029759998,1.4252875062400001,44.93212500672001
1.365e-07,24.974500026879998,1.4268500063360001,44.88525001152
1.37e-07,25.037000030719998,1.4284125064320001,44.90087500992
1.375e-07,25.1620000384,1.4284125064320001,44.96025000384
1.3800000000000002e-07,25.25575004416,1.4299750065280001,45.00087499968
1.385e-07,25.22450004224,1.4284125064320001,45.00712499904
1.3900000000000001e-07,25.19325004032,1.4299750065280001,44.982125001600004
1.395e-07,25.20887504128,1.4315375066240001,44.982125001600004
1.4e-07,25.28700004608,1.4284125064320001,45.01649999808
1.4050000000000002e-07,25.30262504704,1.4268500063360001,45.04774999488
1.41e-07,25.22450004224,1.4268500063360001,45.041499995520006
1.4150000000000002e-07,25.09950003456,1.4284125064320001,45.019624997760005
1.42e-07,25.021375029759998,1.4268500063360001,45.00712499904
1.425e-07,25.09950003456,1.4268500063360001,45.02274999744
1.43e-07,25.20887504128,1.4268500063360001,45.050874994560004
1.435e-07,25.2401250432,1.4252875062400001,45.04774999488
1.4400000000000002e-07,25.11512503552,1.4268500063360001,45.003999999360005
1.445e-07,25.052625031679998,1.4268500063360001,44.97587500224
1.4500000000000001e-07,25.11512503552,1.4299750065280001,44.972750002560005
1.455e-07,25.28700004608,1.4315375066240001,44.99775
1.46e-07,25.3963750528,1.4331000067200002,45.00712499904
1.4650000000000002e-07,25.318250048,1.4284125064320001,45.00087499968
1.47e-07,25.19325004032,1.4268500063360001,44.98525000128
1.4750000000000002e-07,25.11512503552,1.4252875062400001,44.99775
1.48e-07,25.17762503936,1.4268500063360001,45.03212499648
1.485e-07,25.25575004416,1.4284125064320001,45.057124993920006
1.49e-07,25.27137504512,1.4268500063360001,45.035249996160005
1.495e-07,25.1620000384,1.422162506048,44.99775
1.5000000000000002e-07,25.037000030719998,1.422162506048,44.966500003200004
1.505e-07,25.0838750336,1.422162506048,44.96025000384
1.5100000000000002e-07,25.20887504128,1.422162506048,44.966500003200004
1.515e-07,25.28700004608,1.422162506048,44.96962500288
1.52e-07,25.22450004224,1.423725006144,44.97587500224
1.5250000000000002e-07,25.17762503936,1.4252875062400001,44.988375000960005
1.53e-07,25.17762503936,1.4252875062400001,45.01649999808
1.5350000000000002e-07,25.2401250432,1.4268500063360001,45.066499992960004
1.54e-07,25.318250048,1.4252875062400001,45.082124991360004
