Time (s),VIN,IIN,VOUT,IOUT,"[""CRTL_A"", ""IN_A"", ""CRTL_B"", ""IN_B"", ""nEN"", ""GATE_1"", ""GATE_2""]"
0.0,24.94437502592,1.622700006912,48.031999998079996,0.751649992896,8960
5e-10,24.92875002496,1.622700006912,47.985124995199996,0.753212492992,8960
1e-09,24.9912500288,1.624262507008,47.953874993279996,0.751649992896,8960
1.5000000000000002e-09,25.03812503168,1.624262507008,47.922624991359996,0.751649992896,8960
2e-09,25.08500003456,1.624262507008,47.938249992319996,0.753212492992,8960
2.5e-09,25.13187503744,1.622700006912,47.938249992319996,0.751649992896,8704
3.0000000000000004e-09,25.13187503744,1.6211375068159999,47.969499994239996,0.753212492992,8704
3.5000000000000003e-09,25.10062503552,1.622700006912,47.985124995199996,0.754774993088,8704
4e-09,25.02250003072,1.6273875072,47.985124995199996,0.756337493184,8704
4.500000000000001e-09,24.97562502784,1.625825007104,47.969499994239996,0.75789999328,8192
5e-09,24.94437502592,1.6211375068159999,47.985124995199996,0.75789999328,8192
5.5000000000000004e-09,25.02250003072,1.622700006912,47.969499994239996,0.75789999328,8192
6.000000000000001e-09,25.11625003648,1.624262507008,48.016374997119996,0.761024993472,8192
6.5e-09,25.1475000384,1.6273875072,47.969499994239996,0.761024993472,8192
7.000000000000001e-09,25.11625003648,1.625825007104,47.953874993279996,0.75789999328,8192
7.500000000000001e-09,25.08500003456,1.625825007104,47.969499994239996,0.751649992896,8192
8e-09,25.10062503552,1.624262507008,47.969499994239996,0.7485249927040001,8192
8.5e-09,25.10062503552,1.622700006912,47.938249992319996,0.7485249927040001,8192
9.000000000000001e-09,25.11625003648,1.6195750067199999,47.891374989439996,0.7469624926080001,8192
9.5e-09,25.08500003456,1.6195750067199999,47.875749988479996,0.7485249927040001,8192
1e-08,25.0693750336,1.6211375068159999,47.906999990399996,0.751649992896,8192
1.0500000000000001e-08,25.10062503552,1.624262507008,47.938249992319996,0.753212492992,8192
1.1000000000000001e-08,25.21000004224,1.6273875072,47.938249992319996,0.754774993088,8192
1.15e-08,25.25687504512,1.625825007104,47.953874993279996,0.754774993088,8192
1.2000000000000002e-08,25.24125004416,1.622700006912,47.969499994239996,0.756337493184,8192
1.2500000000000001e-08,25.2256250432,1.6195750067199999,47.985124995199996,0.754774993088,8192
1.3e-08,25.17875004032,1.6211375068159999,48.016374997119996,0.753212492992,8192
1.35e-08,25.1475000384,1.624262507008,48.016374997119996,0.7485249927040001,8192
1.4000000000000001e-08,25.17875004032,1.624262507008,48.031999998079996,0.7485249927040001,8192
1.45e-08,25.21000004224,1.622700006912,48.000749996159996,0.7500874928,8192
1.5000000000000002e-08,25.21000004224,1.6211375068159999,47.938249992319996,0.7500874928,8192
1.55e-08,25.17875004032,1.624262507008,47.906999990399996,0.751649992896,8192
1.6e-08,25.17875004032,1.6211375068159999,47.922624991359996,0.7500874928,8192
1.6500000000000002e-08,25.19437504128,1.622700006912,47.922624991359996,0.7500874928,8192
1.7e-08,25.21000004224,1.624262507008,47.922624991359996,0.753212492992,8192
1.75e-08,25.21000004224,1.624262507008,47.906999990399996,0.754774993088,8192
1.8000000000000002e-08,25.16312503936,1.622700006912,47.938249992319996,0.754774993088,8192
1.85e-08,25.13187503744,1.6211375068159999,47.953874993279996,0.754774993088,8192
1.9e-08,25.11625003648,1.6211375068159999,47.985124995199996,0.751649992896,8192
1.9500000000000003e-08,25.1475000384,1.625825007104,47.969499994239996,0.7500874928,8192
2e-08,25.16312503936,1.6273875072,47.953874993279996,0.751649992896,8192
2.05e-08,25.17875004032,1.625825007104,47.922624991359996,0.753212492992,8192
2.1000000000000003e-08,25.1475000384,1.6195750067199999,47.875749988479996,0.753212492992,8192
2.15e-08,25.17875004032,1.6211375068159999,47.891374989439996,0.7500874928,8192
2.2000000000000002e-08,25.24125004416,1.622700006912,47.922624991359996,0.7500874928,8192
2.2500000000000003e-08,25.303750048,1.622700006912,47.922624991359996,0.7500874928,8192
2.3e-08,25.303750048,1.625825007104,47.906999990399996,0.751649992896,8192
2.3500000000000002e-08,25.25687504512,1.625825007104,47.906999990399996,0.751649992896,8192
2.4000000000000003e-08,25.21000004224,1.622700006912,47.953874993279996,0.7500874928,8192
2.45e-08,25.16312503936,1.624262507008,47.953874993279996,0.753212492992,8192
2.5000000000000002e-08,25.17875004032,1.6273875072,47.953874993279996,0.754774993088,8192
2.55e-08,25.19437504128,1.624262507008,47.922624991359996,0.756337493184,0
2.6e-08,25.2256250432,1.6195750067199999,47.938249992319996,0.756337493184,0
2.6500000000000002e-08,25.21000004224,1.6211375068159999,47.922624991359996,0.753212492992,0
2.7e-08,25.17875004032,1.622700006912,47.953874993279996,0.753212492992,1024
2.75e-08,25.16312503936,1.6211375068159999,47.969499994239996,0.7485249927040001,1024
2.8000000000000003e-08,25.17875004032,1.6211375068159999,47.969499994239996,0.751649992896,1024
2.85e-08,25.21000004224,1.622700006912,47.938249992319996,0.751649992896,1024
2.9e-08,25.21000004224,1.624262507008,47.891374989439996,0.753212492992,1024
2.9500000000000003e-08,25.19437504128,1.6273875072,47.891374989439996,0.754774993088,1024
3.0000000000000004e-08,25.2256250432,1.625825007104,47.922624991359996,0.754774993088,3072
3.05e-08,25.28812504704,1.622700006912,47.922624991359996,0.754774993088,3072
3.1e-08,25.33500004992,1.6211375068159999,47.891374989439996,0.754774993088,3072
3.1500000000000004e-08,25.35062505088,1.625825007104,47.891374989439996,0.753212492992,3072
3.2e-08,25.33500004992,1.6273875072,47.891374989439996,0.7500874928,3072
3.25e-08,25.28812504704,1.625825007104,47.906999990399996,0.751649992896,3072
3.3000000000000004e-08,25.27250004608,1.624262507008,47.938249992319996,0.7485249927040001,3072
3.35e-08,25.27250004608,1.624262507008,47.938249992319996,0.751649992896,3072
3.4e-08,25.2256250432,1.6211375068159999,47.953874993279996,0.754774993088,3072
3.4500000000000005e-08,25.19437504128,1.6211375068159999,47.922624991359996,0.756337493184,3072
3.5e-08,25.2256250432,1.6211375068159999,47.906999990399996,0.751649992896,3072
3.55e-08,25.25687504512,1.625825007104,47.922624991359996,0.753212492992,3072
3.6000000000000005e-08,25.28812504704,1.628950007296,47.938249992319996,0.756337493184,3072
3.65e-08,25.35062505088,1.6273875072,47.922624991359996,0.756337493184,3072
3.7e-08,25.35062505088,1.622700006912,47.922624991359996,0.754774993088,3072
3.7500000000000005e-08,25.28812504704,1.622700006912,47.922624991359996,0.751649992896,3072
3.8e-08,25.28812504704,1.624262507008,47.922624991359996,0.754774993088,3072
3.85e-08,25.303750048,1.6273875072,47.906999990399996,0.756337493184,3072
3.9000000000000005e-08,25.303750048,1.628950007296,47.860124987519995,0.756337493184,3072
3.95e-08,25.24125004416,1.628950007296,47.844499986559995,0.756337493184,3072
4e-08,25.21000004224,1.624262507008,47.875749988479996,0.756337493184,3072
4.0500000000000005e-08,25.16312503936,1.624262507008,47.891374989439996,0.756337493184,3072
4.1e-08,25.25687504512,1.625825007104,47.906999990399996,0.754774993088,3072
4.15e-08,25.39750005376,1.625825007104,47.860124987519995,0.756337493184,3072
4.2000000000000006e-08,25.428750055680002,1.6273875072,47.875749988479996,0.75789999328,3072
4.2500000000000003e-08,25.3818750528,1.6273875072,47.860124987519995,0.754774993088,3072
4.3e-08,25.25687504512,1.6273875072,47.891374989439996,0.753212492992,3072
4.3500000000000006e-08,25.21000004224,1.630512507392,47.906999990399996,0.754774993088,3072
4.4000000000000004e-08,25.31937504896,1.632075007488,47.891374989439996,0.75789999328,3072
4.45e-08,25.491250059520002,1.6273875072,47.844499986559995,0.75789999328,3072
4.5000000000000006e-08,25.56937506432,1.625825007104,47.828874985599995,0.759462493376,3072
4.5500000000000004e-08,25.506875060480002,1.625825007104,47.844499986559995,0.754774993088,3072
4.6e-08,25.35062505088,1.624262507008,47.938249992319996,0.751649992896,3072
4.6500000000000006e-08,25.303750048,1.622700006912,47.938249992319996,0.751649992896,3072
4.7000000000000004e-08,25.413125054720002,1.6211375068159999,47.875749988479996,0.753212492992,3072
4.75e-08,25.522500061440002,1.6195750067199999,47.844499986559995,0.75789999328,3072
4.8000000000000006e-08,25.522500061440002,1.6180125066239999,47.860124987519995,0.75789999328,3072
4.8500000000000004e-08,25.3818750528,1.6180125066239999,47.906999990399996,0.754774993088,3072
4.9e-08,25.25687504512,1.6211375068159999,47.938249992319996,0.7500874928,3072
4.95e-08,25.25687504512,1.624262507008,47.906999990399996,0.751649992896,3072
5.0000000000000004e-08,25.39750005376,1.625825007104,47.891374989439996,0.756337493184,3072
5.05e-08,25.506875060480002,1.622700006912,47.844499986559995,0.75789999328,3072
5.1e-08,25.491250059520002,1.6180125066239999,47.891374989439996,0.759462493376,3072
5.1500000000000005e-08,25.36625005184,1.6180125066239999,47.922624991359996,0.756337493184,3072
5.2e-08,25.25687504512,1.622700006912,47.922624991359996,0.753212492992,19456
5.25e-08,25.31937504896,1.628950007296,47.891374989439996,0.7500874928,19456
5.3000000000000005e-08,25.413125054720002,1.630512507392,47.860124987519995,0.753212492992,19456
5.35e-08,25.475625058560002,1.6273875072,47.875749988479996,0.754774993088,19456
5.4e-08,25.444375056640002,1.622700006912,47.922624991359996,0.756337493184,19456
5.4500000000000005e-08,25.3818750528,1.6195750067199999,47.906999990399996,0.75789999328,19456
5.5e-08,25.39750005376,1.6211375068159999,47.844499986559995,0.75789999328,19456
5.55e-08,25.428750055680002,1.6211375068159999,47.797624983679995,0.75789999328,19456
5.6000000000000005e-08,25.413125054720002,1.6211375068159999,47.797624983679995,0.754774993088,19456
5.65e-08,25.35062505088,1.6195750067199999,47.813249984639995,0.751649992896,19456
5.7e-08,25.33500004992,1.6211375068159999,47.860124987519995,0.751649992896,19456
5.7500000000000005e-08,25.413125054720002,1.6211375068159999,47.844499986559995,0.754774993088,19456
5.8e-08,25.538125062400002,1.6211375068159999,47.875749988479996,0.756337493184,19456
5.85e-08,25.522500061440002,1.6211375068159999,47.828874985599995,0.759462493376,19456
5.9000000000000006e-08,25.428750055680002,1.6180125066239999,47.797624983679995,0.759462493376,19456
5.9500000000000003e-08,25.27250004608,1.616450006528,47.813249984639995,0.759462493376,19456
6.000000000000001e-08,25.21000004224,1.6211375068159999,47.828874985599995,0.75789999328,19456
6.05e-08,25.28812504704,1.622700006912,47.828874985599995,0.754774993088,19456
6.1e-08,25.39750005376,1.6211375068159999,47.828874985599995,0.756337493184,19456
6.15e-08,25.460000057600002,1.6180125066239999,47.828874985599995,0.759462493376,19456
6.2e-08,25.428750055680002,1.616450006528,47.860124987519995,0.759462493376,19456
6.250000000000001e-08,25.35062505088,1.6195750067199999,47.891374989439996,0.75789999328,19456
6.300000000000001e-08,25.31937504896,1.624262507008,47.875749988479996,0.754774993088,19456
6.35e-08,25.31937504896,1.625825007104,47.860124987519995,0.751649992896,19456
6.4e-08,25.33500004992,1.624262507008,47.844499986559995,0.751649992896,19456
6.45e-08,25.303750048,1.6195750067199999,47.813249984639995,0.753212492992,19456
6.5e-08,25.303750048,1.6180125066239999,47.828874985599995,0.751649992896,19456
6.55e-08,25.39750005376,1.6195750067199999,47.828874985599995,0.7500874928,19456
6.600000000000001e-08,25.444375056640002,1.6211375068159999,47.844499986559995,0.7500874928,19456
6.65e-08,25.444375056640002,1.6211375068159999,47.813249984639995,0.753212492992,19456
6.7e-08,25.36625005184,1.6211375068159999,47.781999982719995,0.756337493184,19456
6.75e-08,25.33500004992,1.622700006912,47.797624983679995,0.756337493184,19456
6.8e-08,25.33500004992,1.6273875072,47.828874985599995,0.754774993088,19456
6.85e-08,25.39750005376,1.6273875072,47.875749988479996,0.754774993088,19456
6.900000000000001e-08,25.428750055680002,1.6211375068159999,47.875749988479996,0.754774993088,19456
6.950000000000001e-08,25.39750005376,1.6195750067199999,47.844499986559995,0.756337493184,19456
7e-08,25.27250004608,1.6211375068159999,47.860124987519995,0.754774993088,19456
7.05e-08,25.19437504128,1.6195750067199999,47.860124987519995,0.754774993088,19456
7.1e-08,25.17875004032,1.6180125066239999,47.875749988479996,0.751649992896,19456
7.15e-08,25.25687504512,1.6180125066239999,47.875749988479996,0.754774993088,19456
7.200000000000001e-08,25.303750048,1.616450006528,47.875749988479996,0.75789999328,19456
7.250000000000001e-08,25.28812504704,1.613325006336,47.844499986559995,0.75789999328,19456
7.3e-08,25.2256250432,1.614887506432,47.844499986559995,0.75789999328,19456
7.35e-08,25.24125004416,1.6180125066239999,47.860124987519995,0.756337493184,19456
7.4e-08,25.33500004992,1.6195750067199999,47.891374989439996,0.756337493184,19456
7.45e-08,25.444375056640002,1.6211375068159999,47.875749988479996,0.75789999328,19456
7.500000000000001e-08,25.460000057600002,1.6195750067199999,47.860124987519995,0.759462493376,19456
7.550000000000001e-08,25.444375056640002,1.616450006528,47.860124987519995,0.759462493376,19456
7.6e-08,25.27250004608,1.614887506432,47.875749988479996,0.75789999328,19456
7.65e-08,25.16312503936,1.616450006528,47.906999990399996,0.75789999328,18432
7.7e-08,25.13187503744,1.622700006912,47.906999990399996,0.759462493376,18432
7.75e-08,25.19437504128,1.625825007104,47.891374989439996,0.761024993472,16384
7.800000000000001e-08,25.2256250432,1.624262507008,47.906999990399996,0.762587493568,16384
7.850000000000001e-08,25.24125004416,1.6211375068159999,47.875749988479996,0.762587493568,16384
7.9e-08,25.19437504128,1.6195750067199999,47.875749988479996,0.7657124937600001,16384
7.95e-08,25.16312503936,1.6195750067199999,47.860124987519995,0.768837493952,16384
8e-08,25.17875004032,1.6180125066239999,47.844499986559995,0.768837493952,16384
8.05e-08,25.21000004224,1.6195750067199999,47.813249984639995,0.7672749938560001,16384
8.100000000000001e-08,25.25687504512,1.6180125066239999,47.844499986559995,0.764149993664,16384
8.150000000000001e-08,25.303750048,1.6195750067199999,47.844499986559995,0.759462493376,16384
8.2e-08,25.31937504896,1.6195750067199999,47.906999990399996,0.761024993472,16384
8.25e-08,25.303750048,1.6180125066239999,47.906999990399996,0.761024993472,16384
8.3e-08,25.25687504512,1.616450006528,47.906999990399996,0.762587493568,16384
8.35e-08,25.17875004032,1.6180125066239999,47.906999990399996,0.764149993664,16384
8.400000000000001e-08,25.08500003456,1.6211375068159999,47.938249992319996,0.7657124937600001,16384
8.450000000000001e-08,25.05375003264,1.6211375068159999,47.969499994239996,0.762587493568,16384
8.500000000000001e-08,25.08500003456,1.6195750067199999,47.969499994239996,0.762587493568,16384
8.55e-08,25.19437504128,1.6211375068159999,47.938249992319996,0.761024993472,16384
8.6e-08,25.24125004416,1.6195750067199999,47.922624991359996,0.764149993664,16384
8.65e-08,25.21000004224,1.6195750067199999,47.922624991359996,0.764149993664,16384
8.700000000000001e-08,25.13187503744,1.6195750067199999,47.906999990399996,0.764149993664,16384
8.750000000000001e-08,25.08500003456,1.6195750067199999,47.906999990399996,0.75789999328,16384
8.800000000000001e-08,25.10062503552,1.6180125066239999,47.906999990399996,0.754774993088,16384
8.85e-08,25.16312503936,1.6180125066239999,47.906999990399996,0.754774993088,16384
8.9e-08,25.2256250432,1.616450006528,47.953874993279996,0.756337493184,16384
8.95e-08,25.21000004224,1.6180125066239999,47.969499994239996,0.754774993088,16384
9.000000000000001e-08,25.1475000384,1.6195750067199999,48.000749996159996,0.759462493376,16384
9.050000000000001e-08,25.10062503552,1.6195750067199999,47.985124995199996,0.764149993664,16384
9.100000000000001e-08,25.05375003264,1.6195750067199999,47.969499994239996,0.7672749938560001,16384
9.15e-08,25.05375003264,1.6180125066239999,47.969499994239996,0.768837493952,16384
9.2e-08,25.03812503168,1.6195750067199999,47.969499994239996,0.770399994048,16384
9.25e-08,25.03812503168,1.6180125066239999,47.969499994239996,0.770399994048,16384
9.300000000000001e-08,25.08500003456,1.613325006336,47.938249992319996,0.7672749938560001,16384
9.350000000000001e-08,25.1475000384,1.616450006528,47.891374989439996,0.762587493568,16384
9.400000000000001e-08,25.16312503936,1.616450006528,47.906999990399996,0.761024993472,16384
9.45e-08,25.13187503744,1.614887506432,47.906999990399996,0.75789999328,16384
9.5e-08,25.10062503552,1.613325006336,47.938249992319996,0.75789999328,16384
9.55e-08,25.0693750336,1.6180125066239999,47.938249992319996,0.75789999328,16384
9.600000000000001e-08,25.08500003456,1.6180125066239999,47.953874993279996,0.75789999328,16384
9.650000000000001e-08,25.1475000384,1.616450006528,47.969499994239996,0.762587493568,16384
9.700000000000001e-08,25.16312503936,1.614887506432,48.016374997119996,0.7657124937600001,16384
9.75e-08,25.08500003456,1.616450006528,48.016374997119996,0.7672749938560001,16384
9.8e-08,25.00687502976,1.6180125066239999,48.016374997119996,0.768837493952,16384
9.85e-08,24.97562502784,1.6195750067199999,47.969499994239996,0.770399994048,0
9.9e-08,25.03812503168,1.6180125066239999,47.953874993279996,0.768837493952,0
9.950000000000001e-08,25.03812503168,1.614887506432,47.906999990399996,0.7657124937600001,0
1.0000000000000001e-07,24.96000002688,1.613325006336,47.906999990399996,0.764149993664,0
1.005e-07,24.913125024,1.613325006336,47.875749988479996,0.764149993664,0
1.01e-07,24.89750002304,1.61176250624,47.891374989439996,0.762587493568,256
1.015e-07,25.00687502976,1.610200006144,47.891374989439996,0.761024993472,256
1.02e-07,25.0693750336,1.61176250624,47.938249992319996,0.764149993664,256
1.0250000000000001e-07,25.11625003648,1.610200006144,47.969499994239996,0.7672749938560001,256
1.0300000000000001e-07,25.08500003456,1.610200006144,48.000749996159996,0.7672749938560001,256
1.0350000000000001e-07,25.05375003264,1.616450006528,48.000749996159996,0.770399994048,256
1.04e-07,25.05375003264,1.6195750067199999,48.016374997119996,0.771962494144,768
1.045e-07,25.03812503168,1.6180125066239999,47.985124995199996,0.770399994048,768
1.05e-07,25.05375003264,1.613325006336,48.000749996159996,0.7672749938560001,768
1.0550000000000001e-07,25.03812503168,1.61176250624,48.000749996159996,0.762587493568,768
1.0600000000000001e-07,25.00687502976,1.610200006144,48.016374997119996,0.75789999328,768
1.0650000000000001e-07,25.03812503168,1.613325006336,47.969499994239996,0.756337493184,768
1.07e-07,25.0693750336,1.614887506432,47.922624991359996,0.754774993088,768
1.075e-07,25.05375003264,1.613325006336,47.891374989439996,0.754774993088,768
1.08e-07,25.00687502976,1.61176250624,47.891374989439996,0.754774993088,768
1.0850000000000001e-07,25.02250003072,1.61176250624,47.922624991359996,0.756337493184,768
1.0900000000000001e-07,25.02250003072,1.613325006336,47.922624991359996,0.759462493376,768
1.0950000000000001e-07,25.02250003072,1.616450006528,47.938249992319996,0.75789999328,768
1.1e-07,25.02250003072,1.6180125066239999,47.969499994239996,0.759462493376,768
1.105e-07,24.9912500288,1.616450006528,48.000749996159996,0.761024993472,768
1.11e-07,24.92875002496,1.613325006336,48.047624999039996,0.759462493376,768
1.1150000000000001e-07,24.866250021120003,1.613325006336,48.06325,0.75789999328,768
1.1200000000000001e-07,24.835000019200002,1.614887506432,48.047624999039996,0.754774993088,768
1.1250000000000001e-07,24.788125016320002,1.613325006336,47.985124995199996,0.756337493184,768
1.13e-07,24.756875014400002,1.61176250624,47.953874993279996,0.75789999328,768
1.135e-07,24.756875014400002,1.61176250624,47.922624991359996,0.754774993088,768
1.14e-07,24.803750017280002,1.610200006144,47.922624991359996,0.756337493184,768
1.1450000000000001e-07,24.913125024,1.61176250624,47.906999990399996,0.75789999328,768
1.1500000000000001e-07,25.00687502976,1.613325006336,47.891374989439996,0.761024993472,768
1.1550000000000001e-07,25.05375003264,1.614887506432,47.906999990399996,0.764149993664,768
