Time (s),VIN,IIN,VOUT
0.0,25.13050003648,1.4373250063360001,45.35112500096
5e-10,25.1617500384,1.4388875064320001,45.3761249984
1e-09,25.27112504512,1.4388875064320001,45.39487499648
1.5000000000000002e-09,25.27112504512,1.4357625062400001,45.38549999744
2e-09,25.17737503936,1.432637506048,45.341750001920005
2.5e-09,25.06800003264,1.4342000061440001,45.304250005760004
3.0000000000000004e-09,25.06800003264,1.4357625062400001,45.304250005760004
3.5000000000000003e-09,25.19300004032,1.4357625062400001,45.3136250048
4e-09,25.28675004608,1.4342000061440001,45.31675000448
4.500000000000001e-09,25.27112504512,1.4342000061440001,45.32300000384
5e-09,25.19300004032,1.4357625062400001,45.33550000256
5.5000000000000004e-09,25.17737503936,1.4404500065280001,45.372999998720005
6.000000000000001e-09,25.2398750432,1.4420125066240002,45.41674999424
6.5e-09,25.318000048000002,1.4373250063360001,45.438624992
7.000000000000001e-09,25.333625048960002,1.432637506048,45.43237499264
7.500000000000001e-09,25.20862504128,1.432637506048,45.41049999488
8e-09,25.11487503552,1.4342000061440001,45.38549999744
8.5e-09,25.11487503552,1.4357625062400001,45.3761249984
9.000000000000001e-09,25.20862504128,1.4357625062400001,45.36674999936
9.5e-09,25.2398750432,1.4342000061440001,45.35425000064
1e-08,25.19300004032,1.4357625062400001,45.32300000384
1.0500000000000001e-08,25.11487503552,1.4373250063360001,45.3292500032
1.1000000000000001e-08,25.11487503552,1.4373250063360001,45.357375000320005
1.15e-08,25.20862504128,1.4373250063360001,45.3761249984
1.2000000000000002e-08,25.27112504512,1.4357625062400001,45.36987499904
1.2500000000000001e-08,25.2398750432,1.4357625062400001,45.357375000320005
1.3e-08,25.22425004224,1.4357625062400001,45.34800000128
1.35e-08,25.20862504128,1.4357625062400001,45.3605
1.4000000000000001e-08,25.20862504128,1.4357625062400001,45.36362499968
1.45e-08,25.20862504128,1.4373250063360001,45.3448750016
1.5000000000000002e-08,25.17737503936,1.4357625062400001,45.304250005760004
1.55e-08,25.09925003456,1.4342000061440001,45.26050001024
1.6e-08,25.09925003456,1.431075005952,45.2355000128
1.6500000000000002e-08,25.14612503744,1.432637506048,45.23237501312
1.7e-08,25.19300004032,1.4357625062400001,45.23237501312
1.75e-08,25.14612503744,1.4357625062400001,45.24487501184
1.8000000000000002e-08,25.0836250336,1.4342000061440001,45.2511250112
1.85e-08,25.13050003648,1.4342000061440001,45.26987500928
1.9e-08,25.19300004032,1.4342000061440001,45.294875006720005
1.9500000000000003e-08,25.28675004608,1.4388875064320001,45.3136250048
2e-08,25.28675004608,1.4404500065280001,45.3136250048
2.05e-08,25.20862504128,1.4404500065280001,45.29175000704
2.1000000000000003e-08,25.14612503744,1.4373250063360001,45.257375010560004
2.15e-08,25.11487503552,1.4357625062400001,45.22925001344
2.2000000000000002e-08,25.13050003648,1.4373250063360001,45.204250016
2.2500000000000003e-08,25.13050003648,1.4373250063360001,45.19175001728
2.3e-08,25.13050003648,1.4342000061440001,45.1886250176
2.3500000000000002e-08,25.0836250336,1.432637506048,45.204250016
2.4000000000000003e-08,25.0836250336,1.432637506048,45.2198750144
2.45e-08,25.09925003456,1.4357625062400001,45.241750012160004
2.5000000000000002e-08,25.14612503744,1.4404500065280001,45.26987500928
2.55e-08,25.17737503936,1.4373250063360001,45.3136250048
2.6e-08,25.19300004032,1.4342000061440001,45.341750001920005
2.6500000000000002e-08,25.19300004032,1.432637506048,45.33550000256
2.7e-08,25.20862504128,1.4357625062400001,45.294875006720005
2.75e-08,25.22425004224,1.4388875064320001,45.23862501248
2.8000000000000003e-08,25.25550004416,1.4373250063360001,45.194875016960005
2.85e-08,25.22425004224,1.4357625062400001,45.16987501952
2.9e-08,25.1617500384,1.4357625062400001,45.163625020160005
2.9500000000000003e-08,25.11487503552,1.4373250063360001,45.1730000192
3.0000000000000004e-08,25.09925003456,1.4373250063360001,45.17612501888
3.05e-08,25.0836250336,1.4342000061440001,45.194875016960005
3.1e-08,25.0836250336,1.4373250063360001,45.22300001408
3.1500000000000004e-08,25.06800003264,1.4404500065280001,45.257375010560004
3.2e-08,25.14612503744,1.4373250063360001,45.282375008
3.25e-08,25.20862504128,1.4357625062400001,45.288625007360004
3.3000000000000004e-08,25.20862504128,1.4388875064320001,45.26050001024
3.35e-08,25.19300004032,1.4388875064320001,45.2198750144
3.4e-08,25.19300004032,1.4342000061440001,45.19175001728
3.4500000000000005e-08,25.22425004224,1.432637506048,45.17612501888
3.5e-08,25.27112504512,1.4357625062400001,45.16050002048
3.55e-08,25.25550004416,1.4388875064320001,45.13862502272
3.6000000000000005e-08,25.1617500384,1.4373250063360001,45.11987502464
3.65e-08,25.0836250336,1.4342000061440001,45.12925002368
3.7e-08,25.0836250336,1.432637506048,45.16050002048
3.7500000000000005e-08,25.11487503552,1.4373250063360001,45.1886250176
3.8e-08,25.14612503744,1.4404500065280001,45.204250016
3.85e-08,25.14612503744,1.4420125066240002,45.210500015360005
3.9000000000000005e-08,25.14612503744,1.4388875064320001,45.21675001472
3.95e-08,25.13050003648,1.4357625062400001,45.23862501248
4e-08,25.19300004032,1.4373250063360001,45.24487501184
4.0500000000000005e-08,25.2398750432,1.4388875064320001,45.22925001344
4.1e-08,25.27112504512,1.4420125066240002,45.18237501824
4.15e-08,25.2398750432,1.4388875064320001,45.12925002368
4.2000000000000006e-08,25.1617500384,1.4342000061440001,45.09175002752
4.2500000000000003e-08,25.11487503552,1.432637506048,45.08862502784
4.3e-08,25.14612503744,1.4357625062400001,45.11987502464
4.3500000000000006e-08,25.17737503936,1.4388875064320001,45.15425002112
4.4000000000000004e-08,25.09925003456,1.4404500065280001,45.179250018560005
4.45e-08,25.03675003072,1.4388875064320001,45.21362501504
4.5000000000000006e-08,25.02112502976,1.4373250063360001,45.241750012160004
4.5500000000000004e-08,25.13050003648,1.4373250063360001,45.2511250112
4.6e-08,25.25550004416,1.4404500065280001,45.210500015360005
4.6500000000000006e-08,25.27112504512,1.4420125066240002,45.16050002048
4.7000000000000004e-08,25.22425004224,1.4420125066240002,45.116750024960005
4.75e-08,25.13050003648,1.4373250063360001,45.09800002688
4.8000000000000006e-08,25.19300004032,1.4342000061440001,45.10112502656
4.8500000000000004e-08,25.27112504512,1.4357625062400001,45.110500025600004
4.9e-08,25.27112504512,1.4388875064320001,45.10737502592
4.95e-08,25.13050003648,1.4373250063360001,45.09800002688
5.0000000000000004e-08,25.0055000288,1.4373250063360001,45.09800002688
5.05e-08,24.94300002496,1.4357625062400001,45.126125024000004
5.1e-08,25.05237503168,1.4342000061440001,45.163625020160005
5.1500000000000005e-08,25.1617500384,1.4388875064320001,45.163625020160005
5.2e-08,25.1617500384,1.4404500065280001,45.116750024960005
5.25e-08,25.14612503744,1.4404500065280001,45.06675003008
5.3000000000000005e-08,25.13050003648,1.4388875064320001,45.03862503296
5.35e-08,25.17737503936,1.4373250063360001,45.063625030400004
5.4e-08,25.25550004416,1.4404500065280001,45.094875027200004
5.4500000000000005e-08,25.28675004608,1.4420125066240002,45.11362502528
5.5e-08,25.25550004416,1.4420125066240002,45.094875027200004
5.55e-08,25.09925003456,1.4373250063360001,45.06987502976
5.6000000000000005e-08,25.03675003072,1.432637506048,45.079250028800004
5.65e-08,25.02112502976,1.429512505856,45.12300002432
5.7e-08,25.0836250336,1.4342000061440001,45.1573750208
5.7500000000000005e-08,25.09925003456,1.4357625062400001,45.141750022400004
5.8e-08,25.0836250336,1.4342000061440001,45.08550002816
5.85e-08,25.06800003264,1.4342000061440001,45.048000032000004
5.9000000000000006e-08,25.0836250336,1.4404500065280001,45.06050003072
5.9500000000000003e-08,25.17737503936,1.4404500065280001,45.09175002752
6.000000000000001e-08,25.27112504512,1.4388875064320001,45.08862502784
6.05e-08,25.30237504704,1.4373250063360001,45.04175003264
6.1e-08,25.2398750432,1.4388875064320001,44.99800003712
6.15e-08,25.1617500384,1.4388875064320001,45.00425003648
6.2e-08,25.11487503552,1.4388875064320001,45.06050003072
6.250000000000001e-08,25.13050003648,1.4373250063360001,45.12300002432
6.300000000000001e-08,25.1617500384,1.4373250063360001,45.141750022400004
6.35e-08,25.09925003456,1.4388875064320001,45.116750024960005
6.4e-08,25.02112502976,1.4388875064320001,45.08550002816
6.45e-08,24.98987502784,1.4388875064320001,45.08862502784
6.5e-08,25.05237503168,1.4420125066240002,45.11362502528
6.55e-08,25.14612503744,1.4420125066240002,45.132375023360005
6.600000000000001e-08,25.20862504128,1.4388875064320001,45.09800002688
6.65e-08,25.20862504128,1.4404500065280001,45.05425003136
6.7e-08,25.20862504128,1.4420125066240002,45.06050003072
6.75e-08,25.22425004224,1.4404500065280001,45.11987502464
6.8e-08,25.28675004608,1.4373250063360001,45.179250018560005
6.85e-08,25.28675004608,1.4388875064320001,45.18550001792
6.900000000000001e-08,25.2398750432,1.4388875064320001,45.15112502144
6.950000000000001e-08,25.17737503936,1.4404500065280001,45.132375023360005
7e-08,25.14612503744,1.4388875064320001,45.15112502144
7.05e-08,25.11487503552,1.4388875064320001,45.19175001728
7.1e-08,25.11487503552,1.4357625062400001,45.19800001664
7.15e-08,25.09925003456,1.4357625062400001,45.163625020160005
7.200000000000001e-08,25.09925003456,1.4373250063360001,45.110500025600004
7.250000000000001e-08,25.0836250336,1.4373250063360001,45.09800002688
7.3e-08,25.09925003456,1.4404500065280001,45.12300002432
7.35e-08,25.1617500384,1.4404500065280001,45.16050002048
7.4e-08,25.25550004416,1.4404500065280001,45.163625020160005
7.45e-08,25.30237504704,1.4420125066240002,45.13550002304
7.500000000000001e-08,25.28675004608,1.4435750067200002,45.12300002432
7.550000000000001e-08,25.22425004224,1.4420125066240002,45.13862502272
7.6e-08,25.22425004224,1.4404500065280001,45.15425002112
7.65e-08,25.27112504512,1.4404500065280001,45.16050002048
7.7e-08,25.27112504512,1.4404500065280001,45.15425002112
7.75e-08,25.22425004224,1.4420125066240002,45.163625020160005
7.800000000000001e-08,25.13050003648,1.4420125066240002,45.19800001664
7.850000000000001e-08,25.0836250336,1.4420125066240002,45.2511250112
7.9e-08,25.09925003456,1.4420125066240002,45.29175000704
7.95e-08,25.1617500384,1.4435750067200002,45.28550000768
8e-08,25.22425004224,1.4404500065280001,45.23862501248
8.05e-08,25.20862504128,1.4420125066240002,45.19175001728
8.100000000000001e-08,25.19300004032,1.4435750067200002,45.1573750208
8.150000000000001e-08,25.20862504128,1.4435750067200002,45.1573750208
8.2e-08,25.27112504512,1.4420125066240002,45.1573750208
8.25e-08,25.28675004608,1.4420125066240002,45.1573750208
8.3e-08,25.25550004416,1.4435750067200002,45.16987501952
8.35e-08,25.22425004224,1.445137506816,45.19800001664
8.400000000000001e-08,25.1617500384,1.445137506816,45.2511250112
8.450000000000001e-08,25.13050003648,1.446700006912,45.30112500608
8.500000000000001e-08,25.1617500384,1.445137506816,45.31675000448
8.55e-08,25.17737503936,1.446700006912,45.310500005120005
8.6e-08,25.14612503744,1.445137506816,45.29175000704
8.65e-08,25.09925003456,1.4420125066240002,45.279250008320005
8.700000000000001e-08,25.11487503552,1.4404500065280001,45.26050001024
8.750000000000001e-08,25.14612503744,1.4435750067200002,45.23237501312
8.800000000000001e-08,25.2398750432,1.445137506816,45.18550001792
8.85e-08,25.27112504512,1.4435750067200002,45.14487502208
8.9e-08,25.2398750432,1.4435750067200002,45.12925002368
8.95e-08,25.17737503936,1.445137506816,45.148000021760005
9.000000000000001e-08,25.14612503744,1.445137506816,45.16987501952
9.050000000000001e-08,25.14612503744,1.446700006912,45.18550001792
9.100000000000001e-08,25.19300004032,1.448262507008,45.19800001664
9.15e-08,25.1617500384,1.445137506816,45.22300001408
9.2e-08,25.11487503552,1.4404500065280001,45.26987500928
9.25e-08,25.06800003264,1.4388875064320001,45.3136250048
9.300000000000001e-08,25.05237503168,1.4420125066240002,45.319875004160004
9.350000000000001e-08,25.0836250336,1.445137506816,45.282375008
9.400000000000001e-08,25.14612503744,1.446700006912,45.2198750144
9.45e-08,25.1617500384,1.448262507008,45.17612501888
9.5e-08,25.1617500384,1.446700006912,45.15425002112
9.55e-08,25.13050003648,1.446700006912,45.148000021760005
9.600000000000001e-08,25.17737503936,1.4435750067200002,45.13550002304
9.650000000000001e-08,25.2398750432,1.4420125066240002,45.13550002304
9.700000000000001e-08,25.27112504512,1.445137506816,45.1573750208
9.75e-08,25.22425004224,1.445137506816,45.226125013760004
9.8e-08,25.1617500384,1.446700006912,45.2980000064
9.85e-08,25.09925003456,1.448262507008,45.341750001920005
9.9e-08,25.0836250336,1.448262507008,45.33550000256
9.950000000000001e-08,25.0836250336,1.446700006912,45.294875006720005
1.0000000000000001e-07,25.03675003072,1.446700006912,45.257375010560004
1.005e-07,25.0055000288,1.445137506816,45.241750012160004
1.01e-07,25.02112502976,1.445137506816,45.22925001344
1.015e-07,25.11487503552,1.446700006912,45.210500015360005
1.02e-07,25.20862504128,1.445137506816,45.18550001792
1.0250000000000001e-07,25.25550004416,1.445137506816,45.17612501888
1.0300000000000001e-07,25.28675004608,1.445137506816,45.1886250176
1.0350000000000001e-07,25.27112504512,1.445137506816,45.2355000128
1.04e-07,25.27112504512,1.446700006912,45.282375008
1.045e-07,25.2398750432,1.448262507008,45.319875004160004
1.05e-07,25.22425004224,1.448262507008,45.3448750016
1.0550000000000001e-07,25.1617500384,1.446700006912,45.372999998720005
1.0600000000000001e-07,25.13050003648,1.445137506816,45.37924999808
1.0650000000000001e-07,25.14612503744,1.4435750067200002,45.36674999936
1.07e-07,25.14612503744,1.446700006912,45.3292500032
1.075e-07,25.1617500384,1.446700006912,45.28550000768
1.08e-07,25.19300004032,1.446700006912,45.26050001024
1.0850000000000001e-07,25.1617500384,1.4435750067200002,45.241750012160004
1.0900000000000001e-07,25.13050003648,1.4435750067200002,45.21675001472
1.0950000000000001e-07,25.11487503552,1.4435750067200002,45.20112501632
1.1e-07,25.22425004224,1.448262507008,45.194875016960005
1.105e-07,25.318000048000002,1.449825007104,45.22300001408
1.11e-07,25.2398750432,1.449825007104,45.26987500928
1.1150000000000001e-07,25.0836250336,1.445137506816,45.304250005760004
1.1200000000000001e-07,25.06800003264,1.4420125066240002,45.31675000448
1.1250000000000001e-07,25.20862504128,1.4420125066240002,45.31675000448
1.13e-07,25.349250049920002,1.4435750067200002,45.319875004160004
1.135e-07,25.333625048960002,1.4420125066240002,45.32300000384
1.14e-07,25.14612503744,1.445137506816,45.3136250048
1.1450000000000001e-07,25.0055000288,1.445137506816,45.288625007360004
1.1500000000000001e-07,25.13050003648,1.4420125066240002,45.26362500992
1.1550000000000001e-07,25.333625048960002,1.4420125066240002,45.24800001152
1.16e-07,25.349250049920002,1.4420125066240002,45.2511250112
1.165e-07,25.19300004032,1.4435750067200002,45.28550000768
1.17e-07,25.02112502976,1.4420125066240002,45.31675000448
1.1750000000000001e-07,25.05237503168,1.4420125066240002,45.3292500032
1.1800000000000001e-07,25.25550004416,1.4420125066240002,45.3136250048
1.1850000000000001e-07,25.411750053760002,1.445137506816,45.2980000064
1.1900000000000001e-07,25.333625048960002,1.446700006912,45.304250005760004
1.195e-07,25.0836250336,1.445137506816,45.33862500224
1.2000000000000002e-07,24.98987502784,1.4435750067200002,45.35112500096
1.205e-07,25.0836250336,1.4435750067200002,45.33550000256
1.21e-07,25.28675004608,1.446700006912,45.30112500608
1.215e-07,25.318000048000002,1.446700006912,45.288625007360004
1.22e-07,25.1617500384,1.4435750067200002,45.28550000768
1.2250000000000002e-07,25.0055000288,1.4420125066240002,45.294875006720005
1.23e-07,25.03675003072,1.4420125066240002,45.30737500544
1.2350000000000001e-07,25.28675004608,1.4435750067200002,45.30737500544
1.24e-07,25.411750053760002,1.445137506816,45.30112500608
1.245e-07,25.349250049920002,1.445137506816,45.30112500608
1.2500000000000002e-07,25.1617500384,1.445137506816,45.30112500608
1.255e-07,25.0836250336,1.4435750067200002,45.30112500608
1.2600000000000002e-07,25.17737503936,1.445137506816,45.29175000704
1.265e-07,25.28675004608,1.445137506816,45.282375008
1.27e-07,25.30237504704,1.4420125066240002,45.26987500928
1.275e-07,25.14612503744,1.4420125066240002,45.26362500992
1.28e-07,25.03675003072,1.4404500065280001,45.2667500096
1.2850000000000002e-07,25.02112502976,1.4435750067200002,45.26987500928
1.29e-07,25.13050003648,1.445137506816,45.279250008320005
1.2950000000000001e-07,25.19300004032,1.4435750067200002,45.30737500544
1.3e-07,25.17737503936,1.4373250063360001,45.32300000384
1.305e-07,25.11487503552,1.4357625062400001,45.3136250048
1.31e-07,25.0836250336,1.4373250063360001,45.30112500608
1.315e-07,25.19300004032,1.4420125066240002,45.30112500608
1.3200000000000002e-07,25.318000048000002,1.4420125066240002,45.32300000384
1.325e-07,25.364875050880002,1.4388875064320001,45.35112500096
1.33e-07,25.28675004608,1.4373250063360001,45.33550000256
1.335e-07,25.14612503744,1.4373250063360001,45.294875006720005
1.34e-07,25.09925003456,1.4388875064320001,45.26362500992
1.3450000000000002e-07,25.13050003648,1.4388875064320001,45.282375008
1.35e-07,25.22425004224,1.4404500065280001,45.326125003520005
1.3550000000000002e-07,25.17737503936,1.4357625062400001,45.33550000256
1.36e-07,25.05237503168,1.432637506048,45.2980000064
1.365e-07,25.0055000288,1.432637506048,45.24800001152
1.37e-07,25.05237503168,1.4373250063360001,45.241750012160004
1.375e-07,25.14612503744,1.4404500065280001,45.30112500608
1.3800000000000002e-07,25.25550004416,1.4404500065280001,45.357375000320005
1.385e-07,25.25550004416,1.4404500065280001,45.3605
1.3900000000000001e-07,25.19300004032,1.4404500065280001,45.3448750016
1.395e-07,25.19300004032,1.4420125066240002,45.33862500224
1.4e-07,25.27112504512,1.4404500065280001,45.3605
1.4050000000000002e-07,25.30237504704,1.4373250063360001,45.404249995520004
1.41e-07,25.2398750432,1.4342000061440001,45.41049999488
1.4150000000000002e-07,25.13050003648,1.4342000061440001,45.38549999744
1.42e-07,25.03675003072,1.4388875064320001,45.3605
1.425e-07,25.05237503168,1.4420125066240002,45.372999998720005
1.43e-07,25.20862504128,1.4404500065280001,45.39487499648
1.435e-07,25.27112504512,1.4404500065280001,45.39799999616
1.4400000000000002e-07,25.19300004032,1.4373250063360001,45.36362499968
1.445e-07,25.0836250336,1.4388875064320001,45.3292500032
1.4500000000000001e-07,25.09925003456,1.4420125066240002,45.319875004160004
1.455e-07,25.25550004416,1.4420125066240002,45.34800000128
1.46e-07,25.396125052800002,1.4388875064320001,45.36674999936
1.4650000000000002e-07,25.380500051840002,1.4404500065280001,45.357375000320005
1.47e-07,25.22425004224,1.4420125066240002,45.3448750016
1.4750000000000002e-07,25.14612503744,1.4388875064320001,45.35112500096
1.48e-07,25.1617500384,1.4373250063360001,45.3761249984
1.485e-07,25.27112504512,1.4357625062400001,45.40112499584
1.49e-07,25.28675004608,1.4357625062400001,45.38549999744
1.495e-07,25.20862504128,1.432637506048,45.35425000064
1.5000000000000002e-07,25.0836250336,1.4357625062400001,45.3136250048
1.505e-07,25.06800003264,1.4357625062400001,45.30737500544
1.5100000000000002e-07,25.20862504128,1.4342000061440001,45.31675000448
1.515e-07,25.28675004608,1.432637506048,45.3292500032
1.52e-07,25.27112504512,1.4342000061440001,45.33862500224
1.5250000000000002e-07,25.19300004032,1.4373250063360001,45.34800000128
1.53e-07,25.19300004032,1.4388875064320001,45.372999998720005
1.5350000000000002e-07,25.22425004224,1.4388875064320001,45.4229999936
1.54e-07,25.318000048000002,1.4388875064320001,45.451124990720004
1.5450000000000001e-07,25.333625048960002,1.4342000061440001,45.44487499136
1.55e-07,25.22425004224,1.4342000061440001,45.4229999936
1.555e-07,25.11487503552,1.4342000061440001,45.3917499968
1.5600000000000002e-07,25.11487503552,1.4342000061440001,45.3761249984
1.565e-07,25.22425004224,1.4342000061440001,45.372999998720005
1.5700000000000002e-07,25.2398750432,1.4357625062400001,45.35425000064
1.575e-07,25.19300004032,1.4357625062400001,45.33862500224
