Time (s),VIN,IIN,VOUT
0.0,25.13175003648,1.5068375062400001,47.86274999936
5e-10,25.22550004224,1.5068375062400001,47.86899999872
1e-09,25.28800004608,1.500587505856,47.844000001279994
1.5000000000000002e-09,25.25675004416,1.503712506048,47.797125006079995
2e-09,25.17862503936,1.503712506048,47.756500010239996
2.5e-09,25.11612503552,1.503712506048,47.75337501056
3.0000000000000004e-09,25.1630000384,1.5068375062400001,47.78462500736
3.5000000000000003e-09,25.27237504512,1.5068375062400001,47.8252500032
4e-09,25.28800004608,1.5052750061440001,47.850250000639996
4.500000000000001e-09,25.22550004224,1.5068375062400001,47.8721249984
5e-09,25.17862503936,1.5068375062400001,47.897124995839995
5.5000000000000004e-09,25.17862503936,1.5084000063360001,47.92524999296
6.000000000000001e-09,25.25675004416,1.5099625064320001,47.95649998976
6.5e-09,25.28800004608,1.5099625064320001,47.950249990399996
7.000000000000001e-09,25.25675004416,1.5068375062400001,47.912749994239995
7.500000000000001e-09,25.1630000384,1.5052750061440001,47.865874999039995
8e-09,25.14737503744,1.500587505856,47.8252500032
8.5e-09,25.20987504128,1.500587505856,47.8252500032
9.000000000000001e-09,25.27237504512,1.5052750061440001,47.8252500032
9.5e-09,25.2411250432,1.5084000063360001,47.8096250048
1e-08,25.14737503744,1.5115250065280001,47.812750004479994
1.0500000000000001e-08,25.11612503552,1.5130875066240002,47.84712500096
1.1000000000000001e-08,25.1630000384,1.5130875066240002,47.881499997439995
1.15e-08,25.22550004224,1.5146500067200002,47.89399999616
1.2000000000000002e-08,25.22550004224,1.516212506816,47.87837499776
1.2500000000000001e-08,25.19425004032,1.5130875066240002,47.859624999679994
1.3e-08,25.17862503936,1.5099625064320001,47.83150000256
1.35e-08,25.19425004032,1.5099625064320001,47.803375005439996
1.4000000000000001e-08,25.20987504128,1.5099625064320001,47.778375008
1.45e-08,25.1630000384,1.5084000063360001,47.750250010879995
1.5000000000000002e-08,25.11612503552,1.5052750061440001,47.72525001344
1.55e-08,25.10050003456,1.502150005952,47.70650001536
1.6e-08,25.14737503744,1.502150005952,47.70962501504
1.6500000000000002e-08,25.19425004032,1.5068375062400001,47.73775001216
1.7e-08,25.20987504128,1.5084000063360001,47.7627500096
1.75e-08,25.1630000384,1.5099625064320001,47.781500007679995
1.8000000000000002e-08,25.13175003648,1.5084000063360001,47.7940000064
1.85e-08,25.19425004032,1.5084000063360001,47.803375005439996
1.9e-08,25.2411250432,1.5068375062400001,47.80025000576
1.9500000000000003e-08,25.25675004416,1.5084000063360001,47.781500007679995
2e-08,25.20987504128,1.5099625064320001,47.74087501184
2.05e-08,25.13175003648,1.5115250065280001,47.70650001536
2.1000000000000003e-08,25.0848750336,1.5099625064320001,47.672125018879996
2.15e-08,25.06925003264,1.5084000063360001,47.665875019519994
2.2000000000000002e-08,25.10050003456,1.502150005952,47.665875019519994
2.2500000000000003e-08,25.0848750336,1.503712506048,47.67837501824
2.3e-08,25.11612503552,1.5068375062400001,47.697125016319994
2.3500000000000002e-08,25.10050003456,1.5068375062400001,47.7315000128
2.4000000000000003e-08,25.13175003648,1.5084000063360001,47.75337501056
2.45e-08,25.17862503936,1.5099625064320001,47.778375008
2.5000000000000002e-08,25.20987504128,1.5115250065280001,47.7940000064
2.55e-08,25.22550004224,1.5115250065280001,47.797125006079995
2.6e-08,25.20987504128,1.5099625064320001,47.778375008
2.6500000000000002e-08,25.17862503936,1.5084000063360001,47.7315000128
2.7e-08,25.17862503936,1.5068375062400001,47.672125018879996
2.75e-08,25.17862503936,1.5084000063360001,47.63150002304
2.8000000000000003e-08,25.19425004032,1.5084000063360001,47.619000024319995
2.85e-08,25.1630000384,1.5084000063360001,47.640875022079996
2.9e-08,25.11612503552,1.5052750061440001,47.65962502016
2.9500000000000003e-08,25.11612503552,1.5068375062400001,47.69087501696
3.0000000000000004e-08,25.14737503744,1.5084000063360001,47.7158750144
3.05e-08,25.14737503744,1.5115250065280001,47.734625012479995
3.1e-08,25.13175003648,1.5115250065280001,47.7471250112
3.1500000000000004e-08,25.17862503936,1.5084000063360001,47.75337501056
3.2e-08,25.2411250432,1.5068375062400001,47.744000011519994
3.25e-08,25.25675004416,1.5099625064320001,47.719000014079995
3.3000000000000004e-08,25.20987504128,1.5115250065280001,47.67837501824
3.35e-08,25.14737503744,1.5115250065280001,47.650250021119994
3.4e-08,25.1630000384,1.5084000063360001,47.640875022079996
3.4500000000000005e-08,25.22550004224,1.5052750061440001,47.640875022079996
3.5e-08,25.25675004416,1.5052750061440001,47.625250023679996
3.55e-08,25.22550004224,1.5052750061440001,47.609625025279996
3.6000000000000005e-08,25.11612503552,1.5084000063360001,47.61587502464
3.65e-08,25.10050003456,1.5099625064320001,47.6533750208
3.7e-08,25.14737503744,1.5084000063360001,47.6846250176
3.7500000000000005e-08,25.19425004032,1.5084000063360001,47.703375015679995
3.8e-08,25.22550004224,1.5084000063360001,47.70650001536
3.85e-08,25.17862503936,1.5115250065280001,47.703375015679995
3.9000000000000005e-08,25.1630000384,1.5130875066240002,47.703375015679995
3.95e-08,25.14737503744,1.5099625064320001,47.700250016
4e-08,25.17862503936,1.5099625064320001,47.67837501824
4.0500000000000005e-08,25.2411250432,1.5115250065280001,47.64712502144
4.1e-08,25.25675004416,1.5130875066240002,47.594000026879996
4.15e-08,25.20987504128,1.5115250065280001,47.550250031359994
4.2000000000000006e-08,25.11612503552,1.5099625064320001,47.55337503104
4.2500000000000003e-08,25.11612503552,1.5068375062400001,47.594000026879996
4.3e-08,25.17862503936,1.5052750061440001,47.64400002176
4.3500000000000006e-08,25.19425004032,1.5084000063360001,47.6846250176
4.4000000000000004e-08,25.11612503552,1.5115250065280001,47.703375015679995
4.45e-08,25.05362503168,1.5146500067200002,47.728375013119994
4.5000000000000006e-08,25.10050003456,1.5146500067200002,47.734625012479995
4.5500000000000004e-08,25.19425004032,1.5115250065280001,47.70962501504
4.6e-08,25.27237504512,1.5084000063360001,47.656500020479996
4.6500000000000006e-08,25.22550004224,1.5084000063360001,47.603375025919995
4.7000000000000004e-08,25.1630000384,1.5115250065280001,47.56900002944
4.75e-08,25.13175003648,1.5115250065280001,47.572125029119995
4.8000000000000006e-08,25.17862503936,1.5084000063360001,47.594000026879996
4.8500000000000004e-08,25.20987504128,1.5052750061440001,47.61275002496
4.9e-08,25.17862503936,1.5084000063360001,47.6065000256
4.95e-08,25.06925003264,1.5115250065280001,47.587750027519995
5.0000000000000004e-08,24.97550002688,1.5115250065280001,47.594000026879996
5.05e-08,25.0067500288,1.5084000063360001,47.63150002304
5.1e-08,25.14737503744,1.5084000063360001,47.665875019519994
5.1500000000000005e-08,25.22550004224,1.5084000063360001,47.6533750208
5.2e-08,25.22550004224,1.5099625064320001,47.603375025919995
5.25e-08,25.19425004032,1.5130875066240002,47.565875029759994
5.3000000000000005e-08,25.17862503936,1.5146500067200002,47.544000032
5.35e-08,25.20987504128,1.516212506816,47.56275003008
5.4e-08,25.27237504512,1.5115250065280001,47.5908750272
5.4500000000000005e-08,25.22550004224,1.5115250065280001,47.587750027519995
5.5e-08,25.11612503552,1.5130875066240002,47.5596250304
5.55e-08,24.99112502784,1.5099625064320001,47.544000032
5.6000000000000005e-08,24.95987502592,1.5084000063360001,47.581500028159994
5.65e-08,25.0067500288,1.5084000063360001,47.650250021119994
5.7e-08,25.10050003456,1.5099625064320001,47.67525001856
5.7500000000000005e-08,25.14737503744,1.5115250065280001,47.63150002304
5.8e-08,25.13175003648,1.5130875066240002,47.572125029119995
5.85e-08,25.13175003648,1.5130875066240002,47.540875032319995
5.9000000000000006e-08,25.19425004032,1.5115250065280001,47.55337503104
5.9500000000000003e-08,25.25675004416,1.5115250065280001,47.5752500288
6.000000000000001e-08,25.28800004608,1.5115250065280001,47.5596250304
6.05e-08,25.25675004416,1.5130875066240002,47.52212503424
6.1e-08,25.13175003648,1.5115250065280001,47.494000037119996
6.15e-08,25.03800003072,1.5099625064320001,47.525250033919995
6.2e-08,25.02237502976,1.5084000063360001,47.594000026879996
6.250000000000001e-08,25.05362503168,1.5130875066240002,47.6533750208
6.300000000000001e-08,25.06925003264,1.516212506816,47.650250021119994
6.35e-08,25.06925003264,1.5146500067200002,47.61275002496
6.4e-08,25.03800003072,1.5146500067200002,47.58462502784
6.45e-08,25.06925003264,1.5146500067200002,47.603375025919995
6.5e-08,25.1630000384,1.5115250065280001,47.625250023679996
6.55e-08,25.25675004416,1.5099625064320001,47.61275002496
6.600000000000001e-08,25.28800004608,1.5115250065280001,47.5752500288
6.65e-08,25.25675004416,1.516212506816,47.550250031359994
6.7e-08,25.22550004224,1.516212506816,47.58462502784
6.75e-08,25.2411250432,1.5130875066240002,47.6533750208
6.8e-08,25.2411250432,1.5146500067200002,47.697125016319994
6.85e-08,25.20987504128,1.5146500067200002,47.697125016319994
6.900000000000001e-08,25.14737503744,1.5130875066240002,47.665875019519994
6.950000000000001e-08,25.0848750336,1.5130875066240002,47.665875019519994
7e-08,25.0848750336,1.5146500067200002,47.697125016319994
7.05e-08,25.06925003264,1.5146500067200002,47.72212501376
7.1e-08,25.11612503552,1.516212506816,47.700250016
7.15e-08,25.14737503744,1.5130875066240002,47.64400002176
7.200000000000001e-08,25.17862503936,1.5130875066240002,47.59712502655999
7.250000000000001e-08,25.17862503936,1.516212506816,47.59712502655999
7.3e-08,25.20987504128,1.516212506816,47.622125024
7.35e-08,25.25675004416,1.516212506816,47.64400002176
7.4e-08,25.27237504512,1.5146500067200002,47.64712502144
7.45e-08,25.28800004608,1.516212506816,47.64400002176
7.500000000000001e-08,25.20987504128,1.516212506816,47.650250021119994
7.550000000000001e-08,25.1630000384,1.5146500067200002,47.67525001856
7.6e-08,25.1630000384,1.516212506816,47.697125016319994
7.65e-08,25.20987504128,1.5146500067200002,47.700250016
7.7e-08,25.20987504128,1.5130875066240002,47.69087501696
7.75e-08,25.1630000384,1.5130875066240002,47.697125016319994
7.800000000000001e-08,25.13175003648,1.516212506816,47.72212501376
7.850000000000001e-08,25.0848750336,1.517775006912,47.7471250112
7.9e-08,25.1630000384,1.517775006912,47.74087501184
7.95e-08,25.2411250432,1.5146500067200002,47.700250016
8e-08,25.27237504512,1.5146500067200002,47.64712502144
8.05e-08,25.2411250432,1.516212506816,47.62837502336
8.100000000000001e-08,25.19425004032,1.516212506816,47.625250023679996
8.150000000000001e-08,25.19425004032,1.516212506816,47.6533750208
8.2e-08,25.20987504128,1.5146500067200002,47.6846250176
8.25e-08,25.22550004224,1.516212506816,47.70962501504
8.3e-08,25.17862503936,1.5146500067200002,47.728375013119994
8.35e-08,25.13175003648,1.517775006912,47.750250010879995
8.400000000000001e-08,25.06925003264,1.519337507008,47.781500007679995
8.450000000000001e-08,25.0848750336,1.519337507008,47.797125006079995
8.500000000000001e-08,25.17862503936,1.5146500067200002,47.77525000832
8.55e-08,25.22550004224,1.516212506816,47.73775001216
8.6e-08,25.2411250432,1.519337507008,47.712750014719994
8.65e-08,25.17862503936,1.516212506816,47.703375015679995
8.700000000000001e-08,25.17862503936,1.516212506816,47.697125016319994
8.750000000000001e-08,25.20987504128,1.516212506816,47.681500017919994
8.800000000000001e-08,25.2411250432,1.517775006912,47.6533750208
8.85e-08,25.2411250432,1.519337507008,47.640875022079996
8.9e-08,25.1630000384,1.516212506816,47.64712502144
8.95e-08,25.0848750336,1.516212506816,47.665875019519994
9.000000000000001e-08,25.0848750336,1.517775006912,47.69087501696
9.050000000000001e-08,25.13175003648,1.520900007104,47.700250016
9.100000000000001e-08,25.14737503744,1.517775006912,47.703375015679995
9.15e-08,25.1630000384,1.517775006912,47.7158750144
9.2e-08,25.11612503552,1.519337507008,47.744000011519994
9.25e-08,25.10050003456,1.519337507008,47.765875009279995
9.300000000000001e-08,25.13175003648,1.520900007104,47.750250010879995
9.350000000000001e-08,25.17862503936,1.519337507008,47.703375015679995
9.400000000000001e-08,25.20987504128,1.519337507008,47.650250021119994
9.45e-08,25.19425004032,1.519337507008,47.622125024
9.5e-08,25.17862503936,1.519337507008,47.625250023679996
9.55e-08,25.14737503744,1.516212506816,47.6377500224
9.600000000000001e-08,25.19425004032,1.517775006912,47.650250021119994
9.650000000000001e-08,25.22550004224,1.517775006912,47.6690000192
9.700000000000001e-08,25.20987504128,1.516212506816,47.69400001664
9.75e-08,25.14737503744,1.517775006912,47.74087501184
9.8e-08,25.0848750336,1.517775006912,47.781500007679995
9.85e-08,25.06925003264,1.519337507008,47.79087500672
9.9e-08,25.06925003264,1.519337507008,47.756500010239996
9.950000000000001e-08,25.0848750336,1.517775006912,47.70962501504
1.0000000000000001e-07,25.0848750336,1.5146500067200002,47.6846250176
1.005e-07,25.0848750336,1.5130875066240002,47.687750017279996
1.01e-07,25.14737503744,1.5115250065280001,47.69400001664
1.015e-07,25.2411250432,1.5146500067200002,47.700250016
1.02e-07,25.28800004608,1.516212506816,47.697125016319994
1.0250000000000001e-07,25.27237504512,1.517775006912,47.70962501504
1.0300000000000001e-07,25.25675004416,1.516212506816,47.73775001216
1.0350000000000001e-07,25.25675004416,1.5146500067200002,47.778375008
1.04e-07,25.20987504128,1.5146500067200002,47.803375005439996
1.045e-07,25.14737503744,1.517775006912,47.82212500352
1.05e-07,25.13175003648,1.517775006912,47.8252500032
1.0550000000000001e-07,25.13175003648,1.516212506816,47.83150000256
1.0600000000000001e-07,25.13175003648,1.516212506816,47.8252500032
1.0650000000000001e-07,25.17862503936,1.519337507008,47.803375005439996
1.07e-07,25.20987504128,1.517775006912,47.7627500096
1.075e-07,25.22550004224,1.517775006912,47.734625012479995
1.08e-07,25.20987504128,1.517775006912,47.734625012479995
1.0850000000000001e-07,25.17862503936,1.517775006912,47.73775001216
1.0900000000000001e-07,25.13175003648,1.5146500067200002,47.72212501376
1.0950000000000001e-07,25.1630000384,1.5146500067200002,47.7158750144
1.1e-07,25.27237504512,1.5146500067200002,47.728375013119994
1.105e-07,25.25675004416,1.517775006912,47.756500010239996
1.11e-07,25.13175003648,1.5224625072,47.7940000064
1.1150000000000001e-07,25.03800003072,1.519337507008,47.8096250048
1.1200000000000001e-07,25.10050003456,1.516212506816,47.80025000576
1.1250000000000001e-07,25.28800004608,1.517775006912,47.797125006079995
1.13e-07,25.36612505088,1.517775006912,47.787750007039996
1.135e-07,25.27237504512,1.519337507008,47.77525000832
1.14e-07,25.10050003456,1.519337507008,47.76900000896
1.1450000000000001e-07,25.10050003456,1.517775006912,47.756500010239996
1.1500000000000001e-07,25.25675004416,1.516212506816,47.74087501184
1.1550000000000001e-07,25.3973750528,1.516212506816,47.7471250112
1.16e-07,25.28800004608,1.517775006912,47.772125008639996
1.165e-07,25.10050003456,1.519337507008,47.81587500416
1.17e-07,25.0067500288,1.519337507008,47.8408750016
1.1750000000000001e-07,25.14737503744,1.519337507008,47.83775000192
1.1800000000000001e-07,25.33487504896,1.517775006912,47.8096250048
1.1850000000000001e-07,25.33487504896,1.517775006912,47.797125006079995
1.1900000000000001e-07,25.17862503936,1.517775006912,47.80025000576
1.195e-07,24.99112502784,1.516212506816,47.812750004479994
1.2000000000000002e-07,25.02237502976,1.5146500067200002,47.80650000512
1.205e-07,25.22550004224,1.516212506816,47.79087500672
1.21e-07,25.35050004992,1.517775006912,47.772125008639996
1.215e-07,25.30362504704,1.519337507008,47.77525000832
1.22e-07,25.10050003456,1.516212506816,47.78462500736
1.2250000000000002e-07,25.05362503168,1.5130875066240002,47.80025000576
1.23e-07,25.17862503936,1.5115250065280001,47.812750004479994
1.2350000000000001e-07,25.36612505088,1.5146500067200002,47.81587500416
1.24e-07,25.35050004992,1.516212506816,47.812750004479994
1.245e-07,25.20987504128,1.519337507008,47.8096250048
1.2500000000000002e-07,25.05362503168,1.517775006912,47.787750007039996
1.255e-07,25.05362503168,1.517775006912,47.76900000896
1.2600000000000002e-07,25.19425004032,1.516212506816,47.7471250112
1.265e-07,25.2411250432,1.516212506816,47.744000011519994
1.27e-07,25.20987504128,1.516212506816,47.734625012479995
1.275e-07,25.0848750336,1.5146500067200002,47.734625012479995
1.28e-07,25.05362503168,1.5146500067200002,47.72525001344
1.2850000000000002e-07,25.13175003648,1.5130875066240002,47.734625012479995
1.29e-07,25.22550004224,1.5130875066240002,47.756500010239996
1.2950000000000001e-07,25.2411250432,1.516212506816,47.787750007039996
1.3e-07,25.17862503936,1.516212506816,47.797125006079995
1.305e-07,25.10050003456,1.5146500067200002,47.7940000064
1.31e-07,25.0848750336,1.5115250065280001,47.787750007039996
1.315e-07,25.20987504128,1.5130875066240002,47.80025000576
1.3200000000000002e-07,25.30362504704,1.516212506816,47.82212500352
1.325e-07,25.28800004608,1.517775006912,47.82212500352
1.33e-07,25.17862503936,1.5146500067200002,47.77525000832
1.335e-07,25.0848750336,1.5115250065280001,47.719000014079995
1.34e-07,25.10050003456,1.5130875066240002,47.703375015679995
1.3450000000000002e-07,25.17862503936,1.5146500067200002,47.73775001216
1.35e-07,25.2411250432,1.5146500067200002,47.77525000832
1.3550000000000002e-07,25.17862503936,1.5130875066240002,47.76900000896
1.36e-07,25.0848750336,1.5130875066240002,47.7315000128
1.365e-07,25.06925003264,1.5115250065280001,47.72212501376
1.37e-07,25.13175003648,1.5115250065280001,47.765875009279995
1.375e-07,25.2411250432,1.5146500067200002,47.83775000192
1.3800000000000002e-07,25.25675004416,1.5130875066240002,47.875249998079994
1.385e-07,25.19425004032,1.5146500067200002,47.859624999679994
1.3900000000000001e-07,25.14737503744,1.5099625064320001,47.8252500032
1.395e-07,25.1630000384,1.5130875066240002,47.8252500032
1.4e-07,25.22550004224,1.5146500067200002,47.85337500032
1.4050000000000002e-07,25.2411250432,1.5146500067200002,47.88462499712
1.41e-07,25.17862503936,1.5115250065280001,47.865874999039995
1.4150000000000002e-07,25.0848750336,1.5099625064320001,47.83150000256
1.42e-07,25.0848750336,1.5115250065280001,47.819000003839996
1.425e-07,25.1630000384,1.5130875066240002,47.83775000192
1.43e-07,25.28800004608,1.5146500067200002,47.8565
1.435e-07,25.28800004608,1.5130875066240002,47.850250000639996
1.4400000000000002e-07,25.1630000384,1.5099625064320001,47.82212500352
1.445e-07,25.0848750336,1.5099625064320001,47.81587500416
1.4500000000000001e-07,25.14737503744,1.5099625064320001,47.8408750016
1.455e-07,25.28800004608,1.5130875066240002,47.8721249984
1.46e-07,25.36612505088,1.5115250065280001,47.89399999616
1.4650000000000002e-07,25.25675004416,1.5115250065280001,47.881499997439995
1.47e-07,25.13175003648,1.5099625064320001,47.86274999936
1.4750000000000002e-07,25.13175003648,1.5099625064320001,47.86274999936
1.48e-07,25.19425004032,1.5115250065280001,47.859624999679994
1.485e-07,25.28800004608,1.5115250065280001,47.844000001279994
1.49e-07,25.25675004416,1.5099625064320001,47.797125006079995
1.495e-07,25.1630000384,1.5068375062400001,47.756500010239996
1.5000000000000002e-07,25.10050003456,1.5084000063360001,47.744000011519994
1.505e-07,25.13175003648,1.5099625064320001,47.778375008
1.5100000000000002e-07,25.27237504512,1.5099625064320001,47.812750004479994
1.515e-07,25.27237504512,1.5084000063360001,47.8408750016
1.52e-07,25.22550004224,1.5068375062400001,47.85337500032
1.5250000000000002e-07,25.1630000384,1.5084000063360001,47.881499997439995
1.53e-07,25.19425004032,1.5068375062400001,47.91587499392
1.5350000000000002e-07,25.25675004416,1.5084000063360001,47.93774999167999
1.54e-07,25.28800004608,1.5084000063360001,47.934624991999996
1.5450000000000001e-07,25.2411250432,1.5084000063360001,47.897124995839995
1.55e-07,25.1630000384,1.5068375062400001,47.84712500096
1.555e-07,25.14737503744,1.503712506048,47.812750004479994
1.5600000000000002e-07,25.20987504128,1.5052750061440001,47.803375005439996
1.565e-07,25.27237504512,1.5068375062400001,47.8096250048
1.5700000000000002e-07,25.2411250432,1.5084000063360001,47.803375005439996
