Time (s),VIN,IIN,VOUT
0.0,25.13425003648,1.5186750063360002,48.21962499904
5e-10,25.21237504128,1.5155500061440002,48.21649999936
1e-09,25.290500046080002,1.5155500061440002,48.20087500096
1.5000000000000002e-09,25.290500046080002,1.5139875060480001,48.15712500544
2e-09,25.19675004032,1.5155500061440002,48.11337500992
2.5e-09,25.11862503552,1.5171125062400002,48.09775001152
3.0000000000000004e-09,25.14987503744,1.5171125062400002,48.129000008320006
3.5000000000000003e-09,25.2436250432,1.5139875060480001,48.17275000384
4e-09,25.306125047040002,1.5139875060480001,48.20087500096
4.500000000000001e-09,25.2436250432,1.5171125062400002,48.21962499904
5e-09,25.18112503936,1.5186750063360002,48.2414999968
5.5000000000000004e-09,25.1655000384,1.5218000065280002,48.26649999424
6.000000000000001e-09,25.2436250432,1.5202375064320002,48.29149999168
6.5e-09,25.27487504512,1.5171125062400002,48.29149999168
7.000000000000001e-09,25.27487504512,1.5171125062400002,48.2571249952
7.500000000000001e-09,25.18112503936,1.5186750063360002,48.207125000320005
8e-09,25.13425003648,1.5171125062400002,48.16650000448
8.5e-09,25.18112503936,1.5139875060480001,48.154000005760004
9.000000000000001e-09,25.2436250432,1.5155500061440002,48.16650000448
9.5e-09,25.2436250432,1.5155500061440002,48.16650000448
1e-08,25.18112503936,1.5171125062400002,48.16650000448
1.0500000000000001e-08,25.13425003648,1.5171125062400002,48.191500001920005
1.1000000000000001e-08,25.1655000384,1.5202375064320002,48.21962499904
1.15e-08,25.22800004224,1.5233625066240002,48.24462499648
1.2000000000000002e-08,25.22800004224,1.5249250067200002,48.238374997120005
1.2500000000000001e-08,25.19675004032,1.5202375064320002,48.21649999936
1.3e-08,25.19675004032,1.5171125062400002,48.185250002560004
1.35e-08,25.18112503936,1.5155500061440002,48.15712500544
1.4000000000000001e-08,25.19675004032,1.5171125062400002,48.132125008
1.45e-08,25.18112503936,1.5186750063360002,48.09775001152
1.5000000000000002e-08,25.13425003648,1.5186750063360002,48.0696250144
1.55e-08,25.11862503552,1.5186750063360002,48.060250015360005
1.6e-08,25.14987503744,1.5186750063360002,48.060250015360005
1.6500000000000002e-08,25.19675004032,1.5171125062400002,48.0852500128
1.7e-08,25.21237504128,1.5186750063360002,48.11962500928
1.75e-08,25.18112503936,1.5186750063360002,48.1477500064
1.8000000000000002e-08,25.14987503744,1.5186750063360002,48.160250005120005
1.85e-08,25.1655000384,1.5171125062400002,48.160250005120005
1.9e-08,25.21237504128,1.5202375064320002,48.154000005760004
1.9500000000000003e-08,25.25925004416,1.5233625066240002,48.138375007360004
2e-08,25.21237504128,1.5218000065280002,48.1008750112
2.05e-08,25.13425003648,1.5186750063360002,48.06650001472
2.1000000000000003e-08,25.0873750336,1.5155500061440002,48.029000018560005
2.15e-08,25.07175003264,1.5139875060480001,48.01650001984
2.2000000000000002e-08,25.07175003264,1.5171125062400002,48.02587501888
2.2500000000000003e-08,25.10300003456,1.5171125062400002,48.0383750176
2.3e-08,25.10300003456,1.5155500061440002,48.06337501504
2.3500000000000002e-08,25.0873750336,1.5155500061440002,48.10400001088
2.4000000000000003e-08,25.13425003648,1.5155500061440002,48.132125008
2.45e-08,25.1655000384,1.5171125062400002,48.15087500608
2.5000000000000002e-08,25.19675004032,1.5186750063360002,48.1633750048
2.55e-08,25.21237504128,1.5171125062400002,48.16650000448
2.6e-08,25.19675004032,1.5155500061440002,48.1477500064
2.6500000000000002e-08,25.1655000384,1.5171125062400002,48.10400001088
2.7e-08,25.14987503744,1.5202375064320002,48.05087501632
2.75e-08,25.1655000384,1.5202375064320002,48.013375020160005
2.8000000000000003e-08,25.18112503936,1.5155500061440002,48.00087502144
2.85e-08,25.14987503744,1.5108625058560001,48.01650001984
2.9e-08,25.10300003456,1.5124250059520001,48.044625016960005
2.9500000000000003e-08,25.0873750336,1.5155500061440002,48.075875013760005
3.0000000000000004e-08,25.13425003648,1.5171125062400002,48.10400001088
3.05e-08,25.13425003648,1.5202375064320002,48.11962500928
3.1e-08,25.13425003648,1.5218000065280002,48.129000008320006
3.1500000000000004e-08,25.14987503744,1.5202375064320002,48.14150000704
3.2e-08,25.21237504128,1.5202375064320002,48.132125008
3.25e-08,25.22800004224,1.5218000065280002,48.10400001088
3.3000000000000004e-08,25.1655000384,1.5233625066240002,48.0696250144
3.35e-08,25.11862503552,1.5202375064320002,48.04150001728
3.4e-08,25.11862503552,1.5155500061440002,48.03525001792
3.4500000000000005e-08,25.19675004032,1.5155500061440002,48.03525001792
3.5e-08,25.22800004224,1.5171125062400002,48.01962501952
3.55e-08,25.21237504128,1.5186750063360002,48.007125020800004
3.6000000000000005e-08,25.11862503552,1.5202375064320002,48.00400002112
3.65e-08,25.07175003264,1.5186750063360002,48.03212501824
3.7e-08,25.11862503552,1.5171125062400002,48.06337501504
3.7500000000000005e-08,25.1655000384,1.5186750063360002,48.0852500128
3.8e-08,25.19675004032,1.5218000065280002,48.08837501248
3.85e-08,25.1655000384,1.5233625066240002,48.08212501312
3.9000000000000005e-08,25.13425003648,1.5218000065280002,48.075875013760005
3.95e-08,25.11862503552,1.5186750063360002,48.08212501312
4e-08,25.1655000384,1.5155500061440002,48.06337501504
4.0500000000000005e-08,25.22800004224,1.5155500061440002,48.02587501888
4.1e-08,25.22800004224,1.5171125062400002,47.97900002368
4.15e-08,25.21237504128,1.5171125062400002,47.94150002752
4.2000000000000006e-08,25.13425003648,1.5124250059520001,47.93525002816
4.2500000000000003e-08,25.11862503552,1.5108625058560001,47.96962502464
4.3e-08,25.1655000384,1.5155500061440002,48.01962501952
4.3500000000000006e-08,25.19675004032,1.5186750063360002,48.054000016
4.4000000000000004e-08,25.14987503744,1.5233625066240002,48.075875013760005
4.45e-08,25.07175003264,1.5218000065280002,48.09462501184
4.5000000000000006e-08,25.11862503552,1.5202375064320002,48.09462501184
4.5500000000000004e-08,25.19675004032,1.5218000065280002,48.07275001408
4.6e-08,25.290500046080002,1.5202375064320002,48.022750019200004
4.6500000000000006e-08,25.25925004416,1.5202375064320002,47.966500024960006
4.7000000000000004e-08,25.19675004032,1.5171125062400002,47.929000028800004
4.75e-08,25.13425003648,1.5155500061440002,47.929000028800004
4.8000000000000006e-08,25.18112503936,1.5155500061440002,47.944625027200004
4.8500000000000004e-08,25.22800004224,1.5171125062400002,47.960250025600004
4.9e-08,25.19675004032,1.5186750063360002,47.95712502592
4.95e-08,25.0873750336,1.5171125062400002,47.94150002752
5.0000000000000004e-08,24.97800002688,1.5171125062400002,47.93837502784
5.05e-08,25.0092500288,1.5186750063360002,47.96962502464
5.1e-08,25.14987503744,1.5218000065280002,48.01025002048
5.1500000000000005e-08,25.22800004224,1.5249250067200002,48.013375020160005
5.2e-08,25.22800004224,1.5233625066240002,47.960250025600004
5.25e-08,25.19675004032,1.5233625066240002,47.91025003072
5.3000000000000005e-08,25.19675004032,1.5218000065280002,47.882125033600005
5.35e-08,25.19675004032,1.5202375064320002,47.897750032000005
5.4e-08,25.2436250432,1.5202375064320002,47.92587502912
5.4500000000000005e-08,25.22800004224,1.5171125062400002,47.929000028800004
5.5e-08,25.14987503744,1.5155500061440002,47.90087503168
5.55e-08,24.99362502784,1.5124250059520001,47.88525003328
5.6000000000000005e-08,24.931125024,1.5139875060480001,47.91650003008
5.65e-08,24.99362502784,1.5155500061440002,47.975875024000004
5.7e-08,25.0873750336,1.5186750063360002,48.01650001984
5.7500000000000005e-08,25.1655000384,1.5171125062400002,47.98837502272
5.8e-08,25.1655000384,1.5171125062400002,47.92587502912
5.85e-08,25.1655000384,1.5186750063360002,47.88525003328
5.9000000000000006e-08,25.1655000384,1.5202375064320002,47.88837503296
5.9500000000000003e-08,25.2436250432,1.5202375064320002,47.91650003008
6.000000000000001e-08,25.306125047040002,1.5218000065280002,47.91025003072
6.05e-08,25.25925004416,1.5202375064320002,47.87275003456
6.1e-08,25.18112503936,1.5218000065280002,47.844625037440004
6.15e-08,25.04050003072,1.5202375064320002,47.86337503552
6.2e-08,24.99362502784,1.5186750063360002,47.93212502848
6.250000000000001e-08,25.04050003072,1.5171125062400002,47.991500022400004
6.300000000000001e-08,25.0873750336,1.5202375064320002,47.997750021760005
6.35e-08,25.05612503168,1.5186750063360002,47.96962502464
6.4e-08,25.05612503168,1.5186750063360002,47.93525002816
6.45e-08,25.05612503168,1.5171125062400002,47.93837502784
6.5e-08,25.13425003648,1.5218000065280002,47.96337502528
6.55e-08,25.2436250432,1.5218000065280002,47.97275002432
6.600000000000001e-08,25.290500046080002,1.5218000065280002,47.93212502848
6.65e-08,25.2436250432,1.5233625066240002,47.897750032000005
6.7e-08,25.19675004032,1.5218000065280002,47.91650003008
6.75e-08,25.19675004032,1.5233625066240002,47.991500022400004
6.8e-08,25.21237504128,1.5218000065280002,48.044625016960005
6.85e-08,25.19675004032,1.5186750063360002,48.05087501632
6.900000000000001e-08,25.14987503744,1.5171125062400002,48.029000018560005
6.950000000000001e-08,25.05612503168,1.5171125062400002,48.01650001984
7e-08,25.04050003072,1.5202375064320002,48.04775001664
7.05e-08,25.07175003264,1.5186750063360002,48.07275001408
7.1e-08,25.11862503552,1.5202375064320002,48.06337501504
7.15e-08,25.14987503744,1.5202375064320002,48.013375020160005
7.200000000000001e-08,25.18112503936,1.5202375064320002,47.960250025600004
7.250000000000001e-08,25.19675004032,1.5186750063360002,47.944625027200004
7.3e-08,25.19675004032,1.5202375064320002,47.97275002432
7.35e-08,25.22800004224,1.5218000065280002,48.00400002112
7.4e-08,25.25925004416,1.5202375064320002,48.007125020800004
7.45e-08,25.27487504512,1.5186750063360002,48.00400002112
7.500000000000001e-08,25.19675004032,1.5202375064320002,48.007125020800004
7.550000000000001e-08,25.13425003648,1.5218000065280002,48.0383750176
7.6e-08,25.14987503744,1.5233625066240002,48.060250015360005
7.65e-08,25.21237504128,1.5233625066240002,48.0696250144
7.7e-08,25.22800004224,1.5218000065280002,48.060250015360005
7.75e-08,25.18112503936,1.5218000065280002,48.060250015360005
7.800000000000001e-08,25.13425003648,1.5202375064320002,48.08212501312
7.850000000000001e-08,25.10300003456,1.5233625066240002,48.107125010560004
7.9e-08,25.1655000384,1.5233625066240002,48.107125010560004
7.95e-08,25.2436250432,1.5249250067200002,48.075875013760005
8e-08,25.290500046080002,1.5233625066240002,48.02587501888
8.05e-08,25.2436250432,1.5233625066240002,47.99462502208
8.100000000000001e-08,25.21237504128,1.5233625066240002,47.997750021760005
8.150000000000001e-08,25.19675004032,1.5233625066240002,48.02587501888
8.2e-08,25.21237504128,1.5218000065280002,48.054000016
8.25e-08,25.21237504128,1.5218000065280002,48.07900001344
8.3e-08,25.18112503936,1.5249250067200002,48.09462501184
8.35e-08,25.11862503552,1.526487506816,48.12587500864
8.400000000000001e-08,25.0873750336,1.528050006912,48.15712500544
8.450000000000001e-08,25.0873750336,1.528050006912,48.175875003520005
8.500000000000001e-08,25.1655000384,1.528050006912,48.15712500544
8.55e-08,25.21237504128,1.529612507008,48.122750008960004
8.6e-08,25.22800004224,1.526487506816,48.09462501184
8.65e-08,25.1655000384,1.5249250067200002,48.07900001344
8.700000000000001e-08,25.14987503744,1.5233625066240002,48.07275001408
8.750000000000001e-08,25.19675004032,1.5249250067200002,48.06650001472
8.800000000000001e-08,25.2436250432,1.526487506816,48.04775001664
8.85e-08,25.2436250432,1.5249250067200002,48.03212501824
8.9e-08,25.1655000384,1.5249250067200002,48.04150001728
8.95e-08,25.0873750336,1.5233625066240002,48.060250015360005
9.000000000000001e-08,25.05612503168,1.5249250067200002,48.07900001344
9.050000000000001e-08,25.10300003456,1.526487506816,48.091500012160004
9.100000000000001e-08,25.14987503744,1.526487506816,48.091500012160004
9.15e-08,25.13425003648,1.5233625066240002,48.11025001024
9.2e-08,25.11862503552,1.5249250067200002,48.132125008
9.25e-08,25.0873750336,1.526487506816,48.160250005120005
9.300000000000001e-08,25.11862503552,1.529612507008,48.144625006720005
9.350000000000001e-08,25.1655000384,1.529612507008,48.09775001152
9.400000000000001e-08,25.21237504128,1.5249250067200002,48.04150001728
9.45e-08,25.21237504128,1.5233625066240002,48.013375020160005
9.5e-08,25.1655000384,1.526487506816,48.01650001984
9.55e-08,25.14987503744,1.528050006912,48.03212501824
9.600000000000001e-08,25.14987503744,1.526487506816,48.04150001728
9.650000000000001e-08,25.18112503936,1.5233625066240002,48.044625016960005
9.700000000000001e-08,25.19675004032,1.526487506816,48.075875013760005
9.75e-08,25.14987503744,1.529612507008,48.12587500864
9.8e-08,25.05612503168,1.529612507008,48.1633750048
9.85e-08,25.02487502976,1.531175007104,48.169625004160004
9.9e-08,25.04050003072,1.529612507008,48.138375007360004
9.950000000000001e-08,25.0873750336,1.528050006912,48.1008750112
1.0000000000000001e-07,25.0873750336,1.526487506816,48.0696250144
1.005e-07,25.0873750336,1.5249250067200002,48.06650001472
1.01e-07,25.11862503552,1.5249250067200002,48.0696250144
1.015e-07,25.19675004032,1.5249250067200002,48.08212501312
1.02e-07,25.25925004416,1.5233625066240002,48.0852500128
1.0250000000000001e-07,25.2436250432,1.5233625066240002,48.091500012160004
1.0300000000000001e-07,25.22800004224,1.526487506816,48.11337500992
1.0350000000000001e-07,25.22800004224,1.528050006912,48.15087500608
1.04e-07,25.21237504128,1.528050006912,48.18212500288
1.045e-07,25.1655000384,1.528050006912,48.1946250016
1.05e-07,25.14987503744,1.529612507008,48.20087500096
1.0550000000000001e-07,25.14987503744,1.529612507008,48.207125000320005
1.0600000000000001e-07,25.14987503744,1.526487506816,48.19775000128
1.0650000000000001e-07,25.18112503936,1.5249250067200002,48.175875003520005
1.07e-07,25.19675004032,1.526487506816,48.14150000704
1.075e-07,25.22800004224,1.526487506816,48.1165000096
1.08e-07,25.2436250432,1.528050006912,48.107125010560004
1.0850000000000001e-07,25.1655000384,1.526487506816,48.11025001024
1.0900000000000001e-07,25.13425003648,1.5233625066240002,48.09462501184
1.0950000000000001e-07,25.14987503744,1.5249250067200002,48.08837501248
1.1e-07,25.2436250432,1.526487506816,48.09775001152
1.105e-07,25.25925004416,1.5249250067200002,48.12587500864
1.11e-07,25.1655000384,1.5249250067200002,48.154000005760004
1.1150000000000001e-07,25.04050003072,1.5233625066240002,48.18212500288
1.1200000000000001e-07,25.10300003456,1.5233625066240002,48.175875003520005
1.1250000000000001e-07,25.2436250432,1.5233625066240002,48.1633750048
1.13e-07,25.353000049920002,1.526487506816,48.15712500544
1.135e-07,25.306125047040002,1.5249250067200002,48.1477500064
1.14e-07,25.11862503552,1.5233625066240002,48.13525000768
1.1450000000000001e-07,25.07175003264,1.5218000065280002,48.122750008960004
1.1500000000000001e-07,25.21237504128,1.5233625066240002,48.11337500992
1.1550000000000001e-07,25.353000049920002,1.5249250067200002,48.11962500928
1.16e-07,25.306125047040002,1.526487506816,48.14150000704
1.165e-07,25.11862503552,1.5249250067200002,48.1790000032
1.17e-07,25.0092500288,1.5233625066240002,48.207125000320005
1.1750000000000001e-07,25.0873750336,1.5249250067200002,48.20400000064
1.1800000000000001e-07,25.290500046080002,1.528050006912,48.18212500288
1.1850000000000001e-07,25.368625050880002,1.529612507008,48.1633750048
1.1900000000000001e-07,25.21237504128,1.528050006912,48.1633750048
1.195e-07,25.02487502976,1.5233625066240002,48.1790000032
1.2000000000000002e-07,25.02487502976,1.5202375064320002,48.1790000032
1.205e-07,25.19675004032,1.5218000065280002,48.1633750048
1.21e-07,25.353000049920002,1.5249250067200002,48.154000005760004
1.215e-07,25.321750048000002,1.526487506816,48.15087500608
1.22e-07,25.14987503744,1.5233625066240002,48.15712500544
1.2250000000000002e-07,25.05612503168,1.5202375064320002,48.16650000448
1.23e-07,25.14987503744,1.5218000065280002,48.1790000032
1.2350000000000001e-07,25.306125047040002,1.528050006912,48.191500001920005
1.24e-07,25.368625050880002,1.531175007104,48.18837500224
1.245e-07,25.22800004224,1.529612507008,48.185250002560004
1.2500000000000002e-07,25.10300003456,1.526487506816,48.1633750048
1.255e-07,25.05612503168,1.5249250067200002,48.14150000704
1.2600000000000002e-07,25.18112503936,1.5233625066240002,48.11962500928
1.265e-07,25.27487504512,1.5249250067200002,48.11337500992
1.27e-07,25.22800004224,1.528050006912,48.11025001024
1.275e-07,25.13425003648,1.526487506816,48.11025001024
1.28e-07,25.0873750336,1.5233625066240002,48.107125010560004
1.2850000000000002e-07,25.14987503744,1.5218000065280002,48.11025001024
1.29e-07,25.22800004224,1.5249250067200002,48.14150000704
1.2950000000000001e-07,25.25925004416,1.5233625066240002,48.17275000384
1.3e-07,25.21237504128,1.5202375064320002,48.1790000032
1.305e-07,25.11862503552,1.5186750063360002,48.17275000384
1.31e-07,25.10300003456,1.5218000065280002,48.16650000448
1.315e-07,25.18112503936,1.5233625066240002,48.175875003520005
1.3200000000000002e-07,25.27487504512,1.5249250067200002,48.191500001920005
1.325e-07,25.27487504512,1.5202375064320002,48.1946250016
1.33e-07,25.19675004032,1.5186750063360002,48.15087500608
1.335e-07,25.0873750336,1.5186750063360002,48.09462501184
1.34e-07,25.10300003456,1.5218000065280002,48.07900001344
1.3450000000000002e-07,25.18112503936,1.5233625066240002,48.11025001024
1.35e-07,25.25925004416,1.5218000065280002,48.15087500608
1.3550000000000002e-07,25.21237504128,1.5186750063360002,48.15712500544
1.36e-07,25.11862503552,1.5186750063360002,48.11962500928
1.365e-07,25.07175003264,1.5186750063360002,48.1008750112
1.37e-07,25.11862503552,1.5186750063360002,48.144625006720005
1.375e-07,25.22800004224,1.5171125062400002,48.21337499968
1.3800000000000002e-07,25.2436250432,1.5186750063360002,48.24462499648
1.385e-07,25.19675004032,1.5202375064320002,48.22899999808
1.3900000000000001e-07,25.14987503744,1.5202375064320002,48.19775000128
1.395e-07,25.1655000384,1.5202375064320002,48.20087500096
1.4e-07,25.2436250432,1.5202375064320002,48.222749998720005
1.4050000000000002e-07,25.25925004416,1.5202375064320002,48.25087499584
1.41e-07,25.19675004032,1.5186750063360002,48.238374997120005
1.4150000000000002e-07,25.10300003456,1.5202375064320002,48.20400000064
1.42e-07,25.10300003456,1.5171125062400002,48.18837500224
1.425e-07,25.18112503936,1.5186750063360002,48.20400000064
1.43e-07,25.290500046080002,1.5202375064320002,48.222749998720005
1.435e-07,25.306125047040002,1.5218000065280002,48.23212499776
1.4400000000000002e-07,25.19675004032,1.5218000065280002,48.207125000320005
1.445e-07,25.10300003456,1.5186750063360002,48.18837500224
1.4500000000000001e-07,25.13425003648,1.5186750063360002,48.21337499968
1.455e-07,25.25925004416,1.5202375064320002,48.25087499584
1.46e-07,25.337375048960002,1.5218000065280002,48.269624993920004
1.4650000000000002e-07,25.27487504512,1.5171125062400002,48.2571249952
1.47e-07,25.14987503744,1.5171125062400002,48.23524999744
1.4750000000000002e-07,25.10300003456,1.5171125062400002,48.23524999744
1.48e-07,25.19675004032,1.5186750063360002,48.23212499776
1.485e-07,25.290500046080002,1.5186750063360002,48.21337499968
1.49e-07,25.290500046080002,1.5171125062400002,48.17275000384
1.495e-07,25.19675004032,1.5171125062400002,48.129000008320006
1.5000000000000002e-07,25.11862503552,1.5171125062400002,48.11337500992
1.505e-07,25.13425003648,1.5171125062400002,48.14150000704
1.5100000000000002e-07,25.2436250432,1.5171125062400002,48.18212500288
1.515e-07,25.27487504512,1.5155500061440002,48.21649999936
1.52e-07,25.22800004224,1.5155500061440002,48.23524999744
1.5250000000000002e-07,25.1655000384,1.5155500061440002,48.2571249952
1.53e-07,25.1655000384,1.5186750063360002,48.29149999168
1.5350000000000002e-07,25.22800004224,1.5186750063360002,48.3196249888
1.54e-07,25.290500046080002,1.5186750063360002,48.31337498944
1.5450000000000001e-07,25.27487504512,1.5139875060480001,48.2727499936
1.55e-07,25.1655000384,1.5139875060480001,48.222749998720005
1.555e-07,25.13425003648,1.5139875060480001,48.18837500224
1.5600000000000002e-07,25.19675004032,1.5171125062400002,48.175875003520005
