Time (s),VIN,IIN,VOUT
0.0,24.22049998656,1.800037506432,52.86650000192
5e-10,24.22049998656,1.800037506432,52.89775000384
1e-09,24.23612498752,1.800037506432,52.92900000576
1.5000000000000002e-09,24.2829999904,1.801600006528,52.83525
2e-09,24.2829999904,1.80472500672,52.7571249952
2.5e-09,24.2829999904,1.80472500672,52.7571249952
3.0000000000000004e-09,24.32987499328,1.8062875068159998,52.78837499712
3.5000000000000003e-09,24.34549999424,1.80472500672,52.80399999808
4e-09,24.34549999424,1.80472500672,52.77274999616
4.500000000000001e-09,24.31424999232,1.80472500672,52.74149999424
5e-09,24.29862499136,1.803162506624,52.78837499712
5.5000000000000004e-09,24.29862499136,1.803162506624,52.81962499904
6.000000000000001e-09,24.32987499328,1.803162506624,52.86650000192
6.5e-09,24.32987499328,1.803162506624,52.86650000192
7.000000000000001e-09,24.23612498752,1.8062875068159998,52.81962499904
7.500000000000001e-09,24.18924998464,1.80472500672,52.77274999616
8e-09,24.2048749856,1.803162506624,52.74149999424
8.5e-09,24.2829999904,1.803162506624,52.77274999616
9.000000000000001e-09,24.32987499328,1.80472500672,52.78837499712
9.5e-09,24.34549999424,1.803162506624,52.71024999232
1e-08,24.31424999232,1.80472500672,52.64774998848
1.0500000000000001e-08,24.26737498944,1.80472500672,52.6789999904
1.1000000000000001e-08,24.32987499328,1.803162506624,52.7571249952
1.15e-08,24.37674999616,1.801600006528,52.78837499712
1.2000000000000002e-08,24.40799999808,1.800037506432,52.77274999616
1.2500000000000001e-08,24.39237499712,1.801600006528,52.74149999424
1.3e-08,24.34549999424,1.800037506432,52.78837499712
1.35e-08,24.31424999232,1.800037506432,52.81962499904
1.4000000000000001e-08,24.29862499136,1.798475006336,52.86650000192
1.45e-08,24.32987499328,1.801600006528,52.83525
1.5000000000000002e-08,24.2829999904,1.803162506624,52.80399999808
1.55e-08,24.23612498752,1.803162506624,52.7571249952
1.6e-08,24.23612498752,1.800037506432,52.74149999424
1.6500000000000002e-08,24.31424999232,1.801600006528,52.78837499712
1.7e-08,24.3611249952,1.80472500672,52.85087500096
1.75e-08,24.39237499712,1.803162506624,52.78837499712
1.8000000000000002e-08,24.37674999616,1.800037506432,52.69462499136
1.85e-08,24.32987499328,1.79691250624,52.71024999232
1.9e-08,24.3611249952,1.79691250624,52.78837499712
1.9500000000000003e-08,24.39237499712,1.798475006336,52.83525
2e-08,24.40799999808,1.798475006336,52.88212500288
2.05e-08,24.34549999424,1.79691250624,52.85087500096
2.1000000000000003e-08,24.31424999232,1.795350006144,52.83525
2.15e-08,24.29862499136,1.798475006336,52.83525
2.2000000000000002e-08,24.34549999424,1.800037506432,52.83525
2.2500000000000003e-08,24.39237499712,1.803162506624,52.81962499904
2.3e-08,24.37674999616,1.8062875068159998,52.80399999808
2.3500000000000002e-08,24.39237499712,1.803162506624,52.7571249952
2.4000000000000003e-08,24.34549999424,1.800037506432,52.74149999424
2.45e-08,24.32987499328,1.803162506624,52.74149999424
2.5000000000000002e-08,24.3611249952,1.803162506624,52.81962499904
2.55e-08,24.43925,1.801600006528,52.83525
2.6e-08,24.37674999616,1.798475006336,52.83525
2.6500000000000002e-08,24.26737498944,1.798475006336,52.85087500096
2.7e-08,24.18924998464,1.79691250624,52.88212500288
2.75e-08,24.23612498752,1.798475006336,52.94462500672
2.8000000000000003e-08,24.39237499712,1.800037506432,52.96025000768
2.85e-08,24.47050000192,1.801600006528,52.89775000384
2.9e-08,24.40799999808,1.800037506432,52.89775000384
2.9500000000000003e-08,24.34549999424,1.800037506432,52.85087500096
3.0000000000000004e-08,24.26737498944,1.801600006528,52.88212500288
3.05e-08,24.29862499136,1.803162506624,52.83525
3.1e-08,24.37674999616,1.80472500672,52.80399999808
3.1500000000000004e-08,24.45487500096,1.800037506432,52.80399999808
3.2e-08,24.37674999616,1.79691250624,52.80399999808
3.25e-08,24.29862499136,1.798475006336,52.78837499712
3.3000000000000004e-08,24.23612498752,1.798475006336,52.86650000192
3.35e-08,24.23612498752,1.800037506432,52.89775000384
3.4e-08,24.25174998848,1.798475006336,52.86650000192
3.4500000000000005e-08,24.26737498944,1.79691250624,52.86650000192
3.5e-08,24.29862499136,1.798475006336,52.86650000192
3.55e-08,24.2829999904,1.801600006528,52.88212500288
3.6000000000000005e-08,24.29862499136,1.803162506624,52.94462500672
3.65e-08,24.2829999904,1.801600006528,52.94462500672
3.7e-08,24.32987499328,1.801600006528,52.94462500672
3.7500000000000005e-08,24.3611249952,1.800037506432,52.86650000192
3.8e-08,24.37674999616,1.800037506432,52.83525
3.85e-08,24.39237499712,1.803162506624,52.80399999808
3.9000000000000005e-08,24.37674999616,1.8062875068159998,52.83525
3.95e-08,24.40799999808,1.8062875068159998,52.89775000384
4e-08,24.40799999808,1.801600006528,52.89775000384
4.0500000000000005e-08,24.34549999424,1.803162506624,52.85087500096
4.1e-08,24.26737498944,1.8062875068159998,52.88212500288
4.15e-08,24.2048749856,1.80472500672,52.9133750048
4.2000000000000006e-08,24.15799998272,1.801600006528,52.97587500864
4.2500000000000003e-08,24.17362498368,1.801600006528,53.02275001152
4.3e-08,24.23612498752,1.8062875068159998,53.02275001152
4.3500000000000006e-08,24.26737498944,1.8078500069119998,52.94462500672
4.4000000000000004e-08,24.29862499136,1.8078500069119998,52.9133750048
4.45e-08,24.2048749856,1.80472500672,52.88212500288
4.5000000000000006e-08,24.15799998272,1.800037506432,52.94462500672
4.5500000000000004e-08,24.2048749856,1.800037506432,52.96025000768
4.6e-08,24.32987499328,1.803162506624,52.92900000576
4.6500000000000006e-08,24.42362499904,1.8078500069119998,52.81962499904
4.7000000000000004e-08,24.3611249952,1.8062875068159998,52.77274999616
4.75e-08,24.26737498944,1.800037506432,52.83525
4.8000000000000006e-08,24.18924998464,1.79691250624,52.94462500672
4.8500000000000004e-08,24.2048749856,1.801600006528,52.9915000096
4.9e-08,24.2829999904,1.803162506624,52.94462500672
4.95e-08,24.3611249952,1.8062875068159998,52.86650000192
5.0000000000000004e-08,24.31424999232,1.80472500672,52.85087500096
5.05e-08,24.22049998656,1.80472500672,52.9133750048
5.1e-08,24.15799998272,1.8078500069119998,52.9915000096
5.1500000000000005e-08,24.17362498368,1.8109750071039998,52.97587500864
5.2e-08,24.25174998848,1.8094125070079998,52.89775000384
5.25e-08,24.25174998848,1.8094125070079998,52.81962499904
5.3000000000000005e-08,24.23612498752,1.8062875068159998,52.89775000384
5.35e-08,24.22049998656,1.8078500069119998,52.9915000096
5.4e-08,24.25174998848,1.8109750071039998,53.03837501248
5.4500000000000005e-08,24.26737498944,1.8141000072959999,52.97587500864
5.5e-08,24.22049998656,1.8109750071039998,52.88212500288
5.55e-08,24.2048749856,1.8062875068159998,52.9133750048
5.6000000000000005e-08,24.22049998656,1.803162506624,52.9915000096
5.65e-08,24.29862499136,1.8109750071039998,53.03837501248
5.7e-08,24.32987499328,1.8141000072959999,53.00712501056
5.7500000000000005e-08,24.29862499136,1.8156625073919999,52.89775000384
5.8e-08,24.15799998272,1.8141000072959999,52.83525
5.85e-08,24.11112497984,1.8094125070079998,52.89775000384
5.9000000000000006e-08,24.17362498368,1.8078500069119998,52.96025000768
5.9500000000000003e-08,24.25174998848,1.8109750071039998,52.94462500672
6.000000000000001e-08,24.29862499136,1.8109750071039998,52.86650000192
6.05e-08,24.25174998848,1.8062875068159998,52.85087500096
6.1e-08,24.15799998272,1.803162506624,52.92900000576
6.15e-08,24.15799998272,1.8062875068159998,53.02275001152
6.2e-08,24.2048749856,1.8125375071999998,53.10087501632
6.250000000000001e-08,24.25174998848,1.8125375071999998,53.05400001344
6.300000000000001e-08,24.23612498752,1.8109750071039998,52.97587500864
6.35e-08,24.22049998656,1.8078500069119998,53.00712501056
6.4e-08,24.2048749856,1.8062875068159998,53.05400001344
6.45e-08,24.25174998848,1.8109750071039998,53.08525001536
6.5e-08,24.23612498752,1.8141000072959999,53.03837501248
6.55e-08,24.23612498752,1.8141000072959999,52.9133750048
6.600000000000001e-08,24.2048749856,1.8109750071039998,52.81962499904
6.65e-08,24.18924998464,1.8094125070079998,52.85087500096
6.7e-08,24.22049998656,1.8125375071999998,52.9133750048
6.75e-08,24.26737498944,1.8172250074879999,52.94462500672
6.8e-08,24.25174998848,1.8156625073919999,52.94462500672
6.85e-08,24.15799998272,1.8125375071999998,52.92900000576
6.900000000000001e-08,24.09549997888,1.8156625073919999,53.00712501056
6.950000000000001e-08,24.14237498176,1.8187875075839999,53.02275001152
7e-08,24.23612498752,1.8187875075839999,53.05400001344
7.05e-08,24.26737498944,1.8203500076799999,53.02275001152
7.1e-08,24.2048749856,1.8187875075839999,52.9915000096
7.15e-08,24.15799998272,1.8156625073919999,52.9915000096
7.200000000000001e-08,24.11112497984,1.8156625073919999,52.9915000096
7.250000000000001e-08,24.17362498368,1.8203500076799999,52.96025000768
7.3e-08,24.29862499136,1.823475007872,52.96025000768
7.35e-08,24.31424999232,1.8187875075839999,52.94462500672
7.4e-08,24.23612498752,1.8141000072959999,52.9133750048
7.45e-08,24.14237498176,1.8172250074879999,52.96025000768
7.500000000000001e-08,24.1267499808,1.8187875075839999,53.00712501056
7.550000000000001e-08,24.11112497984,1.8172250074879999,53.02275001152
7.6e-08,24.15799998272,1.8172250074879999,53.02275001152
7.65e-08,24.18924998464,1.8172250074879999,52.9915000096
7.7e-08,24.15799998272,1.8203500076799999,52.97587500864
7.75e-08,24.15799998272,1.8187875075839999,52.92900000576
7.800000000000001e-08,24.2048749856,1.8172250074879999,52.94462500672
7.850000000000001e-08,24.23612498752,1.8187875075839999,52.94462500672
7.9e-08,24.22049998656,1.8187875075839999,52.96025000768
7.95e-08,24.22049998656,1.8172250074879999,52.96025000768
8e-08,24.2048749856,1.8203500076799999,52.94462500672
8.05e-08,24.23612498752,1.8203500076799999,52.92900000576
8.100000000000001e-08,24.23612498752,1.8203500076799999,52.96025000768
8.150000000000001e-08,24.18924998464,1.821912507776,52.97587500864
8.2e-08,24.09549997888,1.8203500076799999,52.96025000768
8.25e-08,24.064249976960003,1.8203500076799999,52.9915000096
8.3e-08,24.11112497984,1.821912507776,53.00712501056
8.35e-08,24.2048749856,1.821912507776,52.97587500864
8.400000000000001e-08,24.26737498944,1.821912507776,52.96025000768
8.450000000000001e-08,24.23612498752,1.8187875075839999,52.97587500864
8.500000000000001e-08,24.18924998464,1.8187875075839999,52.9915000096
8.55e-08,24.15799998272,1.821912507776,52.92900000576
8.6e-08,24.22049998656,1.8203500076799999,52.94462500672
8.65e-08,24.2829999904,1.8203500076799999,52.96025000768
8.700000000000001e-08,24.23612498752,1.8203500076799999,52.96025000768
8.750000000000001e-08,24.2048749856,1.821912507776,52.9915000096
8.800000000000001e-08,24.15799998272,1.823475007872,52.94462500672
8.85e-08,24.17362498368,1.826600008064,52.89775000384
8.9e-08,24.22049998656,1.826600008064,52.94462500672
8.95e-08,24.2829999904,1.826600008064,52.94462500672
9.000000000000001e-08,24.25174998848,1.823475007872,52.9133750048
9.050000000000001e-08,24.22049998656,1.821912507776,52.92900000576
9.100000000000001e-08,24.2048749856,1.823475007872,52.97587500864
9.15e-08,24.2048749856,1.825037507968,52.9915000096
9.2e-08,24.2048749856,1.826600008064,53.02275001152
9.25e-08,24.17362498368,1.823475007872,53.03837501248
9.300000000000001e-08,24.14237498176,1.821912507776,53.02275001152
9.350000000000001e-08,24.09549997888,1.825037507968,53.00712501056
9.400000000000001e-08,24.1267499808,1.823475007872,53.02275001152
9.45e-08,24.17362498368,1.823475007872,53.02275001152
9.5e-08,24.17362498368,1.823475007872,53.02275001152
9.55e-08,24.18924998464,1.823475007872,53.02275001152
9.600000000000001e-08,24.18924998464,1.825037507968,52.97587500864
9.650000000000001e-08,24.23612498752,1.823475007872,52.94462500672
9.700000000000001e-08,24.32987499328,1.823475007872,52.94462500672
9.75e-08,24.3611249952,1.825037507968,52.97587500864
9.8e-08,24.2829999904,1.8203500076799999,52.92900000576
9.85e-08,24.23612498752,1.8187875075839999,52.96025000768
9.9e-08,24.26737498944,1.8203500076799999,53.00712501056
9.950000000000001e-08,24.26737498944,1.821912507776,53.00712501056
1.0000000000000001e-07,24.22049998656,1.821912507776,52.9915000096
1.005e-07,24.18924998464,1.821912507776,52.97587500864
1.01e-07,24.17362498368,1.821912507776,52.9915000096
1.015e-07,24.14237498176,1.823475007872,53.00712501056
1.02e-07,24.14237498176,1.823475007872,53.03837501248
1.0250000000000001e-07,24.18924998464,1.821912507776,53.00712501056
1.0300000000000001e-07,24.18924998464,1.821912507776,52.9915000096
1.0350000000000001e-07,24.15799998272,1.8172250074879999,52.97587500864
1.04e-07,24.18924998464,1.8203500076799999,52.94462500672
1.045e-07,24.22049998656,1.821912507776,52.92900000576
1.05e-07,24.2048749856,1.823475007872,52.9915000096
1.0550000000000001e-07,24.2048749856,1.8187875075839999,52.97587500864
1.0600000000000001e-07,24.18924998464,1.8172250074879999,52.92900000576
1.0650000000000001e-07,24.2048749856,1.8187875075839999,52.9133750048
1.07e-07,24.26737498944,1.821912507776,52.94462500672
1.075e-07,24.23612498752,1.821912507776,52.96025000768
1.08e-07,24.18924998464,1.8187875075839999,52.97587500864
1.0850000000000001e-07,24.1267499808,1.8187875075839999,52.96025000768
1.0900000000000001e-07,24.15799998272,1.821912507776,52.94462500672
1.0950000000000001e-07,24.23612498752,1.826600008064,52.86650000192
1.1e-07,24.29862499136,1.825037507968,52.83525
1.105e-07,24.29862499136,1.8187875075839999,52.85087500096
1.11e-07,24.18924998464,1.8172250074879999,52.89775000384
1.1150000000000001e-07,24.1267499808,1.8172250074879999,52.97587500864
1.1200000000000001e-07,24.15799998272,1.821912507776,52.96025000768
1.1250000000000001e-07,24.25174998848,1.825037507968,52.92900000576
1.13e-07,24.29862499136,1.823475007872,52.94462500672
1.135e-07,24.23612498752,1.8187875075839999,52.94462500672
1.14e-07,24.17362498368,1.8172250074879999,52.97587500864
1.1450000000000001e-07,24.15799998272,1.821912507776,53.03837501248
1.1500000000000001e-07,24.26737498944,1.825037507968,53.03837501248
1.1550000000000001e-07,24.32987499328,1.823475007872,52.9915000096
1.16e-07,24.26737498944,1.8187875075839999,52.9133750048
1.165e-07,24.17362498368,1.8187875075839999,52.89775000384
1.17e-07,24.17362498368,1.8203500076799999,52.96025000768
1.1750000000000001e-07,24.26737498944,1.825037507968,52.94462500672
1.1800000000000001e-07,24.34549999424,1.825037507968,52.88212500288
1.1850000000000001e-07,24.31424999232,1.826600008064,52.80399999808
1.1900000000000001e-07,24.18924998464,1.823475007872,52.80399999808
1.195e-07,24.11112497984,1.8187875075839999,52.88212500288
1.2000000000000002e-07,24.11112497984,1.8156625073919999,52.94462500672
1.205e-07,24.18924998464,1.8203500076799999,52.97587500864
1.21e-07,24.26737498944,1.823475007872,52.96025000768
1.215e-07,24.2829999904,1.821912507776,52.92900000576
1.22e-07,24.22049998656,1.8187875075839999,52.94462500672
1.2250000000000002e-07,24.18924998464,1.8172250074879999,53.02275001152
1.23e-07,24.25174998848,1.8203500076799999,53.02275001152
1.2350000000000001e-07,24.31424999232,1.8187875075839999,52.96025000768
1.24e-07,24.31424999232,1.8172250074879999,52.88212500288
1.245e-07,24.25174998848,1.8156625073919999,52.83525
1.2500000000000002e-07,24.23612498752,1.8156625073919999,52.89775000384
1.255e-07,24.2829999904,1.8187875075839999,52.96025000768
1.2600000000000002e-07,24.2829999904,1.8187875075839999,52.97587500864
1.265e-07,24.29862499136,1.8187875075839999,52.9133750048
1.27e-07,24.2048749856,1.8187875075839999,52.88212500288
1.275e-07,24.15799998272,1.8172250074879999,52.92900000576
1.28e-07,24.15799998272,1.8187875075839999,52.97587500864
1.2850000000000002e-07,24.23612498752,1.8187875075839999,53.02275001152
1.29e-07,24.2829999904,1.8187875075839999,53.00712501056
1.2950000000000001e-07,24.2829999904,1.8172250074879999,52.89775000384
1.3e-07,24.26737498944,1.8141000072959999,52.83525
1.305e-07,24.26737498944,1.8141000072959999,52.86650000192
1.31e-07,24.31424999232,1.8156625073919999,52.92900000576
1.315e-07,24.31424999232,1.8156625073919999,52.96025000768
1.3200000000000002e-07,24.29862499136,1.8125375071999998,52.92900000576
1.325e-07,24.22049998656,1.8109750071039998,52.86650000192
1.33e-07,24.2048749856,1.8125375071999998,52.89775000384
1.335e-07,24.23612498752,1.8141000072959999,52.96025000768
1.34e-07,24.26737498944,1.8125375071999998,53.00712501056
1.3450000000000002e-07,24.29862499136,1.8125375071999998,52.9915000096
1.35e-07,24.25174998848,1.8109750071039998,52.92900000576
1.3550000000000002e-07,24.23612498752,1.8109750071039998,52.9133750048
1.36e-07,24.26737498944,1.8094125070079998,52.92900000576
1.365e-07,24.34549999424,1.8141000072959999,52.94462500672
1.37e-07,24.37674999616,1.8141000072959999,52.97587500864
1.375e-07,24.34549999424,1.8141000072959999,52.89775000384
1.3800000000000002e-07,24.34549999424,1.8094125070079998,52.85087500096
1.385e-07,24.29862499136,1.8125375071999998,52.88212500288
1.3900000000000001e-07,24.26737498944,1.8125375071999998,52.9133750048
1.395e-07,24.26737498944,1.8109750071039998,52.94462500672
1.4e-07,24.26737498944,1.8109750071039998,52.94462500672
1.4050000000000002e-07,24.22049998656,1.8125375071999998,52.88212500288
1.41e-07,24.2048749856,1.8125375071999998,52.89775000384
1.4150000000000002e-07,24.22049998656,1.8125375071999998,52.88212500288
1.42e-07,24.23612498752,1.8094125070079998,52.89775000384
1.425e-07,24.2829999904,1.8078500069119998,52.88212500288
1.43e-07,24.2829999904,1.8094125070079998,52.83525
1.435e-07,24.2829999904,1.8078500069119998,52.81962499904
1.4400000000000002e-07,24.2829999904,1.8078500069119998,52.78837499712
1.445e-07,24.31424999232,1.8094125070079998,52.80399999808
1.4500000000000001e-07,24.34549999424,1.8078500069119998,52.88212500288
1.455e-07,24.37674999616,1.8078500069119998,52.88212500288
1.46e-07,24.34549999424,1.8062875068159998,52.85087500096
1.4650000000000002e-07,24.29862499136,1.8062875068159998,52.83525
1.47e-07,24.26737498944,1.803162506624,52.85087500096
1.4750000000000002e-07,24.2048749856,1.801600006528,52.85087500096
1.48e-07,24.22049998656,1.80472500672,52.92900000576
1.485e-07,24.23612498752,1.80472500672,52.88212500288
1.49e-07,24.2829999904,1.8062875068159998,52.83525
1.495e-07,24.26737498944,1.8078500069119998,52.7571249952
1.5000000000000002e-07,24.26737498944,1.8062875068159998,52.7571249952
1.505e-07,24.32987499328,1.8062875068159998,52.7571249952
1.5100000000000002e-07,24.34549999424,1.8078500069119998,52.80399999808
1.515e-07,24.3611249952,1.8094125070079998,52.78837499712
1.52e-07,24.31424999232,1.8078500069119998,52.7571249952
1.5250000000000002e-07,24.29862499136,1.8062875068159998,52.7571249952
1.53e-07,24.29862499136,1.80472500672,52.83525
1.5350000000000002e-07,24.31424999232,1.8062875068159998,52.86650000192
1.54e-07,24.31424999232,1.8062875068159998,52.85087500096
1.5450000000000001e-07,24.23612498752,1.8078500069119998,52.81962499904
1.55e-07,24.18924998464,1.8078500069119998,52.77274999616
1.555e-07,24.18924998464,1.80472500672,52.7571249952
1.5600000000000002e-07,24.26737498944,1.8062875068159998,52.78837499712
1.565e-07,24.31424999232,1.8078500069119998,52.77274999616
1.5700000000000002e-07,24.32987499328,1.8078500069119998,52.74149999424
1.575e-07,24.29862499136,1.8062875068159998,52.66337498944
1.58e-07,24.2829999904,1.803162506624,52.6789999904
1.5850000000000002e-07,24.31424999232,1.801600006528,52.74149999424
1.59e-07,24.3611249952,1.800037506432,52.80399999808
1.5950000000000002e-07,24.40799999808,1.801600006528,52.80399999808
1.6e-07,24.37674999616,1.801600006528,52.74149999424
1.6050000000000001e-07,24.32987499328,1.800037506432,52.74149999424
1.61e-07,24.29862499136,1.798475006336,52.83525
1.615e-07,24.29862499136,1.801600006528,52.85087500096
1.6200000000000002e-07,24.31424999232,1.80472500672,52.85087500096
1.625e-07,24.26737498944,1.8062875068159998,52.81962499904
1.6300000000000002e-07,24.22049998656,1.8062875068159998,52.7571249952
1.635e-07,24.22049998656,1.803162506624,52.7571249952
1.64e-07,24.29862499136,1.803162506624,52.80399999808
