Time (s),VIN,IIN,VOUT
0.0,24.17212498368,1.873500006528,55.52650000384
5e-10,24.17212498368,1.8750625066239999,55.47962500096
1e-09,24.21899998656,1.8750625066239999,55.40149999616
1.5000000000000002e-09,24.2814999904,1.8750625066239999,55.3077499904
2e-09,24.26587498944,1.8750625066239999,55.27649998848
2.5e-09,24.29712499136,1.8766250067199999,55.32337499136
3.0000000000000004e-09,24.3596249952,1.8766250067199999,55.41712499712
3.5000000000000003e-09,24.37524999616,1.8781875068159999,55.43274999808
4e-09,24.3596249952,1.8781875068159999,55.41712499712
4.500000000000001e-09,24.29712499136,1.8766250067199999,55.44837499904
5e-09,24.2814999904,1.8781875068159999,55.49525000192
5.5000000000000004e-09,24.26587498944,1.879750006912,55.51087500288
6.000000000000001e-09,24.2814999904,1.879750006912,55.52650000384
6.5e-09,24.26587498944,1.8781875068159999,55.44837499904
7.000000000000001e-09,24.2033749856,1.8766250067199999,55.37024999424
7.500000000000001e-09,24.17212498368,1.8766250067199999,55.33899999232
8e-09,24.18774998464,1.8766250067199999,55.32337499136
8.5e-09,24.29712499136,1.8750625066239999,55.32337499136
9.000000000000001e-09,24.3596249952,1.8766250067199999,55.29212498944
9.5e-09,24.37524999616,1.8781875068159999,55.2296249856
1e-08,24.32837499328,1.8766250067199999,55.26087498752
1.0500000000000001e-08,24.31274999232,1.873500006528,55.33899999232
1.1000000000000001e-08,24.32837499328,1.86881250624,55.44837499904
1.15e-08,24.37524999616,1.865687506048,55.47962500096
1.2000000000000002e-08,24.37524999616,1.867250006144,55.43274999808
1.2500000000000001e-08,24.34399999424,1.86881250624,55.43274999808
1.3e-08,24.2814999904,1.873500006528,55.464
1.35e-08,24.23462498752,1.873500006528,55.47962500096
1.4000000000000001e-08,24.23462498752,1.873500006528,55.49525000192
1.45e-08,24.25024998848,1.873500006528,55.43274999808
1.5000000000000002e-08,24.26587498944,1.873500006528,55.32337499136
1.55e-08,24.25024998848,1.8750625066239999,55.27649998848
1.6e-08,24.26587498944,1.8750625066239999,55.33899999232
1.6500000000000002e-08,24.3596249952,1.8750625066239999,55.37024999424
1.7e-08,24.42212499904,1.871937506432,55.35462499328
1.75e-08,24.42212499904,1.86881250624,55.3077499904
1.8000000000000002e-08,24.39087499712,1.86881250624,55.33899999232
1.85e-08,24.3596249952,1.86881250624,55.40149999616
1.9e-08,24.3596249952,1.86881250624,55.51087500288
1.9500000000000003e-08,24.34399999424,1.865687506048,55.55775000576
2e-08,24.3596249952,1.867250006144,55.5421250048
2.05e-08,24.2814999904,1.871937506432,55.464
2.1000000000000003e-08,24.26587498944,1.873500006528,55.41712499712
2.15e-08,24.2814999904,1.871937506432,55.40149999616
2.2000000000000002e-08,24.32837499328,1.871937506432,55.40149999616
2.2500000000000003e-08,24.39087499712,1.8750625066239999,55.33899999232
2.3e-08,24.43775,1.8781875068159999,55.27649998848
2.3500000000000002e-08,24.43775,1.8766250067199999,55.29212498944
2.4000000000000003e-08,24.39087499712,1.870375006336,55.33899999232
2.45e-08,24.34399999424,1.870375006336,55.40149999616
2.5000000000000002e-08,24.37524999616,1.86881250624,55.464
2.55e-08,24.42212499904,1.86881250624,55.49525000192
2.6e-08,24.3596249952,1.86881250624,55.52650000384
2.6500000000000002e-08,24.2814999904,1.867250006144,55.52650000384
2.7e-08,24.18774998464,1.86881250624,55.57337500672
2.75e-08,24.17212498368,1.870375006336,55.55775000576
2.8000000000000003e-08,24.29712499136,1.873500006528,55.51087500288
2.85e-08,24.43775,1.8766250067199999,55.44837499904
2.9e-08,24.50025000384,1.8750625066239999,55.40149999616
2.9500000000000003e-08,24.43775,1.870375006336,55.3858749952
3.0000000000000004e-08,24.34399999424,1.86881250624,55.41712499712
3.05e-08,24.29712499136,1.86881250624,55.40149999616
3.1e-08,24.3596249952,1.871937506432,55.3858749952
3.1500000000000004e-08,24.43775,1.870375006336,55.41712499712
3.2e-08,24.40649999808,1.865687506048,55.44837499904
3.25e-08,24.29712499136,1.864125005952,55.47962500096
3.3000000000000004e-08,24.18774998464,1.865687506048,55.55775000576
3.35e-08,24.1252499808,1.867250006144,55.55775000576
3.4e-08,24.15649998272,1.867250006144,55.52650000384
3.4500000000000005e-08,24.21899998656,1.870375006336,55.47962500096
3.5e-08,24.25024998848,1.873500006528,55.49525000192
3.55e-08,24.25024998848,1.871937506432,55.49525000192
3.6000000000000005e-08,24.29712499136,1.870375006336,55.51087500288
3.65e-08,24.32837499328,1.873500006528,55.464
3.7e-08,24.37524999616,1.870375006336,55.37024999424
3.7500000000000005e-08,24.42212499904,1.86881250624,55.33899999232
3.8e-08,24.43775,1.871937506432,55.37024999424
3.85e-08,24.40649999808,1.870375006336,55.40149999616
3.9000000000000005e-08,24.3596249952,1.870375006336,55.51087500288
3.95e-08,24.3596249952,1.870375006336,55.57337500672
4e-08,24.3596249952,1.871937506432,55.5421250048
4.0500000000000005e-08,24.32837499328,1.873500006528,55.51087500288
4.1e-08,24.23462498752,1.873500006528,55.5421250048
4.15e-08,24.15649998272,1.873500006528,55.57337500672
4.2000000000000006e-08,24.10962497984,1.8750625066239999,55.6202500096
4.2500000000000003e-08,24.10962497984,1.8750625066239999,55.60462500864
4.3e-08,24.17212498368,1.8781875068159999,55.55775000576
4.3500000000000006e-08,24.25024998848,1.881312507008,55.47962500096
4.4000000000000004e-08,24.34399999424,1.881312507008,55.44837499904
4.45e-08,24.29712499136,1.8781875068159999,55.43274999808
4.5000000000000006e-08,24.2033749856,1.871937506432,55.49525000192
4.5500000000000004e-08,24.15649998272,1.870375006336,55.52650000384
4.6e-08,24.25024998848,1.873500006528,55.51087500288
4.6500000000000006e-08,24.3596249952,1.8781875068159999,55.43274999808
4.7000000000000004e-08,24.39087499712,1.879750006912,55.44837499904
4.75e-08,24.2814999904,1.8766250067199999,55.5421250048
4.8000000000000006e-08,24.15649998272,1.8750625066239999,55.63587501056
4.8500000000000004e-08,24.10962497984,1.8750625066239999,55.60462500864
4.9e-08,24.17212498368,1.8781875068159999,55.49525000192
4.95e-08,24.31274999232,1.881312507008,55.41712499712
5.0000000000000004e-08,24.32837499328,1.879750006912,55.43274999808
5.05e-08,24.23462498752,1.8750625066239999,55.51087500288
5.1e-08,24.15649998272,1.873500006528,55.55775000576
5.1500000000000005e-08,24.14087498176,1.873500006528,55.49525000192
5.2e-08,24.21899998656,1.8766250067199999,55.43274999808
5.25e-08,24.26587498944,1.879750006912,55.43274999808
5.3000000000000005e-08,24.26587498944,1.8766250067199999,55.5421250048
5.35e-08,24.2033749856,1.8750625066239999,55.68275001344
5.4e-08,24.21899998656,1.879750006912,55.72962501632
5.4500000000000005e-08,24.21899998656,1.882875007104,55.6202500096
5.5e-08,24.2033749856,1.881312507008,55.5421250048
5.55e-08,24.17212498368,1.8766250067199999,55.57337500672
5.6000000000000005e-08,24.17212498368,1.8750625066239999,55.6202500096
5.65e-08,24.21899998656,1.881312507008,55.57337500672
5.7e-08,24.26587498944,1.886000007296,55.464
5.7500000000000005e-08,24.2814999904,1.886000007296,55.37024999424
5.8e-08,24.17212498368,1.886000007296,55.40149999616
5.85e-08,24.1252499808,1.879750006912,55.464
5.9000000000000006e-08,24.14087498176,1.8766250067199999,55.52650000384
5.9500000000000003e-08,24.2033749856,1.8781875068159999,55.49525000192
6.000000000000001e-08,24.29712499136,1.8766250067199999,55.47962500096
6.05e-08,24.26587498944,1.8766250067199999,55.52650000384
6.1e-08,24.15649998272,1.8750625066239999,55.63587501056
6.15e-08,24.09399997888,1.8766250067199999,55.74525001728
6.2e-08,24.10962497984,1.881312507008,55.80775002112
6.250000000000001e-08,24.15649998272,1.882875007104,55.66712501248
6.300000000000001e-08,24.21899998656,1.881312507008,55.57337500672
6.35e-08,24.23462498752,1.879750006912,55.60462500864
6.4e-08,24.2033749856,1.881312507008,55.65150001152
6.45e-08,24.25024998848,1.881312507008,55.60462500864
6.5e-08,24.26587498944,1.886000007296,55.49525000192
6.55e-08,24.2814999904,1.886000007296,55.3858749952
6.600000000000001e-08,24.23462498752,1.8844375072,55.41712499712
6.65e-08,24.21899998656,1.882875007104,55.49525000192
6.7e-08,24.2033749856,1.881312507008,55.6202500096
6.75e-08,24.2033749856,1.882875007104,55.63587501056
6.8e-08,24.23462498752,1.8844375072,55.6202500096
6.85e-08,24.17212498368,1.887562507392,55.63587501056
6.900000000000001e-08,24.10962497984,1.882875007104,55.65150001152
6.950000000000001e-08,24.09399997888,1.8781875068159999,55.66712501248
7e-08,24.15649998272,1.8844375072,55.6983750144
7.05e-08,24.21899998656,1.887562507392,55.6202500096
7.1e-08,24.26587498944,1.887562507392,55.52650000384
7.15e-08,24.25024998848,1.887562507392,55.52650000384
7.200000000000001e-08,24.18774998464,1.886000007296,55.51087500288
7.250000000000001e-08,24.17212498368,1.887562507392,55.52650000384
7.3e-08,24.23462498752,1.886000007296,55.5421250048
7.35e-08,24.31274999232,1.887562507392,55.51087500288
7.4e-08,24.23462498752,1.886000007296,55.58900000768
7.45e-08,24.14087498176,1.8844375072,55.63587501056
7.500000000000001e-08,24.09399997888,1.8844375072,55.68275001344
7.550000000000001e-08,24.062749976960003,1.8844375072,55.68275001344
7.6e-08,24.14087498176,1.889125007488,55.63587501056
7.65e-08,24.18774998464,1.89225000768,55.60462500864
7.7e-08,24.2033749856,1.889125007488,55.55775000576
7.75e-08,24.17212498368,1.887562507392,55.55775000576
7.800000000000001e-08,24.2033749856,1.890687507584,55.57337500672
7.850000000000001e-08,24.2814999904,1.89225000768,55.5421250048
7.9e-08,24.32837499328,1.890687507584,55.51087500288
7.95e-08,24.31274999232,1.887562507392,55.49525000192
8e-08,24.23462498752,1.887562507392,55.52650000384
8.05e-08,24.18774998464,1.889125007488,55.5421250048
8.100000000000001e-08,24.18774998464,1.890687507584,55.58900000768
8.150000000000001e-08,24.17212498368,1.890687507584,55.60462500864
8.2e-08,24.09399997888,1.889125007488,55.65150001152
8.25e-08,24.062749976960003,1.889125007488,55.65150001152
8.3e-08,24.062749976960003,1.889125007488,55.63587501056
8.35e-08,24.15649998272,1.889125007488,55.58900000768
8.400000000000001e-08,24.26587498944,1.89225000768,55.58900000768
8.450000000000001e-08,24.2814999904,1.895375007872,55.58900000768
8.500000000000001e-08,24.23462498752,1.893812507776,55.57337500672
8.55e-08,24.15649998272,1.893812507776,55.58900000768
8.6e-08,24.17212498368,1.896937507968,55.58900000768
8.65e-08,24.23462498752,1.895375007872,55.55775000576
8.700000000000001e-08,24.2814999904,1.893812507776,55.5421250048
8.750000000000001e-08,24.21899998656,1.890687507584,55.5421250048
8.800000000000001e-08,24.15649998272,1.89225000768,55.5421250048
8.85e-08,24.10962497984,1.89225000768,55.57337500672
8.9e-08,24.15649998272,1.895375007872,55.58900000768
8.95e-08,24.26587498944,1.893812507776,55.57337500672
9.000000000000001e-08,24.25024998848,1.893812507776,55.60462500864
9.050000000000001e-08,24.2033749856,1.893812507776,55.60462500864
9.100000000000001e-08,24.15649998272,1.896937507968,55.63587501056
9.15e-08,24.17212498368,1.898500008064,55.65150001152
9.2e-08,24.18774998464,1.896937507968,55.65150001152
9.25e-08,24.17212498368,1.893812507776,55.65150001152
9.300000000000001e-08,24.14087498176,1.89225000768,55.63587501056
9.350000000000001e-08,24.078374977920003,1.893812507776,55.6202500096
9.400000000000001e-08,24.078374977920003,1.896937507968,55.65150001152
9.45e-08,24.1252499808,1.895375007872,55.63587501056
9.5e-08,24.18774998464,1.895375007872,55.6202500096
9.55e-08,24.18774998464,1.89225000768,55.60462500864
9.600000000000001e-08,24.18774998464,1.89225000768,55.57337500672
9.650000000000001e-08,24.2033749856,1.893812507776,55.60462500864
9.700000000000001e-08,24.2814999904,1.89225000768,55.6202500096
9.75e-08,24.32837499328,1.890687507584,55.58900000768
9.8e-08,24.2814999904,1.887562507392,55.60462500864
9.85e-08,24.23462498752,1.887562507392,55.60462500864
9.9e-08,24.23462498752,1.890687507584,55.63587501056
9.950000000000001e-08,24.23462498752,1.889125007488,55.60462500864
1.0000000000000001e-07,24.23462498752,1.890687507584,55.58900000768
1.005e-07,24.18774998464,1.890687507584,55.58900000768
1.01e-07,24.17212498368,1.89225000768,55.60462500864
1.015e-07,24.10962497984,1.890687507584,55.60462500864
1.02e-07,24.10962497984,1.890687507584,55.63587501056
1.0250000000000001e-07,24.14087498176,1.889125007488,55.6202500096
1.0300000000000001e-07,24.15649998272,1.889125007488,55.58900000768
1.0350000000000001e-07,24.17212498368,1.889125007488,55.58900000768
1.04e-07,24.18774998464,1.89225000768,55.6202500096
1.045e-07,24.2033749856,1.89225000768,55.6202500096
1.05e-07,24.2033749856,1.890687507584,55.60462500864
1.0550000000000001e-07,24.2033749856,1.890687507584,55.55775000576
1.0600000000000001e-07,24.18774998464,1.890687507584,55.5421250048
1.0650000000000001e-07,24.2033749856,1.89225000768,55.52650000384
1.07e-07,24.26587498944,1.893812507776,55.55775000576
1.075e-07,24.26587498944,1.89225000768,55.52650000384
1.08e-07,24.26587498944,1.89225000768,55.52650000384
1.0850000000000001e-07,24.18774998464,1.89225000768,55.51087500288
1.0900000000000001e-07,24.17212498368,1.890687507584,55.49525000192
1.0950000000000001e-07,24.2033749856,1.893812507776,55.464
1.1e-07,24.25024998848,1.895375007872,55.52650000384
1.105e-07,24.23462498752,1.889125007488,55.57337500672
1.11e-07,24.17212498368,1.886000007296,55.58900000768
1.1150000000000001e-07,24.10962497984,1.8844375072,55.6202500096
1.1200000000000001e-07,24.10962497984,1.889125007488,55.60462500864
1.1250000000000001e-07,24.2033749856,1.893812507776,55.58900000768
1.13e-07,24.26587498944,1.893812507776,55.55775000576
1.135e-07,24.25024998848,1.89225000768,55.55775000576
1.14e-07,24.18774998464,1.889125007488,55.63587501056
1.1450000000000001e-07,24.15649998272,1.89225000768,55.60462500864
1.1500000000000001e-07,24.26587498944,1.895375007872,55.57337500672
1.1550000000000001e-07,24.3596249952,1.895375007872,55.49525000192
1.16e-07,24.34399999424,1.89225000768,55.49525000192
1.165e-07,24.17212498368,1.889125007488,55.55775000576
1.17e-07,24.14087498176,1.882875007104,55.57337500672
1.1750000000000001e-07,24.2033749856,1.886000007296,55.52650000384
1.1800000000000001e-07,24.2814999904,1.893812507776,55.49525000192
1.1850000000000001e-07,24.29712499136,1.895375007872,55.47962500096
1.1900000000000001e-07,24.21899998656,1.893812507776,55.51087500288
1.195e-07,24.1252499808,1.889125007488,55.57337500672
1.2000000000000002e-07,24.078374977920003,1.890687507584,55.58900000768
1.205e-07,24.17212498368,1.893812507776,55.55775000576
1.21e-07,24.26587498944,1.896937507968,55.49525000192
1.215e-07,24.32837499328,1.89225000768,55.52650000384
1.22e-07,24.23462498752,1.889125007488,55.60462500864
1.2250000000000002e-07,24.2033749856,1.886000007296,55.60462500864
1.23e-07,24.21899998656,1.887562507392,55.58900000768
1.2350000000000001e-07,24.2814999904,1.887562507392,55.51087500288
1.24e-07,24.2814999904,1.886000007296,55.464
1.245e-07,24.2033749856,1.886000007296,55.5421250048
1.2500000000000002e-07,24.2033749856,1.886000007296,55.60462500864
1.255e-07,24.21899998656,1.887562507392,55.60462500864
1.2600000000000002e-07,24.26587498944,1.89225000768,55.57337500672
1.265e-07,24.25024998848,1.893812507776,55.51087500288
1.27e-07,24.21899998656,1.890687507584,55.51087500288
1.275e-07,24.1252499808,1.887562507392,55.57337500672
1.28e-07,24.14087498176,1.889125007488,55.6202500096
1.2850000000000002e-07,24.23462498752,1.89225000768,55.57337500672
1.29e-07,24.31274999232,1.890687507584,55.49525000192
1.2950000000000001e-07,24.32837499328,1.887562507392,55.43274999808
1.3e-07,24.29712499136,1.882875007104,55.49525000192
1.305e-07,24.2814999904,1.882875007104,55.52650000384
1.31e-07,24.26587498944,1.886000007296,55.58900000768
1.315e-07,24.26587498944,1.887562507392,55.55775000576
1.3200000000000002e-07,24.2814999904,1.887562507392,55.51087500288
1.325e-07,24.23462498752,1.886000007296,55.52650000384
1.33e-07,24.2033749856,1.886000007296,55.57337500672
1.335e-07,24.2033749856,1.886000007296,55.58900000768
1.34e-07,24.26587498944,1.887562507392,55.57337500672
1.3450000000000002e-07,24.2814999904,1.886000007296,55.52650000384
1.35e-07,24.29712499136,1.879750006912,55.47962500096
1.3550000000000002e-07,24.23462498752,1.8766250067199999,55.51087500288
1.36e-07,24.25024998848,1.879750006912,55.55775000576
1.365e-07,24.37524999616,1.882875007104,55.55775000576
1.37e-07,24.39087499712,1.8844375072,55.52650000384
1.375e-07,24.37524999616,1.8844375072,55.51087500288
1.3800000000000002e-07,24.31274999232,1.8844375072,55.52650000384
1.385e-07,24.26587498944,1.881312507008,55.5421250048
1.3900000000000001e-07,24.21899998656,1.8844375072,55.58900000768
1.395e-07,24.25024998848,1.8844375072,55.57337500672
1.4e-07,24.2814999904,1.882875007104,55.51087500288
1.4050000000000002e-07,24.23462498752,1.882875007104,55.49525000192
1.41e-07,24.2033749856,1.881312507008,55.44837499904
1.4150000000000002e-07,24.18774998464,1.879750006912,55.41712499712
1.42e-07,24.23462498752,1.879750006912,55.464
1.425e-07,24.29712499136,1.8766250067199999,55.43274999808
1.43e-07,24.32837499328,1.8766250067199999,55.40149999616
1.435e-07,24.2814999904,1.8766250067199999,55.41712499712
1.4400000000000002e-07,24.29712499136,1.8781875068159999,55.44837499904
1.445e-07,24.31274999232,1.8781875068159999,55.49525000192
1.4500000000000001e-07,24.34399999424,1.879750006912,55.5421250048
1.455e-07,24.39087499712,1.879750006912,55.51087500288
1.46e-07,24.34399999424,1.8781875068159999,55.52650000384
1.4650000000000002e-07,24.2814999904,1.8766250067199999,55.49525000192
1.47e-07,24.21899998656,1.8766250067199999,55.51087500288
1.4750000000000002e-07,24.2033749856,1.8750625066239999,55.51087500288
1.48e-07,24.21899998656,1.8750625066239999,55.47962500096
1.485e-07,24.25024998848,1.8750625066239999,55.41712499712
1.49e-07,24.31274999232,1.873500006528,55.3077499904
1.495e-07,24.31274999232,1.873500006528,55.27649998848
1.5000000000000002e-07,24.31274999232,1.8781875068159999,55.35462499328
1.505e-07,24.3596249952,1.8781875068159999,55.41712499712
1.5100000000000002e-07,24.39087499712,1.8781875068159999,55.43274999808
1.515e-07,24.3596249952,1.8766250067199999,55.43274999808
1.52e-07,24.31274999232,1.879750006912,55.43274999808
1.5250000000000002e-07,24.29712499136,1.8781875068159999,55.44837499904
1.53e-07,24.26587498944,1.879750006912,55.49525000192
1.5350000000000002e-07,24.2814999904,1.8781875068159999,55.49525000192
1.54e-07,24.23462498752,1.8781875068159999,55.47962500096
1.5450000000000001e-07,24.18774998464,1.8766250067199999,55.37024999424
1.55e-07,24.15649998272,1.8781875068159999,55.33899999232
1.555e-07,24.2033749856,1.8750625066239999,55.32337499136
1.5600000000000002e-07,24.29712499136,1.8750625066239999,55.32337499136
1.565e-07,24.34399999424,1.8766250067199999,55.29212498944
1.5700000000000002e-07,24.37524999616,1.873500006528,55.24524998656
1.575e-07,24.32837499328,1.8750625066239999,55.26087498752
1.58e-07,24.29712499136,1.8766250067199999,55.37024999424
1.5850000000000002e-07,24.34399999424,1.870375006336,55.44837499904
1.59e-07,24.39087499712,1.865687506048,55.47962500096
1.5950000000000002e-07,24.37524999616,1.865687506048,55.464
1.6e-07,24.34399999424,1.86881250624,55.44837499904
1.6050000000000001e-07,24.29712499136,1.871937506432,55.464
1.61e-07,24.25024998848,1.873500006528,55.49525000192
1.615e-07,24.23462498752,1.871937506432,55.464
1.6200000000000002e-07,24.25024998848,1.871937506432,55.43274999808
1.625e-07,24.26587498944,1.8750625066239999,55.33899999232
1.6300000000000002e-07,24.25024998848,1.8766250067199999,55.3077499904
1.635e-07,24.26587498944,1.873500006528,55.32337499136
1.64e-07,24.34399999424,1.871937506432,55.3858749952
1.645e-07,24.37524999616,1.871937506432,55.37024999424
1.65e-07,24.42212499904,1.871937506432,55.32337499136
1.6550000000000002e-07,24.40649999808,1.871937506432,55.33899999232
1.66e-07,24.3596249952,1.867250006144,55.43274999808
1.6650000000000002e-07,24.32837499328,1.862562505856,55.52650000384
1.67e-07,24.3596249952,1.865687506048,55.57337500672
1.675e-07,24.3596249952,1.86881250624,55.5421250048
