Time (s),VIN,IIN,VOUT
0.0,24.186499984639998,1.90780000672,56.65475000192
5e-10,24.202124985599998,1.9093625068159998,56.63912500096
1e-09,24.264624989439998,1.9093625068159998,56.57662499712
1.5000000000000002e-09,24.311499992319998,1.9093625068159998,56.48287499136
2e-09,24.311499992319998,1.9109250069119998,56.42037498752
2.5e-09,24.311499992319998,1.9109250069119998,56.4672499904
3.0000000000000004e-09,24.34274999424,1.9140500071039999,56.59224999808
3.5000000000000003e-09,24.38962499712,1.9124875070079999,56.6235
4e-09,24.37399999616,1.90780000672,56.63912500096
4.500000000000001e-09,24.295874991359998,1.904675006528,56.6235
5e-09,24.248999988479998,1.90780000672,56.65475000192
5.5000000000000004e-09,24.233374987519998,1.9124875070079999,56.65475000192
6.000000000000001e-09,24.264624989439998,1.9140500071039999,56.68600000384
6.5e-09,24.264624989439998,1.9093625068159998,56.6235
7.000000000000001e-09,24.233374987519998,1.90780000672,56.5453749952
7.500000000000001e-09,24.170874983679997,1.9109250069119998,56.4672499904
8e-09,24.186499984639998,1.9124875070079999,56.43599998848
8.5e-09,24.295874991359998,1.9124875070079999,56.43599998848
9.000000000000001e-09,24.3583749952,1.9124875070079999,56.45162498944
9.5e-09,24.38962499712,1.90780000672,56.42037498752
1e-08,24.38962499712,1.90780000672,56.40474998656
1.0500000000000001e-08,24.3583749952,1.90780000672,56.48287499136
1.1000000000000001e-08,24.327124993279998,1.906237506624,56.6235
1.15e-08,24.37399999616,1.903112506432,56.67037500288
1.2000000000000002e-08,24.3583749952,1.901550006336,56.67037500288
1.2500000000000001e-08,24.327124993279998,1.901550006336,56.63912500096
1.3e-08,24.248999988479998,1.904675006528,56.63912500096
1.35e-08,24.233374987519998,1.906237506624,56.65475000192
1.4000000000000001e-08,24.217749986559998,1.90780000672,56.63912500096
1.45e-08,24.248999988479998,1.906237506624,56.57662499712
1.5000000000000002e-08,24.264624989439998,1.9093625068159998,56.4672499904
1.55e-08,24.264624989439998,1.9124875070079999,56.3891249856
1.6e-08,24.311499992319998,1.9109250069119998,56.42037498752
1.6500000000000002e-08,24.37399999616,1.9093625068159998,56.48287499136
1.7e-08,24.42087499904,1.90780000672,56.5453749952
1.75e-08,24.42087499904,1.904675006528,56.52974999424
1.8000000000000002e-08,24.42087499904,1.903112506432,56.51412499328
1.85e-08,24.3583749952,1.901550006336,56.57662499712
1.9e-08,24.311499992319998,1.901550006336,56.7016250048
1.9500000000000003e-08,24.327124993279998,1.901550006336,56.76412500864
2e-08,24.295874991359998,1.903112506432,56.74850000768
2.05e-08,24.233374987519998,1.904675006528,56.65475000192
2.1000000000000003e-08,24.202124985599998,1.90780000672,56.59224999808
2.15e-08,24.248999988479998,1.90780000672,56.51412499328
2.2000000000000002e-08,24.327124993279998,1.90780000672,56.49849999232
2.2500000000000003e-08,24.37399999616,1.906237506624,56.48287499136
2.3e-08,24.40524999808,1.90780000672,56.43599998848
2.3500000000000002e-08,24.40524999808,1.9109250069119998,56.43599998848
2.4000000000000003e-08,24.42087499904,1.9093625068159998,56.48287499136
2.45e-08,24.34274999424,1.906237506624,56.5453749952
2.5000000000000002e-08,24.34274999424,1.904675006528,56.67037500288
2.55e-08,24.37399999616,1.901550006336,56.73287500672
2.6e-08,24.34274999424,1.901550006336,56.73287500672
2.6500000000000002e-08,24.280249990399998,1.903112506432,56.74850000768
2.7e-08,24.186499984639998,1.903112506432,56.76412500864
2.75e-08,24.123999980799997,1.904675006528,56.73287500672
2.8000000000000003e-08,24.202124985599998,1.90780000672,56.7016250048
2.85e-08,24.40524999808,1.9124875070079999,56.60787499904
2.9e-08,24.49900000384,1.9109250069119998,56.57662499712
2.9500000000000003e-08,24.45212500096,1.90780000672,56.5453749952
3.0000000000000004e-08,24.37399999616,1.904675006528,56.5453749952
3.05e-08,24.311499992319998,1.906237506624,56.56099999616
3.1e-08,24.327124993279998,1.906237506624,56.57662499712
3.1500000000000004e-08,24.40524999808,1.9093625068159998,56.60787499904
3.2e-08,24.4365,1.906237506624,56.63912500096
3.25e-08,24.327124993279998,1.903112506432,56.67037500288
3.3000000000000004e-08,24.233374987519998,1.904675006528,56.7797500096
3.35e-08,24.155249982719997,1.90780000672,56.81100001152
3.4e-08,24.108374979839997,1.90780000672,56.74850000768
3.4500000000000005e-08,24.170874983679997,1.9093625068159998,56.68600000384
3.5e-08,24.248999988479998,1.9109250069119998,56.67037500288
3.55e-08,24.264624989439998,1.9093625068159998,56.67037500288
3.6000000000000005e-08,24.295874991359998,1.9093625068159998,56.65475000192
3.65e-08,24.3583749952,1.9109250069119998,56.6235
3.7e-08,24.38962499712,1.9093625068159998,56.57662499712
3.7500000000000005e-08,24.45212500096,1.904675006528,56.51412499328
3.8e-08,24.45212500096,1.906237506624,56.52974999424
3.85e-08,24.4365,1.90780000672,56.59224999808
3.9000000000000005e-08,24.40524999808,1.9093625068159998,56.68600000384
3.95e-08,24.327124993279998,1.9093625068159998,56.7797500096
4e-08,24.38962499712,1.90780000672,56.79537501056
4.0500000000000005e-08,24.3583749952,1.9093625068159998,56.73287500672
4.1e-08,24.264624989439998,1.9156125071999999,56.74850000768
4.15e-08,24.186499984639998,1.9156125071999999,56.7797500096
4.2000000000000006e-08,24.108374979839997,1.9171750072959999,56.74850000768
4.2500000000000003e-08,24.09274997888,1.9140500071039999,56.76412500864
4.3e-08,24.170874983679997,1.9140500071039999,56.73287500672
4.3500000000000006e-08,24.280249990399998,1.9140500071039999,56.6235
4.4000000000000004e-08,24.34274999424,1.9140500071039999,56.59224999808
4.45e-08,24.37399999616,1.9140500071039999,56.59224999808
4.5000000000000006e-08,24.280249990399998,1.9124875070079999,56.65475000192
4.5500000000000004e-08,24.202124985599998,1.90780000672,56.71725000576
4.6e-08,24.233374987519998,1.9093625068159998,56.73287500672
4.6500000000000006e-08,24.34274999424,1.9156125071999999,56.65475000192
4.7000000000000004e-08,24.40524999808,1.920300007488,56.6235
4.75e-08,24.327124993279998,1.9171750072959999,56.7016250048
4.8000000000000006e-08,24.202124985599998,1.9109250069119998,56.7797500096
4.8500000000000004e-08,24.123999980799997,1.90780000672,56.7797500096
4.9e-08,24.155249982719997,1.9124875070079999,56.71725000576
4.95e-08,24.264624989439998,1.9156125071999999,56.57662499712
5.0000000000000004e-08,24.34274999424,1.9140500071039999,56.52974999424
5.05e-08,24.311499992319998,1.9109250069119998,56.60787499904
5.1e-08,24.217749986559998,1.9124875070079999,56.68600000384
5.1500000000000005e-08,24.170874983679997,1.9109250069119998,56.68600000384
5.2e-08,24.202124985599998,1.9140500071039999,56.63912500096
5.25e-08,24.280249990399998,1.9156125071999999,56.60787499904
5.3000000000000005e-08,24.280249990399998,1.9093625068159998,56.71725000576
5.35e-08,24.248999988479998,1.9109250069119998,56.8578750144
5.4e-08,24.202124985599998,1.9171750072959999,56.95162502016
5.4500000000000005e-08,24.202124985599998,1.9187375073919999,56.8578750144
5.5e-08,24.202124985599998,1.9187375073919999,56.73287500672
5.55e-08,24.170874983679997,1.9171750072959999,56.71725000576
5.6000000000000005e-08,24.170874983679997,1.9140500071039999,56.76412500864
5.65e-08,24.202124985599998,1.9124875070079999,56.74850000768
5.7e-08,24.295874991359998,1.920300007488,56.67037500288
5.7500000000000005e-08,24.327124993279998,1.92342500768,56.56099999616
5.8e-08,24.264624989439998,1.924987507776,56.51412499328
5.85e-08,24.170874983679997,1.920300007488,56.6235
5.9000000000000006e-08,24.139624981759997,1.9140500071039999,56.71725000576
5.9500000000000003e-08,24.170874983679997,1.9140500071039999,56.7016250048
6.000000000000001e-08,24.233374987519998,1.9140500071039999,56.7016250048
6.05e-08,24.295874991359998,1.9156125071999999,56.71725000576
6.1e-08,24.217749986559998,1.9171750072959999,56.82662501248
6.15e-08,24.108374979839997,1.9171750072959999,56.92037501824
6.2e-08,24.07712497792,1.9156125071999999,56.98287502208
6.250000000000001e-08,24.123999980799997,1.9156125071999999,56.90475001728
6.300000000000001e-08,24.202124985599998,1.9171750072959999,56.76412500864
6.35e-08,24.217749986559998,1.9187375073919999,56.73287500672
6.4e-08,24.233374987519998,1.9156125071999999,56.76412500864
6.45e-08,24.248999988479998,1.9171750072959999,56.76412500864
6.5e-08,24.280249990399998,1.920300007488,56.73287500672
6.55e-08,24.280249990399998,1.92342500768,56.60787499904
6.600000000000001e-08,24.280249990399998,1.920300007488,56.57662499712
6.65e-08,24.233374987519998,1.9171750072959999,56.67037500288
6.7e-08,24.202124985599998,1.9156125071999999,56.81100001152
6.75e-08,24.202124985599998,1.9156125071999999,56.87350001536
6.8e-08,24.202124985599998,1.9171750072959999,56.87350001536
6.85e-08,24.202124985599998,1.9187375073919999,56.82662501248
6.900000000000001e-08,24.108374979839997,1.9187375073919999,56.82662501248
6.950000000000001e-08,24.06149997696,1.9171750072959999,56.82662501248
7e-08,24.123999980799997,1.921862507584,56.87350001536
7.05e-08,24.202124985599998,1.92342500768,56.79537501056
7.1e-08,24.264624989439998,1.926550007872,56.67037500288
7.15e-08,24.280249990399998,1.926550007872,56.60787499904
7.200000000000001e-08,24.217749986559998,1.92342500768,56.63912500096
7.250000000000001e-08,24.155249982719997,1.920300007488,56.65475000192
7.3e-08,24.217749986559998,1.921862507584,56.73287500672
7.35e-08,24.295874991359998,1.920300007488,56.73287500672
7.4e-08,24.264624989439998,1.920300007488,56.76412500864
7.45e-08,24.170874983679997,1.9171750072959999,56.84225001344
7.500000000000001e-08,24.07712497792,1.9171750072959999,56.90475001728
7.550000000000001e-08,24.03024997504,1.920300007488,56.88912501632
7.6e-08,24.06149997696,1.924987507776,56.84225001344
7.65e-08,24.139624981759997,1.929675008064,56.79537501056
7.7e-08,24.186499984639998,1.926550007872,56.76412500864
7.75e-08,24.186499984639998,1.926550007872,56.73287500672
7.800000000000001e-08,24.217749986559998,1.926550007872,56.73287500672
7.850000000000001e-08,24.248999988479998,1.926550007872,56.7016250048
7.9e-08,24.34274999424,1.928112507968,56.65475000192
7.95e-08,24.34274999424,1.926550007872,56.67037500288
8e-08,24.248999988479998,1.920300007488,56.67037500288
8.05e-08,24.202124985599998,1.921862507584,56.73287500672
8.100000000000001e-08,24.155249982719997,1.928112507968,56.81100001152
8.150000000000001e-08,24.155249982719997,1.929675008064,56.82662501248
8.2e-08,24.123999980799997,1.926550007872,56.82662501248
8.25e-08,24.06149997696,1.926550007872,56.84225001344
8.3e-08,24.045874976,1.926550007872,56.82662501248
8.35e-08,24.123999980799997,1.929675008064,56.7797500096
8.400000000000001e-08,24.233374987519998,1.932800008256,56.76412500864
8.450000000000001e-08,24.295874991359998,1.932800008256,56.76412500864
8.500000000000001e-08,24.280249990399998,1.928112507968,56.74850000768
8.55e-08,24.186499984639998,1.924987507776,56.71725000576
8.6e-08,24.170874983679997,1.928112507968,56.74850000768
8.65e-08,24.233374987519998,1.929675008064,56.73287500672
8.700000000000001e-08,24.295874991359998,1.928112507968,56.71725000576
8.750000000000001e-08,24.248999988479998,1.924987507776,56.7016250048
8.800000000000001e-08,24.170874983679997,1.926550007872,56.71725000576
8.85e-08,24.108374979839997,1.928112507968,56.74850000768
8.9e-08,24.139624981759997,1.929675008064,56.82662501248
8.95e-08,24.233374987519998,1.929675008064,56.81100001152
9.000000000000001e-08,24.295874991359998,1.929675008064,56.76412500864
9.050000000000001e-08,24.248999988479998,1.928112507968,56.79537501056
9.100000000000001e-08,24.202124985599998,1.928112507968,56.81100001152
9.15e-08,24.186499984639998,1.928112507968,56.81100001152
9.2e-08,24.170874983679997,1.928112507968,56.82662501248
9.25e-08,24.186499984639998,1.929675008064,56.82662501248
9.300000000000001e-08,24.170874983679997,1.93123750816,56.84225001344
9.350000000000001e-08,24.09274997888,1.932800008256,56.79537501056
9.400000000000001e-08,24.06149997696,1.934362508352,56.82662501248
9.45e-08,24.108374979839997,1.934362508352,56.81100001152
9.5e-08,24.202124985599998,1.932800008256,56.79537501056
9.55e-08,24.202124985599998,1.932800008256,56.7797500096
9.600000000000001e-08,24.202124985599998,1.929675008064,56.76412500864
9.650000000000001e-08,24.186499984639998,1.928112507968,56.79537501056
9.700000000000001e-08,24.248999988479998,1.929675008064,56.8578750144
9.75e-08,24.327124993279998,1.929675008064,56.82662501248
9.8e-08,24.34274999424,1.924987507776,56.7797500096
9.85e-08,24.264624989439998,1.924987507776,56.7797500096
9.9e-08,24.233374987519998,1.928112507968,56.79537501056
9.950000000000001e-08,24.248999988479998,1.929675008064,56.79537501056
1.0000000000000001e-07,24.202124985599998,1.93123750816,56.76412500864
1.005e-07,24.202124985599998,1.929675008064,56.74850000768
1.01e-07,24.186499984639998,1.928112507968,56.7797500096
1.015e-07,24.108374979839997,1.928112507968,56.7797500096
1.02e-07,24.07712497792,1.928112507968,56.81100001152
1.0250000000000001e-07,24.123999980799997,1.928112507968,56.79537501056
1.0300000000000001e-07,24.186499984639998,1.928112507968,56.7797500096
1.0350000000000001e-07,24.155249982719997,1.928112507968,56.79537501056
1.04e-07,24.170874983679997,1.928112507968,56.79537501056
1.045e-07,24.202124985599998,1.926550007872,56.7797500096
1.05e-07,24.202124985599998,1.928112507968,56.81100001152
1.0550000000000001e-07,24.217749986559998,1.926550007872,56.76412500864
1.0600000000000001e-07,24.217749986559998,1.926550007872,56.7016250048
1.0650000000000001e-07,24.217749986559998,1.926550007872,56.7016250048
1.07e-07,24.248999988479998,1.928112507968,56.68600000384
1.075e-07,24.295874991359998,1.93123750816,56.67037500288
1.08e-07,24.280249990399998,1.929675008064,56.71725000576
1.0850000000000001e-07,24.233374987519998,1.926550007872,56.7016250048
1.0900000000000001e-07,24.170874983679997,1.92342500768,56.7016250048
1.0950000000000001e-07,24.170874983679997,1.924987507776,56.67037500288
1.1e-07,24.202124985599998,1.926550007872,56.71725000576
1.105e-07,24.217749986559998,1.926550007872,56.74850000768
1.11e-07,24.202124985599998,1.924987507776,56.7797500096
1.1150000000000001e-07,24.123999980799997,1.92342500768,56.79537501056
1.1200000000000001e-07,24.108374979839997,1.920300007488,56.79537501056
1.1250000000000001e-07,24.186499984639998,1.92342500768,56.74850000768
1.13e-07,24.295874991359998,1.93123750816,56.73287500672
1.135e-07,24.295874991359998,1.93123750816,56.74850000768
1.14e-07,24.264624989439998,1.928112507968,56.74850000768
1.1450000000000001e-07,24.233374987519998,1.92342500768,56.76412500864
1.1500000000000001e-07,24.280249990399998,1.926550007872,56.73287500672
1.1550000000000001e-07,24.3583749952,1.929675008064,56.67037500288
1.16e-07,24.34274999424,1.929675008064,56.67037500288
1.165e-07,24.233374987519998,1.926550007872,56.7016250048
1.17e-07,24.123999980799997,1.924987507776,56.7797500096
1.1750000000000001e-07,24.155249982719997,1.926550007872,56.71725000576
1.1800000000000001e-07,24.233374987519998,1.93123750816,56.67037500288
1.1850000000000001e-07,24.280249990399998,1.932800008256,56.6235
1.1900000000000001e-07,24.264624989439998,1.929675008064,56.65475000192
1.195e-07,24.139624981759997,1.926550007872,56.71725000576
1.2000000000000002e-07,24.108374979839997,1.92342500768,56.76412500864
1.205e-07,24.155249982719997,1.924987507776,56.74850000768
1.21e-07,24.264624989439998,1.929675008064,56.7016250048
1.215e-07,24.327124993279998,1.929675008064,56.67037500288
1.22e-07,24.327124993279998,1.924987507776,56.73287500672
1.2250000000000002e-07,24.264624989439998,1.9156125071999999,56.7797500096
1.23e-07,24.233374987519998,1.9187375073919999,56.7797500096
1.2350000000000001e-07,24.295874991359998,1.92342500768,56.7016250048
1.24e-07,24.295874991359998,1.924987507776,56.65475000192
1.245e-07,24.248999988479998,1.924987507776,56.67037500288
1.2500000000000002e-07,24.186499984639998,1.92342500768,56.7797500096
1.255e-07,24.202124985599998,1.926550007872,56.79537501056
1.2600000000000002e-07,24.248999988479998,1.93123750816,56.74850000768
1.265e-07,24.264624989439998,1.929675008064,56.67037500288
1.27e-07,24.264624989439998,1.92342500768,56.67037500288
1.275e-07,24.170874983679997,1.92342500768,56.7016250048
1.28e-07,24.170874983679997,1.924987507776,56.74850000768
1.2850000000000002e-07,24.217749986559998,1.924987507776,56.73287500672
1.29e-07,24.311499992319998,1.928112507968,56.7016250048
1.2950000000000001e-07,24.34274999424,1.926550007872,56.65475000192
1.3e-07,24.327124993279998,1.92342500768,56.65475000192
1.305e-07,24.280249990399998,1.920300007488,56.71725000576
1.31e-07,24.233374987519998,1.920300007488,56.79537501056
1.315e-07,24.264624989439998,1.92342500768,56.76412500864
1.3200000000000002e-07,24.264624989439998,1.924987507776,56.71725000576
1.325e-07,24.264624989439998,1.92342500768,56.7016250048
1.33e-07,24.202124985599998,1.920300007488,56.76412500864
1.335e-07,24.202124985599998,1.9171750072959999,56.76412500864
1.34e-07,24.248999988479998,1.9187375073919999,56.73287500672
1.3450000000000002e-07,24.295874991359998,1.9171750072959999,56.67037500288
1.35e-07,24.34274999424,1.9171750072959999,56.6235
1.3550000000000002e-07,24.295874991359998,1.9156125071999999,56.63912500096
1.36e-07,24.280249990399998,1.9124875070079999,56.71725000576
1.365e-07,24.3583749952,1.9140500071039999,56.74850000768
1.37e-07,24.40524999808,1.9187375073919999,56.74850000768
1.375e-07,24.37399999616,1.9187375073919999,56.71725000576
1.3800000000000002e-07,24.34274999424,1.9187375073919999,56.71725000576
1.385e-07,24.280249990399998,1.9156125071999999,56.74850000768
1.3900000000000001e-07,24.202124985599998,1.9187375073919999,56.79537501056
1.395e-07,24.217749986559998,1.9171750072959999,56.76412500864
1.4e-07,24.233374987519998,1.9171750072959999,56.71725000576
1.4050000000000002e-07,24.233374987519998,1.9156125071999999,56.63912500096
1.41e-07,24.186499984639998,1.9140500071039999,56.6235
1.4150000000000002e-07,24.170874983679997,1.9140500071039999,56.57662499712
1.42e-07,24.202124985599998,1.9140500071039999,56.57662499712
1.425e-07,24.264624989439998,1.9124875070079999,56.56099999616
1.43e-07,24.34274999424,1.9140500071039999,56.57662499712
1.435e-07,24.327124993279998,1.9156125071999999,56.57662499712
1.4400000000000002e-07,24.280249990399998,1.9171750072959999,56.60787499904
1.445e-07,24.280249990399998,1.9140500071039999,56.67037500288
1.4500000000000001e-07,24.295874991359998,1.9140500071039999,56.73287500672
1.455e-07,24.311499992319998,1.9124875070079999,56.74850000768
1.46e-07,24.327124993279998,1.9093625068159998,56.7016250048
1.4650000000000002e-07,24.264624989439998,1.90780000672,56.67037500288
1.47e-07,24.186499984639998,1.9093625068159998,56.65475000192
1.4750000000000002e-07,24.170874983679997,1.9093625068159998,56.65475000192
1.48e-07,24.170874983679997,1.9093625068159998,56.65475000192
1.485e-07,24.233374987519998,1.90780000672,56.56099999616
1.49e-07,24.264624989439998,1.90780000672,56.48287499136
1.495e-07,24.295874991359998,1.9093625068159998,56.42037498752
1.5000000000000002e-07,24.295874991359998,1.9140500071039999,56.48287499136
1.505e-07,24.34274999424,1.9124875070079999,56.57662499712
1.5100000000000002e-07,24.37399999616,1.9124875070079999,56.6235
1.515e-07,24.327124993279998,1.9124875070079999,56.6235
1.52e-07,24.295874991359998,1.9109250069119998,56.6235
1.5250000000000002e-07,24.248999988479998,1.9093625068159998,56.6235
1.53e-07,24.233374987519998,1.9109250069119998,56.68600000384
1.5350000000000002e-07,24.264624989439998,1.9124875070079999,56.7016250048
1.54e-07,24.264624989439998,1.9109250069119998,56.63912500096
1.5450000000000001e-07,24.202124985599998,1.9109250069119998,56.5453749952
1.55e-07,24.139624981759997,1.9109250069119998,56.45162498944
1.555e-07,24.170874983679997,1.9140500071039999,56.43599998848
1.5600000000000002e-07,24.248999988479998,1.9124875070079999,56.45162498944
1.565e-07,24.34274999424,1.9109250069119998,56.42037498752
