Time (s),VIN,IIN,VOUT
0.0,25.34674993856,1.476125004224,41.6925
5e-10,25.3311249376,1.4855000048,41.79249998976
1e-09,25.39362494144,1.488625004992,41.848749984
1.5000000000000002e-09,25.50299994816,1.482375004608,41.836249985280006
2e-09,25.69049995968,1.471437503936,41.767499992320005
2.5e-09,25.86237497024,1.458937503168,41.62375000704
3.0000000000000004e-09,25.987374977920002,1.4464375024,41.46125002368
3.5000000000000003e-09,25.97174997696,1.437062501824,41.30500003968
4e-09,25.7998749664,1.437062501824,41.19875005056
4.500000000000001e-09,25.62799995584,1.441750002112,41.19875005056
5e-09,25.4873749472,1.449562502592,41.280000042240005
5.5000000000000004e-09,25.36237493952,1.46206250336,41.43625002624
6.000000000000001e-09,25.299874935680002,1.474562504128,41.6300000064
6.5e-09,25.36237493952,1.4855000048,41.81124998784
7.000000000000001e-09,25.4873749472,1.483937504704,41.94874997376
7.500000000000001e-09,25.6436249568,1.480812504512,41.967499971840006
8e-09,25.81549996736,1.473000004032,41.87374998144
8.5e-09,25.90924997312,1.458937503168,41.68625000064
9.000000000000001e-09,25.987374977920002,1.451125002688,41.505000019200004
9.5e-09,25.89362497216,1.444875002304,41.36125003392
1e-08,25.7217499616,1.443312502208,41.26750004352
1.0500000000000001e-08,25.4873749472,1.444875002304,41.217500048640005
1.1000000000000001e-08,25.26862493376,1.451125002688,41.29875004032
1.15e-08,25.12799992512,1.463625003456,41.46750002304
1.2000000000000002e-08,25.04987492032,1.474562504128,41.6925
1.2500000000000001e-08,25.08112492224,1.480812504512,41.91749997696
1.3e-08,25.2529999328,1.482375004608,42.054999962880004
1.35e-08,25.51862494912,1.47768750432,42.092499959040005
1.4000000000000001e-08,25.7217499616,1.4683125037440001,42.01749996672
1.45e-08,25.89362497216,1.458937503168,41.81124998784
1.5000000000000002e-08,25.987374977920002,1.449562502592,41.542500015360005
1.55e-08,26.00299997888,1.448000002496,41.311250039040004
1.6e-08,25.89362497216,1.449562502592,41.155000055040006
1.6500000000000002e-08,25.61237495488,1.452687502784,41.117500058880005
1.7e-08,25.34674993856,1.457375003072,41.1925000512
1.75e-08,25.12799992512,1.4667500036480001,41.36125003392
1.8000000000000002e-08,25.03424991936,1.47768750432,41.58000001152
1.85e-08,25.08112492224,1.487062504896,41.798749989120004
1.9e-08,25.22174993088,1.487062504896,41.992499969280004
1.9500000000000003e-08,25.45612494528,1.482375004608,42.0987499584
2e-08,25.67487495872,1.471437503936,42.07999996032
2.05e-08,25.8779999712,1.463625003456,41.929999975680005
2.1000000000000003e-08,25.987374977920002,1.455812502976,41.698749999360004
2.15e-08,25.97174997696,1.452687502784,41.46750002304
2.2000000000000002e-08,25.83112496832,1.452687502784,41.33625003648
2.2500000000000003e-08,25.58112495296,1.455812502976,41.286250041600006
2.3e-08,25.3311249376,1.460500003264,41.33625003648
2.3500000000000002e-08,25.15924992704,1.4683125037440001,41.46750002304
2.4000000000000003e-08,25.06549992128,1.47768750432,41.6612500032
2.45e-08,25.06549992128,1.480812504512,41.85499998336
2.5000000000000002e-08,25.174874928,1.482375004608,42.029999965440005
2.55e-08,25.37799994048,1.476125004224,42.123749955840005
2.6e-08,25.54987495104,1.4651875035520001,42.08624995968
2.6500000000000002e-08,25.67487495872,1.458937503168,41.9112499776
2.7e-08,25.78424996544,1.452687502784,41.698749999360004
2.75e-08,25.84674996928,1.449562502592,41.51750001792
2.8000000000000003e-08,25.7998749664,1.448000002496,41.411250028800005
2.85e-08,25.67487495872,1.448000002496,41.348750035200005
2.9e-08,25.53424995008,1.455812502976,41.342500035840004
2.9500000000000003e-08,25.42487494336,1.4651875035520001,41.405000029440004
3.0000000000000004e-08,25.36237493952,1.474562504128,41.58625001088
3.05e-08,25.36237493952,1.479250004416,41.77999999104
3.1e-08,25.37799994048,1.479250004416,41.967499971840006
3.1500000000000004e-08,25.42487494336,1.4698750038400001,42.054999962880004
3.2e-08,25.4873749472,1.4667500036480001,42.01749996672
3.25e-08,25.565499952,1.46206250336,41.892499979520004
3.3000000000000004e-08,25.6436249568,1.458937503168,41.77999999104
3.35e-08,25.65924995776,1.45425000288,41.704999998720005
3.4e-08,25.62799995584,1.451125002688,41.673750001920006
3.4500000000000005e-08,25.59674995392,1.451125002688,41.642500005120006
3.5e-08,25.565499952,1.45425000288,41.642500005120006
3.55e-08,25.565499952,1.460500003264,41.698749999360004
3.6000000000000005e-08,25.58112495296,1.4683125037440001,41.84249998464
3.65e-08,25.6436249568,1.471437503936,42.0362499648
3.7e-08,25.75299996352,1.4698750038400001,42.223749945600005
3.7500000000000005e-08,25.7998749664,1.4651875035520001,42.26749994112
3.8e-08,25.73737496256,1.460500003264,42.17999995008
3.85e-08,25.65924995776,1.45425000288,41.98624996992
3.9000000000000005e-08,25.62799995584,1.4464375024,41.81124998784
3.95e-08,25.62799995584,1.443312502208,41.68625000064
4e-08,25.54987495104,1.443312502208,41.58000001152
4.0500000000000005e-08,25.42487494336,1.4464375024,41.49250002048
4.1e-08,25.4092499424,1.451125002688,41.46125002368
4.15e-08,25.47174994624,1.45425000288,41.52375001728
4.2000000000000006e-08,25.58112495296,1.458937503168,41.673750001920006
4.2500000000000003e-08,25.70612496064,1.458937503168,41.836249985280006
4.3e-08,25.81549996736,1.45425000288,41.967499971840006
4.3500000000000006e-08,25.8779999712,1.451125002688,41.998749968640006
4.4000000000000004e-08,25.84674996928,1.448000002496,41.9424999744
4.45e-08,25.81549996736,1.444875002304,41.836249985280006
4.5000000000000006e-08,25.78424996544,1.444875002304,41.7237499968
4.5500000000000004e-08,25.75299996352,1.4464375024,41.636250005760004
4.6e-08,25.69049995968,1.449562502592,41.56125001344
4.6500000000000006e-08,25.59674995392,1.451125002688,41.49250002048
4.7000000000000004e-08,25.565499952,1.45425000288,41.46125002368
4.75e-08,25.61237495488,1.455812502976,41.51750001792
4.8000000000000006e-08,25.75299996352,1.458937503168,41.673750001920006
4.8500000000000004e-08,25.83112496832,1.458937503168,41.85499998336
4.9e-08,25.86237497024,1.463625003456,42.01124996736
4.95e-08,25.76862496448,1.46206250336,42.08624995968
5.0000000000000004e-08,25.70612496064,1.455812502976,42.129999955200006
5.05e-08,25.7217499616,1.45425000288,42.13624995456
5.1e-08,25.69049995968,1.449562502592,42.11124995712
5.1500000000000005e-08,25.58112495296,1.448000002496,42.0362499648
5.2e-08,25.44049994432,1.449562502592,41.93624997504
5.25e-08,25.44049994432,1.448000002496,41.82374998656
5.3000000000000005e-08,25.4873749472,1.4464375024,41.74249999488
5.35e-08,25.59674995392,1.448000002496,41.704999998720005
5.4e-08,25.65924995776,1.451125002688,41.729999996160004
5.4500000000000005e-08,25.67487495872,1.449562502592,41.767499992320005
5.5e-08,25.62799995584,1.449562502592,41.798749989120004
5.55e-08,25.62799995584,1.451125002688,41.84249998464
5.6000000000000005e-08,25.62799995584,1.452687502784,41.88624998016
5.65e-08,25.6436249568,1.449562502592,41.88624998016
5.7e-08,25.61237495488,1.449562502592,41.861249982720004
5.7500000000000005e-08,25.50299994816,1.451125002688,41.82374998656
5.8e-08,25.4873749472,1.452687502784,41.804999988480006
5.85e-08,25.565499952,1.457375003072,41.7549999936
5.9000000000000006e-08,25.69049995968,1.458937503168,41.736249995520005
5.9500000000000003e-08,25.73737496256,1.46206250336,41.729999996160004
6.000000000000001e-08,25.70612496064,1.463625003456,41.74874999424
6.05e-08,25.7217499616,1.46206250336,41.77374999168
6.1e-08,25.75299996352,1.463625003456,41.798749989120004
6.15e-08,25.73737496256,1.463625003456,41.8174999872
6.2e-08,25.62799995584,1.463625003456,41.848749984
6.250000000000001e-08,25.50299994816,1.460500003264,41.867499982080005
6.300000000000001e-08,25.42487494336,1.458937503168,41.898749978880005
6.35e-08,25.39362494144,1.455812502976,41.9424999744
6.4e-08,25.42487494336,1.455812502976,42.01749996672
6.45e-08,25.47174994624,1.452687502784,42.07999996032
6.5e-08,25.50299994816,1.449562502592,42.14249995392
6.55e-08,25.51862494912,1.449562502592,42.17374995072
6.600000000000001e-08,25.54987495104,1.449562502592,42.186249949440004
6.65e-08,25.59674995392,1.449562502592,42.17999995008
6.7e-08,25.69049995968,1.448000002496,42.161249952000006
6.75e-08,25.69049995968,1.4464375024,42.11124995712
6.8e-08,25.62799995584,1.448000002496,42.054999962880004
6.85e-08,25.54987495104,1.448000002496,41.98624996992
6.900000000000001e-08,25.47174994624,1.448000002496,41.92374997632
6.950000000000001e-08,25.47174994624,1.452687502784,41.85499998336
7e-08,25.45612494528,1.458937503168,41.82374998656
7.05e-08,25.4873749472,1.46206250336,41.804999988480006
7.1e-08,25.51862494912,1.46206250336,41.798749989120004
7.15e-08,25.54987495104,1.460500003264,41.81124998784
7.200000000000001e-08,25.61237495488,1.458937503168,41.82374998656
7.250000000000001e-08,25.67487495872,1.457375003072,41.829999985920004
7.3e-08,25.73737496256,1.458937503168,41.85499998336
7.35e-08,25.75299996352,1.457375003072,41.892499979520004
7.4e-08,25.7217499616,1.457375003072,41.9424999744
7.45e-08,25.65924995776,1.455812502976,41.98624996992
7.500000000000001e-08,25.65924995776,1.455812502976,42.0362499648
7.550000000000001e-08,25.67487495872,1.45425000288,42.0674999616
7.6e-08,25.69049995968,1.45425000288,42.10499995776
7.65e-08,25.70612496064,1.45425000288,42.14249995392
7.7e-08,25.70612496064,1.452687502784,42.161249952000006
7.75e-08,25.70612496064,1.448000002496,42.154999952640004
7.800000000000001e-08,25.7217499616,1.443312502208,42.161249952000006
7.850000000000001e-08,25.76862496448,1.43862500192,42.154999952640004
7.9e-08,25.76862496448,1.441750002112,42.14874995328
7.95e-08,25.69049995968,1.443312502208,42.14874995328
8e-08,25.59674995392,1.443312502208,42.13624995456
8.05e-08,25.50299994816,1.441750002112,42.0987499584
8.100000000000001e-08,25.50299994816,1.448000002496,42.092499959040005
8.150000000000001e-08,25.53424995008,1.451125002688,42.0987499584
8.2e-08,25.54987495104,1.449562502592,42.123749955840005
8.25e-08,25.53424995008,1.449562502592,42.123749955840005
8.3e-08,25.565499952,1.4464375024,42.0987499584
8.35e-08,25.67487495872,1.444875002304,42.0674999616
8.400000000000001e-08,25.78424996544,1.444875002304,42.0362499648
8.450000000000001e-08,25.89362497216,1.441750002112,41.97999997056
8.500000000000001e-08,25.90924997312,1.441750002112,41.898749978880005
8.55e-08,25.89362497216,1.440187502016,41.82374998656
8.6e-08,25.84674996928,1.440187502016,41.7862499904
8.65e-08,25.81549996736,1.443312502208,41.7862499904
8.700000000000001e-08,25.81549996736,1.448000002496,41.829999985920004
8.750000000000001e-08,25.7998749664,1.452687502784,41.92374997632
8.800000000000001e-08,25.7217499616,1.451125002688,42.023749966080004
8.85e-08,25.6436249568,1.449562502592,42.11124995712
8.9e-08,25.67487495872,1.448000002496,42.186249949440004
8.95e-08,25.73737496256,1.4464375024,42.23624994432
9.000000000000001e-08,25.75299996352,1.4464375024,42.26749994112
9.050000000000001e-08,25.73737496256,1.441750002112,42.254999942400005
9.100000000000001e-08,25.70612496064,1.437062501824,42.19874994816
9.15e-08,25.70612496064,1.437062501824,42.10499995776
9.2e-08,25.65924995776,1.440187502016,42.004999968
9.25e-08,25.6436249568,1.441750002112,41.94874997376
9.300000000000001e-08,25.565499952,1.4464375024,41.93624997504
9.350000000000001e-08,25.4873749472,1.449562502592,41.967499971840006
9.400000000000001e-08,25.47174994624,1.452687502784,42.054999962880004
9.45e-08,25.50299994816,1.451125002688,42.129999955200006
9.5e-08,25.54987495104,1.4464375024,42.192499948800005
9.55e-08,25.61237495488,1.4464375024,42.22999994496
9.600000000000001e-08,25.65924995776,1.444875002304,42.24249994368
9.650000000000001e-08,25.67487495872,1.441750002112,42.24874994304
9.700000000000001e-08,25.70612496064,1.440187502016,42.24249994368
9.75e-08,25.70612496064,1.437062501824,42.17374995072
9.8e-08,25.70612496064,1.43862500192,42.061249962240005
9.85e-08,25.6436249568,1.43862500192,41.93624997504
9.9e-08,25.61237495488,1.443312502208,41.861249982720004
9.950000000000001e-08,25.58112495296,1.451125002688,41.84249998464
1.0000000000000001e-07,25.53424995008,1.45425000288,41.8799999808
1.005e-07,25.58112495296,1.45425000288,41.9424999744
1.01e-07,25.61237495488,1.452687502784,42.029999965440005
1.015e-07,25.67487495872,1.449562502592,42.10499995776
1.02e-07,25.69049995968,1.449562502592,42.17999995008
1.0250000000000001e-07,25.67487495872,1.448000002496,42.22999994496
1.0300000000000001e-07,25.6436249568,1.4464375024,42.27374994048
1.0350000000000001e-07,25.6436249568,1.444875002304,42.27374994048
1.04e-07,25.61237495488,1.4464375024,42.223749945600005
1.045e-07,25.47174994624,1.448000002496,42.129999955200006
1.05e-07,25.37799994048,1.448000002496,42.0674999616
1.0550000000000001e-07,25.34674993856,1.448000002496,42.054999962880004
1.0600000000000001e-07,25.39362494144,1.451125002688,42.0987499584
1.0650000000000001e-07,25.47174994624,1.452687502784,42.154999952640004
1.07e-07,25.51862494912,1.449562502592,42.19874994816
1.075e-07,25.53424995008,1.4464375024,42.22999994496
1.08e-07,25.53424995008,1.443312502208,42.24874994304
1.0850000000000001e-07,25.59674995392,1.441750002112,42.26124994176
1.0900000000000001e-07,25.6436249568,1.441750002112,42.23624994432
1.0950000000000001e-07,25.67487495872,1.43862500192,42.16749995136
1.1e-07,25.6436249568,1.440187502016,42.054999962880004
1.105e-07,25.54987495104,1.443312502208,41.92374997632
1.11e-07,25.45612494528,1.448000002496,41.82374998656
1.1150000000000001e-07,25.4092499424,1.451125002688,41.8174999872
1.1200000000000001e-07,25.50299994816,1.455812502976,41.867499982080005
1.1250000000000001e-07,25.58112495296,1.457375003072,41.9112499776
1.13e-07,25.59674995392,1.457375003072,41.97999997056
1.135e-07,25.565499952,1.45425000288,42.0362499648
1.14e-07,25.61237495488,1.451125002688,42.10499995776
1.1450000000000001e-07,25.7217499616,1.448000002496,42.14874995328
1.1500000000000001e-07,25.7998749664,1.444875002304,42.17999995008
1.1550000000000001e-07,25.76862496448,1.443312502208,42.161249952000006
1.16e-07,25.61237495488,1.441750002112,42.08624995968
1.165e-07,25.4873749472,1.443312502208,41.98624996992
1.17e-07,25.44049994432,1.443312502208,41.9112499776
1.1750000000000001e-07,25.4873749472,1.448000002496,41.892499979520004
1.1800000000000001e-07,25.54987495104,1.451125002688,41.9424999744
1.1850000000000001e-07,25.53424995008,1.45425000288,42.01124996736
1.1900000000000001e-07,25.45612494528,1.457375003072,42.07374996096
1.195e-07,25.53424995008,1.455812502976,42.16749995136
1.2000000000000002e-07,25.7217499616,1.449562502592,42.286249939200005
1.205e-07,25.7998749664,1.448000002496,42.36749993088
1.21e-07,25.76862496448,1.444875002304,42.40499992704
1.215e-07,25.62799995584,1.437062501824,42.354999932160005
1.22e-07,25.58112495296,1.43081250144,42.23624994432
1.2250000000000002e-07,25.58112495296,1.43081250144,42.061249962240005
1.23e-07,25.53424995008,1.433937501632,41.848749984
1.2350000000000001e-07,25.53424995008,1.441750002112,41.667500002560004
1.24e-07,25.58112495296,1.4464375024,41.573750012160005
1.245e-07,25.67487495872,1.452687502784,41.542500015360005
1.2500000000000002e-07,25.65924995776,1.458937503168,41.55500001408
1.255e-07,25.62799995584,1.4651875035520001,41.61750000768
1.2600000000000002e-07,25.73737496256,1.46206250336,41.767499992320005
1.265e-07,25.8779999712,1.457375003072,41.95499997312
1.27e-07,25.8779999712,1.4464375024,42.0987499584
1.275e-07,25.73737496256,1.437062501824,42.14874995328
1.28e-07,25.65924995776,1.4276875012480001,42.11749995648
1.2850000000000002e-07,25.69049995968,1.4214375008640001,42.029999965440005
1.29e-07,25.73737496256,1.4245625010560001,41.92374997632
1.2950000000000001e-07,25.67487495872,1.4292500013440002,41.79249998976
1.3e-07,25.58112495296,1.441750002112,41.6612500032
1.305e-07,25.58112495296,1.45425000288,41.55500001408
1.31e-07,25.65924995776,1.46206250336,41.542500015360005
1.315e-07,25.75299996352,1.4698750038400001,41.611250008320006
1.3200000000000002e-07,25.7217499616,1.474562504128,41.74874999424
1.325e-07,25.62799995584,1.4698750038400001,41.9112499776
1.33e-07,25.565499952,1.458937503168,42.061249962240005
1.335e-07,25.58112495296,1.448000002496,42.16749995136
1.34e-07,25.59674995392,1.437062501824,42.24249994368
1.3450000000000002e-07,25.58112495296,1.4292500013440002,42.23624994432
1.35e-07,25.565499952,1.4276875012480001,42.17999995008
1.3550000000000002e-07,25.53424995008,1.43081250144,42.07999996032
1.36e-07,25.51862494912,1.441750002112,41.961249972480005
1.365e-07,25.51862494912,1.45425000288,41.829999985920004
1.37e-07,25.565499952,1.4667500036480001,41.7237499968
1.375e-07,25.58112495296,1.473000004032,41.6612500032
1.3800000000000002e-07,25.54987495104,1.4698750038400001,41.673750001920006
1.385e-07,25.47174994624,1.463625003456,41.704999998720005
1.3900000000000001e-07,25.51862494912,1.45425000288,41.76124999296
1.395e-07,25.61237495488,1.444875002304,41.84249998464
1.4e-07,25.62799995584,1.43862500192,41.92374997632
1.4050000000000002e-07,25.59674995392,1.43081250144,41.94874997376
1.41e-07,25.50299994816,1.43081250144,41.929999975680005
1.4150000000000002e-07,25.45612494528,1.435500001728,41.8799999808
1.42e-07,25.54987495104,1.444875002304,41.82374998656
1.425e-07,25.61237495488,1.457375003072,41.79249998976
1.43e-07,25.565499952,1.471437503936,41.76124999296
1.435e-07,25.44049994432,1.479250004416,41.71749999744
1.4400000000000002e-07,25.36237493952,1.482375004608,41.68625000064
1.445e-07,25.4092499424,1.47768750432,41.673750001920006
1.4500000000000001e-07,25.50299994816,1.4698750038400001,41.71124999808
1.455e-07,25.51862494912,1.458937503168,41.767499992320005
1.46e-07,25.51862494912,1.448000002496,41.82374998656
1.4650000000000002e-07,25.45612494528,1.444875002304,41.836249985280006
1.47e-07,25.44049994432,1.4464375024,41.85499998336
1.4750000000000002e-07,25.51862494912,1.451125002688,41.85499998336
1.48e-07,25.565499952,1.458937503168,41.867499982080005
1.485e-07,25.54987495104,1.4651875035520001,41.87374998144
1.49e-07,25.45612494528,1.4698750038400001,41.892499979520004
1.495e-07,25.37799994048,1.473000004032,41.90499997824
1.5000000000000002e-07,25.39362494144,1.473000004032,41.91749997696
1.505e-07,25.47174994624,1.4698750038400001,41.898749978880005
1.5100000000000002e-07,25.47174994624,1.458937503168,41.84249998464
1.515e-07,25.39362494144,1.448000002496,41.79249998976
1.52e-07,25.34674993856,1.437062501824,41.71124999808
1.5250000000000002e-07,25.39362494144,1.43081250144,41.642500005120006
1.53e-07,25.50299994816,1.435500001728,41.5987500096
1.5350000000000002e-07,25.565499952,1.444875002304,41.573750012160005
1.54e-07,25.50299994816,1.457375003072,41.605000008960005
1.5450000000000001e-07,25.44049994432,1.4698750038400001,41.642500005120006
1.55e-07,25.47174994624,1.480812504512,41.68000000128
1.555e-07,25.51862494912,1.488625004992,41.698749999360004
1.5600000000000002e-07,25.54987495104,1.490187505088,41.698749999360004
1.565e-07,25.53424995008,1.479250004416,41.65500000384
1.5700000000000002e-07,25.47174994624,1.4667500036480001,41.605000008960005
1.575e-07,25.51862494912,1.452687502784,41.54875001472
1.58e-07,25.565499952,1.443312502208,41.48625002112
1.5850000000000002e-07,25.59674995392,1.441750002112,41.43000002688
1.59e-07,25.53424995008,1.444875002304,41.380000032000005
1.5950000000000002e-07,25.4873749472,1.451125002688,41.39875003008
1.6e-07,25.47174994624,1.463625003456,41.49875001984
1.6050000000000001e-07,25.45612494528,1.47768750432,41.65500000384
1.61e-07,25.4873749472,1.488625004992,41.79249998976
1.615e-07,25.50299994816,1.491750005184,41.87374998144
1.6200000000000002e-07,25.51862494912,1.487062504896,41.90499997824
1.625e-07,25.58112495296,1.47768750432,41.892499979520004
1.6300000000000002e-07,25.67487495872,1.46206250336,41.848749984
1.635e-07,25.76862496448,1.448000002496,41.76124999296
1.64e-07,25.76862496448,1.437062501824,41.65500000384
1.645e-07,25.69049995968,1.43081250144,41.542500015360005
