Time (s),VIN,IIN,VOUT,IOUT
0.0,25.68762501248,1.600487512192,43.86387498176,0.6678374912639999
5e-10,25.93762502784,1.600487512192,43.86387498176,0.664712491072
1e-09,26.1095000384,1.600487512192,43.8482499808,0.666274991168
1.5000000000000002e-09,26.0313750336,1.600487512192,43.86387498176,0.666274991168
2e-09,25.89075002496,1.600487512192,43.87949998272,0.672524991552
2.5e-09,25.90637502592,1.600487512192,43.8482499808,0.67721249184
3.0000000000000004e-09,25.89075002496,1.600487512192,43.83262497984,0.678774991936
3.5000000000000003e-09,25.781375018240002,1.600487512192,43.80137497792,0.681899992128
4e-09,25.781375018240002,1.600487512192,43.80137497792,0.683462492224
4.500000000000001e-09,25.84387502208,1.600487512192,43.78574997696,0.681899992128
5e-09,25.765750017280002,1.600487512192,43.78574997696,0.678774991936
5.5000000000000004e-09,25.62512500864,1.600487512192,43.770124976,0.678774991936
6.000000000000001e-09,25.59387500672,1.600487512192,43.78574997696,0.680337492032
6.5e-09,25.734500015360002,1.600487512192,43.86387498176,0.681899992128
7.000000000000001e-09,25.84387502208,1.600487512192,43.91074998464,0.68502499232
7.500000000000001e-09,25.82825002112,1.600487512192,43.89512498368,0.688149992512
8e-09,25.875125024,1.600487512192,43.87949998272,0.689712492608
8.5e-09,26.01575003264,1.600487512192,43.91074998464,0.697524993088
9.000000000000001e-09,26.07825003648,1.600487512192,43.9263749856,0.702212493376
9.5e-09,26.06262503552,1.600487512192,43.87949998272,0.70064999328
1e-08,25.92200002688,1.600487512192,43.83262497984,0.697524993088
1.0500000000000001e-08,25.68762501248,1.600487512192,43.75449997504,0.694399992896
1.1000000000000001e-08,25.51575000192,1.600487512192,43.70762497216,0.689712492608
1.15e-08,25.57825000576,1.600487512192,43.67637497024,0.68502499232
1.2000000000000002e-08,25.718875014400002,1.600487512192,43.73887497408,0.680337492032
1.2500000000000001e-08,25.797000019200002,1.600487512192,43.83262497984,0.678774991936
1.3e-08,25.84387502208,1.600487512192,43.95762498752,0.678774991936
1.35e-08,25.797000019200002,1.600487512192,43.97324998848,0.681899992128
1.4000000000000001e-08,25.734500015360002,1.600487512192,43.91074998464,0.681899992128
1.45e-08,25.765750017280002,1.600487512192,43.8482499808,0.681899992128
1.5000000000000002e-08,25.82825002112,1.600487512192,43.8482499808,0.681899992128
1.55e-08,25.812625020160002,1.600487512192,43.78574997696,0.686587492416
1.6e-08,25.718875014400002,1.600487512192,43.73887497408,0.686587492416
1.6500000000000002e-08,25.62512500864,1.600487512192,43.72324997312,0.686587492416
1.7e-08,25.67200001152,1.600487512192,43.78574997696,0.681899992128
1.75e-08,25.90637502592,1.600487512192,43.91074998464,0.680337492032
1.8000000000000002e-08,25.96887502976,1.600487512192,44.02012499136,0.683462492224
1.85e-08,25.84387502208,1.600487512192,44.0826249952,0.688149992512
1.9e-08,25.718875014400002,1.600487512192,44.11387499712,0.689712492608
1.9500000000000003e-08,25.82825002112,1.600487512192,44.03574999232,0.689712492608
2e-08,25.92200002688,1.600487512192,43.94199998656,0.689712492608
2.05e-08,25.85950002304,1.600487512192,43.91074998464,0.689712492608
2.1000000000000003e-08,25.765750017280002,1.600487512192,43.89512498368,0.689712492608
2.15e-08,25.750125016320002,1.600487512192,43.83262497984,0.68502499232
2.2000000000000002e-08,25.82825002112,1.600487512192,43.75449997504,0.681899992128
2.2500000000000003e-08,25.797000019200002,1.600487512192,43.6919999712,0.67721249184
2.3e-08,25.750125016320002,1.600487512192,43.73887497408,0.674087491648
2.3500000000000002e-08,25.750125016320002,1.600487512192,43.8482499808,0.67721249184
2.4000000000000003e-08,25.718875014400002,1.600487512192,43.86387498176,0.680337492032
2.45e-08,25.59387500672,1.600487512192,43.78574997696,0.68502499232
2.5000000000000002e-08,25.718875014400002,1.600487512192,43.72324997312,0.689712492608
2.55e-08,26.15637504128,1.600487512192,43.80137497792,0.688149992512
2.6e-08,26.35950005376,1.600487512192,43.98887498944,0.6912749927040001
2.6500000000000002e-08,26.07825003648,1.600487512192,44.11387499712,0.6928374928
2.7e-08,25.750125016320002,1.600487512192,44.09824999616,0.694399992896
2.75e-08,25.765750017280002,1.600487512192,43.9263749856,0.6912749927040001
2.8000000000000003e-08,25.875125024,1.600487512192,43.83262497984,0.6912749927040001
2.85e-08,25.82825002112,1.600487512192,43.81699997888,0.688149992512
2.9e-08,25.6407500096,1.600487512192,43.83262497984,0.688149992512
2.9500000000000003e-08,25.42199999616,1.600487512192,43.8482499808,0.689712492608
3.0000000000000004e-08,25.34387499136,1.600487512192,43.8482499808,0.694399992896
3.05e-08,25.39074999424,1.600487512192,43.8482499808,0.697524993088
3.1e-08,25.53137500288,1.600487512192,43.91074998464,0.70064999328
3.1500000000000004e-08,25.734500015360002,1.600487512192,44.02012499136,0.703774993472
3.2e-08,26.00012503168,1.600487512192,44.0826249952,0.705337493568
3.25e-08,26.14075004032,1.600487512192,44.05137499328,0.703774993472
3.3000000000000004e-08,26.17200004224,1.600487512192,43.8482499808,0.70064999328
3.35e-08,26.31262505088,1.600487512192,43.6919999712,0.6928374928
3.4e-08,26.3438750528,1.600487512192,43.73887497408,0.688149992512
3.4500000000000005e-08,26.06262503552,1.600487512192,43.8482499808,0.686587492416
3.5e-08,25.68762501248,1.600487512192,43.86387498176,0.681899992128
3.55e-08,25.59387500672,1.600487512192,43.72324997312,0.67721249184
3.6000000000000005e-08,25.67200001152,1.600487512192,43.64512496832,0.680337492032
3.65e-08,25.67200001152,1.600487512192,43.67637497024,0.683462492224
3.7e-08,25.62512500864,1.600487512192,43.81699997888,0.6928374928
3.7500000000000005e-08,25.60950000768,1.600487512192,43.94199998656,0.705337493568
3.8e-08,25.67200001152,1.600487512192,44.0044999904,0.713149994048
3.85e-08,25.85950002304,1.600487512192,44.0826249952,0.713149994048
3.9000000000000005e-08,26.15637504128,1.600487512192,44.20762500288,0.706899993664
3.95e-08,26.40637505664,1.600487512192,44.28575000768,0.697524993088
4e-08,26.28137504896,1.600487512192,44.27012500672,0.689712492608
4.0500000000000005e-08,25.89075002496,1.600487512192,44.17637500096,0.678774991936
4.1e-08,25.6407500096,1.600487512192,44.03574999232,0.66939999136
4.15e-08,25.51575000192,1.600487512192,43.8482499808,0.664712491072
4.2000000000000006e-08,25.35949999232,1.600487512192,43.6919999712,0.66939999136
4.2500000000000003e-08,25.21887498368,1.600487512192,43.55137496256,0.680337492032
4.3e-08,25.20324998272,1.600487512192,43.55137496256,0.6912749927040001
4.3500000000000006e-08,25.39074999424,1.600487512192,43.59824996544,0.70064999328
4.4000000000000004e-08,25.718875014400002,1.600487512192,43.73887497408,0.703774993472
4.45e-08,26.0313750336,1.600487512192,43.87949998272,0.70064999328
4.5000000000000006e-08,26.3438750528,1.600487512192,44.05137499328,0.6928374928
4.5500000000000004e-08,26.500125062400002,1.600487512192,44.14512499904,0.680337492032
4.6e-08,26.3438750528,1.600487512192,44.16075,0.66939999136
4.6500000000000006e-08,26.06262503552,1.600487512192,44.0826249952,0.663149990976
4.7000000000000004e-08,25.85950002304,1.600487512192,43.97324998848,0.658462490688
4.75e-08,25.65637501056,1.600487512192,43.8482499808,0.664712491072
4.8000000000000006e-08,25.34387499136,1.600487512192,43.67637497024,0.67721249184
4.8500000000000004e-08,25.00012497024,1.600487512192,43.56699996352,0.694399992896
4.9e-08,25.00012497024,1.600487512192,43.55137496256,0.710024993856
4.95e-08,25.34387499136,1.600487512192,43.64512496832,0.719399994432
5.0000000000000004e-08,25.60950000768,1.600487512192,43.80137497792,0.725649994816
5.05e-08,25.750125016320002,1.600487512192,43.91074998464,0.72408749472
5.1e-08,26.01575003264,1.600487512192,44.03574999232,0.71627499424
5.1500000000000005e-08,26.31262505088,1.600487512192,44.09824999616,0.70064999328
5.2e-08,26.437625058560002,1.600487512192,44.12949999808,0.678774991936
5.25e-08,26.35950005376,1.600487512192,44.0826249952,0.664712491072
5.3000000000000005e-08,26.17200004224,1.600487512192,44.0044999904,0.656899990592
5.35e-08,25.84387502208,1.600487512192,43.87949998272,0.660024990784
5.4e-08,25.43762499712,1.600487512192,43.770124976,0.672524991552
5.4500000000000005e-08,25.125124977920002,1.600487512192,43.70762497216,0.688149992512
5.5e-08,25.046999973120002,1.600487512192,43.6919999712,0.703774993472
5.55e-08,25.15637497984,1.600487512192,43.73887497408,0.722524994624
5.6000000000000005e-08,25.29699998848,1.600487512192,43.75449997504,0.733462495296
5.65e-08,25.51575000192,1.600487512192,43.72324997312,0.7318999952
5.7e-08,25.85950002304,1.600487512192,43.72324997312,0.717837494336
5.7500000000000005e-08,26.20325004416,1.600487512192,43.73887497408,0.694399992896
5.8e-08,26.3438750528,1.600487512192,43.81699997888,0.675649991744
5.85e-08,26.23450004608,1.600487512192,43.86387498176,0.658462490688
5.9000000000000006e-08,26.07825003648,1.600487512192,43.91074998464,0.650649990208
5.9500000000000003e-08,25.90637502592,1.600487512192,43.89512498368,0.6537749904
6.000000000000001e-08,25.70325001344,1.600487512192,43.94199998656,0.666274991168
6.05e-08,25.53137500288,1.600487512192,44.03574999232,0.68502499232
6.1e-08,25.4063749952,1.600487512192,44.11387499712,0.703774993472
6.15e-08,25.21887498368,1.600487512192,44.11387499712,0.720962494528
6.2e-08,25.21887498368,1.600487512192,44.05137499328,0.72408749472
6.250000000000001e-08,25.54700000384,1.600487512192,43.97324998848,0.714712494144
6.300000000000001e-08,25.98450003072,1.600487512192,43.91074998464,0.695962492992
6.35e-08,26.23450004608,1.600487512192,43.81699997888,0.675649991744
6.4e-08,26.29700004992,1.600487512192,43.66074996928,0.656899990592
6.45e-08,26.28137504896,1.600487512192,43.56699996352,0.642837489728
6.5e-08,26.17200004224,1.600487512192,43.56699996352,0.639712489536
6.55e-08,25.93762502784,1.600487512192,43.6138749664,0.644399989824
6.600000000000001e-08,25.68762501248,1.600487512192,43.70762497216,0.663149990976
6.65e-08,25.51575000192,1.600487512192,43.81699997888,0.688149992512
6.7e-08,25.37512499328,1.600487512192,43.97324998848,0.7115874939519999
6.75e-08,25.3282499904,1.600487512192,44.0826249952,0.730337495104
6.8e-08,25.45324999808,1.600487512192,44.16075,0.738149995584
6.85e-08,25.70325001344,1.600487512192,44.11387499712,0.733462495296
6.900000000000001e-08,25.89075002496,1.600487512192,44.02012499136,0.72408749472
6.950000000000001e-08,25.92200002688,1.600487512192,43.8482499808,0.706899993664
7e-08,25.96887502976,1.600487512192,43.66074996928,0.689712492608
7.05e-08,26.04700003456,1.600487512192,43.55137496256,0.672524991552
7.1e-08,26.07825003648,1.600487512192,43.55137496256,0.664712491072
7.15e-08,25.875125024,1.600487512192,43.62949996736,0.6678374912639999
7.200000000000001e-08,25.6407500096,1.600487512192,43.770124976,0.681899992128
7.250000000000001e-08,25.50012500096,1.600487512192,44.0044999904,0.702212493376
7.3e-08,25.45324999808,1.600487512192,44.20762500288,0.722524994624
7.35e-08,25.53137500288,1.600487512192,44.33262501056,0.730337495104
7.4e-08,25.65637501056,1.600487512192,44.36387501248,0.7318999952
7.45e-08,25.84387502208,1.600487512192,44.2388750048,0.72408749472
7.500000000000001e-08,26.01575003264,1.600487512192,44.09824999616,0.705337493568
7.550000000000001e-08,26.12512503936,1.600487512192,43.87949998272,0.683462492224
7.6e-08,26.25012504704,1.600487512192,43.70762497216,0.664712491072
7.65e-08,26.3438750528,1.600487512192,43.55137496256,0.652212490304
7.7e-08,26.23450004608,1.600487512192,43.457624956800004,0.650649990208
7.75e-08,25.89075002496,1.600487512192,43.457624956800004,0.663149990976
7.800000000000001e-08,25.6407500096,1.600487512192,43.56699996352,0.68502499232
7.850000000000001e-08,25.5626250048,1.600487512192,43.770124976,0.705337493568
7.9e-08,25.51575000192,1.600487512192,44.02012499136,0.720962494528
7.95e-08,25.4063749952,1.600487512192,44.19200000192,0.7318999952
8e-08,25.34387499136,1.600487512192,44.22325000384,0.733462495296
8.05e-08,25.42199999616,1.600487512192,44.20762500288,0.722524994624
8.100000000000001e-08,25.65637501056,1.600487512192,44.14512499904,0.705337493568
8.150000000000001e-08,25.96887502976,1.600487512192,44.05137499328,0.680337492032
8.2e-08,26.1876250432,1.600487512192,43.97324998848,0.658462490688
8.25e-08,26.25012504704,1.600487512192,43.86387498176,0.64596248992
8.3e-08,26.17200004224,1.600487512192,43.80137497792,0.644399989824
8.35e-08,26.04700003456,1.600487512192,43.73887497408,0.656899990592
8.400000000000001e-08,25.93762502784,1.600487512192,43.75449997504,0.675649991744
8.450000000000001e-08,25.797000019200002,1.600487512192,43.78574997696,0.695962492992
8.500000000000001e-08,25.53137500288,1.600487512192,43.81699997888,0.7115874939519999
8.55e-08,25.29699998848,1.600487512192,43.86387498176,0.720962494528
8.6e-08,25.31262498944,1.600487512192,43.9263749856,0.720962494528
8.65e-08,25.59387500672,1.600487512192,43.94199998656,0.70846249376
8.700000000000001e-08,25.89075002496,1.600487512192,43.94199998656,0.6912749927040001
8.750000000000001e-08,26.09387503744,1.600487512192,43.89512498368,0.674087491648
8.800000000000001e-08,26.15637504128,1.600487512192,43.81699997888,0.66158749088
8.85e-08,26.09387503744,1.600487512192,43.78574997696,0.658462490688
8.9e-08,25.92200002688,1.600487512192,43.770124976,0.6678374912639999
8.95e-08,25.765750017280002,1.600487512192,43.78574997696,0.681899992128
9.000000000000001e-08,25.67200001152,1.600487512192,43.86387498176,0.70064999328
9.050000000000001e-08,25.60950000768,1.600487512192,43.9263749856,0.717837494336
9.100000000000001e-08,25.57825000576,1.600487512192,44.03574999232,0.728774995008
9.15e-08,25.6407500096,1.600487512192,44.0826249952,0.733462495296
9.2e-08,25.750125016320002,1.600487512192,44.06699999424,0.725649994816
9.25e-08,25.812625020160002,1.600487512192,43.9263749856,0.70846249376
9.300000000000001e-08,25.82825002112,1.600487512192,43.75449997504,0.686587492416
9.350000000000001e-08,25.84387502208,1.600487512192,43.64512496832,0.670962491456
9.400000000000001e-08,25.92200002688,1.600487512192,43.55137496256,0.66158749088
9.45e-08,26.0313750336,1.600487512192,43.55137496256,0.66158749088
9.5e-08,26.09387503744,1.600487512192,43.62949996736,0.666274991168
9.55e-08,26.00012503168,1.600487512192,43.73887497408,0.675649991744
9.600000000000001e-08,25.797000019200002,1.600487512192,43.86387498176,0.688149992512
9.650000000000001e-08,25.57825000576,1.600487512192,44.03574999232,0.70064999328
9.700000000000001e-08,25.45324999808,1.600487512192,44.12949999808,0.710024993856
9.75e-08,25.4063749952,1.600487512192,44.12949999808,0.706899993664
9.8e-08,25.45324999808,1.600487512192,44.0826249952,0.70064999328
9.85e-08,25.57825000576,1.600487512192,44.0044999904,0.6928374928
9.9e-08,25.718875014400002,1.600487512192,43.9263749856,0.68502499232
9.950000000000001e-08,25.875125024,1.600487512192,43.8482499808,0.678774991936
1.0000000000000001e-07,26.04700003456,1.600487512192,43.83262497984,0.67721249184
1.005e-07,26.12512503936,1.600487512192,43.80137497792,0.67721249184
1.01e-07,26.09387503744,1.600487512192,43.81699997888,0.681899992128
1.015e-07,25.98450003072,1.600487512192,43.8482499808,0.68502499232
1.02e-07,25.875125024,1.600487512192,43.8482499808,0.6912749927040001
1.0250000000000001e-07,25.812625020160002,1.600487512192,43.87949998272,0.699087493184
1.0300000000000001e-07,25.812625020160002,1.600487512192,43.87949998272,0.699087493184
1.0350000000000001e-07,25.750125016320002,1.600487512192,43.81699997888,0.697524993088
1.04e-07,25.6407500096,1.600487512192,43.75449997504,0.689712492608
1.045e-07,25.54700000384,1.600487512192,43.72324997312,0.680337492032
1.05e-07,25.57825000576,1.600487512192,43.72324997312,0.678774991936
1.0550000000000001e-07,25.750125016320002,1.600487512192,43.75449997504,0.674087491648
1.0600000000000001e-07,25.98450003072,1.600487512192,43.81699997888,0.672524991552
1.0650000000000001e-07,26.12512503936,1.600487512192,43.87949998272,0.675649991744
1.07e-07,26.14075004032,1.600487512192,43.94199998656,0.683462492224
1.075e-07,26.1095000384,1.600487512192,43.94199998656,0.6928374928
1.08e-07,26.01575003264,1.600487512192,43.89512498368,0.697524993088
1.0850000000000001e-07,25.875125024,1.600487512192,43.78574997696,0.699087493184
1.0900000000000001e-07,25.750125016320002,1.600487512192,43.70762497216,0.697524993088
1.0950000000000001e-07,25.65637501056,1.600487512192,43.66074996928,0.6912749927040001
1.1e-07,25.65637501056,1.600487512192,43.62949996736,0.68502499232
1.105e-07,25.750125016320002,1.600487512192,43.66074996928,0.675649991744
1.11e-07,25.85950002304,1.600487512192,43.770124976,0.66939999136
1.1150000000000001e-07,25.89075002496,1.600487512192,43.91074998464,0.66939999136
1.1200000000000001e-07,25.84387502208,1.600487512192,43.98887498944,0.675649991744
1.1250000000000001e-07,25.718875014400002,1.600487512192,44.05137499328,0.688149992512
1.13e-07,25.6407500096,1.600487512192,44.06699999424,0.702212493376
1.135e-07,25.70325001344,1.600487512192,44.02012499136,0.70846249376
1.14e-07,25.797000019200002,1.600487512192,43.94199998656,0.7115874939519999
1.1450000000000001e-07,25.93762502784,1.600487512192,43.8482499808,0.70846249376
1.1500000000000001e-07,26.06262503552,1.600487512192,43.75449997504,0.699087493184
1.1550000000000001e-07,26.1095000384,1.600487512192,43.64512496832,0.68502499232
1.16e-07,26.06262503552,1.600487512192,43.59824996544,0.66939999136
1.165e-07,26.01575003264,1.600487512192,43.52012496064,0.66158749088
1.17e-07,26.01575003264,1.600487512192,43.52012496064,0.655337490496
1.1750000000000001e-07,26.00012503168,1.600487512192,43.52012496064,0.656899990592
1.1800000000000001e-07,25.96887502976,1.600487512192,43.56699996352,0.66939999136
1.1850000000000001e-07,25.90637502592,1.600487512192,43.67637497024,0.686587492416
1.1900000000000001e-07,25.90637502592,1.600487512192,43.86387498176,0.705337493568
1.195e-07,25.92200002688,1.600487512192,44.0044999904,0.717837494336
1.2000000000000002e-07,25.875125024,1.600487512192,44.09824999616,0.717837494336
1.205e-07,25.812625020160002,1.600487512192,44.16075,0.7115874939519999
1.21e-07,25.812625020160002,1.600487512192,44.14512499904,0.70064999328
1.215e-07,25.84387502208,1.600487512192,44.09824999616,0.68502499232
1.22e-07,25.90637502592,1.600487512192,44.0044999904,0.672524991552
1.2250000000000002e-07,25.93762502784,1.600487512192,43.86387498176,0.663149990976
1.23e-07,25.98450003072,1.600487512192,43.75449997504,0.656899990592
1.2350000000000001e-07,25.92200002688,1.600487512192,43.67637497024,0.658462490688
1.24e-07,25.765750017280002,1.600487512192,43.67637497024,0.664712491072
1.245e-07,25.6407500096,1.600487512192,43.67637497024,0.67721249184
1.2500000000000002e-07,25.734500015360002,1.600487512192,43.73887497408,0.686587492416
1.255e-07,25.90637502592,1.600487512192,43.80137497792,0.694399992896
1.2600000000000002e-07,25.96887502976,1.600487512192,43.83262497984,0.6928374928
1.265e-07,25.92200002688,1.600487512192,43.78574997696,0.689712492608
1.27e-07,25.93762502784,1.600487512192,43.75449997504,0.683462492224
1.275e-07,25.92200002688,1.600487512192,43.67637497024,0.67721249184
1.28e-07,25.84387502208,1.600487512192,43.59824996544,0.6678374912639999
1.2850000000000002e-07,25.82825002112,1.600487512192,43.6138749664,0.658462490688
1.29e-07,25.90637502592,1.600487512192,43.72324997312,0.66158749088
1.2950000000000001e-07,26.01575003264,1.600487512192,43.8482499808,0.66158749088
1.3e-07,25.96887502976,1.600487512192,43.97324998848,0.670962491456
1.305e-07,25.875125024,1.600487512192,44.02012499136,0.683462492224
1.31e-07,25.812625020160002,1.600487512192,44.02012499136,0.6912749927040001
1.315e-07,25.812625020160002,1.600487512192,43.97324998848,0.702212493376
1.3200000000000002e-07,25.718875014400002,1.600487512192,43.89512498368,0.70846249376
1.325e-07,25.6407500096,1.600487512192,43.75449997504,0.710024993856
1.33e-07,25.70325001344,1.600487512192,43.66074996928,0.703774993472
