Time (s),VIN,IIN,VOUT
0.0,24.19562499328,1.917950006912,51.67375000384
5e-10,24.17999999232,1.9148250067200001,51.78312501056
1e-09,24.24249999616,1.913262506624,51.78312501056
1.5000000000000002e-09,24.28937499904,1.9148250067200001,51.7675000096
2e-09,24.25812499712,1.917950006912,51.79875001152
2.5e-09,24.21124999424,1.9226375072,51.83000001344
3.0000000000000004e-09,24.13312498944,1.925762507392,51.81437501248
3.5000000000000003e-09,24.1487499904,1.932012507776,51.70500000576
4e-09,24.19562499328,1.936700008064,51.57999999808
4.500000000000001e-09,24.2268749952,1.936700008064,51.43937498944
5e-09,24.21124999424,1.936700008064,51.40812498752
5.5000000000000004e-09,24.17999999232,1.93045000768,51.4549999904
6.000000000000001e-09,24.2268749952,1.928887507584,51.51749999424
6.5e-09,24.25812499712,1.927325007488,51.51749999424
7.000000000000001e-09,24.27374999808,1.924200007296,51.51749999424
7.500000000000001e-09,24.21124999424,1.9148250067200001,51.57999999808
8e-09,24.08624998656,1.911700006528,51.73625000768
8.5e-09,24.02374998272,1.913262506624,51.86125001536
9.000000000000001e-09,24.08624998656,1.919512507008,51.89250001728
9.5e-09,24.17999999232,1.9226375072,51.8456250144
1e-08,24.19562499328,1.925762507392,51.7675000096
1.0500000000000001e-08,24.17999999232,1.925762507392,51.6893750048
1.1000000000000001e-08,24.17999999232,1.928887507584,51.65812500288
1.15e-08,24.25812499712,1.932012507776,51.59562499904
1.2000000000000002e-08,24.36750000384,1.933575007872,51.54874999616
1.2500000000000001e-08,24.41437500672,1.932012507776,51.48624999232
1.3e-08,24.32062500096,1.925762507392,51.5331249952
1.35e-08,24.21124999424,1.917950006912,51.59562499904
1.4000000000000001e-08,24.21124999424,1.916387506816,51.64250000192
1.45e-08,24.19562499328,1.9226375072,51.67375000384
1.5000000000000002e-08,24.17999999232,1.924200007296,51.72062500672
1.55e-08,24.16437499136,1.9226375072,51.75187500864
1.6e-08,24.10187498752,1.925762507392,51.81437501248
1.6500000000000002e-08,24.0706249856,1.928887507584,51.83000001344
1.7e-08,24.13312498944,1.932012507776,51.78312501056
1.75e-08,24.1487499904,1.93045000768,51.70500000576
1.8000000000000002e-08,24.16437499136,1.932012507776,51.62687500096
1.85e-08,24.25812499712,1.93045000768,51.57999999808
1.9e-08,24.28937499904,1.925762507392,51.59562499904
1.9500000000000003e-08,24.27374999808,1.924200007296,51.59562499904
2e-08,24.21124999424,1.921075007104,51.61125
2.05e-08,24.1487499904,1.919512507008,51.61125
2.1000000000000003e-08,24.03937498368,1.921075007104,51.6893750048
2.15e-08,24.03937498368,1.9226375072,51.7675000096
2.2000000000000002e-08,24.11749998848,1.928887507584,51.78312501056
2.2500000000000003e-08,24.16437499136,1.933575007872,51.7675000096
2.3e-08,24.11749998848,1.932012507776,51.75187500864
2.3500000000000002e-08,24.02374998272,1.928887507584,51.78312501056
2.4000000000000003e-08,23.961249978879998,1.93045000768,51.7675000096
2.45e-08,24.05499998464,1.928887507584,51.6893750048
2.5000000000000002e-08,24.24249999616,1.927325007488,51.59562499904
2.55e-08,24.35187500288,1.927325007488,51.51749999424
2.6e-08,24.39875000576,1.927325007488,51.50187499328
2.6500000000000002e-08,24.32062500096,1.928887507584,51.50187499328
2.7e-08,24.19562499328,1.928887507584,51.54874999616
2.75e-08,24.2268749952,1.928887507584,51.57999999808
2.8000000000000003e-08,24.28937499904,1.928887507584,51.61125
2.85e-08,24.25812499712,1.928887507584,51.62687500096
2.9e-08,24.10187498752,1.93045000768,51.73625000768
2.9500000000000003e-08,23.992499980799998,1.935137507968,51.86125001536
3.0000000000000004e-08,24.008124981759998,1.93826250816,51.89250001728
3.05e-08,24.0706249856,1.93826250816,51.79875001152
3.1e-08,24.08624998656,1.935137507968,51.75187500864
3.1500000000000004e-08,24.03937498368,1.93045000768,51.7675000096
3.2e-08,23.976874979839998,1.927325007488,51.78312501056
3.25e-08,23.992499980799998,1.924200007296,51.79875001152
3.3000000000000004e-08,24.13312498944,1.927325007488,51.73625000768
3.35e-08,24.28937499904,1.932012507776,51.59562499904
3.4e-08,24.36750000384,1.935137507968,51.5331249952
3.4500000000000005e-08,24.28937499904,1.935137507968,51.54874999616
3.5e-08,24.10187498752,1.933575007872,51.62687500096
3.55e-08,24.008124981759998,1.935137507968,51.75187500864
3.6000000000000005e-08,24.0706249856,1.936700008064,51.83000001344
3.65e-08,24.2268749952,1.93826250816,51.72062500672
3.7e-08,24.27374999808,1.93826250816,51.6893750048
3.7500000000000005e-08,24.13312498944,1.935137507968,51.72062500672
3.8e-08,23.94562497792,1.932012507776,51.79875001152
3.85e-08,23.88312497408,1.933575007872,51.79875001152
3.9000000000000005e-08,23.976874979839998,1.93045000768,51.72062500672
3.95e-08,24.11749998848,1.932012507776,51.59562499904
4e-08,24.19562499328,1.935137507968,51.62687500096
4.0500000000000005e-08,24.19562499328,1.935137507968,51.73625000768
4.1e-08,24.16437499136,1.936700008064,51.79875001152
4.15e-08,24.1487499904,1.93826250816,51.79875001152
4.2000000000000006e-08,24.13312498944,1.936700008064,51.7675000096
4.2500000000000003e-08,24.11749998848,1.935137507968,51.7675000096
4.3e-08,23.992499980799998,1.932012507776,51.8456250144
4.3500000000000006e-08,23.94562497792,1.932012507776,51.97062502208
4.4000000000000004e-08,23.976874979839998,1.93045000768,52.06437502784
4.45e-08,24.008124981759998,1.935137507968,51.95500002112
4.5000000000000006e-08,24.02374998272,1.93826250816,51.79875001152
4.5500000000000004e-08,24.02374998272,1.93826250816,51.73625000768
4.6e-08,24.0706249856,1.93826250816,51.73625000768
4.6500000000000006e-08,24.16437499136,1.942950008448,51.7675000096
4.7000000000000004e-08,24.27374999808,1.94607500864,51.72062500672
4.75e-08,24.305,1.944512508544,51.61125
4.8000000000000006e-08,24.19562499328,1.94607500864,51.64250000192
4.8500000000000004e-08,24.03937498368,1.942950008448,51.73625000768
4.9e-08,24.02374998272,1.93826250816,51.8456250144
4.95e-08,24.02374998272,1.93826250816,51.87687501632
5.0000000000000004e-08,24.05499998464,1.935137507968,51.8456250144
5.05e-08,24.03937498368,1.935137507968,51.83000001344
5.1e-08,23.92999997696,1.933575007872,51.89250001728
5.1500000000000005e-08,23.89874997504,1.933575007872,51.98625002304
5.2e-08,23.992499980799998,1.935137507968,52.03312502592
5.25e-08,24.16437499136,1.939825008256,51.89250001728
5.3000000000000005e-08,24.28937499904,1.947637508736,51.75187500864
5.35e-08,24.305,1.947637508736,51.72062500672
5.4e-08,24.25812499712,1.947637508736,51.79875001152
5.4500000000000005e-08,24.16437499136,1.94607500864,51.87687501632
5.5e-08,24.16437499136,1.942950008448,51.86125001536
5.55e-08,24.11749998848,1.939825008256,51.7675000096
5.6000000000000005e-08,24.02374998272,1.93826250816,51.78312501056
5.65e-08,23.92999997696,1.935137507968,51.87687501632
5.7e-08,23.94562497792,1.933575007872,51.90812501824
5.7500000000000005e-08,24.03937498368,1.935137507968,51.87687501632
5.8e-08,24.11749998848,1.941387508352,51.79875001152
5.85e-08,24.1487499904,1.94607500864,51.73625000768
5.9000000000000006e-08,24.02374998272,1.94607500864,51.7675000096
5.9500000000000003e-08,23.976874979839998,1.947637508736,51.8456250144
6.000000000000001e-08,24.05499998464,1.947637508736,51.8456250144
6.05e-08,24.19562499328,1.95388750912,51.73625000768
6.1e-08,24.2268749952,1.9570125093119999,51.65812500288
6.15e-08,24.1487499904,1.950762508928,51.64250000192
6.2e-08,24.03937498368,1.944512508544,51.70500000576
6.250000000000001e-08,23.961249978879998,1.939825008256,51.73625000768
6.300000000000001e-08,24.008124981759998,1.936700008064,51.73625000768
6.35e-08,24.10187498752,1.936700008064,51.72062500672
6.4e-08,24.16437499136,1.93826250816,51.78312501056
6.45e-08,24.05499998464,1.936700008064,51.89250001728
6.5e-08,23.961249978879998,1.941387508352,51.9237500192
6.55e-08,23.992499980799998,1.94607500864,51.89250001728
6.600000000000001e-08,24.03937498368,1.95388750912,51.79875001152
6.65e-08,24.03937498368,1.9554500092159999,51.7675000096
6.7e-08,23.992499980799998,1.95388750912,51.75187500864
6.75e-08,24.02374998272,1.950762508928,51.78312501056
6.8e-08,24.0706249856,1.950762508928,51.73625000768
6.85e-08,24.2268749952,1.950762508928,51.62687500096
6.900000000000001e-08,24.27374999808,1.947637508736,51.54874999616
6.950000000000001e-08,24.21124999424,1.942950008448,51.57999999808
7e-08,24.11749998848,1.93826250816,51.6893750048
7.05e-08,24.03937498368,1.936700008064,51.79875001152
7.1e-08,24.03937498368,1.941387508352,51.8456250144
7.15e-08,24.05499998464,1.947637508736,51.86125001536
7.200000000000001e-08,23.961249978879998,1.950762508928,51.89250001728
7.250000000000001e-08,23.78937496832,1.949200008832,51.95500002112
7.3e-08,23.74249996544,1.949200008832,51.93937502016
7.35e-08,23.82062497024,1.950762508928,51.86125001536
7.4e-08,23.992499980799998,1.9554500092159999,51.73625000768
7.45e-08,24.1487499904,1.950762508928,51.6893750048
7.500000000000001e-08,24.13312498944,1.942950008448,51.70500000576
7.550000000000001e-08,24.10187498752,1.93826250816,51.73625000768
7.6e-08,24.13312498944,1.941387508352,51.7675000096
7.65e-08,24.25812499712,1.944512508544,51.70500000576
7.7e-08,24.28937499904,1.94607500864,51.70500000576
7.75e-08,24.17999999232,1.944512508544,51.75187500864
7.800000000000001e-08,23.992499980799998,1.944512508544,51.83000001344
7.850000000000001e-08,23.8362499712,1.950762508928,51.87687501632
7.9e-08,23.86749997312,1.95388750912,51.87687501632
7.95e-08,23.94562497792,1.952325009024,51.79875001152
8e-08,23.94562497792,1.949200008832,51.7675000096
8.05e-08,23.914374976,1.947637508736,51.78312501056
8.100000000000001e-08,23.94562497792,1.950762508928,51.79875001152
8.150000000000001e-08,24.03937498368,1.950762508928,51.79875001152
8.2e-08,24.13312498944,1.947637508736,51.7675000096
8.25e-08,24.19562499328,1.941387508352,51.78312501056
8.3e-08,24.1487499904,1.939825008256,51.79875001152
8.35e-08,24.05499998464,1.942950008448,51.8456250144
8.400000000000001e-08,24.008124981759998,1.949200008832,51.90812501824
8.450000000000001e-08,24.008124981759998,1.95388750912,51.86125001536
8.500000000000001e-08,23.992499980799998,1.9570125093119999,51.81437501248
8.55e-08,23.961249978879998,1.952325009024,51.78312501056
8.6e-08,23.914374976,1.950762508928,51.79875001152
8.65e-08,23.88312497408,1.950762508928,51.79875001152
8.700000000000001e-08,23.992499980799998,1.949200008832,51.81437501248
8.750000000000001e-08,24.11749998848,1.944512508544,51.7675000096
8.800000000000001e-08,24.19562499328,1.942950008448,51.73625000768
8.85e-08,24.1487499904,1.942950008448,51.73625000768
8.9e-08,24.13312498944,1.94607500864,51.7675000096
8.95e-08,24.13312498944,1.947637508736,51.75187500864
9.000000000000001e-08,24.1487499904,1.949200008832,51.70500000576
9.050000000000001e-08,24.11749998848,1.950762508928,51.65812500288
9.100000000000001e-08,24.02374998272,1.949200008832,51.72062500672
9.15e-08,23.976874979839998,1.949200008832,51.7675000096
9.2e-08,23.92999997696,1.950762508928,51.86125001536
9.25e-08,23.961249978879998,1.950762508928,51.8456250144
9.300000000000001e-08,23.976874979839998,1.94607500864,51.87687501632
9.350000000000001e-08,23.961249978879998,1.941387508352,51.89250001728
9.400000000000001e-08,23.92999997696,1.939825008256,51.9237500192
9.45e-08,23.992499980799998,1.944512508544,51.93937502016
9.5e-08,24.0706249856,1.941387508352,51.90812501824
9.55e-08,24.11749998848,1.93826250816,51.83000001344
9.600000000000001e-08,24.1487499904,1.941387508352,51.73625000768
9.650000000000001e-08,24.13312498944,1.947637508736,51.64250000192
9.700000000000001e-08,24.08624998656,1.950762508928,51.62687500096
9.75e-08,24.11749998848,1.947637508736,51.64250000192
9.8e-08,24.1487499904,1.94607500864,51.65812500288
9.85e-08,24.1487499904,1.941387508352,51.65812500288
9.9e-08,24.05499998464,1.939825008256,51.72062500672
9.950000000000001e-08,24.008124981759998,1.93826250816,51.79875001152
1.0000000000000001e-07,23.961249978879998,1.939825008256,51.89250001728
1.005e-07,23.961249978879998,1.941387508352,51.89250001728
1.01e-07,23.94562497792,1.93826250816,51.90812501824
1.015e-07,23.94562497792,1.939825008256,51.8456250144
1.02e-07,24.008124981759998,1.944512508544,51.7675000096
1.0250000000000001e-07,24.08624998656,1.949200008832,51.67375000384
1.0300000000000001e-07,24.21124999424,1.949200008832,51.64250000192
1.0350000000000001e-07,24.27374999808,1.944512508544,51.61125
1.04e-07,24.24249999616,1.941387508352,51.61125
1.045e-07,24.16437499136,1.941387508352,51.61125
1.05e-07,24.1487499904,1.944512508544,51.67375000384
1.0550000000000001e-07,24.19562499328,1.94607500864,51.75187500864
1.0600000000000001e-07,24.19562499328,1.944512508544,51.86125001536
1.0650000000000001e-07,24.13312498944,1.936700008064,51.89250001728
1.07e-07,23.992499980799998,1.932012507776,51.9237500192
1.075e-07,23.94562497792,1.936700008064,51.87687501632
1.08e-07,24.02374998272,1.94607500864,51.8456250144
1.0850000000000001e-07,24.11749998848,1.949200008832,51.75187500864
1.0900000000000001e-07,24.13312498944,1.947637508736,51.67375000384
1.0950000000000001e-07,24.08624998656,1.944512508544,51.61125
1.1e-07,24.11749998848,1.944512508544,51.61125
1.105e-07,24.17999999232,1.94607500864,51.57999999808
1.11e-07,24.27374999808,1.94607500864,51.56437499712
1.1150000000000001e-07,24.305,1.942950008448,51.59562499904
1.1200000000000001e-07,24.19562499328,1.936700008064,51.73625000768
1.1250000000000001e-07,24.02374998272,1.932012507776,51.81437501248
1.13e-07,23.961249978879998,1.935137507968,51.87687501632
1.135e-07,24.008124981759998,1.936700008064,51.89250001728
1.14e-07,24.08624998656,1.935137507968,51.8456250144
1.1450000000000001e-07,24.1487499904,1.936700008064,51.7675000096
1.1500000000000001e-07,24.10187498752,1.939825008256,51.73625000768
1.1550000000000001e-07,24.0706249856,1.942950008448,51.6893750048
1.16e-07,24.11749998848,1.94607500864,51.65812500288
1.165e-07,24.19562499328,1.944512508544,51.56437499712
1.17e-07,24.2268749952,1.944512508544,51.51749999424
1.1750000000000001e-07,24.24249999616,1.941387508352,51.54874999616
1.1800000000000001e-07,24.25812499712,1.939825008256,51.67375000384
1.1850000000000001e-07,24.2268749952,1.939825008256,51.78312501056
1.1900000000000001e-07,24.21124999424,1.936700008064,51.81437501248
1.195e-07,24.13312498944,1.933575007872,51.79875001152
1.2000000000000002e-07,24.008124981759998,1.932012507776,51.81437501248
1.205e-07,23.88312497408,1.933575007872,51.81437501248
1.21e-07,23.89874997504,1.936700008064,51.81437501248
1.215e-07,23.976874979839998,1.939825008256,51.79875001152
1.22e-07,24.03937498368,1.939825008256,51.67375000384
1.2250000000000002e-07,24.05499998464,1.939825008256,51.57999999808
1.23e-07,24.0706249856,1.939825008256,51.51749999424
1.2350000000000001e-07,24.10187498752,1.941387508352,51.54874999616
1.24e-07,24.1487499904,1.936700008064,51.62687500096
1.245e-07,24.2268749952,1.932012507776,51.62687500096
1.2500000000000002e-07,24.27374999808,1.932012507776,51.61125
1.255e-07,24.27374999808,1.933575007872,51.61125
1.2600000000000002e-07,24.25812499712,1.933575007872,51.6893750048
1.265e-07,24.24249999616,1.936700008064,51.7675000096
1.27e-07,24.21124999424,1.933575007872,51.75187500864
1.275e-07,24.11749998848,1.932012507776,51.72062500672
1.28e-07,24.03937498368,1.933575007872,51.67375000384
1.2850000000000002e-07,24.008124981759998,1.935137507968,51.61125
1.29e-07,24.08624998656,1.936700008064,51.59562499904
1.2950000000000001e-07,24.1487499904,1.936700008064,51.61125
1.3e-07,24.13312498944,1.935137507968,51.57999999808
1.305e-07,24.10187498752,1.932012507776,51.5331249952
1.31e-07,24.08624998656,1.933575007872,51.5331249952
1.315e-07,24.10187498752,1.93045000768,51.56437499712
1.3200000000000002e-07,24.11749998848,1.928887507584,51.64250000192
1.325e-07,24.21124999424,1.925762507392,51.67375000384
1.33e-07,24.25812499712,1.928887507584,51.6893750048
1.335e-07,24.19562499328,1.928887507584,51.67375000384
1.34e-07,24.1487499904,1.93045000768,51.67375000384
1.3450000000000002e-07,24.10187498752,1.933575007872,51.6893750048
1.35e-07,24.0706249856,1.928887507584,51.67375000384
1.3550000000000002e-07,24.008124981759998,1.925762507392,51.61125
1.36e-07,23.992499980799998,1.925762507392,51.54874999616
1.365e-07,23.992499980799998,1.925762507392,51.47062499136
1.37e-07,24.02374998272,1.927325007488,51.42374998848
1.375e-07,24.05499998464,1.925762507392,51.42374998848
1.3800000000000002e-07,24.10187498752,1.925762507392,51.42374998848
1.385e-07,24.21124999424,1.925762507392,51.40812498752
1.3900000000000001e-07,24.305,1.928887507584,51.36124998464
1.395e-07,24.35187500288,1.928887507584,51.39249998656
1.4e-07,24.32062500096,1.928887507584,51.51749999424
1.4050000000000002e-07,24.28937499904,1.925762507392,51.62687500096
1.41e-07,24.27374999808,1.925762507392,51.72062500672
1.4150000000000002e-07,24.24249999616,1.925762507392,51.70500000576
1.42e-07,24.21124999424,1.924200007296,51.62687500096
1.425e-07,24.10187498752,1.925762507392,51.61125
1.43e-07,23.992499980799998,1.925762507392,51.67375000384
1.435e-07,23.914374976,1.924200007296,51.65812500288
1.4400000000000002e-07,23.914374976,1.927325007488,51.62687500096
1.445e-07,24.02374998272,1.927325007488,51.48624999232
1.4500000000000001e-07,24.13312498944,1.928887507584,51.40812498752
1.455e-07,24.17999999232,1.928887507584,51.43937498944
1.46e-07,24.19562499328,1.927325007488,51.51749999424
1.4650000000000002e-07,24.28937499904,1.925762507392,51.56437499712
1.47e-07,24.28937499904,1.925762507392,51.59562499904
1.4750000000000002e-07,24.27374999808,1.924200007296,51.61125
1.48e-07,24.25812499712,1.919512507008,51.64250000192
1.485e-07,24.25812499712,1.917950006912,51.65812500288
1.49e-07,24.27374999808,1.924200007296,51.6893750048
1.495e-07,24.25812499712,1.924200007296,51.61125
1.5000000000000002e-07,24.24249999616,1.928887507584,51.51749999424
1.505e-07,24.10187498752,1.93045000768,51.47062499136
1.5100000000000002e-07,24.03937498368,1.927325007488,51.47062499136
1.515e-07,24.05499998464,1.928887507584,51.48624999232
1.52e-07,24.16437499136,1.932012507776,51.47062499136
1.5250000000000002e-07,24.25812499712,1.93045000768,51.40812498752
1.53e-07,24.305,1.928887507584,51.43937498944
1.5350000000000002e-07,24.2268749952,1.924200007296,51.57999999808
1.54e-07,24.16437499136,1.919512507008,51.72062500672
1.5450000000000001e-07,24.19562499328,1.917950006912,51.79875001152
1.55e-07,24.25812499712,1.917950006912,51.78312501056
1.555e-07,24.28937499904,1.919512507008,51.75187500864
1.5600000000000002e-07,24.2268749952,1.9226375072,51.79875001152
1.565e-07,24.16437499136,1.9226375072,51.83000001344
1.5700000000000002e-07,24.13312498944,1.927325007488,51.78312501056
1.575e-07,24.16437499136,1.93045000768,51.67375000384
1.58e-07,24.2268749952,1.93826250816,51.5331249952
1.5850000000000002e-07,24.2268749952,1.941387508352,51.42374998848
1.59e-07,24.17999999232,1.936700008064,51.42374998848
1.5950000000000002e-07,24.19562499328,1.932012507776,51.50187499328
1.6e-07,24.24249999616,1.933575007872,51.54874999616
1.6050000000000001e-07,24.24249999616,1.928887507584,51.51749999424
1.61e-07,24.24249999616,1.921075007104,51.54874999616
1.615e-07,24.1487499904,1.916387506816,51.64250000192
1.6200000000000002e-07,24.03937498368,1.9148250067200001,51.78312501056
1.625e-07,24.03937498368,1.916387506816,51.8456250144
1.6300000000000002e-07,24.10187498752,1.921075007104,51.86125001536
1.635e-07,24.19562499328,1.925762507392,51.79875001152
1.64e-07,24.16437499136,1.928887507584,51.75187500864
1.645e-07,24.16437499136,1.932012507776,51.67375000384
1.65e-07,24.19562499328,1.933575007872,51.65812500288
1.6550000000000002e-07,24.28937499904,1.935137507968,51.56437499712
1.66e-07,24.41437500672,1.935137507968,51.51749999424
1.6650000000000002e-07,24.36750000384,1.928887507584,51.50187499328
1.67e-07,24.27374999808,1.9226375072,51.56437499712
1.675e-07,24.19562499328,1.919512507008,51.61125
1.6800000000000002e-07,24.19562499328,1.9226375072,51.67375000384
1.685e-07,24.17999999232,1.924200007296,51.70500000576
