Time (s),VIN,IIN,VOUT
0.0,25.33200004992,1.439287507392,44.91424998656
5e-10,25.17575004032,1.439287507392,44.90174998784
1e-09,25.05075003264,1.437725007296,44.90174998784
1.5000000000000002e-09,25.11325003648,1.4361625072,44.93299998464
2e-09,25.25387504512,1.4361625072,44.95174998272
2.5e-09,25.300750048,1.440850007488,44.94549998336
3.0000000000000004e-09,25.20700004224,1.44397500768,44.88924998912
3.5000000000000003e-09,25.08200003456,1.440850007488,44.8454999936
4e-09,25.05075003264,1.437725007296,44.80174999808
4.500000000000001e-09,25.19137504128,1.434600007104,44.80174999808
5e-09,25.33200004992,1.4361625072,44.783
5.5000000000000004e-09,25.33200004992,1.439287507392,44.764250001920004
6.000000000000001e-09,25.17575004032,1.442412507584,44.77675000064
6.5e-09,25.0663750336,1.439287507392,44.8142499968
7.000000000000001e-09,25.11325003648,1.440850007488,44.8767499904
7.500000000000001e-09,25.25387504512,1.44397500768,44.95174998272
8e-09,25.36325005184,1.445537507776,44.96424998144
8.5e-09,25.300750048,1.442412507584,44.93299998464
9.000000000000001e-09,25.11325003648,1.440850007488,44.895499988480005
9.5e-09,25.03512503168,1.439287507392,44.88924998912
1e-08,25.12887503744,1.439287507392,44.88299998976
1.0500000000000001e-08,25.28512504704,1.440850007488,44.8454999936
1.1000000000000001e-08,25.26950004608,1.442412507584,44.783
1.15e-08,25.11325003648,1.440850007488,44.7517500032
1.2000000000000002e-08,24.97262502784,1.437725007296,44.75800000256
1.2500000000000001e-08,25.0663750336,1.437725007296,44.80174999808
1.3e-08,25.26950004608,1.440850007488,44.826749995520004
1.35e-08,25.34762505088,1.442412507584,44.826749995520004
1.4000000000000001e-08,25.23825004416,1.445537507776,44.82049999616
1.45e-08,25.0663750336,1.44397500768,44.826749995520004
1.5000000000000002e-08,25.08200003456,1.442412507584,44.83924999424
1.55e-08,25.25387504512,1.440850007488,44.83924999424
1.6e-08,25.36325005184,1.439287507392,44.80174999808
1.6500000000000002e-08,25.26950004608,1.440850007488,44.733000005120005
1.7e-08,25.01950003072,1.440850007488,44.6892500096
1.75e-08,24.92575002496,1.439287507392,44.67675001088
1.8000000000000002e-08,25.05075003264,1.439287507392,44.664250012160004
1.85e-08,25.23825004416,1.440850007488,44.6580000128
1.9e-08,25.2226250432,1.440850007488,44.63925001472
1.9500000000000003e-08,25.08200003456,1.439287507392,44.64550001408
2e-08,24.97262502784,1.437725007296,44.68300001024
2.05e-08,25.05075003264,1.440850007488,44.733000005120005
2.1000000000000003e-08,25.26950004608,1.440850007488,44.764250001920004
2.15e-08,25.34762505088,1.442412507584,44.77050000128
2.2000000000000002e-08,25.23825004416,1.44397500768,44.73925000448
2.2500000000000003e-08,25.03512503168,1.442412507584,44.7205000064
2.3e-08,25.03512503168,1.442412507584,44.6892500096
2.3500000000000002e-08,25.12887503744,1.44397500768,44.67050001152
2.4000000000000003e-08,25.20700004224,1.44397500768,44.633000015360004
2.45e-08,25.12887503744,1.442412507584,44.5955000192
2.5000000000000002e-08,24.97262502784,1.439287507392,44.61425001728
2.55e-08,24.95700002688,1.439287507392,44.65175001344
2.6e-08,25.0663750336,1.440850007488,44.67675001088
2.6500000000000002e-08,25.20700004224,1.440850007488,44.6892500096
2.7e-08,25.20700004224,1.440850007488,44.68300001024
2.75e-08,25.11325003648,1.442412507584,44.701750008320005
2.8000000000000003e-08,25.09762503552,1.440850007488,44.7205000064
2.85e-08,25.19137504128,1.440850007488,44.72675000576
2.9e-08,25.300750048,1.437725007296,44.69550000896
2.9500000000000003e-08,25.31637504896,1.437725007296,44.664250012160004
3.0000000000000004e-08,25.20700004224,1.439287507392,44.626750016
3.05e-08,25.0663750336,1.439287507392,44.60800001792
3.1e-08,25.05075003264,1.440850007488,44.601750018560004
3.1500000000000004e-08,25.12887503744,1.442412507584,44.60800001792
3.2e-08,25.17575004032,1.44397500768,44.601750018560004
3.25e-08,25.08200003456,1.44397500768,44.60800001792
3.3000000000000004e-08,24.9882500288,1.442412507584,44.626750016
3.35e-08,25.00387502976,1.442412507584,44.64550001408
3.4e-08,25.12887503744,1.44397500768,44.63925001472
3.4500000000000005e-08,25.26950004608,1.440850007488,44.633000015360004
3.5e-08,25.28512504704,1.439287507392,44.626750016
3.55e-08,25.20700004224,1.439287507392,44.64550001408
3.6000000000000005e-08,25.16012503936,1.439287507392,44.64550001408
3.65e-08,25.19137504128,1.442412507584,44.62050001664
3.7e-08,25.26950004608,1.442412507584,44.570500021760004
3.7500000000000005e-08,25.23825004416,1.44397500768,44.54550002432
3.8e-08,25.16012503936,1.447100007872,44.55800002304
3.85e-08,25.08200003456,1.445537507776,44.58300002048
3.9000000000000005e-08,25.03512503168,1.44397500768,44.570500021760004
3.95e-08,25.05075003264,1.447100007872,44.55175002368
4e-08,25.1445000384,1.448662507968,44.51425002752
4.0500000000000005e-08,25.19137504128,1.448662507968,44.51425002752
4.1e-08,25.16012503936,1.44397500768,44.5642500224
4.15e-08,25.11325003648,1.442412507584,44.60800001792
4.2000000000000006e-08,25.11325003648,1.442412507584,44.5955000192
4.2500000000000003e-08,25.19137504128,1.442412507584,44.55800002304
4.3e-08,25.23825004416,1.442412507584,44.5330000256
4.3500000000000006e-08,25.23825004416,1.440850007488,44.55175002368
4.4000000000000004e-08,25.16012503936,1.437725007296,44.570500021760004
4.45e-08,25.08200003456,1.439287507392,44.57675002112
4.5000000000000006e-08,25.09762503552,1.440850007488,44.5330000256
4.5500000000000004e-08,25.16012503936,1.442412507584,44.50800002816
4.6e-08,25.17575004032,1.44397500768,44.501750028800004
4.6500000000000006e-08,25.11325003648,1.440850007488,44.52050002688
4.7000000000000004e-08,25.08200003456,1.439287507392,44.52675002624
4.75e-08,25.1445000384,1.440850007488,44.50800002816
4.8000000000000006e-08,25.23825004416,1.439287507392,44.45800003328
4.8500000000000004e-08,25.26950004608,1.439287507392,44.439250035200004
4.9e-08,25.20700004224,1.442412507584,44.45800003328
4.95e-08,25.11325003648,1.442412507584,44.48925003008
5.0000000000000004e-08,25.11325003648,1.439287507392,44.501750028800004
5.05e-08,25.19137504128,1.439287507392,44.48925003008
5.1e-08,25.2226250432,1.442412507584,44.45175003392
5.1500000000000005e-08,25.1445000384,1.44397500768,44.43300003584
5.2e-08,25.05075003264,1.44397500768,44.41425003776
5.25e-08,25.05075003264,1.44397500768,44.408000038400004
5.3000000000000005e-08,25.17575004032,1.442412507584,44.38300004096
5.35e-08,25.2226250432,1.442412507584,44.35175004416
5.4e-08,25.19137504128,1.445537507776,44.32675004672
5.4500000000000005e-08,25.09762503552,1.442412507584,44.3455000448
5.5e-08,25.08200003456,1.437725007296,44.40175003904
5.55e-08,25.16012503936,1.440850007488,44.45800003328
5.6000000000000005e-08,25.23825004416,1.437725007296,44.49550002944
5.65e-08,25.20700004224,1.440850007488,44.501750028800004
5.7e-08,25.0663750336,1.440850007488,44.48925003008
5.7500000000000005e-08,25.00387502976,1.442412507584,44.47675003136
5.8e-08,25.03512503168,1.442412507584,44.470500032000004
5.85e-08,25.16012503936,1.442412507584,44.44550003456
5.9000000000000006e-08,25.17575004032,1.442412507584,44.39550003968
5.9500000000000003e-08,25.08200003456,1.440850007488,44.339250045440004
6.000000000000001e-08,24.9882500288,1.440850007488,44.30175004928
6.05e-08,25.03512503168,1.440850007488,44.32050004736
6.1e-08,25.16012503936,1.440850007488,44.35800004352
6.15e-08,25.2226250432,1.440850007488,44.38925004032
6.2e-08,25.17575004032,1.440850007488,44.38925004032
6.250000000000001e-08,25.0663750336,1.437725007296,44.38300004096
6.300000000000001e-08,25.03512503168,1.439287507392,44.408000038400004
6.35e-08,25.09762503552,1.440850007488,44.46425003264
6.4e-08,25.19137504128,1.442412507584,44.48925003008
6.45e-08,25.19137504128,1.445537507776,44.46425003264
6.5e-08,25.09762503552,1.442412507584,44.42050003712
6.55e-08,25.05075003264,1.439287507392,44.38300004096
6.600000000000001e-08,25.0663750336,1.4361625072,44.35800004352
6.65e-08,25.17575004032,1.433037507008,44.35175004416
6.7e-08,25.20700004224,1.4361625072,44.3455000448
6.75e-08,25.19137504128,1.439287507392,44.35800004352
6.8e-08,25.12887503744,1.439287507392,44.36425004288
6.85e-08,25.11325003648,1.440850007488,44.42050003712
6.900000000000001e-08,25.17575004032,1.437725007296,44.48300003072
6.950000000000001e-08,25.20700004224,1.437725007296,44.5330000256
7e-08,25.23825004416,1.439287507392,44.54550002432
7.05e-08,25.19137504128,1.437725007296,44.5330000256
7.1e-08,25.1445000384,1.440850007488,44.51425002752
7.15e-08,25.12887503744,1.44397500768,44.52050002688
7.200000000000001e-08,25.16012503936,1.440850007488,44.501750028800004
7.250000000000001e-08,25.19137504128,1.439287507392,44.470500032000004
7.3e-08,25.16012503936,1.437725007296,44.44550003456
7.35e-08,25.11325003648,1.437725007296,44.43300003584
7.4e-08,25.05075003264,1.439287507392,44.43300003584
7.45e-08,25.0663750336,1.439287507392,44.45800003328
7.500000000000001e-08,25.12887503744,1.442412507584,44.48925003008
7.550000000000001e-08,25.2226250432,1.442412507584,44.539250024960005
7.6e-08,25.23825004416,1.442412507584,44.54550002432
7.65e-08,25.19137504128,1.442412507584,44.5330000256
7.7e-08,25.17575004032,1.437725007296,44.51425002752
7.75e-08,25.25387504512,1.437725007296,44.50800002816
7.800000000000001e-08,25.33200004992,1.440850007488,44.50800002816
7.850000000000001e-08,25.28512504704,1.440850007488,44.50800002816
7.9e-08,25.2226250432,1.442412507584,44.501750028800004
7.95e-08,25.11325003648,1.442412507584,44.51425002752
8e-08,25.09762503552,1.440850007488,44.52675002624
8.05e-08,25.17575004032,1.439287507392,44.55175002368
8.100000000000001e-08,25.23825004416,1.4361625072,44.570500021760004
8.150000000000001e-08,25.20700004224,1.437725007296,44.570500021760004
8.2e-08,25.08200003456,1.439287507392,44.54550002432
8.25e-08,25.0663750336,1.442412507584,44.51425002752
8.3e-08,25.17575004032,1.440850007488,44.51425002752
8.35e-08,25.28512504704,1.439287507392,44.539250024960005
8.400000000000001e-08,25.300750048,1.439287507392,44.54550002432
8.450000000000001e-08,25.17575004032,1.440850007488,44.539250024960005
8.500000000000001e-08,25.0663750336,1.440850007488,44.539250024960005
8.55e-08,25.0663750336,1.439287507392,44.57675002112
8.6e-08,25.2226250432,1.440850007488,44.633000015360004
8.65e-08,25.28512504704,1.437725007296,44.6580000128
8.700000000000001e-08,25.19137504128,1.440850007488,44.6580000128
8.750000000000001e-08,25.05075003264,1.44397500768,44.63925001472
8.800000000000001e-08,25.01950003072,1.445537507776,44.61425001728
8.85e-08,25.1445000384,1.44397500768,44.61425001728
8.9e-08,25.25387504512,1.442412507584,44.60800001792
8.95e-08,25.26950004608,1.442412507584,44.57675002112
9.000000000000001e-08,25.16012503936,1.440850007488,44.539250024960005
9.050000000000001e-08,25.08200003456,1.440850007488,44.52050002688
9.100000000000001e-08,25.12887503744,1.442412507584,44.52675002624
9.15e-08,25.25387504512,1.442412507584,44.55800002304
9.2e-08,25.28512504704,1.44397500768,44.570500021760004
9.25e-08,25.17575004032,1.445537507776,44.57675002112
9.300000000000001e-08,25.0663750336,1.447100007872,44.58300002048
9.350000000000001e-08,25.01950003072,1.44397500768,44.62050001664
9.400000000000001e-08,25.12887503744,1.445537507776,44.65175001344
9.45e-08,25.17575004032,1.44397500768,44.6580000128
9.5e-08,25.16012503936,1.442412507584,44.626750016
9.55e-08,25.05075003264,1.442412507584,44.601750018560004
9.600000000000001e-08,25.01950003072,1.442412507584,44.570500021760004
9.650000000000001e-08,25.08200003456,1.44397500768,44.55800002304
9.700000000000001e-08,25.19137504128,1.44397500768,44.570500021760004
9.75e-08,25.2226250432,1.442412507584,44.5955000192
9.8e-08,25.19137504128,1.44397500768,44.61425001728
9.85e-08,25.11325003648,1.44397500768,44.633000015360004
9.9e-08,25.08200003456,1.440850007488,44.6580000128
9.950000000000001e-08,25.12887503744,1.437725007296,44.69550000896
1.0000000000000001e-07,25.17575004032,1.4361625072,44.70800000768
1.005e-07,25.16012503936,1.437725007296,44.70800000768
1.01e-07,25.09762503552,1.440850007488,44.68300001024
1.015e-07,25.00387502976,1.440850007488,44.64550001408
1.02e-07,24.9882500288,1.440850007488,44.60800001792
1.0250000000000001e-07,25.05075003264,1.440850007488,44.58300002048
1.0300000000000001e-07,25.1445000384,1.44397500768,44.58300002048
1.0350000000000001e-07,25.16012503936,1.44397500768,44.61425001728
1.04e-07,25.12887503744,1.442412507584,44.626750016
1.045e-07,25.09762503552,1.445537507776,44.64550001408
1.05e-07,25.16012503936,1.44397500768,44.67675001088
1.0550000000000001e-07,25.26950004608,1.44397500768,44.7205000064
1.0600000000000001e-07,25.26950004608,1.44397500768,44.74550000384
1.0650000000000001e-07,25.17575004032,1.44397500768,44.77050000128
1.07e-07,25.09762503552,1.447100007872,44.77050000128
1.075e-07,25.08200003456,1.447100007872,44.77050000128
1.08e-07,25.16012503936,1.442412507584,44.7517500032
1.0850000000000001e-07,25.20700004224,1.442412507584,44.733000005120005
1.0900000000000001e-07,25.17575004032,1.439287507392,44.701750008320005
1.0950000000000001e-07,25.09762503552,1.440850007488,44.68300001024
1.1e-07,25.08200003456,1.442412507584,44.6892500096
1.105e-07,25.11325003648,1.440850007488,44.701750008320005
1.11e-07,25.19137504128,1.442412507584,44.7205000064
1.1150000000000001e-07,25.2226250432,1.440850007488,44.74550000384
1.1200000000000001e-07,25.23825004416,1.440850007488,44.72675000576
1.1250000000000001e-07,25.16012503936,1.442412507584,44.72675000576
1.13e-07,25.11325003648,1.44397500768,44.764250001920004
1.135e-07,25.17575004032,1.442412507584,44.80799999744
1.14e-07,25.25387504512,1.442412507584,44.8142499968
1.1450000000000001e-07,25.25387504512,1.440850007488,44.795499998720004
1.1500000000000001e-07,25.2226250432,1.44397500768,44.74550000384
1.1550000000000001e-07,25.1445000384,1.44397500768,44.733000005120005
1.16e-07,25.09762503552,1.445537507776,44.7517500032
1.165e-07,25.1445000384,1.44397500768,44.795499998720004
1.17e-07,25.2226250432,1.44397500768,44.795499998720004
1.1750000000000001e-07,25.19137504128,1.44397500768,44.77050000128
1.1800000000000001e-07,25.11325003648,1.44397500768,44.764250001920004
1.1850000000000001e-07,25.0663750336,1.442412507584,44.795499998720004
1.1900000000000001e-07,25.1445000384,1.44397500768,44.8454999936
1.195e-07,25.25387504512,1.44397500768,44.88299998976
1.2000000000000002e-07,25.34762505088,1.442412507584,44.85174999296
1.205e-07,25.28512504704,1.44397500768,44.80799999744
1.21e-07,25.11325003648,1.442412507584,44.80174999808
1.215e-07,25.08200003456,1.442412507584,44.83924999424
1.22e-07,25.17575004032,1.439287507392,44.85174999296
1.2250000000000002e-07,25.28512504704,1.434600007104,44.83299999488
1.23e-07,25.26950004608,1.4361625072,44.78924999936
1.2350000000000001e-07,25.11325003648,1.439287507392,44.783
1.24e-07,24.9882500288,1.442412507584,44.80799999744
1.245e-07,25.03512503168,1.445537507776,44.8454999936
1.2500000000000002e-07,25.25387504512,1.44397500768,44.85174999296
1.255e-07,25.34762505088,1.44397500768,44.83299999488
1.2600000000000002e-07,25.26950004608,1.445537507776,44.82049999616
1.265e-07,25.09762503552,1.44397500768,44.826749995520004
1.27e-07,25.05075003264,1.442412507584,44.826749995520004
1.275e-07,25.17575004032,1.442412507584,44.826749995520004
1.28e-07,25.34762505088,1.440850007488,44.8142499968
1.2850000000000002e-07,25.31637504896,1.439287507392,44.82049999616
1.29e-07,25.11325003648,1.437725007296,44.83299999488
1.2950000000000001e-07,24.97262502784,1.439287507392,44.83299999488
1.3e-07,25.01950003072,1.439287507392,44.80799999744
1.305e-07,25.2226250432,1.440850007488,44.80174999808
1.31e-07,25.28512504704,1.442412507584,44.8142499968
1.315e-07,25.16012503936,1.44397500768,44.83924999424
1.3200000000000002e-07,24.9882500288,1.445537507776,44.83299999488
1.325e-07,24.97262502784,1.445537507776,44.82049999616
1.33e-07,25.19137504128,1.440850007488,44.8142499968
1.335e-07,25.36325005184,1.437725007296,44.8454999936
1.34e-07,25.34762505088,1.440850007488,44.8767499904
1.3450000000000002e-07,25.16012503936,1.440850007488,44.88924998912
1.35e-07,25.00387502976,1.440850007488,44.85174999296
1.3550000000000002e-07,25.05075003264,1.440850007488,44.83299999488
1.36e-07,25.23825004416,1.439287507392,44.8454999936
1.365e-07,25.28512504704,1.439287507392,44.86424999168
1.37e-07,25.17575004032,1.440850007488,44.86424999168
1.375e-07,24.9882500288,1.440850007488,44.8142499968
1.3800000000000002e-07,24.95700002688,1.439287507392,44.7517500032
1.385e-07,25.19137504128,1.439287507392,44.74550000384
1.3900000000000001e-07,25.33200004992,1.440850007488,44.78924999936
1.395e-07,25.28512504704,1.44397500768,44.8454999936
1.4e-07,25.12887503744,1.442412507584,44.8454999936
1.4050000000000002e-07,25.03512503168,1.440850007488,44.83299999488
1.41e-07,25.17575004032,1.4361625072,44.85799999232
1.4150000000000002e-07,25.31637504896,1.437725007296,44.91424998656
1.42e-07,25.31637504896,1.442412507584,44.96424998144
1.425e-07,25.1445000384,1.442412507584,44.95174998272
1.43e-07,24.9882500288,1.442412507584,44.91424998656
1.435e-07,25.03512503168,1.440850007488,44.90174998784
1.4400000000000002e-07,25.23825004416,1.439287507392,44.9079999872
1.445e-07,25.34762505088,1.437725007296,44.9079999872
1.4500000000000001e-07,25.25387504512,1.440850007488,44.87049999104
1.455e-07,25.08200003456,1.442412507584,44.80799999744
1.46e-07,25.01950003072,1.440850007488,44.783
1.4650000000000002e-07,25.17575004032,1.437725007296,44.82049999616
1.47e-07,25.31637504896,1.442412507584,44.8767499904
1.4750000000000002e-07,25.31637504896,1.44397500768,44.9079999872
1.48e-07,25.16012503936,1.445537507776,44.895499988480005
1.485e-07,25.05075003264,1.442412507584,44.895499988480005
1.49e-07,25.09762503552,1.439287507392,44.91424998656
1.495e-07,25.2226250432,1.437725007296,44.94549998336
1.5000000000000002e-07,25.28512504704,1.440850007488,44.939249984
1.505e-07,25.19137504128,1.439287507392,44.88924998912
1.5100000000000002e-07,25.0663750336,1.439287507392,44.826749995520004
1.515e-07,25.03512503168,1.440850007488,44.80174999808
1.52e-07,25.16012503936,1.437725007296,44.80174999808
1.5250000000000002e-07,25.31637504896,1.439287507392,44.783
1.53e-07,25.31637504896,1.440850007488,44.764250001920004
1.5350000000000002e-07,25.17575004032,1.439287507392,44.77050000128
1.54e-07,25.05075003264,1.439287507392,44.80174999808
1.5450000000000001e-07,25.11325003648,1.439287507392,44.8767499904
1.55e-07,25.26950004608,1.440850007488,44.93299998464
1.555e-07,25.34762505088,1.44397500768,44.95174998272
1.5600000000000002e-07,25.28512504704,1.44397500768,44.926749985280004
1.565e-07,25.11325003648,1.440850007488,44.90174998784
1.5700000000000002e-07,25.03512503168,1.437725007296,44.88299998976
1.575e-07,25.11325003648,1.437725007296,44.8767499904
1.58e-07,25.28512504704,1.439287507392,44.8454999936
1.5850000000000002e-07,25.25387504512,1.439287507392,44.77675000064
1.59e-07,25.08200003456,1.439287507392,44.733000005120005
1.5950000000000002e-07,24.97262502784,1.440850007488,44.75800000256
1.6e-07,25.09762503552,1.439287507392,44.795499998720004
1.6050000000000001e-07,25.28512504704,1.442412507584,44.82049999616
1.61e-07,25.36325005184,1.442412507584,44.83299999488
1.615e-07,25.2226250432,1.445537507776,44.826749995520004
1.6200000000000002e-07,25.0663750336,1.445537507776,44.83299999488
1.625e-07,25.08200003456,1.445537507776,44.8454999936
1.6300000000000002e-07,25.26950004608,1.445537507776,44.83299999488
1.635e-07,25.3788750528,1.445537507776,44.80174999808
1.64e-07,25.26950004608,1.445537507776,44.73925000448
1.645e-07,25.01950003072,1.445537507776,44.69550000896
1.65e-07,24.94137502592,1.442412507584,44.67675001088
1.6550000000000002e-07,25.0663750336,1.439287507392,44.664250012160004
1.66e-07,25.25387504512,1.440850007488,44.6580000128
1.6650000000000002e-07,25.23825004416,1.440850007488,44.64550001408
1.67e-07,25.08200003456,1.440850007488,44.64550001408
1.675e-07,24.9882500288,1.440850007488,44.68300001024
