Time (s),VIN,IIN,VOUT
0.0,24.2844999904,1.71491250816,48.79924999808
5e-10,24.23762498752,1.71491250816,48.9086250048
1e-09,24.23762498752,1.713350008064,48.89300000384
1.5000000000000002e-09,24.30012499136,1.71491250816,48.86175000192
2e-09,24.30012499136,1.713350008064,48.8305
2.5e-09,24.25324998848,1.710225007872,48.8305
3.0000000000000004e-09,24.26887498944,1.711787507968,48.8305
3.5000000000000003e-09,24.26887498944,1.71491250816,48.86175000192
4e-09,24.2844999904,1.71491250816,48.8305
4.500000000000001e-09,24.30012499136,1.71491250816,48.78362499712
5e-09,24.30012499136,1.713350008064,48.7523749952
5.5000000000000004e-09,24.2844999904,1.713350008064,48.79924999808
6.000000000000001e-09,24.2844999904,1.713350008064,48.8305
6.5e-09,24.33137499328,1.71491250816,48.8305
7.000000000000001e-09,24.33137499328,1.71491250816,48.81487499904
7.500000000000001e-09,24.30012499136,1.713350008064,48.76799999616
8e-09,24.23762498752,1.713350008064,48.76799999616
8.5e-09,24.23762498752,1.713350008064,48.8305
9.000000000000001e-09,24.2844999904,1.716475008256,48.81487499904
9.5e-09,24.33137499328,1.71491250816,48.7523749952
1e-08,24.31574999232,1.713350008064,48.72112499328
1.0500000000000001e-08,24.26887498944,1.711787507968,48.7523749952
1.1000000000000001e-08,24.23762498752,1.711787507968,48.79924999808
1.15e-08,24.25324998848,1.711787507968,48.8305
1.2000000000000002e-08,24.31574999232,1.710225007872,48.79924999808
1.2500000000000001e-08,24.34699999424,1.711787507968,48.72112499328
1.3e-08,24.37824999616,1.711787507968,48.68987499136
1.35e-08,24.3626249952,1.70710000768,48.73674999424
1.4000000000000001e-08,24.33137499328,1.708662507776,48.79924999808
1.45e-08,24.3626249952,1.711787507968,48.81487499904
1.5000000000000002e-08,24.37824999616,1.710225007872,48.76799999616
1.55e-08,24.34699999424,1.70710000768,48.73674999424
1.6e-08,24.30012499136,1.70710000768,48.76799999616
1.6500000000000002e-08,24.23762498752,1.708662507776,48.87737500288
1.7e-08,24.23762498752,1.708662507776,48.92425000576
1.75e-08,24.30012499136,1.710225007872,48.87737500288
1.8000000000000002e-08,24.31574999232,1.708662507776,48.78362499712
1.85e-08,24.30012499136,1.70710000768,48.7523749952
1.9e-08,24.2844999904,1.70710000768,48.76799999616
1.9500000000000003e-08,24.30012499136,1.713350008064,48.81487499904
2e-08,24.37824999616,1.713350008064,48.81487499904
2.05e-08,24.42512499904,1.710225007872,48.79924999808
2.1000000000000003e-08,24.39387499712,1.708662507776,48.7523749952
2.15e-08,24.3626249952,1.70710000768,48.76799999616
2.2000000000000002e-08,24.34699999424,1.705537507584,48.79924999808
2.2500000000000003e-08,24.37824999616,1.70710000768,48.81487499904
2.3e-08,24.37824999616,1.708662507776,48.81487499904
2.3500000000000002e-08,24.39387499712,1.710225007872,48.76799999616
2.4000000000000003e-08,24.3626249952,1.708662507776,48.7523749952
2.45e-08,24.2844999904,1.710225007872,48.81487499904
2.5000000000000002e-08,24.26887498944,1.710225007872,48.81487499904
2.55e-08,24.3626249952,1.705537507584,48.81487499904
2.6e-08,24.39387499712,1.703975007488,48.81487499904
2.6500000000000002e-08,24.33137499328,1.703975007488,48.84612500096
2.7e-08,24.26887498944,1.705537507584,48.86175000192
2.75e-08,24.17512498368,1.70710000768,48.89300000384
2.8000000000000003e-08,24.23762498752,1.70710000768,48.87737500288
2.85e-08,24.3626249952,1.708662507776,48.86175000192
2.9e-08,24.48762500288,1.70710000768,48.81487499904
2.9500000000000003e-08,24.44075,1.703975007488,48.86175000192
3.0000000000000004e-08,24.34699999424,1.705537507584,48.87737500288
3.05e-08,24.30012499136,1.708662507776,48.86175000192
3.1e-08,24.2844999904,1.708662507776,48.86175000192
3.1500000000000004e-08,24.34699999424,1.705537507584,48.8305
3.2e-08,24.40949999808,1.703975007488,48.8305
3.25e-08,24.33137499328,1.703975007488,48.86175000192
3.3000000000000004e-08,24.25324998848,1.705537507584,48.87737500288
3.35e-08,24.23762498752,1.703975007488,48.87737500288
3.4e-08,24.23762498752,1.705537507584,48.87737500288
3.4500000000000005e-08,24.23762498752,1.705537507584,48.84612500096
3.5e-08,24.26887498944,1.70710000768,48.79924999808
3.55e-08,24.2844999904,1.711787507968,48.8305
3.6000000000000005e-08,24.31574999232,1.711787507968,48.86175000192
3.65e-08,24.31574999232,1.708662507776,48.93987500672
3.7e-08,24.31574999232,1.70710000768,48.93987500672
3.7500000000000005e-08,24.30012499136,1.705537507584,48.9086250048
3.8e-08,24.30012499136,1.710225007872,48.87737500288
3.85e-08,24.34699999424,1.71491250816,48.86175000192
3.9000000000000005e-08,24.31574999232,1.71491250816,48.89300000384
3.95e-08,24.33137499328,1.708662507776,48.92425000576
4e-08,24.3626249952,1.710225007872,48.92425000576
4.0500000000000005e-08,24.37824999616,1.710225007872,48.89300000384
4.1e-08,24.3626249952,1.710225007872,48.8305
4.15e-08,24.3626249952,1.711787507968,48.86175000192
4.2000000000000006e-08,24.2844999904,1.711787507968,48.9086250048
4.2500000000000003e-08,24.2063749856,1.710225007872,48.97112500864
4.3e-08,24.17512498368,1.710225007872,48.9867500096
4.3500000000000006e-08,24.2063749856,1.716475008256,48.93987500672
4.4000000000000004e-08,24.30012499136,1.71491250816,48.87737500288
4.45e-08,24.31574999232,1.710225007872,48.9086250048
4.5000000000000006e-08,24.25324998848,1.705537507584,48.92425000576
4.5500000000000004e-08,24.1282499808,1.703975007488,49.01800001152
4.6e-08,24.15949998272,1.710225007872,49.01800001152
4.6500000000000006e-08,24.2844999904,1.713350008064,48.89300000384
4.7000000000000004e-08,24.34699999424,1.710225007872,48.81487499904
4.75e-08,24.33137499328,1.708662507776,48.8305
4.8000000000000006e-08,24.2063749856,1.710225007872,48.89300000384
4.8500000000000004e-08,24.1282499808,1.710225007872,48.97112500864
4.9e-08,24.17512498368,1.708662507776,48.92425000576
4.95e-08,24.30012499136,1.711787507968,48.8305
5.0000000000000004e-08,24.40949999808,1.710225007872,48.81487499904
5.05e-08,24.3626249952,1.711787507968,48.87737500288
5.1e-08,24.26887498944,1.713350008064,48.97112500864
5.1500000000000005e-08,24.19074998464,1.71491250816,48.97112500864
5.2e-08,24.17512498368,1.711787507968,48.89300000384
5.25e-08,24.2063749856,1.710225007872,48.87737500288
5.3000000000000005e-08,24.2063749856,1.710225007872,48.9086250048
5.35e-08,24.17512498368,1.711787507968,49.03362501248
5.4e-08,24.17512498368,1.718037508352,49.0648750144
5.4500000000000005e-08,24.23762498752,1.719600008448,48.95550000768
5.5e-08,24.23762498752,1.71491250816,48.86175000192
5.55e-08,24.2063749856,1.708662507776,48.87737500288
5.6000000000000005e-08,24.15949998272,1.708662507776,48.93987500672
5.65e-08,24.19074998464,1.71491250816,48.9867500096
5.7e-08,24.30012499136,1.719600008448,48.97112500864
5.7500000000000005e-08,24.37824999616,1.718037508352,48.87737500288
5.8e-08,24.34699999424,1.71491250816,48.89300000384
5.85e-08,24.19074998464,1.71491250816,48.95550000768
5.9000000000000006e-08,24.1282499808,1.71491250816,49.01800001152
5.9500000000000003e-08,24.15949998272,1.718037508352,49.00237501056
6.000000000000001e-08,24.22199998656,1.716475008256,48.9086250048
6.05e-08,24.26887498944,1.711787507968,48.9086250048
6.1e-08,24.22199998656,1.711787507968,48.93987500672
6.15e-08,24.1282499808,1.71491250816,49.01800001152
6.2e-08,24.14387498176,1.716475008256,49.03362501248
6.250000000000001e-08,24.25324998848,1.718037508352,48.97112500864
6.300000000000001e-08,24.26887498944,1.716475008256,48.92425000576
6.35e-08,24.25324998848,1.711787507968,48.93987500672
6.4e-08,24.19074998464,1.71491250816,49.01800001152
6.45e-08,24.15949998272,1.718037508352,49.09612501632
6.5e-08,24.2063749856,1.719600008448,49.08050001536
6.55e-08,24.25324998848,1.718037508352,48.97112500864
6.600000000000001e-08,24.2063749856,1.719600008448,48.89300000384
6.65e-08,24.17512498368,1.721162508544,48.9086250048
6.7e-08,24.15949998272,1.7242875087360001,48.95550000768
6.75e-08,24.19074998464,1.72272500864,48.93987500672
6.8e-08,24.23762498752,1.718037508352,48.9086250048
6.85e-08,24.22199998656,1.716475008256,48.93987500672
6.900000000000001e-08,24.14387498176,1.716475008256,48.95550000768
6.950000000000001e-08,24.081374977920003,1.719600008448,49.00237501056
7e-08,24.17512498368,1.7258500088320001,49.01800001152
7.05e-08,24.26887498944,1.7274125089280001,49.01800001152
7.1e-08,24.23762498752,1.719600008448,48.9867500096
7.15e-08,24.19074998464,1.71491250816,48.97112500864
7.200000000000001e-08,24.1282499808,1.718037508352,49.01800001152
7.250000000000001e-08,24.081374977920003,1.721162508544,49.03362501248
7.3e-08,24.1282499808,1.72272500864,49.01800001152
7.35e-08,24.26887498944,1.721162508544,48.9867500096
7.4e-08,24.26887498944,1.718037508352,48.9867500096
7.45e-08,24.19074998464,1.721162508544,49.00237501056
7.500000000000001e-08,24.15949998272,1.7242875087360001,49.00237501056
7.550000000000001e-08,24.14387498176,1.7258500088320001,48.9867500096
7.6e-08,24.17512498368,1.7258500088320001,48.97112500864
7.65e-08,24.2063749856,1.72272500864,48.9867500096
7.7e-08,24.2063749856,1.7258500088320001,48.97112500864
7.75e-08,24.15949998272,1.7274125089280001,48.95550000768
7.800000000000001e-08,24.14387498176,1.7305375091200002,48.92425000576
7.850000000000001e-08,24.2063749856,1.7289750090240001,48.9086250048
7.9e-08,24.2063749856,1.7242875087360001,48.92425000576
7.95e-08,24.2063749856,1.721162508544,48.95550000768
8e-08,24.17512498368,1.72272500864,48.97112500864
8.05e-08,24.17512498368,1.7274125089280001,49.00237501056
8.100000000000001e-08,24.23762498752,1.7305375091200002,49.01800001152
8.150000000000001e-08,24.2844999904,1.7274125089280001,49.00237501056
8.2e-08,24.22199998656,1.7289750090240001,49.01800001152
8.25e-08,24.09699997888,1.732100009216,49.00237501056
8.3e-08,24.050124976000003,1.7305375091200002,48.9867500096
8.35e-08,24.11262497984,1.7305375091200002,48.95550000768
8.400000000000001e-08,24.22199998656,1.7274125089280001,48.97112500864
8.450000000000001e-08,24.22199998656,1.7242875087360001,49.00237501056
8.500000000000001e-08,24.2063749856,1.7274125089280001,48.97112500864
8.55e-08,24.17512498368,1.7289750090240001,48.97112500864
8.6e-08,24.19074998464,1.7305375091200002,48.93987500672
8.65e-08,24.26887498944,1.7289750090240001,48.92425000576
8.700000000000001e-08,24.2844999904,1.7274125089280001,48.9867500096
8.750000000000001e-08,24.25324998848,1.7258500088320001,49.03362501248
8.800000000000001e-08,24.15949998272,1.7305375091200002,49.00237501056
8.85e-08,24.1282499808,1.733662509312,49.01800001152
8.9e-08,24.14387498176,1.732100009216,49.03362501248
8.95e-08,24.2063749856,1.7289750090240001,49.00237501056
9.000000000000001e-08,24.2063749856,1.7305375091200002,48.97112500864
9.050000000000001e-08,24.2063749856,1.7305375091200002,48.95550000768
9.100000000000001e-08,24.17512498368,1.7305375091200002,48.95550000768
9.15e-08,24.2063749856,1.7305375091200002,48.95550000768
9.2e-08,24.25324998848,1.7289750090240001,48.9867500096
9.25e-08,24.2063749856,1.7274125089280001,49.0648750144
9.300000000000001e-08,24.15949998272,1.7305375091200002,49.03362501248
9.350000000000001e-08,24.1282499808,1.733662509312,49.03362501248
9.400000000000001e-08,24.1282499808,1.735225009408,49.01800001152
9.45e-08,24.19074998464,1.735225009408,49.01800001152
9.5e-08,24.17512498368,1.7305375091200002,49.04925001344
9.55e-08,24.15949998272,1.732100009216,49.0648750144
9.600000000000001e-08,24.1282499808,1.735225009408,49.03362501248
9.650000000000001e-08,24.1282499808,1.735225009408,49.01800001152
9.700000000000001e-08,24.19074998464,1.732100009216,49.01800001152
9.75e-08,24.30012499136,1.7289750090240001,49.00237501056
9.8e-08,24.30012499136,1.7258500088320001,48.9867500096
9.85e-08,24.2063749856,1.7274125089280001,48.93987500672
9.9e-08,24.17512498368,1.7274125089280001,48.93987500672
9.950000000000001e-08,24.22199998656,1.7258500088320001,48.95550000768
1.0000000000000001e-07,24.26887498944,1.7274125089280001,48.95550000768
1.005e-07,24.23762498752,1.7274125089280001,49.00237501056
1.01e-07,24.23762498752,1.7274125089280001,49.03362501248
1.015e-07,24.19074998464,1.7289750090240001,49.0648750144
1.02e-07,24.14387498176,1.7305375091200002,49.08050001536
1.0250000000000001e-07,24.17512498368,1.7289750090240001,49.0648750144
1.0300000000000001e-07,24.17512498368,1.7274125089280001,49.04925001344
1.0350000000000001e-07,24.15949998272,1.7274125089280001,49.01800001152
1.04e-07,24.11262497984,1.7305375091200002,48.97112500864
1.045e-07,24.15949998272,1.732100009216,48.95550000768
1.05e-07,24.19074998464,1.7305375091200002,48.95550000768
1.0550000000000001e-07,24.19074998464,1.7274125089280001,48.92425000576
1.0600000000000001e-07,24.17512498368,1.7258500088320001,48.9086250048
1.0650000000000001e-07,24.17512498368,1.7274125089280001,48.87737500288
1.07e-07,24.22199998656,1.7289750090240001,48.86175000192
1.075e-07,24.2844999904,1.7258500088320001,48.89300000384
1.08e-07,24.2844999904,1.719600008448,48.93987500672
1.0850000000000001e-07,24.22199998656,1.719600008448,49.00237501056
1.0900000000000001e-07,24.11262497984,1.7258500088320001,49.00237501056
1.0950000000000001e-07,24.11262497984,1.732100009216,48.97112500864
1.1e-07,24.2063749856,1.732100009216,48.89300000384
1.105e-07,24.30012499136,1.7258500088320001,48.87737500288
1.11e-07,24.30012499136,1.72272500864,48.92425000576
1.1150000000000001e-07,24.22199998656,1.7242875087360001,48.95550000768
1.1200000000000001e-07,24.14387498176,1.7289750090240001,48.92425000576
1.1250000000000001e-07,24.19074998464,1.7305375091200002,48.9086250048
1.13e-07,24.25324998848,1.7274125089280001,48.87737500288
1.135e-07,24.31574999232,1.7242875087360001,48.87737500288
1.14e-07,24.26887498944,1.7242875087360001,48.93987500672
1.1450000000000001e-07,24.17512498368,1.7274125089280001,49.00237501056
1.1500000000000001e-07,24.1282499808,1.7289750090240001,49.00237501056
1.1550000000000001e-07,24.2063749856,1.7289750090240001,48.9867500096
1.16e-07,24.30012499136,1.7274125089280001,48.95550000768
1.165e-07,24.22199998656,1.7258500088320001,48.97112500864
1.17e-07,24.1282499808,1.7305375091200002,48.9867500096
1.1750000000000001e-07,24.1282499808,1.732100009216,49.00237501056
1.1800000000000001e-07,24.25324998848,1.7305375091200002,48.9086250048
1.1850000000000001e-07,24.3626249952,1.7274125089280001,48.81487499904
1.1900000000000001e-07,24.3626249952,1.72272500864,48.79924999808
1.195e-07,24.25324998848,1.72272500864,48.8305
1.2000000000000002e-07,24.14387498176,1.7242875087360001,48.87737500288
1.205e-07,24.15949998272,1.7258500088320001,48.93987500672
1.21e-07,24.23762498752,1.7242875087360001,48.89300000384
1.215e-07,24.30012499136,1.7242875087360001,48.87737500288
1.22e-07,24.25324998848,1.72272500864,48.92425000576
1.2250000000000002e-07,24.15949998272,1.7242875087360001,49.01800001152
1.23e-07,24.1282499808,1.7258500088320001,49.0648750144
1.2350000000000001e-07,24.17512498368,1.7258500088320001,49.03362501248
1.24e-07,24.25324998848,1.7258500088320001,48.95550000768
1.245e-07,24.23762498752,1.7242875087360001,48.9086250048
1.2500000000000002e-07,24.2063749856,1.7258500088320001,48.89300000384
1.255e-07,24.25324998848,1.7274125089280001,48.93987500672
1.2600000000000002e-07,24.30012499136,1.7289750090240001,48.95550000768
1.265e-07,24.34699999424,1.7274125089280001,48.87737500288
1.27e-07,24.30012499136,1.7274125089280001,48.8305
1.275e-07,24.26887498944,1.7274125089280001,48.84612500096
1.28e-07,24.2063749856,1.7305375091200002,48.93987500672
1.2850000000000002e-07,24.19074998464,1.7289750090240001,49.03362501248
1.29e-07,24.22199998656,1.7274125089280001,49.03362501248
1.2950000000000001e-07,24.23762498752,1.7274125089280001,48.95550000768
1.3e-07,24.19074998464,1.7274125089280001,48.89300000384
1.305e-07,24.15949998272,1.7258500088320001,48.9086250048
1.31e-07,24.19074998464,1.7258500088320001,48.95550000768
1.315e-07,24.25324998848,1.7242875087360001,48.95550000768
1.3200000000000002e-07,24.2844999904,1.719600008448,48.89300000384
1.325e-07,24.23762498752,1.718037508352,48.86175000192
1.33e-07,24.22199998656,1.721162508544,48.84612500096
1.335e-07,24.22199998656,1.72272500864,48.9086250048
1.34e-07,24.26887498944,1.72272500864,48.92425000576
1.3450000000000002e-07,24.31574999232,1.719600008448,48.92425000576
1.35e-07,24.30012499136,1.718037508352,48.93987500672
1.3550000000000002e-07,24.25324998848,1.718037508352,48.93987500672
1.36e-07,24.19074998464,1.721162508544,48.95550000768
1.365e-07,24.22199998656,1.721162508544,49.01800001152
1.37e-07,24.30012499136,1.718037508352,49.03362501248
1.375e-07,24.33137499328,1.718037508352,48.93987500672
1.3800000000000002e-07,24.2844999904,1.721162508544,48.89300000384
1.385e-07,24.26887498944,1.72272500864,48.87737500288
1.3900000000000001e-07,24.26887498944,1.721162508544,48.87737500288
1.395e-07,24.25324998848,1.718037508352,48.89300000384
1.4e-07,24.2844999904,1.71491250816,48.89300000384
1.4050000000000002e-07,24.2844999904,1.718037508352,48.87737500288
1.41e-07,24.25324998848,1.719600008448,48.84612500096
1.4150000000000002e-07,24.23762498752,1.718037508352,48.89300000384
1.42e-07,24.25324998848,1.716475008256,48.89300000384
1.425e-07,24.23762498752,1.713350008064,48.92425000576
1.43e-07,24.2063749856,1.713350008064,48.92425000576
1.435e-07,24.22199998656,1.713350008064,48.89300000384
1.4400000000000002e-07,24.2063749856,1.713350008064,48.86175000192
1.445e-07,24.2063749856,1.711787507968,48.87737500288
1.4500000000000001e-07,24.2063749856,1.711787507968,48.9086250048
1.455e-07,24.2844999904,1.711787507968,48.87737500288
1.46e-07,24.31574999232,1.713350008064,48.87737500288
1.4650000000000002e-07,24.33137499328,1.711787507968,48.81487499904
1.47e-07,24.34699999424,1.711787507968,48.76799999616
1.4750000000000002e-07,24.30012499136,1.710225007872,48.79924999808
1.48e-07,24.23762498752,1.710225007872,48.84612500096
1.485e-07,24.22199998656,1.710225007872,48.89300000384
1.49e-07,24.2844999904,1.710225007872,48.84612500096
1.495e-07,24.26887498944,1.708662507776,48.8305
1.5000000000000002e-07,24.25324998848,1.70710000768,48.79924999808
1.505e-07,24.25324998848,1.708662507776,48.8305
1.5100000000000002e-07,24.25324998848,1.710225007872,48.87737500288
1.515e-07,24.26887498944,1.713350008064,48.8305
1.52e-07,24.30012499136,1.713350008064,48.7523749952
1.5250000000000002e-07,24.30012499136,1.710225007872,48.76799999616
1.53e-07,24.26887498944,1.710225007872,48.81487499904
1.5350000000000002e-07,24.30012499136,1.708662507776,48.8305
1.54e-07,24.31574999232,1.711787507968,48.84612500096
1.5450000000000001e-07,24.31574999232,1.711787507968,48.8305
1.55e-07,24.2844999904,1.710225007872,48.78362499712
1.555e-07,24.22199998656,1.710225007872,48.78362499712
1.5600000000000002e-07,24.22199998656,1.708662507776,48.8305
1.565e-07,24.25324998848,1.708662507776,48.8305
1.5700000000000002e-07,24.31574999232,1.710225007872,48.76799999616
1.575e-07,24.31574999232,1.711787507968,48.72112499328
1.58e-07,24.25324998848,1.710225007872,48.7523749952
1.5850000000000002e-07,24.23762498752,1.708662507776,48.79924999808
1.59e-07,24.23762498752,1.708662507776,48.8305
1.5950000000000002e-07,24.2844999904,1.708662507776,48.78362499712
1.6e-07,24.34699999424,1.710225007872,48.70549999232
1.6050000000000001e-07,24.3626249952,1.70710000768,48.68987499136
1.61e-07,24.34699999424,1.703975007488,48.73674999424
1.615e-07,24.30012499136,1.702412507392,48.76799999616
1.6200000000000002e-07,24.33137499328,1.705537507584,48.78362499712
1.625e-07,24.3626249952,1.708662507776,48.76799999616
1.6300000000000002e-07,24.33137499328,1.710225007872,48.73674999424
1.635e-07,24.26887498944,1.70710000768,48.76799999616
1.64e-07,24.2063749856,1.70710000768,48.8305
1.645e-07,24.22199998656,1.708662507776,48.9086250048
1.65e-07,24.2844999904,1.711787507968,48.86175000192
1.6550000000000002e-07,24.30012499136,1.70710000768,48.81487499904
1.66e-07,24.2844999904,1.705537507584,48.76799999616
1.6650000000000002e-07,24.30012499136,1.708662507776,48.79924999808
1.67e-07,24.2844999904,1.708662507776,48.8305
1.675e-07,24.37824999616,1.708662507776,48.8305
