Time (s),VIN,IIN,VOUT
0.0,25.26625004608,1.33110000768,43.07399998144
5e-10,25.2193750432,1.326412507392,43.03649998528
1e-09,25.11000003648,1.3217250071039999,42.973999991679996
1.5000000000000002e-09,25.09437503552,1.3201625070079999,42.96149999296
2e-09,25.15687503936,1.3217250071039999,42.9864999904
2.5e-09,25.2193750432,1.33110000768,42.99899998912
3.0000000000000004e-09,25.20375004224,1.334225007872,42.9552499936
3.5000000000000003e-09,25.0631250336,1.332662507776,42.89899999936
4e-09,25.04750003264,1.332662507776,42.90524999872
4.500000000000001e-09,25.11000003648,1.332662507776,42.96149999296
5e-09,25.2193750432,1.335787507968,43.0177499872
5.5000000000000004e-09,25.25062504512,1.337350008064,43.04274998464
6.000000000000001e-09,25.17250004032,1.334225007872,43.0177499872
6.5e-09,25.07875003456,1.329537507584,42.99274998976
7.000000000000001e-09,25.09437503552,1.327975007488,42.99899998912
7.500000000000001e-09,25.2193750432,1.33110000768,42.9864999904
8e-09,25.31312504896,1.332662507776,42.93649999552
8.5e-09,25.2193750432,1.33110000768,42.8615000032
9.000000000000001e-09,25.07875003456,1.33110000768,42.81150000832
9.5e-09,25.0631250336,1.327975007488,42.82400000704
1e-08,25.15687503936,1.334225007872,42.86775000256
1.0500000000000001e-08,25.25062504512,1.335787507968,42.88650000064
1.1000000000000001e-08,25.26625004608,1.334225007872,42.86775000256
1.15e-08,25.1412500384,1.329537507584,42.87400000192
1.2000000000000002e-08,25.11000003648,1.326412507392,42.942749994879996
1.2500000000000001e-08,25.2193750432,1.326412507392,43.02399998656
1.3e-08,25.34437505088,1.329537507584,43.05524998336
1.35e-08,25.36000005184,1.329537507584,43.03024998592
1.4000000000000001e-08,25.2193750432,1.326412507392,42.98024999104
1.45e-08,25.09437503552,1.326412507392,42.96149999296
1.5000000000000002e-08,25.09437503552,1.327975007488,42.9552499936
1.55e-08,25.18812504128,1.329537507584,42.93024999616
1.6e-08,25.23500004416,1.334225007872,42.87400000192
1.6500000000000002e-08,25.17250004032,1.334225007872,42.84275000512
1.7e-08,25.04750003264,1.33110000768,42.86775000256
1.75e-08,24.9850000288,1.33110000768,42.93649999552
1.8000000000000002e-08,25.09437503552,1.332662507776,42.973999991679996
1.85e-08,25.23500004416,1.334225007872,42.98024999104
1.9e-08,25.23500004416,1.334225007872,42.9552499936
1.9500000000000003e-08,25.1412500384,1.332662507776,42.93649999552
2e-08,25.09437503552,1.33110000768,42.94899999424
2.05e-08,25.17250004032,1.33110000768,42.942749994879996
2.1000000000000003e-08,25.26625004608,1.329537507584,42.88650000064
2.15e-08,25.28187504704,1.33110000768,42.8302500064
2.2000000000000002e-08,25.15687503936,1.329537507584,42.7990000096
2.2500000000000003e-08,25.03187503168,1.329537507584,42.81775000768
2.3e-08,25.0631250336,1.327975007488,42.8615000032
2.3500000000000002e-08,25.2193750432,1.327975007488,42.88650000064
2.4000000000000003e-08,25.297500048,1.326412507392,42.87400000192
2.45e-08,25.2193750432,1.3232875071999999,42.88025000128
2.5000000000000002e-08,25.11000003648,1.3232875071999999,42.89275
2.55e-08,25.11000003648,1.329537507584,42.90524999872
2.6e-08,25.2193750432,1.334225007872,42.85525000384
2.6500000000000002e-08,25.28187504704,1.335787507968,42.780250011519996
2.7e-08,25.2193750432,1.334225007872,42.72400001728
2.75e-08,25.07875003456,1.33110000768,42.72400001728
2.8000000000000003e-08,25.01625003072,1.332662507776,42.749000014719996
2.85e-08,25.0631250336,1.329537507584,42.74275001536
2.9e-08,25.11000003648,1.329537507584,42.7052500192
2.9500000000000003e-08,25.09437503552,1.33110000768,42.68650002112
3.0000000000000004e-08,25.03187503168,1.327975007488,42.72400001728
3.05e-08,25.01625003072,1.326412507392,42.81775000768
3.1e-08,25.07875003456,1.3232875071999999,42.89275
3.1500000000000004e-08,25.20375004224,1.3232875071999999,42.89275
3.2e-08,25.2193750432,1.3232875071999999,42.86775000256
3.25e-08,25.15687503936,1.326412507392,42.85525000384
3.3000000000000004e-08,25.12562503744,1.33110000768,42.8615000032
3.35e-08,25.18812504128,1.334225007872,42.83650000576
3.4e-08,25.26625004608,1.334225007872,42.75525001408
3.4500000000000005e-08,25.26625004608,1.334225007872,42.6740000224
3.5e-08,25.2193750432,1.33110000768,42.63650002624
3.55e-08,25.17250004032,1.329537507584,42.6740000224
3.6000000000000005e-08,25.15687503936,1.326412507392,42.71775001792
3.65e-08,25.18812504128,1.3217250071039999,42.736500016
3.7e-08,25.17250004032,1.3217250071039999,42.73025001664
3.7500000000000005e-08,25.11000003648,1.3232875071999999,42.749000014719996
3.8e-08,25.07875003456,1.3232875071999999,42.77400001216
3.85e-08,25.12562503744,1.33110000768,42.79275001024
3.9000000000000005e-08,25.18812504128,1.334225007872,42.79275001024
3.95e-08,25.15687503936,1.334225007872,42.76150001344
4e-08,25.11000003648,1.332662507776,42.71775001792
4.0500000000000005e-08,25.09437503552,1.329537507584,42.68650002112
4.1e-08,25.15687503936,1.332662507776,42.66150002368
4.15e-08,25.25062504512,1.334225007872,42.6740000224
4.2000000000000006e-08,25.26625004608,1.334225007872,42.68025002176
4.2500000000000003e-08,25.2193750432,1.33110000768,42.71775001792
4.3e-08,25.1412500384,1.326412507392,42.74275001536
4.3500000000000006e-08,25.11000003648,1.327975007488,42.749000014719996
4.4000000000000004e-08,25.17250004032,1.33110000768,42.7052500192
4.45e-08,25.17250004032,1.33110000768,42.68650002112
4.5000000000000006e-08,25.15687503936,1.33110000768,42.69275002048
4.5500000000000004e-08,25.09437503552,1.329537507584,42.749000014719996
4.6e-08,25.11000003648,1.33110000768,42.76150001344
4.6500000000000006e-08,25.15687503936,1.332662507776,42.7052500192
4.7000000000000004e-08,25.18812504128,1.329537507584,42.6115000288
4.75e-08,25.18812504128,1.329537507584,42.54275003584
4.8000000000000006e-08,25.18812504128,1.33110000768,42.54275003584
4.8500000000000004e-08,25.20375004224,1.327975007488,42.57400003264
4.9e-08,25.23500004416,1.329537507584,42.59275003072
4.95e-08,25.23500004416,1.33110000768,42.580250032
5.0000000000000004e-08,25.12562503744,1.329537507584,42.57400003264
5.05e-08,25.01625003072,1.329537507584,42.63650002624
5.1e-08,25.0631250336,1.326412507392,42.71775001792
5.1500000000000005e-08,25.1412500384,1.327975007488,42.75525001408
5.2e-08,25.18812504128,1.326412507392,42.7052500192
5.25e-08,25.12562503744,1.3232875071999999,42.63025002688
5.3000000000000005e-08,25.07875003456,1.3248500072959999,42.59275003072
5.35e-08,25.11000003648,1.326412507392,42.62400002752
5.4e-08,25.25062504512,1.3232875071999999,42.6427500256
5.4500000000000005e-08,25.34437505088,1.3232875071999999,42.6115000288
5.5e-08,25.23500004416,1.3232875071999999,42.5490000352
5.55e-08,25.07875003456,1.3248500072959999,42.52400003776
5.6000000000000005e-08,25.03187503168,1.326412507392,42.57400003264
5.65e-08,25.1412500384,1.327975007488,42.64900002496
5.7e-08,25.26625004608,1.334225007872,42.65525002432
5.7500000000000005e-08,25.2193750432,1.334225007872,42.59275003072
5.8e-08,25.0631250336,1.332662507776,42.49275004096
5.85e-08,24.9850000288,1.329537507584,42.44900004544
5.9000000000000006e-08,25.11000003648,1.329537507584,42.46150004416
5.9500000000000003e-08,25.25062504512,1.329537507584,42.4865000416
6.000000000000001e-08,25.28187504704,1.329537507584,42.46775004352
6.05e-08,25.11000003648,1.326412507392,42.44900004544
6.1e-08,24.9850000288,1.326412507392,42.46150004416
6.15e-08,25.00062502976,1.329537507584,42.52400003776
6.2e-08,25.15687503936,1.332662507776,42.56775003328
6.250000000000001e-08,25.25062504512,1.33110000768,42.57400003264
6.300000000000001e-08,25.15687503936,1.329537507584,42.5490000352
6.35e-08,25.03187503168,1.327975007488,42.52400003776
6.4e-08,25.03187503168,1.33110000768,42.5177500384
6.45e-08,25.17250004032,1.33110000768,42.53025003712
6.5e-08,25.26625004608,1.327975007488,42.53025003712
6.55e-08,25.26625004608,1.3217250071039999,42.5177500384
6.600000000000001e-08,25.12562503744,1.3201625070079999,42.49275004096
6.65e-08,25.04750003264,1.3232875071999999,42.4865000416
6.7e-08,25.11000003648,1.3232875071999999,42.4865000416
6.75e-08,25.15687503936,1.326412507392,42.47400004288
6.8e-08,25.15687503936,1.329537507584,42.46150004416
6.85e-08,25.04750003264,1.329537507584,42.47400004288
6.900000000000001e-08,25.00062502976,1.332662507776,42.4865000416
6.950000000000001e-08,25.01625003072,1.335787507968,42.5177500384
7e-08,25.11000003648,1.335787507968,42.5177500384
7.05e-08,25.15687503936,1.332662507776,42.51150003904
7.1e-08,25.1412500384,1.327975007488,42.5177500384
7.15e-08,25.12562503744,1.327975007488,42.53025003712
7.200000000000001e-08,25.15687503936,1.327975007488,42.52400003776
7.250000000000001e-08,25.2193750432,1.327975007488,42.49900004032
7.3e-08,25.20375004224,1.326412507392,42.4865000416
7.35e-08,25.18812504128,1.3248500072959999,42.52400003776
7.4e-08,25.17250004032,1.3201625070079999,42.59275003072
7.45e-08,25.17250004032,1.3232875071999999,42.6427500256
7.500000000000001e-08,25.20375004224,1.327975007488,42.64900002496
7.550000000000001e-08,25.18812504128,1.33110000768,42.617750028159996
7.6e-08,25.17250004032,1.332662507776,42.59275003072
7.65e-08,25.17250004032,1.327975007488,42.59900003008
7.7e-08,25.17250004032,1.329537507584,42.580250032
7.75e-08,25.17250004032,1.327975007488,42.54275003584
7.800000000000001e-08,25.1412500384,1.327975007488,42.47400004288
7.850000000000001e-08,25.1412500384,1.3248500072959999,42.44900004544
7.9e-08,25.1412500384,1.3248500072959999,42.51150003904
7.95e-08,25.17250004032,1.327975007488,42.6115000288
8e-08,25.2193750432,1.33110000768,42.65525002432
8.05e-08,25.20375004224,1.33110000768,42.63025002688
8.100000000000001e-08,25.1412500384,1.329537507584,42.56775003328
8.150000000000001e-08,25.12562503744,1.326412507392,42.56775003328
8.2e-08,25.20375004224,1.329537507584,42.580250032
8.25e-08,25.26625004608,1.33110000768,42.59275003072
8.3e-08,25.23500004416,1.329537507584,42.5490000352
8.35e-08,25.1412500384,1.33110000768,42.50525003968
8.400000000000001e-08,25.09437503552,1.329537507584,42.5177500384
8.450000000000001e-08,25.11000003648,1.326412507392,42.59900003008
8.500000000000001e-08,25.2193750432,1.326412507392,42.66150002368
8.55e-08,25.25062504512,1.326412507392,42.66150002368
8.6e-08,25.18812504128,1.326412507392,42.60525002944
8.65e-08,25.07875003456,1.329537507584,42.57400003264
8.700000000000001e-08,25.11000003648,1.327975007488,42.62400002752
8.750000000000001e-08,25.23500004416,1.33110000768,42.7052500192
8.800000000000001e-08,25.297500048,1.33110000768,42.72400001728
8.85e-08,25.25062504512,1.33110000768,42.68650002112
8.9e-08,25.12562503744,1.33110000768,42.63025002688
8.95e-08,25.11000003648,1.329537507584,42.63650002624
9.000000000000001e-08,25.18812504128,1.329537507584,42.66775002304
9.050000000000001e-08,25.28187504704,1.334225007872,42.68025002176
9.100000000000001e-08,25.26625004608,1.337350008064,42.63650002624
9.15e-08,25.09437503552,1.337350008064,42.586500031359996
9.2e-08,25.00062502976,1.335787507968,42.57400003264
9.25e-08,25.03187503168,1.332662507776,42.617750028159996
9.300000000000001e-08,25.17250004032,1.334225007872,42.6740000224
9.350000000000001e-08,25.2193750432,1.335787507968,42.71150001856
9.400000000000001e-08,25.12562503744,1.332662507776,42.71775001792
9.45e-08,25.01625003072,1.329537507584,42.73025001664
9.5e-08,25.01625003072,1.3248500072959999,42.76150001344
9.55e-08,25.17250004032,1.327975007488,42.78650001088
9.600000000000001e-08,25.28187504704,1.329537507584,42.75525001408
9.650000000000001e-08,25.297500048,1.326412507392,42.7052500192
9.700000000000001e-08,25.20375004224,1.3248500072959999,42.66150002368
9.75e-08,25.12562503744,1.3248500072959999,42.66150002368
9.8e-08,25.15687503936,1.3248500072959999,42.65525002432
9.85e-08,25.25062504512,1.327975007488,42.64900002496
9.9e-08,25.25062504512,1.33110000768,42.617750028159996
9.950000000000001e-08,25.09437503552,1.332662507776,42.586500031359996
1.0000000000000001e-07,24.969375027839998,1.335787507968,42.580250032
1.005e-07,24.938125025919998,1.334225007872,42.586500031359996
1.01e-07,25.03187503168,1.334225007872,42.59900003008
1.015e-07,25.07875003456,1.332662507776,42.63025002688
1.02e-07,25.0631250336,1.33110000768,42.68025002176
1.0250000000000001e-07,25.01625003072,1.329537507584,42.736500016
1.0300000000000001e-07,25.03187503168,1.327975007488,42.780250011519996
1.0350000000000001e-07,25.1412500384,1.327975007488,42.79275001024
1.04e-07,25.2193750432,1.329537507584,42.7677500128
1.045e-07,25.23500004416,1.329537507584,42.74275001536
1.05e-07,25.20375004224,1.33110000768,42.736500016
1.0550000000000001e-07,25.15687503936,1.33110000768,42.736500016
1.0600000000000001e-07,25.12562503744,1.334225007872,42.71775001792
1.0650000000000001e-07,25.1412500384,1.335787507968,42.71150001856
1.07e-07,25.17250004032,1.332662507776,42.71150001856
1.075e-07,25.17250004032,1.33110000768,42.74275001536
1.08e-07,25.17250004032,1.332662507776,42.77400001216
1.0850000000000001e-07,25.12562503744,1.329537507584,42.77400001216
1.0900000000000001e-07,25.0631250336,1.327975007488,42.7677500128
1.0950000000000001e-07,25.07875003456,1.329537507584,42.78650001088
1.1e-07,25.1412500384,1.33110000768,42.7990000096
1.105e-07,25.15687503936,1.33110000768,42.7990000096
1.11e-07,25.09437503552,1.332662507776,42.76150001344
1.1150000000000001e-07,25.07875003456,1.334225007872,42.71150001856
1.1200000000000001e-07,25.0631250336,1.33110000768,42.66150002368
1.1250000000000001e-07,25.11000003648,1.327975007488,42.69275002048
1.13e-07,25.17250004032,1.329537507584,42.75525001408
1.135e-07,25.17250004032,1.33110000768,42.81150000832
1.14e-07,25.15687503936,1.334225007872,42.7990000096
1.1450000000000001e-07,25.17250004032,1.337350008064,42.7677500128
1.1500000000000001e-07,25.2193750432,1.335787507968,42.77400001216
1.1550000000000001e-07,25.297500048,1.332662507776,42.84275000512
1.16e-07,25.297500048,1.33110000768,42.91149999808
1.165e-07,25.23500004416,1.329537507584,42.9239999968
1.17e-07,25.12562503744,1.329537507584,42.88025000128
1.1750000000000001e-07,25.11000003648,1.326412507392,42.84900000448
1.1800000000000001e-07,25.1412500384,1.3248500072959999,42.83650000576
1.1850000000000001e-07,25.17250004032,1.3248500072959999,42.84275000512
1.1900000000000001e-07,25.1412500384,1.327975007488,42.84900000448
1.195e-07,25.11000003648,1.332662507776,42.81150000832
1.2000000000000002e-07,25.07875003456,1.334225007872,42.76150001344
1.205e-07,25.11000003648,1.332662507776,42.74275001536
1.21e-07,25.20375004224,1.332662507776,42.780250011519996
1.215e-07,25.25062504512,1.332662507776,42.84275000512
1.22e-07,25.2193750432,1.332662507776,42.85525000384
1.2250000000000002e-07,25.17250004032,1.335787507968,42.85525000384
1.23e-07,25.17250004032,1.33110000768,42.86775000256
1.2350000000000001e-07,25.15687503936,1.327975007488,42.90524999872
1.24e-07,25.15687503936,1.327975007488,42.94899999424
1.245e-07,25.12562503744,1.327975007488,42.94899999424
1.2500000000000002e-07,25.09437503552,1.329537507584,42.91149999808
1.255e-07,25.07875003456,1.326412507392,42.88025000128
1.2600000000000002e-07,25.1412500384,1.326412507392,42.8615000032
1.265e-07,25.18812504128,1.326412507392,42.8615000032
1.27e-07,25.20375004224,1.33110000768,42.84275000512
1.275e-07,25.20375004224,1.332662507776,42.81150000832
1.28e-07,25.2193750432,1.332662507776,42.7990000096
1.2850000000000002e-07,25.2193750432,1.332662507776,42.83650000576
1.29e-07,25.23500004416,1.332662507776,42.88025000128
1.2950000000000001e-07,25.2193750432,1.332662507776,42.90524999872
1.3e-07,25.18812504128,1.332662507776,42.89275
1.305e-07,25.17250004032,1.329537507584,42.89275
1.31e-07,25.2193750432,1.327975007488,42.93649999552
1.315e-07,25.2193750432,1.327975007488,42.973999991679996
1.3200000000000002e-07,25.18812504128,1.329537507584,42.973999991679996
1.325e-07,25.1412500384,1.327975007488,42.91149999808
1.33e-07,25.11000003648,1.327975007488,42.83650000576
1.335e-07,25.11000003648,1.327975007488,42.83650000576
1.34e-07,25.1412500384,1.33110000768,42.87400000192
1.3450000000000002e-07,25.1412500384,1.334225007872,42.89275
1.35e-07,25.11000003648,1.332662507776,42.88650000064
1.3550000000000002e-07,25.07875003456,1.327975007488,42.8615000032
1.36e-07,25.12562503744,1.326412507392,42.86775000256
1.365e-07,25.2193750432,1.3248500072959999,42.93024999616
1.37e-07,25.28187504704,1.3248500072959999,42.96774999232
1.375e-07,25.26625004608,1.3248500072959999,42.9552499936
1.3800000000000002e-07,25.18812504128,1.3232875071999999,42.88650000064
1.385e-07,25.1412500384,1.3217250071039999,42.86775000256
1.3900000000000001e-07,25.17250004032,1.3217250071039999,42.89275
1.395e-07,25.2193750432,1.3248500072959999,42.91774999744
1.4e-07,25.17250004032,1.329537507584,42.88650000064
1.4050000000000002e-07,25.0631250336,1.327975007488,42.80525000896
1.41e-07,25.0631250336,1.329537507584,42.75525001408
1.4150000000000002e-07,25.12562503744,1.33110000768,42.80525000896
1.42e-07,25.18812504128,1.337350008064,42.88650000064
1.425e-07,25.20375004224,1.340475008256,42.91774999744
1.43e-07,25.1412500384,1.337350008064,42.90524999872
1.435e-07,25.15687503936,1.334225007872,42.91149999808
1.4400000000000002e-07,25.2193750432,1.327975007488,42.96149999296
1.445e-07,25.28187504704,1.3232875071999999,43.03024998592
1.4500000000000001e-07,25.28187504704,1.3232875071999999,43.04274998464
1.455e-07,25.20375004224,1.3232875071999999,43.00524998848
1.46e-07,25.11000003648,1.3232875071999999,42.94899999424
1.4650000000000002e-07,25.11000003648,1.3217250071039999,42.942749994879996
1.47e-07,25.18812504128,1.3232875071999999,42.96774999232
1.4750000000000002e-07,25.23500004416,1.3248500072959999,42.973999991679996
1.48e-07,25.17250004032,1.33110000768,42.93649999552
1.485e-07,25.0631250336,1.33110000768,42.89275
1.49e-07,25.0631250336,1.327975007488,42.89899999936
1.495e-07,25.1412500384,1.329537507584,42.973999991679996
1.5000000000000002e-07,25.25062504512,1.332662507776,43.02399998656
1.505e-07,25.26625004608,1.334225007872,43.0177499872
1.5100000000000002e-07,25.15687503936,1.329537507584,42.99274998976
1.515e-07,25.07875003456,1.326412507392,42.98024999104
1.52e-07,25.12562503744,1.3232875071999999,42.98024999104
1.5250000000000002e-07,25.25062504512,1.3232875071999999,42.96774999232
1.53e-07,25.28187504704,1.326412507392,42.90524999872
1.5350000000000002e-07,25.20375004224,1.327975007488,42.84900000448
1.54e-07,25.07875003456,1.327975007488,42.7990000096
1.5450000000000001e-07,25.0631250336,1.329537507584,42.81775000768
1.55e-07,25.17250004032,1.332662507776,42.8615000032
1.555e-07,25.23500004416,1.335787507968,42.88025000128
1.5600000000000002e-07,25.2193750432,1.335787507968,42.86775000256
1.565e-07,25.12562503744,1.33110000768,42.88025000128
1.5700000000000002e-07,25.11000003648,1.3248500072959999,42.93649999552
1.575e-07,25.23500004416,1.3248500072959999,43.03024998592
1.58e-07,25.36000005184,1.326412507392,43.048999984
1.5850000000000002e-07,25.34437505088,1.326412507392,43.00524998848
1.59e-07,25.20375004224,1.3232875071999999,42.96774999232
1.5950000000000002e-07,25.09437503552,1.3232875071999999,42.9552499936
1.6e-07,25.09437503552,1.3248500072959999,42.942749994879996
1.6050000000000001e-07,25.18812504128,1.326412507392,42.91774999744
1.61e-07,25.2193750432,1.329537507584,42.8615000032
1.615e-07,25.1412500384,1.329537507584,42.84275000512
1.6200000000000002e-07,25.03187503168,1.329537507584,42.87400000192
1.625e-07,25.00062502976,1.329537507584,42.93024999616
1.6300000000000002e-07,25.12562503744,1.33110000768,42.96774999232
1.635e-07,25.23500004416,1.332662507776,42.96149999296
1.64e-07,25.2193750432,1.332662507776,42.93649999552
1.645e-07,25.11000003648,1.329537507584,42.93649999552
1.65e-07,25.07875003456,1.327975007488,42.942749994879996
1.6550000000000002e-07,25.17250004032,1.33110000768,42.942749994879996
1.66e-07,25.28187504704,1.334225007872,42.88650000064
1.6650000000000002e-07,25.26625004608,1.33110000768,42.82400000704
1.67e-07,25.1412500384,1.327975007488,42.80525000896
