Time (s),VIN,IIN,VOUT
0.0,24.211749984639997,1.446237508736,44.30312500288
5e-10,24.196124983679997,1.44467500864,44.3343750048
1e-09,24.180499982719997,1.443112508544,44.4125000096
1.5000000000000002e-09,24.196124983679997,1.446237508736,44.45937501248
2e-09,24.242999986559997,1.450925009024,44.38125000768
2.5e-09,24.242999986559997,1.450925009024,44.31875000384
3.0000000000000004e-09,24.242999986559997,1.443112508544,44.28750000192
3.5000000000000003e-09,24.242999986559997,1.438425008256,44.31875000384
4e-09,24.274249988479998,1.439987508352,44.4125000096
4.500000000000001e-09,24.367999994239998,1.44467500864,44.44375001152
5e-09,24.367999994239998,1.446237508736,44.36562500672
5.5000000000000004e-09,24.321124991359998,1.44467500864,44.35000000576
6.000000000000001e-09,24.227374985599997,1.441550008448,44.35000000576
6.5e-09,24.180499982719997,1.441550008448,44.45937501248
7.000000000000001e-09,24.211749984639997,1.443112508544,44.4906250144
7.500000000000001e-09,24.258624987519998,1.446237508736,44.47500001344
8e-09,24.258624987519998,1.446237508736,44.38125000768
8.5e-09,24.196124983679997,1.44467500864,44.30312500288
9.000000000000001e-09,24.211749984639997,1.441550008448,44.31875000384
9.5e-09,24.227374985599997,1.439987508352,44.35000000576
1e-08,24.305499990399998,1.439987508352,44.35000000576
1.0500000000000001e-08,24.367999994239998,1.439987508352,44.30312500288
1.1000000000000001e-08,24.367999994239998,1.439987508352,44.22499999808
1.15e-08,24.289874989439998,1.438425008256,44.20937499712
1.2000000000000002e-08,24.274249988479998,1.438425008256,44.31875000384
1.2500000000000001e-08,24.321124991359998,1.439987508352,44.42812501056
1.3e-08,24.289874989439998,1.441550008448,44.45937501248
1.35e-08,24.274249988479998,1.439987508352,44.42812501056
1.4000000000000001e-08,24.242999986559997,1.43686250816,44.36562500672
1.45e-08,24.211749984639997,1.435300008064,44.39687500864
1.5000000000000002e-08,24.196124983679997,1.43686250816,44.44375001152
1.55e-08,24.258624987519998,1.438425008256,44.50625001536
1.6e-08,24.274249988479998,1.438425008256,44.45937501248
1.6500000000000002e-08,24.289874989439998,1.435300008064,44.3343750048
1.7e-08,24.352374993279998,1.435300008064,44.22499999808
1.75e-08,24.39924999616,1.435300008064,44.20937499712
1.8000000000000002e-08,24.44612499904,1.43686250816,44.24062499904
1.85e-08,24.43049999808,1.435300008064,44.31875000384
1.9e-08,24.383624995199998,1.432175007872,44.3343750048
1.9500000000000003e-08,24.321124991359998,1.430612507776,44.30312500288
2e-08,24.321124991359998,1.433737507968,44.31875000384
2.05e-08,24.39924999616,1.435300008064,44.38125000768
2.1000000000000003e-08,24.352374993279998,1.438425008256,44.42812501056
2.15e-08,24.289874989439998,1.438425008256,44.42812501056
2.2000000000000002e-08,24.180499982719997,1.43686250816,44.38125000768
2.2500000000000003e-08,24.164874981759997,1.435300008064,44.36562500672
2.3e-08,24.227374985599997,1.435300008064,44.30312500288
2.3500000000000002e-08,24.336749992319998,1.435300008064,44.30312500288
2.4000000000000003e-08,24.383624995199998,1.433737507968,44.25625
2.45e-08,24.352374993279998,1.435300008064,44.24062499904
2.5000000000000002e-08,24.352374993279998,1.432175007872,44.22499999808
2.55e-08,24.39924999616,1.432175007872,44.22499999808
2.6e-08,24.44612499904,1.43686250816,44.24062499904
2.6500000000000002e-08,24.43049999808,1.433737507968,44.31875000384
2.7e-08,24.39924999616,1.432175007872,44.35000000576
2.75e-08,24.336749992319998,1.430612507776,44.36562500672
2.8000000000000003e-08,24.274249988479998,1.433737507968,44.36562500672
2.85e-08,24.321124991359998,1.435300008064,44.36562500672
2.9e-08,24.321124991359998,1.432175007872,44.35000000576
2.9500000000000003e-08,24.305499990399998,1.432175007872,44.3343750048
3.0000000000000004e-08,24.242999986559997,1.435300008064,44.30312500288
3.05e-08,24.289874989439998,1.433737507968,44.25625
3.1e-08,24.336749992319998,1.433737507968,44.1781249952
3.1500000000000004e-08,24.41487499712,1.432175007872,44.13124999232
3.2e-08,24.50862500288,1.432175007872,44.11562499136
3.25e-08,24.49300000192,1.42905000768,44.11562499136
3.3000000000000004e-08,24.47737500096,1.4259250074879999,44.11562499136
3.35e-08,24.44612499904,1.427487507584,44.13124999232
3.4e-08,24.43049999808,1.430612507776,44.16249999424
3.4500000000000005e-08,24.383624995199998,1.430612507776,44.30312500288
3.5e-08,24.367999994239998,1.430612507776,44.38125000768
3.55e-08,24.289874989439998,1.42905000768,44.4125000096
3.6000000000000005e-08,24.242999986559997,1.430612507776,44.44375001152
3.65e-08,24.258624987519998,1.430612507776,44.39687500864
3.7e-08,24.289874989439998,1.430612507776,44.30312500288
3.7500000000000005e-08,24.258624987519998,1.42905000768,44.25625
3.8e-08,24.274249988479998,1.4259250074879999,44.22499999808
3.85e-08,24.41487499712,1.4259250074879999,44.1781249952
3.9000000000000005e-08,24.5398750048,1.42905000768,44.08437498944
3.95e-08,24.57112500672,1.427487507584,44.05312498752
4e-08,24.55550000576,1.4259250074879999,44.06874998848
4.0500000000000005e-08,24.46175,1.4228000072959999,44.13124999232
4.1e-08,24.352374993279998,1.4228000072959999,44.22499999808
4.15e-08,24.305499990399998,1.4243625073919999,44.28750000192
4.2000000000000006e-08,24.352374993279998,1.4259250074879999,44.3343750048
4.2500000000000003e-08,24.305499990399998,1.4228000072959999,44.38125000768
4.3e-08,24.227374985599997,1.4212375071999999,44.39687500864
4.3500000000000006e-08,24.180499982719997,1.4212375071999999,44.3343750048
4.4000000000000004e-08,24.211749984639997,1.427487507584,44.3343750048
4.45e-08,24.289874989439998,1.42905000768,44.25625
4.5000000000000006e-08,24.352374993279998,1.4243625073919999,44.14687499328
4.5500000000000004e-08,24.383624995199998,1.4259250074879999,44.06874998848
4.6e-08,24.383624995199998,1.4243625073919999,44.06874998848
4.6500000000000006e-08,24.39924999616,1.427487507584,44.13124999232
4.7000000000000004e-08,24.41487499712,1.4259250074879999,44.1781249952
4.75e-08,24.46175,1.4228000072959999,44.24062499904
4.8000000000000006e-08,24.47737500096,1.4196750071039999,44.25625
4.8500000000000004e-08,24.41487499712,1.4228000072959999,44.27187500096
4.9e-08,24.321124991359998,1.4259250074879999,44.31875000384
4.95e-08,24.242999986559997,1.427487507584,44.35000000576
5.0000000000000004e-08,24.258624987519998,1.427487507584,44.39687500864
5.05e-08,24.305499990399998,1.4243625073919999,44.44375001152
5.1e-08,24.321124991359998,1.4228000072959999,44.36562500672
5.1500000000000005e-08,24.305499990399998,1.427487507584,44.25625
5.2e-08,24.258624987519998,1.427487507584,44.19374999616
5.25e-08,24.211749984639997,1.4243625073919999,44.19374999616
5.3000000000000005e-08,24.258624987519998,1.4212375071999999,44.19374999616
5.35e-08,24.352374993279998,1.4212375071999999,44.19374999616
5.4e-08,24.383624995199998,1.4243625073919999,44.16249999424
5.4500000000000005e-08,24.383624995199998,1.4243625073919999,44.1781249952
5.5e-08,24.336749992319998,1.4212375071999999,44.20937499712
5.55e-08,24.274249988479998,1.4165500069119998,44.3343750048
5.6000000000000005e-08,24.274249988479998,1.4165500069119998,44.47500001344
5.65e-08,24.305499990399998,1.4228000072959999,44.52187501632
5.7e-08,24.336749992319998,1.427487507584,44.44375001152
5.7500000000000005e-08,24.274249988479998,1.427487507584,44.39687500864
5.8e-08,24.211749984639997,1.4259250074879999,44.38125000768
5.85e-08,24.211749984639997,1.4212375071999999,44.4125000096
5.9000000000000006e-08,24.289874989439998,1.4228000072959999,44.36562500672
5.9500000000000003e-08,24.352374993279998,1.4259250074879999,44.22499999808
6.000000000000001e-08,24.41487499712,1.427487507584,44.11562499136
6.05e-08,24.39924999616,1.4243625073919999,44.0999999904
6.1e-08,24.321124991359998,1.4228000072959999,44.19374999616
6.15e-08,24.242999986559997,1.4228000072959999,44.30312500288
6.2e-08,24.196124983679997,1.4228000072959999,44.35000000576
6.250000000000001e-08,24.164874981759997,1.4228000072959999,44.39687500864
6.300000000000001e-08,24.164874981759997,1.4228000072959999,44.4125000096
6.35e-08,24.164874981759997,1.4212375071999999,44.52187501632
6.4e-08,24.227374985599997,1.4228000072959999,44.58437502016
6.45e-08,24.274249988479998,1.42905000768,44.55312501824
6.5e-08,24.305499990399998,1.430612507776,44.4125000096
6.55e-08,24.274249988479998,1.42905000768,44.28750000192
6.600000000000001e-08,24.242999986559997,1.4259250074879999,44.24062499904
6.65e-08,24.274249988479998,1.4228000072959999,44.30312500288
6.7e-08,24.352374993279998,1.4228000072959999,44.30312500288
6.75e-08,24.39924999616,1.4243625073919999,44.25625
6.8e-08,24.352374993279998,1.427487507584,44.20937499712
6.85e-08,24.289874989439998,1.4259250074879999,44.25625
6.900000000000001e-08,24.211749984639997,1.4243625073919999,44.3343750048
6.950000000000001e-08,24.196124983679997,1.4259250074879999,44.42812501056
7e-08,24.242999986559997,1.427487507584,44.47500001344
7.05e-08,24.289874989439998,1.427487507584,44.44375001152
7.1e-08,24.242999986559997,1.4259250074879999,44.39687500864
7.15e-08,24.227374985599997,1.4243625073919999,44.45937501248
7.200000000000001e-08,24.242999986559997,1.42905000768,44.52187501632
7.250000000000001e-08,24.242999986559997,1.433737507968,44.50625001536
7.3e-08,24.289874989439998,1.433737507968,44.39687500864
7.35e-08,24.305499990399998,1.430612507776,44.27187500096
7.4e-08,24.274249988479998,1.42905000768,44.24062499904
7.45e-08,24.227374985599997,1.4212375071999999,44.3343750048
7.500000000000001e-08,24.274249988479998,1.4196750071039999,44.38125000768
7.550000000000001e-08,24.305499990399998,1.4228000072959999,44.35000000576
7.6e-08,24.305499990399998,1.4243625073919999,44.36562500672
7.65e-08,24.305499990399998,1.4243625073919999,44.36562500672
7.7e-08,24.258624987519998,1.4228000072959999,44.4125000096
7.75e-08,24.242999986559997,1.427487507584,44.45937501248
7.800000000000001e-08,24.242999986559997,1.430612507776,44.4906250144
7.850000000000001e-08,24.211749984639997,1.432175007872,44.4906250144
7.9e-08,24.180499982719997,1.430612507776,44.42812501056
7.95e-08,24.164874981759997,1.42905000768,44.42812501056
8e-08,24.180499982719997,1.427487507584,44.4125000096
8.05e-08,24.242999986559997,1.430612507776,44.35000000576
8.100000000000001e-08,24.352374993279998,1.42905000768,44.30312500288
8.150000000000001e-08,24.367999994239998,1.4259250074879999,44.25625
8.2e-08,24.289874989439998,1.4228000072959999,44.25625
8.25e-08,24.211749984639997,1.4228000072959999,44.35000000576
8.3e-08,24.196124983679997,1.4259250074879999,44.39687500864
8.35e-08,24.211749984639997,1.42905000768,44.42812501056
8.400000000000001e-08,24.227374985599997,1.432175007872,44.50625001536
8.450000000000001e-08,24.211749984639997,1.433737507968,44.55312501824
8.500000000000001e-08,24.133624979839997,1.433737507968,44.53750001728
8.55e-08,24.11799997888,1.435300008064,44.4906250144
8.6e-08,24.10237497792,1.435300008064,44.42812501056
8.65e-08,24.164874981759997,1.435300008064,44.4125000096
8.700000000000001e-08,24.227374985599997,1.43686250816,44.39687500864
8.750000000000001e-08,24.274249988479998,1.432175007872,44.39687500864
8.800000000000001e-08,24.321124991359998,1.432175007872,44.35000000576
8.85e-08,24.336749992319998,1.433737507968,44.30312500288
8.9e-08,24.336749992319998,1.433737507968,44.31875000384
8.95e-08,24.242999986559997,1.430612507776,44.35000000576
9.000000000000001e-08,24.164874981759997,1.42905000768,44.42812501056
9.050000000000001e-08,24.133624979839997,1.432175007872,44.4906250144
9.100000000000001e-08,24.164874981759997,1.432175007872,44.47500001344
9.15e-08,24.180499982719997,1.433737507968,44.44375001152
9.2e-08,24.180499982719997,1.435300008064,44.45937501248
9.25e-08,24.149249980799997,1.435300008064,44.4906250144
9.300000000000001e-08,24.133624979839997,1.43686250816,44.47500001344
9.350000000000001e-08,24.211749984639997,1.439987508352,44.4125000096
9.400000000000001e-08,24.274249988479998,1.438425008256,44.31875000384
9.45e-08,24.305499990399998,1.435300008064,44.3343750048
9.5e-08,24.274249988479998,1.433737507968,44.38125000768
9.55e-08,24.196124983679997,1.435300008064,44.42812501056
9.600000000000001e-08,24.180499982719997,1.43686250816,44.42812501056
9.650000000000001e-08,24.180499982719997,1.441550008448,44.38125000768
9.700000000000001e-08,24.196124983679997,1.439987508352,44.36562500672
9.75e-08,24.149249980799997,1.43686250816,44.39687500864
9.8e-08,24.133624979839997,1.43686250816,44.44375001152
9.85e-08,24.133624979839997,1.438425008256,44.50625001536
9.9e-08,24.196124983679997,1.43686250816,44.45937501248
9.950000000000001e-08,24.274249988479998,1.435300008064,44.42812501056
1.0000000000000001e-07,24.305499990399998,1.438425008256,44.42812501056
1.005e-07,24.321124991359998,1.438425008256,44.44375001152
1.01e-07,24.336749992319998,1.439987508352,44.4125000096
1.015e-07,24.336749992319998,1.441550008448,44.36562500672
1.02e-07,24.305499990399998,1.441550008448,44.30312500288
1.0250000000000001e-07,24.258624987519998,1.438425008256,44.28750000192
1.0300000000000001e-07,24.196124983679997,1.439987508352,44.30312500288
1.0350000000000001e-07,24.180499982719997,1.438425008256,44.35000000576
1.04e-07,24.180499982719997,1.438425008256,44.36562500672
1.045e-07,24.196124983679997,1.439987508352,44.35000000576
1.05e-07,24.242999986559997,1.441550008448,44.35000000576
1.0550000000000001e-07,24.274249988479998,1.439987508352,44.39687500864
1.0600000000000001e-07,24.242999986559997,1.439987508352,44.45937501248
1.0650000000000001e-07,24.227374985599997,1.438425008256,44.50625001536
1.07e-07,24.274249988479998,1.439987508352,44.52187501632
1.075e-07,24.321124991359998,1.441550008448,44.45937501248
1.08e-07,24.336749992319998,1.446237508736,44.44375001152
1.0850000000000001e-07,24.352374993279998,1.449362508928,44.42812501056
1.0900000000000001e-07,24.336749992319998,1.446237508736,44.36562500672
1.0950000000000001e-07,24.321124991359998,1.446237508736,44.3343750048
1.1e-07,24.258624987519998,1.44467500864,44.28750000192
1.105e-07,24.305499990399998,1.443112508544,44.27187500096
1.11e-07,24.352374993279998,1.441550008448,44.28750000192
1.1150000000000001e-07,24.336749992319998,1.443112508544,44.35000000576
1.1200000000000001e-07,24.305499990399998,1.446237508736,44.4125000096
1.1250000000000001e-07,24.211749984639997,1.446237508736,44.45937501248
1.13e-07,24.164874981759997,1.441550008448,44.53750001728
1.135e-07,24.11799997888,1.439987508352,44.53750001728
1.14e-07,24.149249980799997,1.44467500864,44.52187501632
1.1450000000000001e-07,24.211749984639997,1.447800008832,44.50625001536
1.1500000000000001e-07,24.258624987519998,1.446237508736,44.45937501248
1.1550000000000001e-07,24.289874989439998,1.44467500864,44.4125000096
1.16e-07,24.258624987519998,1.44467500864,44.38125000768
1.165e-07,24.274249988479998,1.447800008832,44.35000000576
1.17e-07,24.321124991359998,1.447800008832,44.30312500288
1.1750000000000001e-07,24.41487499712,1.44467500864,44.27187500096
1.1800000000000001e-07,24.43049999808,1.439987508352,44.27187500096
1.1850000000000001e-07,24.43049999808,1.438425008256,44.35000000576
1.1900000000000001e-07,24.336749992319998,1.439987508352,44.45937501248
1.195e-07,24.258624987519998,1.438425008256,44.53750001728
1.2000000000000002e-07,24.242999986559997,1.441550008448,44.53750001728
1.205e-07,24.289874989439998,1.446237508736,44.4906250144
1.21e-07,24.336749992319998,1.447800008832,44.45937501248
1.215e-07,24.289874989439998,1.446237508736,44.39687500864
1.22e-07,24.242999986559997,1.447800008832,44.38125000768
1.2250000000000002e-07,24.242999986559997,1.446237508736,44.39687500864
1.23e-07,24.289874989439998,1.446237508736,44.39687500864
1.2350000000000001e-07,24.383624995199998,1.446237508736,44.31875000384
1.24e-07,24.383624995199998,1.447800008832,44.30312500288
1.245e-07,24.305499990399998,1.44467500864,44.31875000384
1.2500000000000002e-07,24.196124983679997,1.441550008448,44.39687500864
1.255e-07,24.227374985599997,1.441550008448,44.47500001344
1.2600000000000002e-07,24.258624987519998,1.441550008448,44.4906250144
1.265e-07,24.289874989439998,1.443112508544,44.45937501248
1.27e-07,24.258624987519998,1.44467500864,44.39687500864
1.275e-07,24.196124983679997,1.443112508544,44.4125000096
1.28e-07,24.164874981759997,1.446237508736,44.42812501056
1.2850000000000002e-07,24.211749984639997,1.447800008832,44.42812501056
1.29e-07,24.305499990399998,1.449362508928,44.35000000576
1.2950000000000001e-07,24.321124991359998,1.449362508928,44.20937499712
1.3e-07,24.336749992319998,1.449362508928,44.16249999424
1.305e-07,24.321124991359998,1.446237508736,44.24062499904
1.31e-07,24.336749992319998,1.443112508544,44.31875000384
1.315e-07,24.352374993279998,1.441550008448,44.3343750048
1.3200000000000002e-07,24.336749992319998,1.443112508544,44.30312500288
1.325e-07,24.274249988479998,1.441550008448,44.28750000192
1.33e-07,24.164874981759997,1.439987508352,44.35000000576
1.335e-07,24.164874981759997,1.441550008448,44.4906250144
1.34e-07,24.164874981759997,1.441550008448,44.5687500192
1.3450000000000002e-07,24.164874981759997,1.443112508544,44.52187501632
1.35e-07,24.164874981759997,1.446237508736,44.36562500672
1.3550000000000002e-07,24.164874981759997,1.446237508736,44.35000000576
1.36e-07,24.149249980799997,1.44467500864,44.36562500672
1.365e-07,24.180499982719997,1.443112508544,44.42812501056
1.37e-07,24.258624987519998,1.443112508544,44.4125000096
1.375e-07,24.336749992319998,1.44467500864,44.28750000192
1.3800000000000002e-07,24.352374993279998,1.446237508736,44.1781249952
1.385e-07,24.367999994239998,1.441550008448,44.22499999808
1.3900000000000001e-07,24.321124991359998,1.439987508352,44.30312500288
1.395e-07,24.274249988479998,1.441550008448,44.38125000768
1.4e-07,24.227374985599997,1.44467500864,44.42812501056
1.4050000000000002e-07,24.196124983679997,1.447800008832,44.38125000768
1.41e-07,24.164874981759997,1.44467500864,44.31875000384
1.4150000000000002e-07,24.164874981759997,1.441550008448,44.35000000576
1.42e-07,24.164874981759997,1.441550008448,44.39687500864
1.425e-07,24.180499982719997,1.44467500864,44.42812501056
1.43e-07,24.227374985599997,1.449362508928,44.35000000576
1.435e-07,24.227374985599997,1.44467500864,44.30312500288
1.4400000000000002e-07,24.227374985599997,1.438425008256,44.28750000192
1.445e-07,24.242999986559997,1.43686250816,44.35000000576
1.4500000000000001e-07,24.321124991359998,1.435300008064,44.44375001152
1.455e-07,24.367999994239998,1.439987508352,44.42812501056
1.46e-07,24.367999994239998,1.44467500864,44.35000000576
1.4650000000000002e-07,24.289874989439998,1.44467500864,44.35000000576
1.47e-07,24.211749984639997,1.439987508352,44.4125000096
1.4750000000000002e-07,24.180499982719997,1.438425008256,44.47500001344
1.48e-07,24.196124983679997,1.439987508352,44.50625001536
1.485e-07,24.242999986559997,1.441550008448,44.45937501248
1.49e-07,24.211749984639997,1.441550008448,44.3343750048
1.495e-07,24.196124983679997,1.439987508352,44.30312500288
1.5000000000000002e-07,24.180499982719997,1.438425008256,44.31875000384
1.505e-07,24.227374985599997,1.439987508352,44.36562500672
1.5100000000000002e-07,24.321124991359998,1.443112508544,44.3343750048
1.515e-07,24.367999994239998,1.438425008256,44.27187500096
1.52e-07,24.305499990399998,1.43686250816,44.20937499712
1.5250000000000002e-07,24.242999986559997,1.438425008256,44.22499999808
1.53e-07,24.305499990399998,1.439987508352,44.3343750048
1.5350000000000002e-07,24.321124991359998,1.439987508352,44.44375001152
1.54e-07,24.289874989439998,1.441550008448,44.44375001152
1.5450000000000001e-07,24.258624987519998,1.43686250816,44.42812501056
1.55e-07,24.227374985599997,1.433737507968,44.39687500864
1.555e-07,24.180499982719997,1.435300008064,44.39687500864
1.5600000000000002e-07,24.196124983679997,1.438425008256,44.47500001344
1.565e-07,24.227374985599997,1.43686250816,44.4906250144
1.5700000000000002e-07,24.242999986559997,1.433737507968,44.4125000096
1.575e-07,24.289874989439998,1.430612507776,44.30312500288
