Time (s),VIN,IIN,VOUT
0.0,24.219249986559998,1.336987508544,42.37837500864
5e-10,24.297374991359998,1.341675008832,42.33150000576
1e-09,24.266124989439998,1.336987508544,42.25337500096
1.5000000000000002e-09,24.203624985599998,1.33073750816,42.25337500096
2e-09,24.156749982719997,1.327612507968,42.33150000576
2.5e-09,24.172374983679997,1.327612507968,42.42525001152
3.0000000000000004e-09,24.219249986559998,1.329175008064,42.44087501248
3.5000000000000003e-09,24.234874987519998,1.33073750816,42.37837500864
4e-09,24.125499980799997,1.33073750816,42.34712500672
4.500000000000001e-09,24.07862497792,1.332300008256,42.37837500864
5e-09,24.109874979839997,1.333862508352,42.3940000096
5.5000000000000004e-09,24.187999984639998,1.335425008448,42.37837500864
6.000000000000001e-09,24.203624985599998,1.336987508544,42.3158750048
6.5e-09,24.203624985599998,1.335425008448,42.30025000384
7.000000000000001e-09,24.156749982719997,1.333862508352,42.25337500096
7.500000000000001e-09,24.172374983679997,1.332300008256,42.30025000384
8e-09,24.266124989439998,1.332300008256,42.3158750048
8.5e-09,24.297374991359998,1.335425008448,42.34712500672
9.000000000000001e-09,24.281749990399998,1.33073750816,42.33150000576
9.5e-09,24.203624985599998,1.329175008064,42.33150000576
1e-08,24.172374983679997,1.33073750816,42.33150000576
1.0500000000000001e-08,24.203624985599998,1.335425008448,42.3940000096
1.1000000000000001e-08,24.219249986559998,1.333862508352,42.3940000096
1.15e-08,24.187999984639998,1.329175008064,42.42525001152
1.2000000000000002e-08,24.156749982719997,1.327612507968,42.42525001152
1.2500000000000001e-08,24.109874979839997,1.329175008064,42.3940000096
1.3e-08,24.109874979839997,1.332300008256,42.36275000768
1.35e-08,24.172374983679997,1.335425008448,42.34712500672
1.4000000000000001e-08,24.187999984639998,1.332300008256,42.36275000768
1.45e-08,24.187999984639998,1.33073750816,42.3940000096
1.5000000000000002e-08,24.172374983679997,1.33073750816,42.37837500864
1.55e-08,24.203624985599998,1.332300008256,42.3158750048
1.6e-08,24.281749990399998,1.336987508544,42.25337500096
1.6500000000000002e-08,24.281749990399998,1.336987508544,42.25337500096
1.7e-08,24.297374991359998,1.333862508352,42.33150000576
1.75e-08,24.281749990399998,1.332300008256,42.37837500864
1.8000000000000002e-08,24.203624985599998,1.332300008256,42.33150000576
1.85e-08,24.187999984639998,1.33073750816,42.3158750048
1.9e-08,24.203624985599998,1.33073750816,42.30025000384
1.9500000000000003e-08,24.219249986559998,1.329175008064,42.33150000576
2e-08,24.203624985599998,1.329175008064,42.40962501056
2.05e-08,24.156749982719997,1.33073750816,42.44087501248
2.1000000000000003e-08,24.156749982719997,1.329175008064,42.37837500864
2.15e-08,24.219249986559998,1.329175008064,42.3158750048
2.2000000000000002e-08,24.250499988479998,1.33073750816,42.30025000384
2.2500000000000003e-08,24.281749990399998,1.33073750816,42.3940000096
2.3e-08,24.250499988479998,1.329175008064,42.44087501248
2.3500000000000002e-08,24.219249986559998,1.329175008064,42.44087501248
2.4000000000000003e-08,24.281749990399998,1.329175008064,42.34712500672
2.45e-08,24.32862499328,1.329175008064,42.3158750048
2.5000000000000002e-08,24.37549999616,1.3244875077759999,42.33150000576
2.55e-08,24.312999992319998,1.3213625075839999,42.36275000768
2.6e-08,24.234874987519998,1.3244875077759999,42.37837500864
2.6500000000000002e-08,24.187999984639998,1.327612507968,42.36275000768
2.7e-08,24.234874987519998,1.329175008064,42.28462500288
2.75e-08,24.297374991359998,1.327612507968,42.23775
2.8000000000000003e-08,24.297374991359998,1.327612507968,42.28462500288
2.85e-08,24.281749990399998,1.329175008064,42.3158750048
2.9e-08,24.250499988479998,1.329175008064,42.30025000384
2.9500000000000003e-08,24.266124989439998,1.329175008064,42.30025000384
3.0000000000000004e-08,24.297374991359998,1.327612507968,42.30025000384
3.05e-08,24.34424999424,1.3244875077759999,42.34712500672
3.1e-08,24.281749990399998,1.326050007872,42.36275000768
3.1500000000000004e-08,24.250499988479998,1.3244875077759999,42.37837500864
3.2e-08,24.297374991359998,1.327612507968,42.37837500864
3.25e-08,24.297374991359998,1.329175008064,42.33150000576
3.3000000000000004e-08,24.312999992319998,1.326050007872,42.33150000576
3.35e-08,24.312999992319998,1.3229250076799999,42.3158750048
3.4e-08,24.297374991359998,1.3213625075839999,42.26900000192
3.4500000000000005e-08,24.297374991359998,1.3229250076799999,42.28462500288
3.5e-08,24.34424999424,1.326050007872,42.22212499904
3.55e-08,24.37549999616,1.326050007872,42.23775
3.6000000000000005e-08,24.42237499904,1.326050007872,42.25337500096
3.65e-08,24.42237499904,1.3229250076799999,42.26900000192
3.7e-08,24.3598749952,1.3213625075839999,42.23775
3.7500000000000005e-08,24.312999992319998,1.3213625075839999,42.25337500096
3.8e-08,24.250499988479998,1.3198000074879999,42.26900000192
3.85e-08,24.266124989439998,1.3166750072959998,42.30025000384
3.9000000000000005e-08,24.266124989439998,1.3166750072959998,42.28462500288
3.95e-08,24.32862499328,1.3182375073919999,42.28462500288
4e-08,24.42237499904,1.3229250076799999,42.22212499904
4.0500000000000005e-08,24.37549999616,1.3229250076799999,42.20649999808
4.1e-08,24.281749990399998,1.3198000074879999,42.1596249952
4.15e-08,24.250499988479998,1.3182375073919999,42.14399999424
4.2000000000000006e-08,24.40674999808,1.3182375073919999,42.14399999424
4.2500000000000003e-08,24.48487500288,1.3182375073919999,42.20649999808
4.3e-08,24.438,1.3135500071039998,42.22212499904
4.3500000000000006e-08,24.3598749952,1.3135500071039998,42.26900000192
4.4000000000000004e-08,24.234874987519998,1.3151125071999998,42.30025000384
4.45e-08,24.109874979839997,1.3151125071999998,42.30025000384
4.5000000000000006e-08,24.141124981759997,1.3135500071039998,42.26900000192
4.5500000000000004e-08,24.266124989439998,1.3151125071999998,42.30025000384
4.6e-08,24.266124989439998,1.3135500071039998,42.26900000192
4.6500000000000006e-08,24.234874987519998,1.3119875070079998,42.26900000192
4.7000000000000004e-08,24.250499988479998,1.3135500071039998,42.20649999808
4.75e-08,24.297374991359998,1.3119875070079998,42.20649999808
4.8000000000000006e-08,24.39112499712,1.3119875070079998,42.14399999424
4.8500000000000004e-08,24.39112499712,1.3119875070079998,42.09712499136
4.9e-08,24.40674999808,1.3104250069119998,42.0814999904
4.95e-08,24.40674999808,1.3104250069119998,42.0814999904
5.0000000000000004e-08,24.37549999616,1.3135500071039998,42.12837499328
5.05e-08,24.32862499328,1.3088625068159998,42.23775
5.1e-08,24.34424999424,1.302612506432,42.26900000192
5.1500000000000005e-08,24.34424999424,1.29948750624,42.26900000192
5.2e-08,24.297374991359998,1.3057375066239998,42.25337500096
5.25e-08,24.234874987519998,1.3104250069119998,42.23775
5.3000000000000005e-08,24.187999984639998,1.3119875070079998,42.23775
5.35e-08,24.234874987519998,1.3104250069119998,42.30025000384
5.4e-08,24.266124989439998,1.3104250069119998,42.33150000576
5.4500000000000005e-08,24.297374991359998,1.3135500071039998,42.33150000576
5.5e-08,24.297374991359998,1.3135500071039998,42.22212499904
5.55e-08,24.266124989439998,1.3088625068159998,42.17524999616
5.6000000000000005e-08,24.250499988479998,1.3057375066239998,42.17524999616
5.65e-08,24.281749990399998,1.3088625068159998,42.23775
5.7e-08,24.3598749952,1.3104250069119998,42.23775
5.7500000000000005e-08,24.39112499712,1.3119875070079998,42.19087499712
5.8e-08,24.34424999424,1.3135500071039998,42.14399999424
5.85e-08,24.234874987519998,1.3088625068159998,42.20649999808
5.9000000000000006e-08,24.172374983679997,1.304175006528,42.26900000192
5.9500000000000003e-08,24.187999984639998,1.3057375066239998,42.34712500672
6.000000000000001e-08,24.281749990399998,1.3151125071999998,42.34712500672
6.05e-08,24.3598749952,1.3182375073919999,42.23775
6.1e-08,24.250499988479998,1.3135500071039998,42.14399999424
6.15e-08,24.125499980799997,1.3088625068159998,42.19087499712
6.2e-08,24.141124981759997,1.3073000067199998,42.28462500288
6.250000000000001e-08,24.219249986559998,1.3073000067199998,42.36275000768
6.300000000000001e-08,24.32862499328,1.3073000067199998,42.25337500096
6.35e-08,24.37549999616,1.3073000067199998,42.1596249952
6.4e-08,24.34424999424,1.3073000067199998,42.1596249952
6.45e-08,24.250499988479998,1.3104250069119998,42.26900000192
6.5e-08,24.219249986559998,1.3104250069119998,42.42525001152
6.55e-08,24.219249986559998,1.3104250069119998,42.45650001344
6.600000000000001e-08,24.234874987519998,1.3088625068159998,42.36275000768
6.65e-08,24.203624985599998,1.3073000067199998,42.33150000576
6.7e-08,24.187999984639998,1.3073000067199998,42.3940000096
6.75e-08,24.234874987519998,1.3073000067199998,42.4721250144
6.8e-08,24.297374991359998,1.3104250069119998,42.50337501632
6.85e-08,24.297374991359998,1.3135500071039998,42.34712500672
6.900000000000001e-08,24.203624985599998,1.3119875070079998,42.20649999808
6.950000000000001e-08,24.125499980799997,1.3088625068159998,42.17524999616
7e-08,24.141124981759997,1.3088625068159998,42.26900000192
7.05e-08,24.250499988479998,1.3104250069119998,42.34712500672
7.1e-08,24.3598749952,1.3104250069119998,42.26900000192
7.15e-08,24.297374991359998,1.3104250069119998,42.20649999808
7.200000000000001e-08,24.203624985599998,1.3088625068159998,42.20649999808
7.250000000000001e-08,24.109874979839997,1.3104250069119998,42.28462500288
7.3e-08,24.172374983679997,1.3104250069119998,42.40962501056
7.35e-08,24.250499988479998,1.3104250069119998,42.42525001152
7.4e-08,24.312999992319998,1.3119875070079998,42.36275000768
7.45e-08,24.250499988479998,1.3104250069119998,42.34712500672
7.500000000000001e-08,24.187999984639998,1.3104250069119998,42.37837500864
7.550000000000001e-08,24.172374983679997,1.3104250069119998,42.44087501248
7.6e-08,24.219249986559998,1.3119875070079998,42.4721250144
7.65e-08,24.312999992319998,1.3135500071039998,42.3940000096
7.7e-08,24.34424999424,1.3135500071039998,42.25337500096
7.75e-08,24.312999992319998,1.3119875070079998,42.26900000192
7.800000000000001e-08,24.234874987519998,1.3088625068159998,42.3158750048
7.850000000000001e-08,24.219249986559998,1.3088625068159998,42.42525001152
7.9e-08,24.234874987519998,1.3135500071039998,42.40962501056
7.95e-08,24.250499988479998,1.3119875070079998,42.37837500864
8e-08,24.250499988479998,1.3104250069119998,42.33150000576
8.05e-08,24.219249986559998,1.3119875070079998,42.34712500672
8.100000000000001e-08,24.156749982719997,1.3104250069119998,42.40962501056
8.150000000000001e-08,24.156749982719997,1.3135500071039998,42.42525001152
8.2e-08,24.172374983679997,1.3166750072959998,42.42525001152
8.25e-08,24.141124981759997,1.3166750072959998,42.36275000768
8.3e-08,24.109874979839997,1.3151125071999998,42.33150000576
8.35e-08,24.203624985599998,1.3135500071039998,42.30025000384
8.400000000000001e-08,24.266124989439998,1.3166750072959998,42.28462500288
8.450000000000001e-08,24.297374991359998,1.3151125071999998,42.30025000384
8.500000000000001e-08,24.281749990399998,1.3104250069119998,42.28462500288
8.55e-08,24.250499988479998,1.3088625068159998,42.30025000384
8.6e-08,24.203624985599998,1.3088625068159998,42.30025000384
8.65e-08,24.187999984639998,1.3119875070079998,42.36275000768
8.700000000000001e-08,24.219249986559998,1.3119875070079998,42.37837500864
8.750000000000001e-08,24.203624985599998,1.3119875070079998,42.45650001344
8.800000000000001e-08,24.172374983679997,1.3135500071039998,42.48775001536
8.85e-08,24.109874979839997,1.3182375073919999,42.45650001344
8.9e-08,24.125499980799997,1.3213625075839999,42.3940000096
8.95e-08,24.156749982719997,1.3229250076799999,42.36275000768
9.000000000000001e-08,24.187999984639998,1.3198000074879999,42.37837500864
9.050000000000001e-08,24.187999984639998,1.3135500071039998,42.40962501056
9.100000000000001e-08,24.219249986559998,1.3119875070079998,42.3940000096
9.15e-08,24.281749990399998,1.3151125071999998,42.33150000576
9.2e-08,24.312999992319998,1.3198000074879999,42.30025000384
9.25e-08,24.281749990399998,1.3166750072959998,42.3158750048
9.300000000000001e-08,24.172374983679997,1.3135500071039998,42.37837500864
9.350000000000001e-08,24.109874979839997,1.3135500071039998,42.42525001152
9.400000000000001e-08,24.125499980799997,1.3198000074879999,42.3940000096
9.45e-08,24.156749982719997,1.3244875077759999,42.3940000096
9.5e-08,24.172374983679997,1.3244875077759999,42.36275000768
9.55e-08,24.109874979839997,1.3182375073919999,42.37837500864
9.600000000000001e-08,24.06299997696,1.3151125071999998,42.42525001152
9.650000000000001e-08,24.07862497792,1.3182375073919999,42.44087501248
9.700000000000001e-08,24.203624985599998,1.3213625075839999,42.37837500864
9.75e-08,24.266124989439998,1.3213625075839999,42.30025000384
9.8e-08,24.297374991359998,1.3198000074879999,42.33150000576
9.85e-08,24.234874987519998,1.3166750072959998,42.40962501056
9.9e-08,24.172374983679997,1.3166750072959998,42.42525001152
9.950000000000001e-08,24.156749982719997,1.3198000074879999,42.42525001152
1.0000000000000001e-07,24.187999984639998,1.3244875077759999,42.3940000096
1.005e-07,24.203624985599998,1.3244875077759999,42.37837500864
1.01e-07,24.172374983679997,1.3213625075839999,42.40962501056
1.015e-07,24.125499980799997,1.3182375073919999,42.44087501248
1.02e-07,24.141124981759997,1.3229250076799999,42.42525001152
1.0250000000000001e-07,24.187999984639998,1.327612507968,42.44087501248
1.0300000000000001e-07,24.219249986559998,1.3229250076799999,42.37837500864
1.0350000000000001e-07,24.250499988479998,1.3182375073919999,42.34712500672
1.04e-07,24.250499988479998,1.3213625075839999,42.36275000768
1.045e-07,24.234874987519998,1.326050007872,42.37837500864
1.05e-07,24.234874987519998,1.327612507968,42.36275000768
1.0550000000000001e-07,24.234874987519998,1.326050007872,42.3158750048
1.0600000000000001e-07,24.203624985599998,1.326050007872,42.28462500288
1.0650000000000001e-07,24.156749982719997,1.3229250076799999,42.33150000576
1.07e-07,24.172374983679997,1.327612507968,42.34712500672
1.075e-07,24.250499988479998,1.329175008064,42.33150000576
1.08e-07,24.234874987519998,1.327612507968,42.34712500672
1.0850000000000001e-07,24.172374983679997,1.3229250076799999,42.34712500672
1.0900000000000001e-07,24.156749982719997,1.3244875077759999,42.36275000768
1.0950000000000001e-07,24.219249986559998,1.326050007872,42.40962501056
1.1e-07,24.250499988479998,1.327612507968,42.42525001152
1.105e-07,24.266124989439998,1.329175008064,42.42525001152
1.11e-07,24.234874987519998,1.329175008064,42.36275000768
1.1150000000000001e-07,24.187999984639998,1.326050007872,42.36275000768
1.1200000000000001e-07,24.187999984639998,1.329175008064,42.36275000768
1.1250000000000001e-07,24.219249986559998,1.333862508352,42.36275000768
1.13e-07,24.297374991359998,1.335425008448,42.33150000576
1.135e-07,24.281749990399998,1.332300008256,42.25337500096
1.14e-07,24.219249986559998,1.33073750816,42.23775
1.1450000000000001e-07,24.187999984639998,1.33073750816,42.28462500288
1.1500000000000001e-07,24.219249986559998,1.33073750816,42.34712500672
1.1550000000000001e-07,24.219249986559998,1.33073750816,42.37837500864
1.16e-07,24.219249986559998,1.329175008064,42.40962501056
1.165e-07,24.219249986559998,1.327612507968,42.40962501056
1.17e-07,24.219249986559998,1.33073750816,42.3940000096
1.1750000000000001e-07,24.266124989439998,1.333862508352,42.36275000768
1.1800000000000001e-07,24.32862499328,1.332300008256,42.33150000576
1.1850000000000001e-07,24.297374991359998,1.33073750816,42.33150000576
1.1900000000000001e-07,24.234874987519998,1.332300008256,42.3158750048
1.195e-07,24.219249986559998,1.333862508352,42.33150000576
1.2000000000000002e-07,24.281749990399998,1.33855000864,42.3158750048
1.205e-07,24.34424999424,1.340112508736,42.28462500288
1.21e-07,24.37549999616,1.335425008448,42.3158750048
1.215e-07,24.234874987519998,1.329175008064,42.40962501056
1.22e-07,24.09424997888,1.326050007872,42.4721250144
1.2250000000000002e-07,24.109874979839997,1.327612507968,42.53462501824
1.23e-07,24.266124989439998,1.332300008256,42.48775001536
1.2350000000000001e-07,24.32862499328,1.333862508352,42.40962501056
1.24e-07,24.297374991359998,1.333862508352,42.37837500864
1.245e-07,24.203624985599998,1.333862508352,42.42525001152
1.2500000000000002e-07,24.187999984639998,1.335425008448,42.42525001152
1.255e-07,24.312999992319998,1.33855000864,42.34712500672
1.2600000000000002e-07,24.438,1.341675008832,42.23775
1.265e-07,24.42237499904,1.33855000864,42.20649999808
1.27e-07,24.297374991359998,1.332300008256,42.22212499904
1.275e-07,24.219249986559998,1.326050007872,42.34712500672
1.28e-07,24.281749990399998,1.327612507968,42.40962501056
1.2850000000000002e-07,24.34424999424,1.335425008448,42.34712500672
1.29e-07,24.3598749952,1.335425008448,42.3158750048
1.2950000000000001e-07,24.250499988479998,1.332300008256,42.34712500672
1.3e-07,24.07862497792,1.327612507968,42.44087501248
1.305e-07,24.047374976,1.329175008064,42.53462501824
1.31e-07,24.172374983679997,1.332300008256,42.50337501632
1.315e-07,24.297374991359998,1.336987508544,42.36275000768
1.3200000000000002e-07,24.312999992319998,1.336987508544,42.28462500288
1.325e-07,24.266124989439998,1.332300008256,42.33150000576
1.33e-07,24.172374983679997,1.333862508352,42.3940000096
1.335e-07,24.250499988479998,1.33855000864,42.40962501056
1.34e-07,24.34424999424,1.33855000864,42.3158750048
1.3450000000000002e-07,24.37549999616,1.333862508352,42.26900000192
1.35e-07,24.266124989439998,1.327612507968,42.25337500096
1.3550000000000002e-07,24.187999984639998,1.326050007872,42.37837500864
1.36e-07,24.187999984639998,1.329175008064,42.48775001536
1.365e-07,24.219249986559998,1.335425008448,42.44087501248
1.37e-07,24.234874987519998,1.335425008448,42.33150000576
1.375e-07,24.187999984639998,1.332300008256,42.26900000192
1.3800000000000002e-07,24.125499980799997,1.333862508352,42.28462500288
1.385e-07,24.109874979839997,1.336987508544,42.36275000768
1.3900000000000001e-07,24.234874987519998,1.336987508544,42.3940000096
1.395e-07,24.297374991359998,1.33855000864,42.3158750048
1.4e-07,24.250499988479998,1.336987508544,42.25337500096
1.4050000000000002e-07,24.187999984639998,1.333862508352,42.26900000192
1.41e-07,24.156749982719997,1.332300008256,42.36275000768
1.4150000000000002e-07,24.172374983679997,1.332300008256,42.40962501056
1.42e-07,24.203624985599998,1.332300008256,42.42525001152
1.425e-07,24.203624985599998,1.332300008256,42.3940000096
1.43e-07,24.125499980799997,1.329175008064,42.33150000576
1.435e-07,24.09424997888,1.327612507968,42.36275000768
1.4400000000000002e-07,24.141124981759997,1.332300008256,42.3940000096
1.445e-07,24.187999984639998,1.336987508544,42.37837500864
1.4500000000000001e-07,24.234874987519998,1.33855000864,42.3158750048
1.455e-07,24.203624985599998,1.333862508352,42.28462500288
1.46e-07,24.172374983679997,1.335425008448,42.26900000192
1.4650000000000002e-07,24.203624985599998,1.335425008448,42.30025000384
1.47e-07,24.281749990399998,1.335425008448,42.34712500672
1.4750000000000002e-07,24.297374991359998,1.333862508352,42.34712500672
1.48e-07,24.234874987519998,1.333862508352,42.34712500672
1.485e-07,24.203624985599998,1.333862508352,42.33150000576
1.49e-07,24.172374983679997,1.332300008256,42.33150000576
1.495e-07,24.203624985599998,1.333862508352,42.34712500672
1.5000000000000002e-07,24.203624985599998,1.333862508352,42.37837500864
1.505e-07,24.187999984639998,1.332300008256,42.42525001152
1.5100000000000002e-07,24.141124981759997,1.332300008256,42.3940000096
1.515e-07,24.109874979839997,1.332300008256,42.36275000768
1.52e-07,24.156749982719997,1.333862508352,42.33150000576
1.5250000000000002e-07,24.187999984639998,1.33855000864,42.33150000576
1.53e-07,24.187999984639998,1.33855000864,42.37837500864
1.5350000000000002e-07,24.156749982719997,1.333862508352,42.3940000096
1.54e-07,24.156749982719997,1.333862508352,42.34712500672
1.5450000000000001e-07,24.203624985599998,1.335425008448,42.30025000384
1.55e-07,24.266124989439998,1.336987508544,42.25337500096
