Time (s),V_PRI,V_SEC,V_IN,V_OUT
0.0,-17.624908799999957,-202.74997888000001,21.88450001152,36.86975001152
5e-10,-17.624908799999957,-218.37497984000004,21.89700001024,36.87912501056
1e-09,-33.24990976000004,-233.9999808,21.89075001088,36.89475000896
1.5000000000000002e-09,-17.624908799999957,-202.74997888000001,21.89700001024,36.91037500736
2e-09,-17.624908799999957,-218.37497984000004,21.88450001152,36.9197500064
2.5e-09,-1.9999078400001054,-233.9999808,21.87825001216,36.92287500608
3.0000000000000004e-09,-17.624908799999957,-249.62498176000003,21.8720000128,36.92600000576
3.5000000000000003e-09,-1.9999078400001054,-249.62498176000003,21.86575001344,36.92287500608
4e-09,-1.9999078400001054,-233.9999808,21.86575001344,36.91350000704
4.500000000000001e-09,-1.9999078400001054,-233.9999808,21.8720000128,36.89162500928
5e-09,-17.624908799999957,-233.9999808,21.8720000128,36.8728750112
5.5000000000000004e-09,13.625093119999974,-218.37497984000004,21.8720000128,36.84787501376
6.000000000000001e-09,-1.9999078400001054,-233.9999808,21.86575001344,36.82912501568
6.5e-09,13.625093119999974,-233.9999808,21.859500014079998,36.83537501504
7.000000000000001e-09,29.250094080000054,-233.9999808,21.86575001344,36.84475001408
7.500000000000001e-09,29.250094080000054,-233.9999808,21.85325001472,36.86037501248
8e-09,29.250094080000054,-218.37497984000004,21.840750016,36.88225001024
8.5e-09,29.250094080000054,-233.9999808,21.82825001728,36.89787500864
9.000000000000001e-09,13.625093119999974,-233.9999808,21.8095000192,36.91350000704
9.5e-09,44.875095039999906,-218.37497984000004,21.79700002048,36.92287500608
1e-08,44.875095039999906,-218.37497984000004,21.79700002048,36.932250005120004
1.0500000000000001e-08,60.500095999999985,-249.62498176000003,21.80325001984,36.932250005120004
1.1000000000000001e-08,44.875095039999906,-249.62498176000003,21.80325001984,36.92287500608
1.15e-08,60.500095999999985,-233.9999808,21.80325001984,36.9197500064
1.2000000000000002e-08,44.875095039999906,-233.9999808,21.79700002048,36.90725000768
1.2500000000000001e-08,44.875095039999906,-218.37497984000004,21.79700002048,36.89787500864
1.3e-08,44.875095039999906,-218.37497984000004,21.79700002048,36.8885000096
1.35e-08,60.500095999999985,-202.74997888000001,21.8095000192,36.88537500992
1.4000000000000001e-08,60.500095999999985,-218.37497984000004,21.81575001856,36.88225001024
1.45e-08,44.875095039999906,-218.37497984000004,21.81575001856,36.89162500928
1.5000000000000002e-08,60.500095999999985,-187.12497792,21.81575001856,36.904125008
1.55e-08,60.500095999999985,-202.74997888000001,21.80325001984,36.92287500608
1.6e-08,76.12509695999984,-187.12497792,21.8095000192,36.9510000032
1.6500000000000002e-08,76.12509695999984,-187.12497792,21.83450001664,36.96350000192
1.7e-08,60.500095999999985,-187.12497792,21.83450001664,36.96350000192
1.75e-08,76.12509695999984,-171.49997696000003,21.840750016,36.96350000192
1.8000000000000002e-08,76.12509695999984,-187.12497792,21.84700001536,36.95412500288
1.85e-08,91.75009791999992,-202.74997888000001,21.859500014079998,36.94475000384
1.9e-08,76.12509695999984,-202.74997888000001,21.8720000128,36.9353750048
1.9500000000000003e-08,91.75009791999992,-171.49997696000003,21.88450001152,36.92287500608
2e-08,107.37509888,-171.49997696000003,21.87825001216,36.91037500736
2.05e-08,76.12509695999984,-171.49997696000003,21.87825001216,36.89787500864
2.1000000000000003e-08,76.12509695999984,-155.874976,21.85325001472,36.88225001024
2.15e-08,107.37509888,-171.49997696000003,21.84700001536,36.87600001088
2.2000000000000002e-08,91.75009791999992,-155.874976,21.85325001472,36.86662501184
2.2500000000000003e-08,76.12509695999984,-155.874976,21.84700001536,36.86975001152
2.3e-08,107.37509888,-124.62497408000002,21.84700001536,36.87600001088
2.3500000000000002e-08,107.37509888,-140.24997504000004,21.83450001664,36.88537500992
2.4000000000000003e-08,107.37509888,-124.62497408000002,21.840750016,36.901000008320004
2.45e-08,107.37509888,-124.62497408000002,21.86575001344,36.90725000768
2.5000000000000002e-08,91.75009791999992,-140.24997504000004,21.8720000128,36.91037500736
2.55e-08,107.37509888,-108.99997311999999,21.88450001152,36.904125008
2.6e-08,107.37509888,-140.24997504000004,21.88450001152,36.89787500864
2.6500000000000002e-08,138.62510079999993,-140.24997504000004,21.89700001024,36.88225001024
2.7e-08,107.37509888,-140.24997504000004,21.90950000896,36.8728750112
2.75e-08,123.00009983999985,-124.62497408000002,21.90950000896,36.86037501248
2.8000000000000003e-08,123.00009983999985,-108.99997311999999,21.90950000896,36.84475001408
2.85e-08,123.00009983999985,-124.62497408000002,21.89700001024,36.82912501568
2.9e-08,107.37509888,-108.99997311999999,21.89075001088,36.81975001664
2.9500000000000003e-08,123.00009983999985,-108.99997311999999,21.89700001024,36.81662501696
3.0000000000000004e-08,138.62510079999993,-108.99997311999999,21.89075001088,36.82287501632
3.05e-08,123.00009983999985,-108.99997311999999,21.89700001024,36.84475001408
3.1e-08,138.62510079999993,-108.99997311999999,21.89075001088,36.86975001152
3.1500000000000004e-08,154.25010176,-93.37497216000003,21.86575001344,36.89475000896
3.2e-08,154.25010176,-93.37497216000003,21.84700001536,36.9197500064
3.25e-08,138.62510079999993,-77.7499712,21.85325001472,36.92912500544
3.3000000000000004e-08,138.62510079999993,-108.99997311999999,21.840750016,36.93850000448
3.35e-08,138.62510079999993,-77.7499712,21.85325001472,36.93850000448
3.4e-08,154.25010176,-93.37497216000003,21.840750016,36.93850000448
3.4500000000000005e-08,169.87510271999986,-108.99997311999999,21.83450001664,36.932250005120004
3.5e-08,154.25010176,-108.99997311999999,21.81575001856,36.92287500608
3.55e-08,169.87510271999986,-93.37497216000003,21.8095000192,36.91350000704
3.6000000000000005e-08,169.87510271999986,-77.7499712,21.79700002048,36.89475000896
3.65e-08,169.87510271999986,-77.7499712,21.79075002112,36.87600001088
3.7e-08,154.25010176,-77.7499712,21.78450002176,36.86350001216
3.7500000000000005e-08,169.87510271999986,-62.12497024000004,21.78450002176,36.86037501248
3.8e-08,169.87510271999986,-62.12497024000004,21.79075002112,36.8572500128
3.85e-08,154.25010176,-62.12497024000004,21.79700002048,36.86037501248
3.9000000000000005e-08,169.87510271999986,-62.12497024000004,21.81575001856,36.8572500128
3.95e-08,185.50010367999994,-46.499969280000016,21.82200001792,36.86037501248
4e-08,185.50010367999994,-46.499969280000016,21.83450001664,36.8728750112
4.0500000000000005e-08,169.87510271999986,-46.499969280000016,21.859500014079998,36.88537500992
4.1e-08,154.25010176,-62.12497024000004,21.84700001536,36.89787500864
4.15e-08,169.87510271999986,-15.249967360000028,21.84700001536,36.904125008
4.2000000000000006e-08,169.87510271999986,-30.874968319999994,21.840750016,36.90725000768
4.2500000000000003e-08,201.12510464000002,-46.499969280000016,21.83450001664,36.901000008320004
4.3e-08,169.87510271999986,-46.499969280000016,21.81575001856,36.901000008320004
4.3500000000000006e-08,185.50010367999994,-15.249967360000028,21.79700002048,36.89475000896
4.4000000000000004e-08,201.12510464000002,0.3750335999999379,21.77200002304,36.88537500992
4.45e-08,185.50010367999994,0.3750335999999379,21.75325002496,36.86975001152
4.5000000000000006e-08,169.87510271999986,0.3750335999999379,21.72825002752,36.85412501312
4.5500000000000004e-08,201.12510464000002,0.3750335999999379,21.72825002752,36.8416250144
4.6e-08,169.87510271999986,0.3750335999999379,21.72200002816,36.83537501504
4.6500000000000006e-08,169.87510271999986,-15.249967360000028,21.72200002816,36.8416250144
4.7000000000000004e-08,169.87510271999986,16.000034560000017,21.72200002816,36.83850001472
4.75e-08,185.50010367999994,16.000034560000017,21.70325003008,36.8416250144
4.8000000000000006e-08,185.50010367999994,16.000034560000017,21.70950002944,36.8572500128
4.8500000000000004e-08,185.50010367999994,31.625035519999983,21.72825002752,36.86975001152
4.9e-08,154.25010176,16.000034560000017,21.73450002688,36.89162500928
4.95e-08,169.87510271999986,47.25003647999995,21.72825002752,36.91350000704
5.0000000000000004e-08,154.25010176,16.000034560000017,21.72200002816,36.9197500064
5.05e-08,185.50010367999994,0.3750335999999379,21.7157500288,36.916625006720004
5.1e-08,154.25010176,16.000034560000017,21.7157500288,36.916625006720004
5.1500000000000005e-08,169.87510271999986,31.625035519999983,21.72825002752,36.91350000704
5.2e-08,169.87510271999986,31.625035519999983,21.74075002624,36.904125008
5.25e-08,154.25010176,31.625035519999983,21.75325002496,36.8885000096
5.3000000000000005e-08,138.62510079999993,47.25003647999995,21.7470000256,36.8728750112
5.35e-08,169.87510271999986,47.25003647999995,21.74075002624,36.8572500128
5.4e-08,154.25010176,47.25003647999995,21.74075002624,36.84787501376
5.4500000000000005e-08,154.25010176,47.25003647999995,21.72825002752,36.84787501376
5.5e-08,154.25010176,62.87503744000003,21.72825002752,36.85412501312
5.55e-08,154.25010176,47.25003647999995,21.70325003008,36.86037501248
5.6000000000000005e-08,138.62510079999993,62.87503744000003,21.70325003008,36.86662501184
5.65e-08,138.62510079999993,78.5000384,21.70325003008,36.86975001152
5.7e-08,123.00009983999985,62.87503744000003,21.70325003008,36.87912501056
5.7500000000000005e-08,123.00009983999985,94.12503935999996,21.70325003008,36.89162500928
5.8e-08,123.00009983999985,78.5000384,21.70950002944,36.91037500736
5.85e-08,138.62510079999993,62.87503744000003,21.70950002944,36.916625006720004
5.9000000000000006e-08,123.00009983999985,62.87503744000003,21.70950002944,36.9197500064
5.9500000000000003e-08,123.00009983999985,94.12503935999996,21.7157500288,36.916625006720004
6.000000000000001e-08,123.00009983999985,94.12503935999996,21.72200002816,36.90725000768
6.05e-08,123.00009983999985,94.12503935999996,21.73450002688,36.89475000896
6.1e-08,91.75009791999992,94.12503935999996,21.72825002752,36.88225001024
6.15e-08,107.37509888,109.75004031999993,21.74075002624,36.86975001152
6.2e-08,107.37509888,109.75004031999993,21.73450002688,36.85412501312
6.250000000000001e-08,91.75009791999992,109.75004031999993,21.72825002752,36.84787501376
6.300000000000001e-08,91.75009791999992,141.00004223999997,21.72825002752,36.8416250144
6.35e-08,91.75009791999992,125.37504128,21.72200002816,36.83850001472
6.4e-08,91.75009791999992,141.00004223999997,21.73450002688,36.8416250144
6.45e-08,76.12509695999984,141.00004223999997,21.76575002368,36.84475001408
6.5e-08,76.12509695999984,125.37504128,21.78450002176,36.84475001408
6.55e-08,76.12509695999984,141.00004223999997,21.80325001984,36.8572500128
6.600000000000001e-08,60.500095999999985,125.37504128,21.81575001856,36.86662501184
6.65e-08,91.75009791999992,125.37504128,21.82825001728,36.86662501184
6.7e-08,60.500095999999985,125.37504128,21.82825001728,36.8728750112
6.75e-08,60.500095999999985,141.00004223999997,21.82200001792,36.8728750112
6.8e-08,60.500095999999985,156.62504319999994,21.81575001856,36.86975001152
6.85e-08,60.500095999999985,141.00004223999997,21.79700002048,36.86350001216
6.900000000000001e-08,44.875095039999906,156.62504319999994,21.77200002304,36.8572500128
6.950000000000001e-08,44.875095039999906,125.37504128,21.75950002432,36.85412501312
7e-08,44.875095039999906,156.62504319999994,21.74075002624,36.84475001408
7.05e-08,29.250094080000054,156.62504319999994,21.72200002816,36.84787501376
7.1e-08,29.250094080000054,156.62504319999994,21.72825002752,36.84787501376
7.15e-08,44.875095039999906,156.62504319999994,21.72200002816,36.85100001344
7.200000000000001e-08,44.875095039999906,172.25004416000002,21.7470000256,36.86350001216
7.250000000000001e-08,29.250094080000054,187.87504511999998,21.778250022399998,36.87600001088
7.3e-08,13.625093119999974,156.62504319999994,21.79075002112,36.89162500928
7.35e-08,13.625093119999974,187.87504511999998,21.8095000192,36.90725000768
7.4e-08,13.625093119999974,172.25004416000002,21.81575001856,36.92287500608
7.45e-08,29.250094080000054,141.00004223999997,21.81575001856,36.932250005120004
7.500000000000001e-08,-1.9999078400001054,156.62504319999994,21.8095000192,36.93850000448
7.550000000000001e-08,-1.9999078400001054,156.62504319999994,21.79075002112,36.9353750048
7.6e-08,13.625093119999974,187.87504511999998,21.76575002368,36.92287500608
7.65e-08,-1.9999078400001054,172.25004416000002,21.7470000256,36.90725000768
7.7e-08,-1.9999078400001054,156.62504319999994,21.72825002752,36.88537500992
7.75e-08,-1.9999078400001054,187.87504511999998,21.73450002688,36.86350001216
7.800000000000001e-08,-17.624908799999957,187.87504511999998,21.7470000256,36.84787501376
7.850000000000001e-08,-17.624908799999957,172.25004416000002,21.7470000256,36.84475001408
7.9e-08,-17.624908799999957,172.25004416000002,21.75950002432,36.8416250144
7.95e-08,-1.9999078400001054,156.62504319999994,21.7470000256,36.8416250144
8e-08,-17.624908799999957,203.50004607999995,21.75325002496,36.8572500128
8.05e-08,-17.624908799999957,203.50004607999995,21.76575002368,36.8728750112
8.100000000000001e-08,-33.24990976000004,172.25004416000002,21.75325002496,36.8885000096
8.150000000000001e-08,-17.624908799999957,203.50004607999995,21.7470000256,36.90725000768
8.2e-08,-33.24990976000004,187.87504511999998,21.72825002752,36.9197500064
8.25e-08,-17.624908799999957,156.62504319999994,21.72200002816,36.92287500608
8.3e-08,-48.874910720000116,172.25004416000002,21.70325003008,36.92600000576
8.35e-08,-48.874910720000116,172.25004416000002,21.69075003136,36.916625006720004
8.400000000000001e-08,-48.874910720000116,172.25004416000002,21.69075003136,36.901000008320004
8.450000000000001e-08,-48.874910720000116,172.25004416000002,21.684500032,36.88225001024
8.500000000000001e-08,-64.49991167999997,156.62504319999994,21.67825003264,36.86662501184
8.55e-08,-48.874910720000116,172.25004416000002,21.69075003136,36.86037501248
8.6e-08,-48.874910720000116,156.62504319999994,21.70325003008,36.86037501248
8.65e-08,-64.49991167999997,172.25004416000002,21.70950002944,36.8728750112
8.700000000000001e-08,-64.49991167999997,172.25004416000002,21.72200002816,36.8885000096
8.750000000000001e-08,-64.49991167999997,156.62504319999994,21.70950002944,36.904125008
8.800000000000001e-08,-64.49991167999997,172.25004416000002,21.7157500288,36.92600000576
8.85e-08,-80.12491264000005,172.25004416000002,21.73450002688,36.94475000384
8.9e-08,-80.12491264000005,141.00004223999997,21.72825002752,36.95412500288
8.95e-08,-80.12491264000005,172.25004416000002,21.72825002752,36.96350000192
9.000000000000001e-08,-64.49991167999997,141.00004223999997,21.72825002752,36.9666250016
9.050000000000001e-08,-80.12491264000005,125.37504128,21.72825002752,36.95725000256
9.100000000000001e-08,-95.74991360000013,125.37504128,21.72825002752,36.95725000256
9.15e-08,-95.74991360000013,141.00004223999997,21.72825002752,36.93850000448
9.2e-08,-80.12491264000005,125.37504128,21.72825002752,36.9197500064
9.25e-08,-95.74991360000013,141.00004223999997,21.72825002752,36.89475000896
9.300000000000001e-08,-95.74991360000013,109.75004031999993,21.70950002944,36.87912501056
9.350000000000001e-08,-95.74991360000013,109.75004031999993,21.7157500288,36.86975001152
9.400000000000001e-08,-111.37491455999998,109.75004031999993,21.7157500288,36.8728750112
9.45e-08,-111.37491455999998,94.12503935999996,21.72200002816,36.88537500992
9.5e-08,-95.74991360000013,109.75004031999993,21.72825002752,36.89475000896
9.55e-08,-95.74991360000013,94.12503935999996,21.70950002944,36.904125008
9.600000000000001e-08,-95.74991360000013,94.12503935999996,21.697000030719998,36.916625006720004
9.650000000000001e-08,-111.37491455999998,109.75004031999993,21.70950002944,36.9197500064
9.700000000000001e-08,-126.99991552000006,94.12503935999996,21.70325003008,36.916625006720004
9.75e-08,-111.37491455999998,109.75004031999993,21.7157500288,36.91350000704
9.8e-08,-111.37491455999998,78.5000384,21.72200002816,36.91037500736
9.85e-08,-95.74991360000013,62.87503744000003,21.74075002624,36.89787500864
9.9e-08,-126.99991552000006,62.87503744000003,21.75950002432,36.89475000896
9.950000000000001e-08,-126.99991552000006,62.87503744000003,21.78450002176,36.8885000096
1.0000000000000001e-07,-126.99991552000006,78.5000384,21.79700002048,36.87912501056
1.005e-07,-142.62491648000014,78.5000384,21.82200001792,36.8728750112
1.01e-07,-126.99991552000006,62.87503744000003,21.82825001728,36.8572500128
1.015e-07,-126.99991552000006,78.5000384,21.840750016,36.84475001408
1.02e-07,-142.62491648000014,62.87503744000003,21.84700001536,36.83850001472
1.0250000000000001e-07,-158.24991744,62.87503744000003,21.84700001536,36.83537501504
1.0300000000000001e-07,-142.62491648000014,62.87503744000003,21.840750016,36.83225001536
1.0350000000000001e-07,-126.99991552000006,62.87503744000003,21.80325001984,36.83537501504
1.04e-07,-142.62491648000014,78.5000384,21.78450002176,36.84475001408
1.045e-07,-158.24991744,78.5000384,21.778250022399998,36.8572500128
1.05e-07,-158.24991744,47.25003647999995,21.77200002304,36.86975001152
1.0550000000000001e-07,-158.24991744,78.5000384,21.78450002176,36.88537500992
1.0600000000000001e-07,-173.87491840000007,62.87503744000003,21.79700002048,36.90725000768
1.0650000000000001e-07,-142.62491648000014,31.625035519999983,21.8095000192,36.916625006720004
1.07e-07,-158.24991744,31.625035519999983,21.81575001856,36.9353750048
1.075e-07,-173.87491840000007,47.25003647999995,21.81575001856,36.947875003520004
1.08e-07,-158.24991744,47.25003647999995,21.82200001792,36.95412500288
1.0850000000000001e-07,-158.24991744,31.625035519999983,21.82200001792,36.9510000032
1.0900000000000001e-07,-189.49991936000015,47.25003647999995,21.8095000192,36.94162500416
1.0950000000000001e-07,-173.87491840000007,47.25003647999995,21.79075002112,36.92912500544
1.1e-07,-173.87491840000007,31.625035519999983,21.76575002368,36.91037500736
1.105e-07,-205.12492032,16.000034560000017,21.75325002496,36.89475000896
1.11e-07,-189.49991936000015,31.625035519999983,21.75325002496,36.86975001152
1.1150000000000001e-07,-173.87491840000007,16.000034560000017,21.7470000256,36.85412501312
1.1200000000000001e-07,-189.49991936000015,31.625035519999983,21.778250022399998,36.84475001408
1.1250000000000001e-07,-189.49991936000015,31.625035519999983,21.8095000192,36.8416250144
1.13e-07,-189.49991936000015,16.000034560000017,21.82825001728,36.84475001408
1.135e-07,-189.49991936000015,16.000034560000017,21.840750016,36.8572500128
1.14e-07,-189.49991936000015,0.3750335999999379,21.85325001472,36.87600001088
1.1450000000000001e-07,-189.49991936000015,-30.874968319999994,21.87825001216,36.8885000096
1.1500000000000001e-07,-189.49991936000015,-30.874968319999994,21.89700001024,36.91037500736
1.1550000000000001e-07,-189.49991936000015,-15.249967360000028,21.9032500096,36.92287500608
1.16e-07,-173.87491840000007,-15.249967360000028,21.88450001152,36.92600000576
1.165e-07,-189.49991936000015,-30.874968319999994,21.859500014079998,36.916625006720004
1.17e-07,-205.12492032,-15.249967360000028,21.840750016,36.901000008320004
1.1750000000000001e-07,-205.12492032,-30.874968319999994,21.82825001728,36.88225001024
1.1800000000000001e-07,-205.12492032,-30.874968319999994,21.83450001664,36.86037501248
1.1850000000000001e-07,-205.12492032,-46.499969280000016,21.83450001664,36.85100001344
1.1900000000000001e-07,-205.12492032,-46.499969280000016,21.83450001664,36.83850001472
1.195e-07,-189.49991936000015,-30.874968319999994,21.81575001856,36.83225001536
1.2000000000000002e-07,-189.49991936000015,-30.874968319999994,21.82200001792,36.83537501504
1.205e-07,-189.49991936000015,-30.874968319999994,21.84700001536,36.82912501568
1.21e-07,-205.12492032,-46.499969280000016,21.84700001536,36.83537501504
1.215e-07,-189.49991936000015,-30.874968319999994,21.859500014079998,36.84475001408
1.22e-07,-189.49991936000015,-62.12497024000004,21.84700001536,36.86350001216
1.2250000000000002e-07,-173.87491840000007,-77.7499712,21.84700001536,36.87912501056
1.23e-07,-189.49991936000015,-93.37497216000003,21.840750016,36.89787500864
