Time (s),V_PRI,V_SEC,V_IN,V_OUT
0.0,-33.24990976000004,-218.37497984000004,22.367250010880003,37.77387500608
5e-10,-33.24990976000004,-218.37497984000004,22.37350001024,37.7863750048
1e-09,-33.24990976000004,-233.9999808,22.367250010880003,37.80512500288
1.5000000000000002e-09,-17.624908799999957,-218.37497984000004,22.367250010880003,37.82075000128
2e-09,-17.624908799999957,-233.9999808,22.36100001152,37.83325
2.5e-09,13.625093119999974,-249.62498176000003,22.35475001216,37.82075000128
3.0000000000000004e-09,-17.624908799999957,-265.24998272,22.348500012800002,37.82387500096
3.5000000000000003e-09,-1.9999078400001054,-249.62498176000003,22.34225001344,37.81137500224
4e-09,-1.9999078400001054,-233.9999808,22.348500012800002,37.79262500416
4.500000000000001e-09,13.625093119999974,-233.9999808,22.36100001152,37.76762500672
5e-09,-17.624908799999957,-249.62498176000003,22.35475001216,37.74262500928
5.5000000000000004e-09,13.625093119999974,-249.62498176000003,22.35475001216,37.720750011519996
6.000000000000001e-09,13.625093119999974,-249.62498176000003,22.348500012800002,37.71450001216
6.5e-09,-1.9999078400001054,-249.62498176000003,22.34225001344,37.72700001088
7.000000000000001e-09,13.625093119999974,-233.9999808,22.348500012800002,37.74887500864
7.500000000000001e-09,29.250094080000054,-233.9999808,22.33600001408,37.77387500608
8e-09,13.625093119999974,-233.9999808,22.317250016000003,37.79887500352
8.5e-09,13.625093119999974,-233.9999808,22.30475001728,37.81450000192
9.000000000000001e-09,13.625093119999974,-249.62498176000003,22.286000019200003,37.82700000064
9.5e-09,29.250094080000054,-218.37497984000004,22.27975001984,37.83325
1e-08,44.875095039999906,-233.9999808,22.27975001984,37.83325
1.0500000000000001e-08,60.500095999999985,-249.62498176000003,22.286000019200003,37.8176250016
1.1000000000000001e-08,44.875095039999906,-249.62498176000003,22.286000019200003,37.81137500224
1.15e-08,60.500095999999985,-233.9999808,22.286000019200003,37.79887500352
1.2000000000000002e-08,60.500095999999985,-233.9999808,22.286000019200003,37.7863750048
1.2500000000000001e-08,60.500095999999985,-218.37497984000004,22.29225001856,37.78012500544
1.3e-08,60.500095999999985,-218.37497984000004,22.27975001984,37.77387500608
1.35e-08,60.500095999999985,-218.37497984000004,22.29225001856,37.77387500608
1.4000000000000001e-08,44.875095039999906,-218.37497984000004,22.298500017920002,37.77700000576
1.45e-08,60.500095999999985,-218.37497984000004,22.29225001856,37.79887500352
1.5000000000000002e-08,60.500095999999985,-202.74997888000001,22.298500017920002,37.8176250016
1.55e-08,76.12509695999984,-202.74997888000001,22.29225001856,37.83637499968
1.6e-08,76.12509695999984,-202.74997888000001,22.298500017920002,37.86137499712
1.6500000000000002e-08,60.500095999999985,-187.12497792,22.32350001536,37.86762499648
1.7e-08,76.12509695999984,-202.74997888000001,22.317250016000003,37.8644999968
1.75e-08,76.12509695999984,-171.49997696000003,22.329750014720002,37.85824999744
1.8000000000000002e-08,91.75009791999992,-187.12497792,22.34225001344,37.8488749984
1.85e-08,107.37509888,-202.74997888000001,22.36100001152,37.83325
1.9e-08,76.12509695999984,-202.74997888000001,22.37350001024,37.8176250016
1.9500000000000003e-08,91.75009791999992,-187.12497792,22.367250010880003,37.80512500288
2e-08,107.37509888,-171.49997696000003,22.36100001152,37.78950000448
2.05e-08,91.75009791999992,-155.874976,22.348500012800002,37.77387500608
2.1000000000000003e-08,76.12509695999984,-171.49997696000003,22.329750014720002,37.76762500672
2.15e-08,107.37509888,-171.49997696000003,22.329750014720002,37.76450000704
2.2000000000000002e-08,91.75009791999992,-155.874976,22.329750014720002,37.76137500736
2.2500000000000003e-08,91.75009791999992,-171.49997696000003,22.32350001536,37.77387500608
2.3e-08,107.37509888,-140.24997504000004,22.32350001536,37.78325000512
2.3500000000000002e-08,123.00009983999985,-140.24997504000004,22.317250016000003,37.79575000384
2.4000000000000003e-08,107.37509888,-155.874976,22.33600001408,37.81450000192
2.45e-08,107.37509888,-124.62497408000002,22.35475001216,37.81450000192
2.5000000000000002e-08,107.37509888,-140.24997504000004,22.36100001152,37.80825000256
2.55e-08,107.37509888,-108.99997311999999,22.367250010880003,37.8020000032
2.6e-08,107.37509888,-140.24997504000004,22.36100001152,37.78950000448
2.6500000000000002e-08,154.25010176,-124.62497408000002,22.37350001024,37.7707500064
2.7e-08,123.00009983999985,-140.24997504000004,22.38600000896,37.76137500736
2.75e-08,123.00009983999985,-124.62497408000002,22.38600000896,37.7395000096
2.8000000000000003e-08,123.00009983999985,-124.62497408000002,22.37350001024,37.7238750112
2.85e-08,123.00009983999985,-124.62497408000002,22.37350001024,37.705125013119996
2.9e-08,107.37509888,-124.62497408000002,22.35475001216,37.70200001344
2.9500000000000003e-08,123.00009983999985,-124.62497408000002,22.367250010880003,37.705125013119996
3.0000000000000004e-08,123.00009983999985,-108.99997311999999,22.379750009600002,37.720750011519996
3.05e-08,123.00009983999985,-124.62497408000002,22.379750009600002,37.75200000832
3.1e-08,138.62510079999993,-108.99997311999999,22.37350001024,37.78012500544
3.1500000000000004e-08,154.25010176,-108.99997311999999,22.34225001344,37.80825000256
3.2e-08,138.62510079999993,-108.99997311999999,22.34225001344,37.83325
3.25e-08,138.62510079999993,-93.37497216000003,22.34225001344,37.83637499968
3.3000000000000004e-08,138.62510079999993,-108.99997311999999,22.34225001344,37.83949999936
3.35e-08,154.25010176,-93.37497216000003,22.34225001344,37.83012500032
3.4e-08,154.25010176,-108.99997311999999,22.329750014720002,37.83325
3.4500000000000005e-08,185.50010367999994,-108.99997311999999,22.317250016000003,37.82075000128
3.5e-08,154.25010176,-108.99997311999999,22.298500017920002,37.81450000192
3.55e-08,169.87510271999986,-93.37497216000003,22.286000019200003,37.79575000384
3.6000000000000005e-08,169.87510271999986,-93.37497216000003,22.267250021120002,37.77700000576
3.65e-08,169.87510271999986,-93.37497216000003,22.27350002048,37.76137500736
3.7e-08,138.62510079999993,-93.37497216000003,22.2547500224,37.74887500864
3.7500000000000005e-08,169.87510271999986,-77.7499712,22.26100002176,37.74575000896
3.8e-08,169.87510271999986,-77.7499712,22.27975001984,37.74575000896
3.85e-08,169.87510271999986,-77.7499712,22.298500017920002,37.75200000832
3.9000000000000005e-08,169.87510271999986,-46.499969280000016,22.32350001536,37.755125008
3.95e-08,201.12510464000002,-46.499969280000016,22.329750014720002,37.76450000704
4e-08,185.50010367999994,-46.499969280000016,22.33600001408,37.78012500544
4.0500000000000005e-08,169.87510271999986,-30.874968319999994,22.348500012800002,37.79262500416
4.1e-08,169.87510271999986,-30.874968319999994,22.33600001408,37.8020000032
4.15e-08,185.50010367999994,-15.249967360000028,22.33600001408,37.80825000256
4.2000000000000006e-08,185.50010367999994,-30.874968319999994,22.32350001536,37.8020000032
4.2500000000000003e-08,216.75010559999987,-30.874968319999994,22.32350001536,37.79575000384
4.3e-08,169.87510271999986,-46.499969280000016,22.298500017920002,37.7863750048
4.3500000000000006e-08,185.50010367999994,-15.249967360000028,22.27350002048,37.78012500544
4.4000000000000004e-08,201.12510464000002,0.3750335999999379,22.248500023040002,37.76450000704
4.45e-08,185.50010367999994,0.3750335999999379,22.236000024320003,37.74887500864
4.5000000000000006e-08,169.87510271999986,-15.249967360000028,22.204750027520003,37.736375009919996
4.5500000000000004e-08,201.12510464000002,0.3750335999999379,22.204750027520003,37.73012501056
4.6e-08,169.87510271999986,0.3750335999999379,22.204750027520003,37.7238750112
4.6500000000000006e-08,185.50010367999994,0.3750335999999379,22.19850002816,37.73012501056
4.7000000000000004e-08,185.50010367999994,16.000034560000017,22.204750027520003,37.73012501056
4.75e-08,201.12510464000002,16.000034560000017,22.186000029440002,37.7395000096
4.8000000000000006e-08,185.50010367999994,16.000034560000017,22.186000029440002,37.76137500736
4.8500000000000004e-08,185.50010367999994,31.625035519999983,22.21100002688,37.78012500544
4.9e-08,169.87510271999986,16.000034560000017,22.204750027520003,37.79887500352
4.95e-08,169.87510271999986,31.625035519999983,22.19850002816,37.8176250016
5.0000000000000004e-08,169.87510271999986,16.000034560000017,22.1922500288,37.82075000128
5.05e-08,201.12510464000002,0.3750335999999379,22.1922500288,37.81137500224
5.1e-08,154.25010176,0.3750335999999379,22.19850002816,37.80825000256
5.1500000000000005e-08,154.25010176,31.625035519999983,22.21100002688,37.79887500352
5.2e-08,169.87510271999986,31.625035519999983,22.2235000256,37.78950000448
5.25e-08,154.25010176,31.625035519999983,22.236000024320003,37.7707500064
5.3000000000000005e-08,138.62510079999993,31.625035519999983,22.217250026240002,37.74887500864
5.35e-08,154.25010176,47.25003647999995,22.217250026240002,37.7395000096
5.4e-08,154.25010176,47.25003647999995,22.21100002688,37.736375009919996
5.4500000000000005e-08,154.25010176,47.25003647999995,22.21100002688,37.74262500928
5.5e-08,154.25010176,62.87503744000003,22.204750027520003,37.74887500864
5.55e-08,169.87510271999986,62.87503744000003,22.17975003008,37.75825000768
5.6000000000000005e-08,138.62510079999993,62.87503744000003,22.17350003072,37.76762500672
5.65e-08,138.62510079999993,78.5000384,22.17350003072,37.77387500608
5.7e-08,138.62510079999993,78.5000384,22.17350003072,37.7863750048
5.7500000000000005e-08,138.62510079999993,94.12503935999996,22.17350003072,37.80512500288
5.8e-08,138.62510079999993,78.5000384,22.17975003008,37.8176250016
5.85e-08,154.25010176,78.5000384,22.17975003008,37.8176250016
5.9000000000000006e-08,123.00009983999985,78.5000384,22.17975003008,37.82075000128
5.9500000000000003e-08,138.62510079999993,94.12503935999996,22.1922500288,37.81137500224
6.000000000000001e-08,123.00009983999985,109.75004031999993,22.204750027520003,37.79575000384
6.05e-08,123.00009983999985,109.75004031999993,22.21100002688,37.78012500544
6.1e-08,107.37509888,109.75004031999993,22.204750027520003,37.75825000768
6.15e-08,107.37509888,94.12503935999996,22.204750027520003,37.74575000896
6.2e-08,107.37509888,94.12503935999996,22.204750027520003,37.73325001024
6.250000000000001e-08,91.75009791999992,109.75004031999993,22.204750027520003,37.73325001024
6.300000000000001e-08,107.37509888,141.00004223999997,22.21100002688,37.72700001088
6.35e-08,107.37509888,125.37504128,22.21100002688,37.73012501056
6.4e-08,91.75009791999992,141.00004223999997,22.2235000256,37.7395000096
6.45e-08,91.75009791999992,141.00004223999997,22.26100002176,37.74575000896
6.5e-08,76.12509695999984,141.00004223999997,22.27350002048,37.74887500864
6.55e-08,76.12509695999984,156.62504319999994,22.29225001856,37.76450000704
6.600000000000001e-08,76.12509695999984,141.00004223999997,22.30475001728,37.76762500672
6.65e-08,91.75009791999992,125.37504128,22.317250016000003,37.76762500672
6.7e-08,76.12509695999984,125.37504128,22.317250016000003,37.76762500672
6.75e-08,76.12509695999984,141.00004223999997,22.30475001728,37.76450000704
6.8e-08,76.12509695999984,141.00004223999997,22.29225001856,37.75825000768
6.85e-08,60.500095999999985,141.00004223999997,22.27975001984,37.75200000832
6.900000000000001e-08,44.875095039999906,141.00004223999997,22.248500023040002,37.74575000896
6.950000000000001e-08,60.500095999999985,156.62504319999994,22.22975002496,37.74262500928
7e-08,44.875095039999906,141.00004223999997,22.21100002688,37.736375009919996
7.05e-08,29.250094080000054,141.00004223999997,22.204750027520003,37.7395000096
7.1e-08,29.250094080000054,172.25004416000002,22.204750027520003,37.7395000096
7.15e-08,44.875095039999906,156.62504319999994,22.21100002688,37.74887500864
7.200000000000001e-08,44.875095039999906,172.25004416000002,22.236000024320003,37.76762500672
7.250000000000001e-08,29.250094080000054,187.87504511999998,22.27350002048,37.78012500544
7.3e-08,13.625093119999974,156.62504319999994,22.286000019200003,37.79575000384
7.35e-08,13.625093119999974,187.87504511999998,22.298500017920002,37.81450000192
7.4e-08,13.625093119999974,156.62504319999994,22.298500017920002,37.83325
7.45e-08,29.250094080000054,156.62504319999994,22.29225001856,37.83325
7.500000000000001e-08,-1.9999078400001054,156.62504319999994,22.27975001984,37.83325
7.550000000000001e-08,13.625093119999974,172.25004416000002,22.26100002176,37.82700000064
7.6e-08,13.625093119999974,187.87504511999998,22.22975002496,37.80825000256
7.65e-08,-1.9999078400001054,172.25004416000002,22.21100002688,37.7863750048
7.7e-08,-1.9999078400001054,172.25004416000002,22.19850002816,37.76450000704
7.75e-08,-1.9999078400001054,172.25004416000002,22.204750027520003,37.74575000896
7.800000000000001e-08,-17.624908799999957,187.87504511999998,22.217250026240002,37.73012501056
7.850000000000001e-08,-17.624908799999957,187.87504511999998,22.22975002496,37.73012501056
7.9e-08,-33.24990976000004,203.50004607999995,22.24225002368,37.73325001024
7.95e-08,-1.9999078400001054,172.25004416000002,22.236000024320003,37.74262500928
8e-08,-17.624908799999957,187.87504511999998,22.24225002368,37.76450000704
8.05e-08,-17.624908799999957,203.50004607999995,22.26100002176,37.78012500544
8.100000000000001e-08,-48.874910720000116,187.87504511999998,22.248500023040002,37.79887500352
8.150000000000001e-08,-33.24990976000004,219.12504704000003,22.236000024320003,37.81450000192
8.2e-08,-33.24990976000004,172.25004416000002,22.217250026240002,37.82075000128
8.25e-08,-17.624908799999957,172.25004416000002,22.19850002816,37.8176250016
8.3e-08,-48.874910720000116,172.25004416000002,22.17975003008,37.81137500224
8.35e-08,-64.49991167999997,187.87504511999998,22.167250031360002,37.79575000384
8.400000000000001e-08,-48.874910720000116,187.87504511999998,22.161000032,37.77387500608
8.450000000000001e-08,-48.874910720000116,172.25004416000002,22.17350003072,37.76137500736
8.500000000000001e-08,-80.12491264000005,187.87504511999998,22.167250031360002,37.74575000896
8.55e-08,-48.874910720000116,172.25004416000002,22.17975003008,37.74575000896
8.6e-08,-64.49991167999997,187.87504511999998,22.19850002816,37.75200000832
8.65e-08,-64.49991167999997,172.25004416000002,22.19850002816,37.77387500608
8.700000000000001e-08,-64.49991167999997,187.87504511999998,22.204750027520003,37.79575000384
8.750000000000001e-08,-64.49991167999997,156.62504319999994,22.19850002816,37.82075000128
8.800000000000001e-08,-80.12491264000005,172.25004416000002,22.204750027520003,37.84262499904
8.85e-08,-80.12491264000005,172.25004416000002,22.217250026240002,37.85199999808
8.9e-08,-80.12491264000005,156.62504319999994,22.217250026240002,37.85824999744
8.95e-08,-64.49991167999997,172.25004416000002,22.217250026240002,37.86137499712
9.000000000000001e-08,-95.74991360000013,125.37504128,22.21100002688,37.86137499712
9.050000000000001e-08,-80.12491264000005,109.75004031999993,22.21100002688,37.84262499904
9.100000000000001e-08,-95.74991360000013,125.37504128,22.217250026240002,37.83325
9.15e-08,-95.74991360000013,125.37504128,22.217250026240002,37.8176250016
9.2e-08,-95.74991360000013,125.37504128,22.217250026240002,37.79575000384
9.25e-08,-95.74991360000013,125.37504128,22.217250026240002,37.77700000576
9.300000000000001e-08,-111.37491455999998,125.37504128,22.204750027520003,37.7707500064
9.350000000000001e-08,-95.74991360000013,125.37504128,22.204750027520003,37.77387500608
9.400000000000001e-08,-111.37491455999998,109.75004031999993,22.204750027520003,37.77387500608
9.45e-08,-111.37491455999998,109.75004031999993,22.204750027520003,37.78950000448
9.5e-08,-111.37491455999998,125.37504128,22.204750027520003,37.79887500352
9.55e-08,-95.74991360000013,109.75004031999993,22.17975003008,37.80512500288
9.600000000000001e-08,-111.37491455999998,109.75004031999993,22.17975003008,37.8176250016
9.650000000000001e-08,-126.99991552000006,109.75004031999993,22.186000029440002,37.8176250016
9.700000000000001e-08,-126.99991552000006,94.12503935999996,22.186000029440002,37.81137500224
9.75e-08,-111.37491455999998,125.37504128,22.1922500288,37.80825000256
9.8e-08,-111.37491455999998,78.5000384,22.204750027520003,37.8020000032
9.85e-08,-111.37491455999998,78.5000384,22.22975002496,37.7863750048
9.9e-08,-126.99991552000006,62.87503744000003,22.248500023040002,37.78325000512
9.950000000000001e-08,-126.99991552000006,78.5000384,22.27350002048,37.77387500608
1.0000000000000001e-07,-126.99991552000006,78.5000384,22.29225001856,37.76450000704
1.005e-07,-142.62491648000014,78.5000384,22.31100001664,37.755125008
1.01e-07,-142.62491648000014,78.5000384,22.31100001664,37.74262500928
1.015e-07,-142.62491648000014,78.5000384,22.317250016000003,37.736375009919996
1.02e-07,-158.24991744,78.5000384,22.32350001536,37.72700001088
1.0250000000000001e-07,-158.24991744,62.87503744000003,22.32350001536,37.72700001088
1.0300000000000001e-07,-142.62491648000014,78.5000384,22.31100001664,37.73012501056
1.0350000000000001e-07,-142.62491648000014,62.87503744000003,22.27975001984,37.73325001024
1.04e-07,-158.24991744,62.87503744000003,22.26100002176,37.74887500864
1.045e-07,-173.87491840000007,78.5000384,22.267250021120002,37.76137500736
1.05e-07,-158.24991744,47.25003647999995,22.267250021120002,37.77700000576
1.0550000000000001e-07,-158.24991744,78.5000384,22.286000019200003,37.78950000448
1.0600000000000001e-07,-158.24991744,62.87503744000003,22.298500017920002,37.80825000256
1.0650000000000001e-07,-158.24991744,31.625035519999983,22.31100001664,37.8176250016
1.07e-07,-173.87491840000007,31.625035519999983,22.30475001728,37.83325
1.075e-07,-173.87491840000007,31.625035519999983,22.30475001728,37.84574999872
1.08e-07,-173.87491840000007,31.625035519999983,22.298500017920002,37.8488749984
1.0850000000000001e-07,-173.87491840000007,31.625035519999983,22.298500017920002,37.83949999936
1.0900000000000001e-07,-205.12492032,47.25003647999995,22.267250021120002,37.82387500096
1.0950000000000001e-07,-173.87491840000007,31.625035519999983,22.248500023040002,37.81137500224
1.1e-07,-173.87491840000007,31.625035519999983,22.22975002496,37.7863750048
1.105e-07,-205.12492032,16.000034560000017,22.21100002688,37.7707500064
1.11e-07,-189.49991936000015,31.625035519999983,22.2235000256,37.74887500864
1.1150000000000001e-07,-189.49991936000015,16.000034560000017,22.236000024320003,37.736375009919996
1.1200000000000001e-07,-205.12492032,16.000034560000017,22.26100002176,37.736375009919996
1.1250000000000001e-07,-205.12492032,16.000034560000017,22.29225001856,37.736375009919996
1.13e-07,-205.12492032,0.3750335999999379,22.31100001664,37.74575000896
1.135e-07,-189.49991936000015,16.000034560000017,22.32350001536,37.76137500736
1.14e-07,-189.49991936000015,0.3750335999999379,22.33600001408,37.78012500544
1.1450000000000001e-07,-189.49991936000015,-15.249967360000028,22.35475001216,37.79575000384
1.1500000000000001e-07,-205.12492032,-30.874968319999994,22.367250010880003,37.8176250016
1.1550000000000001e-07,-189.49991936000015,-15.249967360000028,22.367250010880003,37.83012500032
1.16e-07,-173.87491840000007,-15.249967360000028,22.34225001344,37.82387500096
1.165e-07,-205.12492032,-15.249967360000028,22.32350001536,37.81137500224
1.17e-07,-220.74992128000008,-30.874968319999994,22.30475001728,37.7863750048
1.1750000000000001e-07,-205.12492032,-30.874968319999994,22.30475001728,37.76137500736
1.1800000000000001e-07,-189.49991936000015,-46.499969280000016,22.30475001728,37.7395000096
1.1850000000000001e-07,-220.74992128000008,-46.499969280000016,22.31100001664,37.72700001088
1.1900000000000001e-07,-220.74992128000008,-30.874968319999994,22.30475001728,37.71762501184
1.195e-07,-189.49991936000015,-46.499969280000016,22.29225001856,37.71762501184
1.2000000000000002e-07,-189.49991936000015,-46.499969280000016,22.298500017920002,37.720750011519996
1.205e-07,-205.12492032,-46.499969280000016,22.32350001536,37.72700001088
1.21e-07,-189.49991936000015,-62.12497024000004,22.32350001536,37.736375009919996
