!Keysight Technologies,E5063A,MY54100949,A.07.00
!Date: Tue Nov 25 20:10:46 2025
!Data & Calibration Information:
!Freq	S11:SOLT1(ON)
# Hz S RI R 50
50000.000	-8.139638e-001	2.809316e-003
51995.000	-8.148550e-001	2.196335e-003
53990.000	-8.150428e-001	2.331307e-003
55985.000	-8.149301e-001	2.517591e-003
57980.000	-8.142090e-001	2.016283e-003
59975.000	-8.152556e-001	1.783281e-003
61970.000	-8.146823e-001	1.729050e-003
63965.000	-8.143306e-001	2.122427e-003
65960.000	-8.146633e-001	1.789327e-003
67955.000	-8.144606e-001	1.904286e-003
69950.000	-8.144468e-001	2.227639e-003
71945.000	-8.142461e-001	1.465762e-003
73940.000	-8.143378e-001	2.132799e-003
75935.000	-8.149667e-001	1.784114e-003
77930.000	-8.143966e-001	1.970339e-003
79925.000	-8.144382e-001	1.508481e-003
81920.000	-8.144584e-001	1.763576e-003
83915.000	-8.143509e-001	1.741898e-003
85910.000	-8.146781e-001	1.413438e-003
87905.000	-8.147874e-001	1.297568e-003
89900.000	-8.145478e-001	1.494591e-003
91895.000	-8.144968e-001	1.404606e-003
93890.000	-8.144431e-001	1.872050e-003
95885.000	-8.142853e-001	1.635196e-003
97880.000	-8.146422e-001	1.594381e-003
99875.000	-8.139217e-001	1.206537e-003
101870.000	-8.143912e-001	1.555545e-003
103865.000	-8.142202e-001	1.646974e-003
105860.000	-8.143071e-001	1.482370e-003
107855.000	-8.144641e-001	1.471568e-003
109850.000	-8.144520e-001	1.615770e-003
111845.000	-8.140964e-001	1.764921e-003
113840.000	-8.142931e-001	1.525633e-003
115835.000	-8.138683e-001	1.340289e-003
117830.000	-8.144740e-001	1.542280e-003
119825.000	-8.141020e-001	1.683006e-003
121820.000	-8.142383e-001	1.254978e-003
123815.000	-8.140344e-001	1.436756e-003
125810.000	-8.143341e-001	1.338190e-003
127805.000	-8.145311e-001	1.490123e-003
129800.000	-8.138804e-001	1.637273e-003
131795.000	-8.142867e-001	1.349841e-003
133790.000	-8.140694e-001	1.947412e-003
135785.000	-8.145129e-001	1.385870e-003
137780.000	-8.144350e-001	1.577822e-003
139775.000	-8.142926e-001	1.662246e-003
141770.000	-8.143545e-001	1.440481e-003
143765.000	-8.141981e-001	1.720260e-003
145760.000	-8.143134e-001	1.660083e-003
147755.000	-8.143036e-001	1.418136e-003
149750.000	-8.140918e-001	1.400567e-003
151745.000	-8.142387e-001	1.668862e-003
153740.000	-8.143396e-001	1.566174e-003
155735.000	-8.142187e-001	1.574593e-003
157730.000	-8.143732e-001	1.526213e-003
159725.000	-8.143525e-001	1.729929e-003
161720.000	-8.142843e-001	1.515556e-003
163715.000	-8.143925e-001	1.589509e-003
165710.000	-8.141762e-001	1.825031e-003
167705.000	-8.143621e-001	1.574152e-003
169700.000	-8.145007e-001	1.588317e-003
171695.000	-8.142024e-001	1.600577e-003
173690.000	-8.144397e-001	1.558691e-003
175685.000	-8.145698e-001	1.613745e-003
177680.000	-8.143487e-001	1.874152e-003
179675.000	-8.142584e-001	1.823220e-003
181670.000	-8.142466e-001	1.555009e-003
183665.000	-8.145987e-001	1.579065e-003
185660.000	-8.141268e-001	1.659444e-003
187655.000	-8.143628e-001	1.775078e-003
189650.000	-8.144003e-001	1.802122e-003
191645.000	-8.144664e-001	1.455274e-003
193640.000	-8.141851e-001	1.591849e-003
195635.000	-8.145193e-001	1.720664e-003
197630.000	-8.143781e-001	1.702943e-003
199625.000	-8.146658e-001	2.037464e-003
201620.000	-8.140506e-001	1.978666e-003
203615.000	-8.146724e-001	1.731327e-003
205610.000	-8.142924e-001	1.804013e-003
207605.000	-8.142304e-001	1.811514e-003
209600.000	-8.141871e-001	1.827320e-003
211595.000	-8.143198e-001	2.014494e-003
213590.000	-8.143076e-001	1.764848e-003
215585.000	-8.144500e-001	1.927668e-003
217580.000	-8.141875e-001	1.636214e-003
219575.000	-8.139824e-001	1.921318e-003
221570.000	-8.142601e-001	1.913886e-003
223565.000	-8.142548e-001	2.005004e-003
225560.000	-8.142454e-001	2.168539e-003
227555.000	-8.142503e-001	1.922102e-003
229550.000	-8.142227e-001	2.097982e-003
231545.000	-8.141143e-001	1.962630e-003
233540.000	-8.139540e-001	2.095368e-003
235535.000	-8.140930e-001	1.798282e-003
237530.000	-8.141597e-001	1.673707e-003
239525.000	-8.139883e-001	1.718172e-003
241520.000	-8.141467e-001	1.907696e-003
243515.000	-8.145468e-001	1.945830e-003
245510.000	-8.141754e-001	2.055430e-003
247505.000	-8.141514e-001	2.193655e-003
249500.000	-8.143366e-001	1.875637e-003
251495.000	-8.139129e-001	1.935655e-003
253490.000	-8.142019e-001	2.168255e-003
255485.000	-8.141813e-001	2.171974e-003
257480.000	-8.140377e-001	2.043866e-003
259475.000	-8.140570e-001	2.166140e-003
261470.000	-8.143024e-001	1.989598e-003
263465.000	-8.141426e-001	2.100725e-003
265460.000	-8.139342e-001	1.926534e-003
267455.000	-8.138460e-001	1.855183e-003
269450.000	-8.140599e-001	2.177338e-003
271445.000	-8.141175e-001	2.168635e-003
273440.000	-8.139300e-001	2.233561e-003
275435.000	-8.138320e-001	2.165422e-003
277430.000	-8.141857e-001	2.198319e-003
279425.000	-8.141536e-001	2.046246e-003
281420.000	-8.141951e-001	2.098687e-003
283415.000	-8.141204e-001	2.378556e-003
285410.000	-8.142773e-001	2.301614e-003
287405.000	-8.140754e-001	2.517097e-003
289400.000	-8.139978e-001	2.384823e-003
291395.000	-8.140685e-001	2.276171e-003
293390.000	-8.140501e-001	2.083067e-003
295385.000	-8.140529e-001	2.341467e-003
297380.000	-8.142438e-001	2.239432e-003
299375.000	-8.142343e-001	2.084447e-003
301370.000	-8.140152e-001	2.186709e-003
303365.000	-8.142672e-001	2.250151e-003
305360.000	-8.141549e-001	2.413706e-003
307355.000	-8.139910e-001	2.159225e-003
309350.000	-8.140644e-001	2.325525e-003
311345.000	-8.138692e-001	2.490639e-003
313340.000	-8.142188e-001	2.461041e-003
315335.000	-8.142430e-001	2.298329e-003
317330.000	-8.142274e-001	2.320234e-003
319325.000	-8.140751e-001	2.436996e-003
321320.000	-8.137149e-001	2.539113e-003
323315.000	-8.140657e-001	2.332129e-003
325310.000	-8.141890e-001	2.364796e-003
327305.000	-8.141853e-001	2.229744e-003
329300.000	-8.142523e-001	2.208698e-003
331295.000	-8.140127e-001	2.440700e-003
333290.000	-8.143031e-001	2.266711e-003
335285.000	-8.139873e-001	2.501011e-003
337280.000	-8.142843e-001	2.380009e-003
339275.000	-8.141195e-001	2.381289e-003
341270.000	-8.140089e-001	2.307433e-003
343265.000	-8.140115e-001	2.284148e-003
345260.000	-8.139844e-001	2.601742e-003
347255.000	-8.141152e-001	2.512623e-003
349250.000	-8.141180e-001	2.155286e-003
351245.000	-8.139232e-001	2.500062e-003
353240.000	-8.141841e-001	2.412750e-003
355235.000	-8.140319e-001	2.507488e-003
357230.000	-8.142442e-001	2.595747e-003
359225.000	-8.139576e-001	2.295891e-003
361220.000	-8.140601e-001	2.358179e-003
363215.000	-8.140527e-001	2.426046e-003
365210.000	-8.139174e-001	2.363489e-003
367205.000	-8.140033e-001	2.620961e-003
369200.000	-8.137764e-001	2.508001e-003
371195.000	-8.139544e-001	2.457878e-003
373190.000	-8.140325e-001	2.168434e-003
375185.000	-8.139460e-001	2.775831e-003
377180.000	-8.139705e-001	2.600351e-003
379175.000	-8.139816e-001	2.599596e-003
381170.000	-8.143049e-001	2.573536e-003
383165.000	-8.138984e-001	2.566732e-003
385160.000	-8.139644e-001	2.508918e-003
387155.000	-8.141066e-001	2.681402e-003
389150.000	-8.138840e-001	2.582392e-003
391145.000	-8.141710e-001	2.597898e-003
393140.000	-8.139188e-001	2.644822e-003
395135.000	-8.139510e-001	2.600869e-003
397130.000	-8.140271e-001	2.705157e-003
399125.000	-8.139825e-001	2.730964e-003
401120.000	-8.139292e-001	2.433141e-003
403115.000	-8.141406e-001	2.595332e-003
405110.000	-8.138871e-001	2.541858e-003
407105.000	-8.138461e-001	2.539372e-003
409100.000	-8.139213e-001	2.650901e-003
411095.000	-8.140272e-001	2.739036e-003
413090.000	-8.139773e-001	2.616832e-003
415085.000	-8.139062e-001	2.729963e-003
417080.000	-8.139845e-001	2.675545e-003
419075.000	-8.141564e-001	2.656180e-003
421070.000	-8.139059e-001	2.727775e-003
423065.000	-8.141377e-001	2.705693e-003
425060.000	-8.140283e-001	2.651057e-003
427055.000	-8.138191e-001	2.780561e-003
429050.000	-8.140104e-001	2.477072e-003
431045.000	-8.140564e-001	2.566993e-003
433040.000	-8.137609e-001	2.813418e-003
435035.000	-8.142484e-001	2.691411e-003
437030.000	-8.140883e-001	2.678014e-003
439025.000	-8.140148e-001	2.664536e-003
441020.000	-8.138277e-001	2.616041e-003
443015.000	-8.138961e-001	2.562262e-003
445010.000	-8.137352e-001	2.884433e-003
447005.000	-8.137988e-001	2.717772e-003
449000.000	-8.139735e-001	2.698950e-003
450995.000	-8.140613e-001	2.679316e-003
452990.000	-8.138620e-001	3.045823e-003
454985.000	-8.138085e-001	3.021558e-003
456980.000	-8.139004e-001	2.620901e-003
458975.000	-8.139677e-001	2.765825e-003
460970.000	-8.137405e-001	2.770811e-003
462965.000	-8.138797e-001	2.809662e-003
464960.000	-8.139197e-001	2.682110e-003
466955.000	-8.138587e-001	2.839174e-003
468950.000	-8.137897e-001	3.040883e-003
470945.000	-8.137990e-001	2.750721e-003
472940.000	-8.139272e-001	2.741354e-003
474935.000	-8.138584e-001	2.647686e-003
476930.000	-8.139423e-001	2.933415e-003
478925.000	-8.139500e-001	2.847329e-003
480920.000	-8.137083e-001	2.743002e-003
482915.000	-8.139510e-001	2.728078e-003
484910.000	-8.139686e-001	2.901154e-003
486905.000	-8.137395e-001	2.760102e-003
488900.000	-8.138239e-001	2.909872e-003
490895.000	-8.138256e-001	2.774900e-003
492890.000	-8.140116e-001	2.821457e-003
494885.000	-8.140681e-001	2.880833e-003
496880.000	-8.137798e-001	2.800060e-003
498875.000	-8.139583e-001	2.924098e-003
500870.000	-8.140618e-001	2.698159e-003
502865.000	-8.139096e-001	3.007909e-003
504860.000	-8.135909e-001	2.908453e-003
506855.000	-8.138829e-001	2.967606e-003
508850.000	-8.138684e-001	2.775720e-003
510845.000	-8.137895e-001	2.971159e-003
512840.000	-8.137467e-001	2.828363e-003
514835.000	-8.139008e-001	2.658593e-003
516830.000	-8.138951e-001	2.767042e-003
518825.000	-8.138183e-001	2.995951e-003
520820.000	-8.136243e-001	2.924538e-003
522815.000	-8.137703e-001	2.852410e-003
524810.000	-8.136794e-001	3.013043e-003
526805.000	-8.137388e-001	3.105033e-003
528800.000	-8.139285e-001	2.995561e-003
530795.000	-8.138488e-001	3.041856e-003
532790.000	-8.138050e-001	2.976156e-003
534785.000	-8.141983e-001	2.996171e-003
536780.000	-8.138857e-001	3.061599e-003
538775.000	-8.139041e-001	3.123594e-003
540770.000	-8.139268e-001	3.083251e-003
542765.000	-8.139037e-001	2.909814e-003
544760.000	-8.139496e-001	2.845235e-003
546755.000	-8.140647e-001	3.000858e-003
548750.000	-8.139717e-001	3.037539e-003
550745.000	-8.139665e-001	3.019241e-003
552740.000	-8.138805e-001	2.970097e-003
554735.000	-8.139180e-001	2.974502e-003
556730.000	-8.136549e-001	3.031485e-003
558725.000	-8.138229e-001	2.989977e-003
560720.000	-8.141868e-001	3.096499e-003
562715.000	-8.137950e-001	2.891455e-003
564710.000	-8.140567e-001	3.010946e-003
566705.000	-8.137945e-001	3.201467e-003
568700.000	-8.139469e-001	2.986730e-003
570695.000	-8.140200e-001	2.891175e-003
572690.000	-8.141346e-001	3.219045e-003
574685.000	-8.139552e-001	2.940527e-003
576680.000	-8.139314e-001	3.225170e-003
578675.000	-8.138077e-001	3.080689e-003
580670.000	-8.139192e-001	3.056827e-003
582665.000	-8.139475e-001	3.140623e-003
584660.000	-8.139916e-001	3.227113e-003
586655.000	-8.141529e-001	3.091877e-003
588650.000	-8.138826e-001	3.400344e-003
590645.000	-8.139451e-001	3.156917e-003
592640.000	-8.139914e-001	3.343552e-003
594635.000	-8.137026e-001	3.105029e-003
596630.000	-8.140297e-001	3.019000e-003
598625.000	-8.139593e-001	3.276451e-003
600620.000	-8.138743e-001	3.154091e-003
602615.000	-8.141151e-001	3.177365e-003
604610.000	-8.138439e-001	3.005082e-003
606605.000	-8.139000e-001	3.183194e-003
608600.000	-8.140917e-001	3.208589e-003
610595.000	-8.141462e-001	3.250479e-003
612590.000	-8.139267e-001	3.198805e-003
614585.000	-8.140550e-001	3.111648e-003
616580.000	-8.138805e-001	3.069581e-003
618575.000	-8.139802e-001	3.439253e-003
620570.000	-8.140258e-001	3.268288e-003
622565.000	-8.139108e-001	3.148384e-003
624560.000	-8.139176e-001	3.339383e-003
626555.000	-8.140252e-001	3.255940e-003
628550.000	-8.137421e-001	3.012312e-003
630545.000	-8.139184e-001	3.119857e-003
632540.000	-8.140123e-001	3.184577e-003
634535.000	-8.139120e-001	3.503662e-003
636530.000	-8.138397e-001	3.302725e-003
638525.000	-8.136734e-001	3.301448e-003
640520.000	-8.137953e-001	3.419780e-003
642515.000	-8.138502e-001	3.223351e-003
644510.000	-8.138890e-001	3.340055e-003
646505.000	-8.138762e-001	3.212503e-003
648500.000	-8.137641e-001	3.522224e-003
650495.000	-8.137771e-001	3.119954e-003
652490.000	-8.139565e-001	3.319071e-003
654485.000	-8.140084e-001	3.477969e-003
656480.000	-8.141155e-001	3.219195e-003
658475.000	-8.136257e-001	3.283541e-003
660470.000	-8.138790e-001	3.296139e-003
662465.000	-8.138952e-001	3.271659e-003
664460.000	-8.137938e-001	3.385560e-003
666455.000	-8.140466e-001	3.529116e-003
668450.000	-8.139171e-001	3.365117e-003
670445.000	-8.137343e-001	3.650716e-003
672440.000	-8.139629e-001	3.223303e-003
674435.000	-8.137418e-001	3.405439e-003
676430.000	-8.140627e-001	3.365872e-003
678425.000	-8.138439e-001	3.378233e-003
680420.000	-8.138958e-001	3.401539e-003
682415.000	-8.138495e-001	3.441434e-003
684410.000	-8.138453e-001	3.328922e-003
686405.000	-8.139553e-001	3.264351e-003
688400.000	-8.139316e-001	3.375408e-003
690395.000	-8.139812e-001	3.469188e-003
692390.000	-8.137725e-001	3.619128e-003
694385.000	-8.138045e-001	3.530420e-003
696380.000	-8.139478e-001	3.465074e-003
698375.000	-8.138764e-001	3.386621e-003
700370.000	-8.137011e-001	3.483162e-003
702365.000	-8.139323e-001	3.449696e-003
704360.000	-8.137354e-001	3.319895e-003
706355.000	-8.140434e-001	3.442606e-003
708350.000	-8.139335e-001	3.503431e-003
710345.000	-8.139178e-001	3.484217e-003
712340.000	-8.139976e-001	3.398214e-003
714335.000	-8.139127e-001	3.417910e-003
716330.000	-8.140533e-001	3.465805e-003
718325.000	-8.138490e-001	3.614576e-003
720320.000	-8.140062e-001	3.585195e-003
722315.000	-8.139246e-001	3.606514e-003
724310.000	-8.139521e-001	3.615550e-003
726305.000	-8.138371e-001	3.525926e-003
728300.000	-8.138578e-001	3.579889e-003
730295.000	-8.138189e-001	3.591903e-003
732290.000	-8.137754e-001	3.647249e-003
734285.000	-8.139787e-001	3.471735e-003
736280.000	-8.138996e-001	3.706369e-003
738275.000	-8.138885e-001	3.437066e-003
740270.000	-8.138998e-001	3.392829e-003
742265.000	-8.139371e-001	3.474206e-003
744260.000	-8.139049e-001	3.690980e-003
746255.000	-8.139933e-001	3.586241e-003
748250.000	-8.137001e-001	3.457404e-003
750245.000	-8.140235e-001	3.770765e-003
752240.000	-8.138178e-001	3.515692e-003
754235.000	-8.140252e-001	3.887858e-003
756230.000	-8.139853e-001	3.676644e-003
758225.000	-8.136888e-001	3.515247e-003
760220.000	-8.139585e-001	3.408562e-003
762215.000	-8.139896e-001	3.565049e-003
764210.000	-8.138945e-001	3.736461e-003
766205.000	-8.138175e-001	3.490728e-003
768200.000	-8.138641e-001	3.610015e-003
770195.000	-8.138659e-001	3.553566e-003
772190.000	-8.137077e-001	3.654675e-003
774185.000	-8.138494e-001	3.463535e-003
776180.000	-8.137626e-001	3.622899e-003
778175.000	-8.138640e-001	3.651728e-003
780170.000	-8.137655e-001	3.489519e-003
782165.000	-8.138210e-001	3.774720e-003
784160.000	-8.138103e-001	3.611354e-003
786155.000	-8.138970e-001	3.607273e-003
788150.000	-8.140596e-001	3.637293e-003
790145.000	-8.136387e-001	3.757689e-003
792140.000	-8.138984e-001	3.524966e-003
794135.000	-8.138246e-001	3.585005e-003
796130.000	-8.139910e-001	3.837229e-003
798125.000	-8.139169e-001	4.004501e-003
800120.000	-8.139242e-001	3.668114e-003
802115.000	-8.138976e-001	3.701901e-003
804110.000	-8.139762e-001	3.742354e-003
806105.000	-8.139688e-001	3.785167e-003
808100.000	-8.138946e-001	3.591229e-003
810095.000	-8.139868e-001	3.649212e-003
812090.000	-8.137342e-001	3.796995e-003
814085.000	-8.139733e-001	3.846408e-003
816080.000	-8.139783e-001	3.716541e-003
818075.000	-8.139359e-001	3.812157e-003
820070.000	-8.138153e-001	4.060148e-003
822065.000	-8.140489e-001	3.692625e-003
824060.000	-8.139241e-001	3.624408e-003
826055.000	-8.139660e-001	4.027194e-003
828050.000	-8.140060e-001	3.720025e-003
830045.000	-8.140636e-001	3.803800e-003
832040.000	-8.140800e-001	3.778888e-003
834035.000	-8.138401e-001	3.843058e-003
836030.000	-8.140083e-001	3.902697e-003
838025.000	-8.139504e-001	3.867395e-003
840020.000	-8.140610e-001	3.736617e-003
842015.000	-8.140169e-001	3.746553e-003
844010.000	-8.140613e-001	3.916468e-003
846005.000	-8.140010e-001	3.894536e-003
848000.000	-8.139447e-001	3.841542e-003
849995.000	-8.139392e-001	3.829091e-003
851990.000	-8.139343e-001	3.734495e-003
853985.000	-8.138658e-001	3.992044e-003
855980.000	-8.140685e-001	3.863990e-003
857975.000	-8.138501e-001	3.976099e-003
859970.000	-8.137773e-001	3.995466e-003
861965.000	-8.138526e-001	3.916015e-003
863960.000	-8.139353e-001	3.798791e-003
865955.000	-8.138334e-001	3.775913e-003
867950.000	-8.137656e-001	3.925491e-003
869945.000	-8.138665e-001	3.958807e-003
871940.000	-8.139389e-001	3.896246e-003
873935.000	-8.137928e-001	3.779328e-003
875930.000	-8.139443e-001	4.050557e-003
877925.000	-8.136886e-001	3.784135e-003
879920.000	-8.137823e-001	3.971561e-003
881915.000	-8.137309e-001	4.061998e-003
883910.000	-8.137730e-001	3.968031e-003
885905.000	-8.139773e-001	4.014676e-003
887900.000	-8.135663e-001	3.912881e-003
889895.000	-8.136757e-001	3.956537e-003
891890.000	-8.138552e-001	3.837884e-003
893885.000	-8.137066e-001	4.050433e-003
895880.000	-8.139013e-001	4.014411e-003
897875.000	-8.139246e-001	3.927998e-003
899870.000	-8.137744e-001	3.918425e-003
901865.000	-8.136710e-001	4.041920e-003
903860.000	-8.138089e-001	3.906531e-003
905855.000	-8.139678e-001	4.100938e-003
907850.000	-8.136490e-001	4.258884e-003
909845.000	-8.137290e-001	4.174216e-003
911840.000	-8.138681e-001	3.947001e-003
913835.000	-8.137716e-001	4.202023e-003
915830.000	-8.139030e-001	3.887421e-003
917825.000	-8.139830e-001	3.997810e-003
919820.000	-8.139499e-001	4.032959e-003
921815.000	-8.138526e-001	3.991749e-003
923810.000	-8.137116e-001	4.117132e-003
925805.000	-8.137858e-001	4.071652e-003
927800.000	-8.137686e-001	4.155166e-003
929795.000	-8.137815e-001	4.065483e-003
931790.000	-8.138402e-001	4.206798e-003
933785.000	-8.137629e-001	4.115816e-003
935780.000	-8.137653e-001	4.152809e-003
937775.000	-8.138441e-001	4.220106e-003
939770.000	-8.136463e-001	4.091562e-003
941765.000	-8.138296e-001	4.093413e-003
943760.000	-8.138460e-001	4.114021e-003
945755.000	-8.138739e-001	3.990952e-003
947750.000	-8.136531e-001	4.165134e-003
949745.000	-8.137072e-001	4.276480e-003
951740.000	-8.140246e-001	4.026021e-003
953735.000	-8.139056e-001	4.060933e-003
955730.000	-8.138973e-001	4.183670e-003
957725.000	-8.140506e-001	4.221811e-003
959720.000	-8.139445e-001	4.237082e-003
961715.000	-8.139399e-001	4.236723e-003
963710.000	-8.139218e-001	4.082610e-003
965705.000	-8.138014e-001	4.436945e-003
967700.000	-8.137637e-001	4.078545e-003
969695.000	-8.139773e-001	4.259759e-003
971690.000	-8.141415e-001	4.247364e-003
973685.000	-8.140816e-001	4.175312e-003
975680.000	-8.136473e-001	4.024358e-003
977675.000	-8.138533e-001	4.270644e-003
979670.000	-8.138485e-001	4.104449e-003
981665.000	-8.139685e-001	4.328939e-003
983660.000	-8.138303e-001	4.190886e-003
985655.000	-8.137997e-001	4.269150e-003
987650.000	-8.138571e-001	4.361534e-003
989645.000	-8.136569e-001	4.295539e-003
991640.000	-8.137575e-001	4.194205e-003
993635.000	-8.138398e-001	4.351765e-003
995630.000	-8.140391e-001	4.313455e-003
997625.000	-8.138304e-001	4.293749e-003
999620.000	-8.138678e-001	4.114938e-003
1001615.000	-8.137683e-001	4.206477e-003
1003610.000	-8.139239e-001	4.129957e-003
1005605.000	-8.138997e-001	4.385445e-003
1007600.000	-8.137921e-001	4.497780e-003
1009595.000	-8.137430e-001	4.087415e-003
1011590.000	-8.138315e-001	4.338668e-003
1013585.000	-8.140488e-001	4.148530e-003
1015580.000	-8.139124e-001	4.149173e-003
1017575.000	-8.139591e-001	4.260648e-003
1019570.000	-8.137429e-001	4.156737e-003
1021565.000	-8.138538e-001	4.211617e-003
1023560.000	-8.137668e-001	4.345286e-003
1025555.000	-8.139374e-001	4.426687e-003
1027550.000	-8.138096e-001	4.301669e-003
1029545.000	-8.137887e-001	4.210150e-003
1031540.000	-8.136686e-001	4.364601e-003
1033535.000	-8.136424e-001	4.276157e-003
1035530.000	-8.140254e-001	4.305109e-003
1037525.000	-8.138154e-001	4.459930e-003
