Time (s),V_PRI,V_SEC,V_IN,V_OUT
0.0,-17.50005759999999,-248.12498176000003,25.1627500192,40.800625004160004
5e-10,-17.50005759999999,-232.4999808,25.16900001856,40.80375000384
1e-09,-11.25005823999993,-248.12498176000003,25.17525001792,40.806875003520005
1.5000000000000002e-09,-5.000058879999983,-263.74998272,25.18775001664,40.81312500288
2e-09,-17.50005759999999,-263.74998272,25.194000016,40.8100000032
2.5e-09,-11.25005823999993,-263.74998272,25.194000016,40.81312500288
3.0000000000000004e-09,-11.25005823999993,-248.12498176000003,25.200250015359998,40.8100000032
3.5000000000000003e-09,-11.25005823999993,-263.74998272,25.200250015359998,40.80375000384
4e-09,-17.50005759999999,-248.12498176000003,25.194000016,40.800625004160004
4.500000000000001e-09,-5.000058879999983,-232.4999808,25.18775001664,40.800625004160004
5e-09,-5.000058879999983,-263.74998272,25.181500017279998,40.80375000384
5.5000000000000004e-09,-5.000058879999983,-248.12498176000003,25.181500017279998,40.79750000448
6.000000000000001e-09,1.2499404800000775,-248.12498176000003,25.17525001792,40.800625004160004
6.5e-09,1.2499404800000775,-232.4999808,25.1627500192,40.800625004160004
7.000000000000001e-09,1.2499404800000775,-232.4999808,25.14400002112,40.80375000384
7.500000000000001e-09,1.2499404800000775,-232.4999808,25.13775002176,40.816250002560004
8e-09,7.499939840000025,-248.12498176000003,25.14400002112,40.816250002560004
8.5e-09,7.499939840000025,-201.24997888000001,25.13775002176,40.816250002560004
9.000000000000001e-09,7.499939840000025,-232.4999808,25.131500022399997,40.816250002560004
9.5e-09,19.999938560000032,-248.12498176000003,25.12525002304,40.81937500224
1e-08,13.749939200000085,-248.12498176000003,25.131500022399997,40.8100000032
1.0500000000000001e-08,19.999938560000032,-248.12498176000003,25.131500022399997,40.81312500288
1.1000000000000001e-08,19.999938560000032,-232.4999808,25.12525002304,40.816250002560004
1.15e-08,13.749939200000085,-232.4999808,25.12525002304,40.816250002560004
1.2000000000000002e-08,7.499939840000025,-216.87497984000004,25.131500022399997,40.81937500224
1.2500000000000001e-08,19.999938560000032,-201.24997888000001,25.119000023679998,40.82875000128
1.3e-08,13.749939200000085,-232.4999808,25.12525002304,40.84125
1.35e-08,7.499939840000025,-216.87497984000004,25.131500022399997,40.838125000320005
1.4000000000000001e-08,13.749939200000085,-185.62497792,25.14400002112,40.847499999360004
1.45e-08,26.24993791999998,-185.62497792,25.150250020479998,40.847499999360004
1.5000000000000002e-08,26.24993791999998,-201.24997888000001,25.13775002176,40.847499999360004
1.55e-08,19.999938560000032,-185.62497792,25.14400002112,40.85062499904
1.6e-08,26.24993791999998,-185.62497792,25.1627500192,40.85062499904
1.6500000000000002e-08,26.24993791999998,-169.99997696000003,25.1627500192,40.853749998720005
1.7e-08,26.24993791999998,-185.62497792,25.1627500192,40.84437499968
1.75e-08,32.49993728000004,-201.24997888000001,25.1627500192,40.84437499968
1.8000000000000002e-08,26.24993791999998,-185.62497792,25.16900001856,40.82875000128
1.85e-08,32.49993728000004,-169.99997696000003,25.1627500192,40.8256250016
1.9e-08,38.74993663999999,-169.99997696000003,25.15650001984,40.816250002560004
1.9500000000000003e-08,32.49993728000004,-154.374976,25.150250020479998,40.80375000384
2e-08,26.24993791999998,-154.374976,25.13775002176,40.79750000448
2.05e-08,44.99993600000005,-154.374976,25.119000023679998,40.785000005760004
2.1000000000000003e-08,32.49993728000004,-154.374976,25.10650002496,40.78187500608
2.15e-08,38.74993663999999,-154.374976,25.10650002496,40.7787500064
2.2000000000000002e-08,44.99993600000005,-138.74997504000004,25.100250025599998,40.78187500608
2.2500000000000003e-08,44.99993600000005,-154.374976,25.10650002496,40.775625006720006
2.3e-08,44.99993600000005,-138.74997504000004,25.100250025599998,40.769375007360004
2.3500000000000002e-08,38.74993663999999,-123.12497408000002,25.11275002432,40.77250000704
2.4000000000000003e-08,38.74993663999999,-138.74997504000004,25.131500022399997,40.76625000768
2.45e-08,51.249935359999995,-107.49997311999999,25.13775002176,40.76625000768
2.5000000000000002e-08,51.249935359999995,-123.12497408000002,25.14400002112,40.75687500864
2.55e-08,57.499934720000056,-138.74997504000004,25.150250020479998,40.75687500864
2.6e-08,51.249935359999995,-154.374976,25.1627500192,40.75687500864
2.6500000000000002e-08,57.499934720000056,-107.49997311999999,25.181500017279998,40.76625000768
2.7e-08,63.74993408,-123.12497408000002,25.18775001664,40.78187500608
2.75e-08,63.74993408,-138.74997504000004,25.200250015359998,40.7943750048
2.8000000000000003e-08,51.249935359999995,-123.12497408000002,25.20650001472,40.800625004160004
2.85e-08,63.74993408,-123.12497408000002,25.194000016,40.80375000384
2.9e-08,63.74993408,-123.12497408000002,25.212750014079997,40.8100000032
2.9500000000000003e-08,63.74993408,-123.12497408000002,25.2252500128,40.81937500224
3.0000000000000004e-08,69.99993344000006,-107.49997311999999,25.231500012159998,40.82875000128
3.05e-08,76.24993280000001,-107.49997311999999,25.2252500128,40.82875000128
3.1e-08,82.49993216000007,-91.87497216000003,25.20650001472,40.82875000128
3.1500000000000004e-08,76.24993280000001,-76.2499712,25.18775001664,40.831875000960004
3.2e-08,76.24993280000001,-91.87497216000003,25.18775001664,40.822500001920005
3.25e-08,88.74993152000002,-76.2499712,25.181500017279998,40.8100000032
3.3000000000000004e-08,82.49993216000007,-91.87497216000003,25.181500017279998,40.806875003520005
3.35e-08,94.99993088000008,-91.87497216000003,25.1627500192,40.806875003520005
3.4e-08,88.74993152000002,-91.87497216000003,25.150250020479998,40.80375000384
3.4500000000000005e-08,94.99993088000008,-76.2499712,25.13775002176,40.806875003520005
3.5e-08,101.24993024000003,-44.999969280000016,25.131500022399997,40.800625004160004
3.55e-08,94.99993088000008,-60.62497024000004,25.13775002176,40.7943750048
3.6000000000000005e-08,94.99993088000008,-44.999969280000016,25.14400002112,40.78812500544
3.65e-08,107.49992960000009,-60.62497024000004,25.131500022399997,40.78812500544
3.7e-08,107.49992960000009,-44.999969280000016,25.119000023679998,40.79750000448
3.7500000000000005e-08,107.49992960000009,-44.999969280000016,25.11275002432,40.800625004160004
3.8e-08,113.74992896000003,-29.374968319999994,25.119000023679998,40.8100000032
3.85e-08,119.99992831999998,-29.374968319999994,25.14400002112,40.800625004160004
3.9000000000000005e-08,119.99992831999998,-29.374968319999994,25.1627500192,40.7943750048
3.95e-08,119.99992831999998,-13.749967360000028,25.17525001792,40.7943750048
4e-08,113.74992896000003,-29.374968319999994,25.17525001792,40.7943750048
4.0500000000000005e-08,119.99992831999998,1.875033599999938,25.1627500192,40.7943750048
4.1e-08,119.99992831999998,-13.749967360000028,25.1627500192,40.7943750048
4.15e-08,132.49992704,-29.374968319999994,25.16900001856,40.791250005120006
4.2000000000000006e-08,119.99992831999998,-13.749967360000028,25.18775001664,40.78187500608
4.2500000000000003e-08,126.24992768000004,-13.749967360000028,25.200250015359998,40.775625006720006
4.3e-08,132.49992704,1.875033599999938,25.20650001472,40.775625006720006
4.3500000000000006e-08,126.24992768000004,1.875033599999938,25.20650001472,40.7787500064
4.4000000000000004e-08,126.24992768000004,1.875033599999938,25.20650001472,40.78187500608
4.45e-08,132.49992704,1.875033599999938,25.18775001664,40.7787500064
4.5000000000000006e-08,119.99992831999998,-13.749967360000028,25.18775001664,40.775625006720006
4.5500000000000004e-08,126.24992768000004,1.875033599999938,25.194000016,40.77250000704
4.6e-08,126.24992768000004,17.500034560000017,25.18775001664,40.78187500608
4.6500000000000006e-08,132.49992704,33.12503551999998,25.194000016,40.791250005120006
4.7000000000000004e-08,126.24992768000004,33.12503551999998,25.18775001664,40.80375000384
4.75e-08,132.49992704,33.12503551999998,25.194000016,40.8100000032
4.8000000000000006e-08,126.24992768000004,33.12503551999998,25.212750014079997,40.806875003520005
4.8500000000000004e-08,126.24992768000004,48.75003647999995,25.20650001472,40.7943750048
4.9e-08,132.49992704,33.12503551999998,25.212750014079997,40.785000005760004
4.95e-08,138.74992640000005,33.12503551999998,25.20650001472,40.79750000448
5.0000000000000004e-08,126.24992768000004,33.12503551999998,25.20650001472,40.80375000384
5.05e-08,126.24992768000004,48.75003647999995,25.21900001344,40.806875003520005
5.1e-08,132.49992704,64.37503744000003,25.231500012159998,40.79750000448
5.1500000000000005e-08,126.24992768000004,64.37503744000003,25.24400001088,40.785000005760004
5.2e-08,113.74992896000003,64.37503744000003,25.2565000096,40.7787500064
5.25e-08,126.24992768000004,64.37503744000003,25.25025001024,40.7787500064
5.3000000000000005e-08,119.99992831999998,64.37503744000003,25.25025001024,40.791250005120006
5.35e-08,119.99992831999998,80.0000384,25.24400001088,40.800625004160004
5.4e-08,126.24992768000004,95.62503935999996,25.25025001024,40.81312500288
5.4500000000000005e-08,119.99992831999998,95.62503935999996,25.26900000832,40.81312500288
5.5e-08,119.99992831999998,111.25004031999993,25.26900000832,40.806875003520005
5.55e-08,113.74992896000003,111.25004031999993,25.26900000832,40.800625004160004
5.6000000000000005e-08,107.49992960000009,111.25004031999993,25.27525000768,40.79750000448
5.65e-08,113.74992896000003,126.87504128,25.25025001024,40.800625004160004
5.7e-08,113.74992896000003,126.87504128,25.25025001024,40.80375000384
5.7500000000000005e-08,113.74992896000003,111.25004031999993,25.25025001024,40.8100000032
5.8e-08,101.24993024000003,111.25004031999993,25.25025001024,40.79750000448
5.85e-08,107.49992960000009,126.87504128,25.25025001024,40.78187500608
5.9000000000000006e-08,107.49992960000009,126.87504128,25.25025001024,40.769375007360004
5.9500000000000003e-08,101.24993024000003,126.87504128,25.262750008959998,40.763125008
6.000000000000001e-08,94.99993088000008,142.50004223999997,25.27525000768,40.769375007360004
6.05e-08,101.24993024000003,126.87504128,25.26900000832,40.775625006720006
6.1e-08,94.99993088000008,126.87504128,25.281500007039998,40.769375007360004
6.15e-08,94.99993088000008,126.87504128,25.281500007039998,40.75687500864
6.2e-08,94.99993088000008,142.50004223999997,25.281500007039998,40.753750008960004
6.250000000000001e-08,94.99993088000008,142.50004223999997,25.294000005759997,40.7475000096
6.300000000000001e-08,82.49993216000007,142.50004223999997,25.294000005759997,40.75687500864
6.35e-08,82.49993216000007,158.12504319999994,25.2877500064,40.769375007360004
6.4e-08,76.24993280000001,142.50004223999997,25.30650000448,40.77250000704
6.45e-08,82.49993216000007,173.75004416000002,25.30650000448,40.77250000704
6.5e-08,82.49993216000007,158.12504319999994,25.30025000512,40.775625006720006
6.55e-08,82.49993216000007,142.50004223999997,25.30650000448,40.78187500608
6.600000000000001e-08,76.24993280000001,142.50004223999997,25.294000005759997,40.78812500544
6.65e-08,69.99993344000006,158.12504319999994,25.30650000448,40.800625004160004
6.7e-08,69.99993344000006,173.75004416000002,25.30650000448,40.806875003520005
6.75e-08,63.74993408,173.75004416000002,25.30650000448,40.8100000032
6.8e-08,63.74993408,173.75004416000002,25.30650000448,40.81312500288
6.85e-08,63.74993408,173.75004416000002,25.2877500064,40.81312500288
6.900000000000001e-08,69.99993344000006,173.75004416000002,25.281500007039998,40.80375000384
6.950000000000001e-08,57.499934720000056,173.75004416000002,25.26900000832,40.79750000448
7e-08,57.499934720000056,189.37504511999998,25.262750008959998,40.800625004160004
7.05e-08,69.99993344000006,173.75004416000002,25.27525000768,40.800625004160004
7.1e-08,63.74993408,189.37504511999998,25.2565000096,40.80375000384
7.15e-08,51.249935359999995,205.00004607999995,25.262750008959998,40.80375000384
7.200000000000001e-08,51.249935359999995,189.37504511999998,25.27525000768,40.79750000448
7.250000000000001e-08,57.499934720000056,220.62504704000003,25.26900000832,40.791250005120006
7.3e-08,51.249935359999995,189.37504511999998,25.27525000768,40.78187500608
7.35e-08,57.499934720000056,189.37504511999998,25.27525000768,40.78812500544
7.4e-08,44.99993600000005,173.75004416000002,25.26900000832,40.785000005760004
7.45e-08,51.249935359999995,189.37504511999998,25.25025001024,40.78812500544
7.500000000000001e-08,51.249935359999995,205.00004607999995,25.23775001152,40.78187500608
7.550000000000001e-08,51.249935359999995,189.37504511999998,25.2252500128,40.78187500608
7.6e-08,38.74993663999999,189.37504511999998,25.2252500128,40.78187500608
7.65e-08,44.99993600000005,205.00004607999995,25.212750014079997,40.78812500544
7.7e-08,44.99993600000005,189.37504511999998,25.21900001344,40.791250005120006
7.75e-08,38.74993663999999,205.00004607999995,25.212750014079997,40.791250005120006
7.800000000000001e-08,38.74993663999999,205.00004607999995,25.212750014079997,40.79750000448
7.850000000000001e-08,44.99993600000005,189.37504511999998,25.21900001344,40.806875003520005
7.9e-08,38.74993663999999,205.00004607999995,25.21900001344,40.8100000032
7.95e-08,32.49993728000004,205.00004607999995,25.212750014079997,40.822500001920005
8e-08,32.49993728000004,189.37504511999998,25.212750014079997,40.81937500224
8.05e-08,32.49993728000004,205.00004607999995,25.200250015359998,40.816250002560004
8.100000000000001e-08,32.49993728000004,189.37504511999998,25.194000016,40.8100000032
8.150000000000001e-08,38.74993663999999,173.75004416000002,25.194000016,40.81312500288
8.2e-08,26.24993791999998,158.12504319999994,25.194000016,40.8100000032
8.25e-08,26.24993791999998,173.75004416000002,25.18775001664,40.8100000032
8.3e-08,32.49993728000004,189.37504511999998,25.181500017279998,40.8100000032
8.35e-08,26.24993791999998,173.75004416000002,25.181500017279998,40.816250002560004
8.400000000000001e-08,19.999938560000032,158.12504319999994,25.18775001664,40.81937500224
8.450000000000001e-08,26.24993791999998,173.75004416000002,25.181500017279998,40.81937500224
8.500000000000001e-08,19.999938560000032,173.75004416000002,25.18775001664,40.81937500224
8.55e-08,19.999938560000032,158.12504319999994,25.194000016,40.81937500224
8.6e-08,19.999938560000032,173.75004416000002,25.18775001664,40.83500000064
8.65e-08,26.24993791999998,158.12504319999994,25.194000016,40.84125
8.700000000000001e-08,19.999938560000032,173.75004416000002,25.181500017279998,40.853749998720005
8.750000000000001e-08,19.999938560000032,173.75004416000002,25.18775001664,40.86624999744
8.800000000000001e-08,13.749939200000085,142.50004223999997,25.181500017279998,40.86312499776
8.85e-08,19.999938560000032,158.12504319999994,25.16900001856,40.853749998720005
8.9e-08,13.749939200000085,142.50004223999997,25.1627500192,40.84125
8.95e-08,19.999938560000032,111.25004031999993,25.15650001984,40.84125
9.000000000000001e-08,7.499939840000025,111.25004031999993,25.16900001856,40.838125000320005
9.050000000000001e-08,7.499939840000025,126.87504128,25.1627500192,40.84125
9.100000000000001e-08,13.749939200000085,126.87504128,25.15650001984,40.838125000320005
9.15e-08,7.499939840000025,126.87504128,25.150250020479998,40.831875000960004
9.2e-08,1.2499404800000775,126.87504128,25.150250020479998,40.8256250016
9.25e-08,7.499939840000025,111.25004031999993,25.131500022399997,40.816250002560004
9.300000000000001e-08,7.499939840000025,95.62503935999996,25.12525002304,40.81312500288
9.350000000000001e-08,1.2499404800000775,80.0000384,25.131500022399997,40.806875003520005
9.400000000000001e-08,1.2499404800000775,111.25004031999993,25.119000023679998,40.80375000384
9.45e-08,1.2499404800000775,95.62503935999996,25.131500022399997,40.79750000448
9.5e-08,-5.000058879999983,95.62503935999996,25.12525002304,40.7943750048
9.55e-08,-5.000058879999983,111.25004031999993,25.13775002176,40.800625004160004
9.600000000000001e-08,-5.000058879999983,80.0000384,25.14400002112,40.79750000448
9.650000000000001e-08,-5.000058879999983,111.25004031999993,25.13775002176,40.791250005120006
9.700000000000001e-08,-5.000058879999983,80.0000384,25.13775002176,40.785000005760004
9.75e-08,-5.000058879999983,80.0000384,25.150250020479998,40.775625006720006
9.8e-08,-11.25005823999993,48.75003647999995,25.1627500192,40.76625000768
9.85e-08,-11.25005823999993,80.0000384,25.17525001792,40.763125008
9.9e-08,-11.25005823999993,80.0000384,25.181500017279998,40.75687500864
9.950000000000001e-08,-17.50005759999999,80.0000384,25.18775001664,40.760000008320006
1.0000000000000001e-07,-23.750056959999938,80.0000384,25.194000016,40.763125008
1.005e-07,-17.50005759999999,64.37503744000003,25.181500017279998,40.76625000768
1.01e-07,-23.750056959999938,64.37503744000003,25.18775001664,40.77250000704
1.015e-07,-30.00005632,48.75003647999995,25.200250015359998,40.775625006720006
1.02e-07,-23.750056959999938,80.0000384,25.18775001664,40.78812500544
1.0250000000000001e-07,-23.750056959999938,80.0000384,25.18775001664,40.800625004160004
1.0300000000000001e-07,-30.00005632,80.0000384,25.15650001984,40.8100000032
1.0350000000000001e-07,-30.00005632,80.0000384,25.15650001984,40.82875000128
1.04e-07,-36.250055679999946,48.75003647999995,25.1627500192,40.831875000960004
1.045e-07,-36.250055679999946,80.0000384,25.150250020479998,40.82875000128
1.05e-07,-42.50005504000001,48.75003647999995,25.14400002112,40.822500001920005
1.0550000000000001e-07,-30.00005632,33.12503551999998,25.12525002304,40.8256250016
1.0600000000000001e-07,-48.750054399999954,17.500034560000017,25.119000023679998,40.822500001920005
1.0650000000000001e-07,-48.750054399999954,33.12503551999998,25.09400002624,40.822500001920005
1.07e-07,-48.750054399999954,17.500034560000017,25.100250025599998,40.81937500224
1.075e-07,-61.25005311999996,33.12503551999998,25.10650002496,40.8100000032
1.08e-07,-61.25005311999996,33.12503551999998,25.119000023679998,40.80375000384
1.0850000000000001e-07,-61.25005311999996,33.12503551999998,25.11275002432,40.800625004160004
1.0900000000000001e-07,-61.25005311999996,17.500034560000017,25.10650002496,40.7943750048
1.0950000000000001e-07,-67.50005248000002,17.500034560000017,25.100250025599998,40.78812500544
1.1e-07,-73.75005183999997,17.500034560000017,25.100250025599998,40.7943750048
1.105e-07,-67.50005248000002,1.875033599999938,25.119000023679998,40.791250005120006
1.11e-07,-73.75005183999997,1.875033599999938,25.119000023679998,40.79750000448
1.1150000000000001e-07,-80.00005119999997,1.875033599999938,25.12525002304,40.80375000384
1.1200000000000001e-07,-80.00005119999997,-29.374968319999994,25.119000023679998,40.80375000384
1.1250000000000001e-07,-80.00005119999997,1.875033599999938,25.09400002624,40.80375000384
1.13e-07,-80.00005119999997,-29.374968319999994,25.08150002752,40.79750000448
1.135e-07,-73.75005183999997,-29.374968319999994,25.08150002752,40.79750000448
1.14e-07,-86.25005055999998,-60.62497024000004,25.09400002624,40.79750000448
1.1450000000000001e-07,-86.25005055999998,-44.999969280000016,25.09400002624,40.80375000384
1.1500000000000001e-07,-86.25005055999998,-44.999969280000016,25.07525002816,40.80375000384
1.1550000000000001e-07,-92.50004991999998,-44.999969280000016,25.05650003008,40.79750000448
1.16e-07,-98.75004927999998,-44.999969280000016,25.04400003136,40.785000005760004
1.165e-07,-86.25005055999998,-44.999969280000016,25.037750031999998,40.77250000704
1.17e-07,-92.50004991999998,-44.999969280000016,25.05650003008,40.769375007360004
1.1750000000000001e-07,-98.75004927999998,-60.62497024000004,25.069000028799998,40.76625000768
1.1800000000000001e-07,-86.25005055999998,-44.999969280000016,25.06275002944,40.77250000704
1.1850000000000001e-07,-92.50004991999998,-60.62497024000004,25.06275002944,40.769375007360004
1.1900000000000001e-07,-92.50004991999998,-60.62497024000004,25.05650003008,40.76625000768
1.195e-07,-92.50004991999998,-60.62497024000004,25.07525002816,40.769375007360004
1.2000000000000002e-07,-105.00004863999999,-60.62497024000004,25.100250025599998,40.775625006720006
