Time (s),V_PRI,V_SEC,V_IN,V_OUT
0.0,-44.10005504000003,-201.24997888000001,25.164500019200002,40.67487500672
5e-10,-44.10005504000003,-201.24997888000001,25.17075001856,40.681125006079995
1e-09,-50.350054399999976,-201.24997888000001,25.15825001984,40.69050000512
1.5000000000000002e-09,-44.10005504000003,-201.24997888000001,25.17075001856,40.70612500352
2e-09,-44.10005504000003,-216.87497984000004,25.18325001728,40.71550000256
2.5e-09,-44.10005504000003,-216.87497984000004,25.18325001728,40.7248750016
3.0000000000000004e-09,-37.85005567999997,-216.87497984000004,25.18325001728,40.718625002239996
3.5000000000000003e-09,-37.85005567999997,-216.87497984000004,25.17075001856,40.7092500032
4e-09,-25.35005695999996,-216.87497984000004,25.15825001984,40.712375002879995
4.500000000000001e-09,-31.60005632000002,-232.4999808,25.164500019200002,40.71550000256
5e-09,-31.60005632000002,-248.12498176000003,25.15200002048,40.71550000256
5.5000000000000004e-09,-25.35005695999996,-216.87497984000004,25.14575002112,40.70612500352
6.000000000000001e-09,-25.35005695999996,-232.4999808,25.13950002176,40.69987500416
6.5e-09,-19.100057600000014,-248.12498176000003,25.15200002048,40.68425000576
7.000000000000001e-09,-31.60005632000002,-248.12498176000003,25.15825001984,40.687375005439996
7.500000000000001e-09,-25.35005695999996,-263.74998272,25.17075001856,40.69987500416
8e-09,-19.100057600000014,-248.12498176000003,25.17700001792,40.70612500352
8.5e-09,-25.35005695999996,-248.12498176000003,25.18325001728,40.7092500032
9.000000000000001e-09,-25.35005695999996,-248.12498176000003,25.18325001728,40.712375002879995
9.5e-09,-19.100057600000014,-248.12498176000003,25.195750016,40.712375002879995
1e-08,-19.100057600000014,-263.74998272,25.20200001536,40.712375002879995
1.0500000000000001e-08,-12.850058239999953,-263.74998272,25.195750016,40.72175000192
1.1000000000000001e-08,-12.850058239999953,-248.12498176000003,25.20200001536,40.71550000256
1.15e-08,-12.850058239999953,-248.12498176000003,25.18950001664,40.7092500032
1.2000000000000002e-08,-6.600058880000006,-232.4999808,25.18325001728,40.7092500032
1.2500000000000001e-08,-6.600058880000006,-232.4999808,25.18950001664,40.70612500352
1.3e-08,-12.850058239999953,-248.12498176000003,25.18325001728,40.712375002879995
1.35e-08,-6.600058880000006,-232.4999808,25.17700001792,40.7092500032
1.4000000000000001e-08,-6.600058880000006,-248.12498176000003,25.17075001856,40.712375002879995
1.45e-08,-0.3500595199999452,-263.74998272,25.17075001856,40.7092500032
1.5000000000000002e-08,-0.3500595199999452,-263.74998272,25.15825001984,40.71550000256
1.55e-08,5.899939840000002,-248.12498176000003,25.15200002048,40.72175000192
1.6e-08,5.899939840000002,-248.12498176000003,25.13950002176,40.728000001279995
1.6500000000000002e-08,5.899939840000002,-232.4999808,25.1332500224,40.73112500096
1.7e-08,-6.600058880000006,-248.12498176000003,25.12075002368,40.728000001279995
1.75e-08,5.899939840000002,-232.4999808,25.12700002304,40.7248750016
1.8000000000000002e-08,12.149939200000063,-232.4999808,25.12700002304,40.72175000192
1.85e-08,5.899939840000002,-232.4999808,25.1332500224,40.728000001279995
1.9e-08,12.149939200000063,-232.4999808,25.13950002176,40.72175000192
1.9500000000000003e-08,18.39993856000001,-216.87497984000004,25.12700002304,40.718625002239996
2e-08,18.39993856000001,-232.4999808,25.12075002368,40.72175000192
2.05e-08,18.39993856000001,-232.4999808,25.1332500224,40.728000001279995
2.1000000000000003e-08,12.149939200000063,-232.4999808,25.12700002304,40.73737500032
2.15e-08,12.149939200000063,-201.24997888000001,25.1332500224,40.743624999679994
2.2000000000000002e-08,18.39993856000001,-216.87497984000004,25.1332500224,40.75299999872
2.2500000000000003e-08,24.649937919999957,-232.4999808,25.1332500224,40.749874999039996
2.3e-08,18.39993856000001,-232.4999808,25.13950002176,40.749874999039996
2.3500000000000002e-08,24.649937919999957,-201.24997888000001,25.14575002112,40.75299999872
2.4000000000000003e-08,24.649937919999957,-216.87497984000004,25.14575002112,40.749874999039996
2.45e-08,18.39993856000001,-201.24997888000001,25.15825001984,40.749874999039996
2.5000000000000002e-08,18.39993856000001,-169.99997696000003,25.14575002112,40.749874999039996
2.55e-08,30.899937280000017,-185.62497792,25.15200002048,40.74674999936
2.6e-08,24.649937919999957,-185.62497792,25.15825001984,40.743624999679994
2.6500000000000002e-08,24.649937919999957,-185.62497792,25.15825001984,40.743624999679994
2.7e-08,30.899937280000017,-154.374976,25.15825001984,40.7405
2.75e-08,30.899937280000017,-169.99997696000003,25.13950002176,40.7248750016
2.8000000000000003e-08,30.899937280000017,-154.374976,25.12075002368,40.718625002239996
2.85e-08,37.149936639999964,-138.74997504000004,25.11450002432,40.70612500352
2.9e-08,24.649937919999957,-169.99997696000003,25.1020000256,40.696750004479995
2.9500000000000003e-08,37.149936639999964,-138.74997504000004,25.09575002624,40.69050000512
3.0000000000000004e-08,37.149936639999964,-154.374976,25.08950002688,40.687375005439996
3.05e-08,43.399936000000025,-154.374976,25.08950002688,40.6780000064
3.1e-08,37.149936639999964,-154.374976,25.08950002688,40.6780000064
3.1500000000000004e-08,43.399936000000025,-138.74997504000004,25.1020000256,40.6780000064
3.2e-08,43.399936000000025,-138.74997504000004,25.10825002496,40.67487500672
3.25e-08,43.399936000000025,-138.74997504000004,25.12075002368,40.67487500672
3.3000000000000004e-08,37.149936639999964,-138.74997504000004,25.11450002432,40.671750007039996
3.35e-08,49.64993535999997,-123.12497408000002,25.12075002368,40.66862500736
3.4e-08,49.64993535999997,-138.74997504000004,25.12700002304,40.662375008
3.4500000000000005e-08,43.399936000000025,-123.12497408000002,25.14575002112,40.66862500736
3.5e-08,55.89993472000003,-123.12497408000002,25.15200002048,40.67487500672
3.55e-08,55.89993472000003,-123.12497408000002,25.15825001984,40.68425000576
3.6000000000000005e-08,62.14993407999998,-123.12497408000002,25.164500019200002,40.696750004479995
3.65e-08,55.89993472000003,-107.49997311999999,25.18325001728,40.703000003839996
3.7e-08,55.89993472000003,-138.74997504000004,25.18325001728,40.7092500032
3.7500000000000005e-08,62.14993407999998,-91.87497216000003,25.195750016,40.71550000256
3.8e-08,68.39993344000004,-123.12497408000002,25.20825001472,40.728000001279995
3.85e-08,74.64993279999999,-123.12497408000002,25.20825001472,40.728000001279995
3.9000000000000005e-08,74.64993279999999,-123.12497408000002,25.21450001408,40.73737500032
3.95e-08,74.64993279999999,-123.12497408000002,25.20825001472,40.743624999679994
4e-08,80.89993216000005,-107.49997311999999,25.18325001728,40.73737500032
4.0500000000000005e-08,80.89993216000005,-107.49997311999999,25.17075001856,40.73112500096
4.1e-08,74.64993279999999,-91.87497216000003,25.15825001984,40.718625002239996
4.15e-08,87.14993152,-91.87497216000003,25.15825001984,40.712375002879995
4.2000000000000006e-08,87.14993152,-91.87497216000003,25.15825001984,40.7092500032
4.2500000000000003e-08,87.14993152,-91.87497216000003,25.14575002112,40.71550000256
4.3e-08,87.14993152,-76.2499712,25.13950002176,40.7092500032
4.3500000000000006e-08,99.64993024,-76.2499712,25.12075002368,40.703000003839996
4.4000000000000004e-08,99.64993024,-44.999969280000016,25.12700002304,40.69987500416
4.45e-08,99.64993024,-44.999969280000016,25.13950002176,40.696750004479995
4.5000000000000006e-08,99.64993024,-60.62497024000004,25.12075002368,40.69987500416
4.5500000000000004e-08,105.89992960000006,-29.374968319999994,25.1020000256,40.7092500032
4.6e-08,112.14992896000001,-44.999969280000016,25.083250027520002,40.718625002239996
4.6500000000000006e-08,118.39992831999996,-44.999969280000016,25.09575002624,40.71550000256
4.7000000000000004e-08,112.14992896000001,-60.62497024000004,25.11450002432,40.7092500032
4.75e-08,118.39992831999996,-44.999969280000016,25.13950002176,40.703000003839996
4.8000000000000006e-08,118.39992831999996,-29.374968319999994,25.15825001984,40.696750004479995
4.8500000000000004e-08,118.39992831999996,-29.374968319999994,25.15825001984,40.6936250048
4.9e-08,112.14992896000001,1.875033599999938,25.1332500224,40.6936250048
4.95e-08,124.64992768000002,-13.749967360000028,25.1332500224,40.6936250048
5.0000000000000004e-08,124.64992768000002,-29.374968319999994,25.14575002112,40.69050000512
5.05e-08,118.39992831999996,-13.749967360000028,25.164500019200002,40.69050000512
5.1e-08,130.89992703999997,1.875033599999938,25.18325001728,40.68425000576
5.1500000000000005e-08,130.89992703999997,-13.749967360000028,25.17075001856,40.681125006079995
5.2e-08,130.89992703999997,1.875033599999938,25.17700001792,40.6936250048
5.25e-08,124.64992768000002,17.500034560000017,25.18325001728,40.696750004479995
5.3000000000000005e-08,124.64992768000002,1.875033599999938,25.17700001792,40.6936250048
5.35e-08,124.64992768000002,17.500034560000017,25.17075001856,40.69050000512
5.4e-08,130.89992703999997,1.875033599999938,25.15200002048,40.68425000576
5.4500000000000005e-08,143.39992575999997,-13.749967360000028,25.15200002048,40.681125006079995
5.5e-08,130.89992703999997,17.500034560000017,25.14575002112,40.6936250048
5.55e-08,130.89992703999997,17.500034560000017,25.15200002048,40.70612500352
5.6000000000000005e-08,130.89992703999997,33.12503551999998,25.164500019200002,40.712375002879995
5.65e-08,130.89992703999997,33.12503551999998,25.17075001856,40.712375002879995
5.7e-08,118.39992831999996,33.12503551999998,25.17075001856,40.69987500416
5.7500000000000005e-08,130.89992703999997,33.12503551999998,25.18325001728,40.6936250048
5.8e-08,124.64992768000002,48.75003647999995,25.18325001728,40.696750004479995
5.85e-08,124.64992768000002,48.75003647999995,25.18950001664,40.71550000256
5.9000000000000006e-08,130.89992703999997,48.75003647999995,25.20200001536,40.718625002239996
5.9500000000000003e-08,130.89992703999997,48.75003647999995,25.20825001472,40.71550000256
6.000000000000001e-08,124.64992768000002,48.75003647999995,25.2270000128,40.70612500352
6.05e-08,124.64992768000002,80.0000384,25.25200001024,40.6936250048
6.1e-08,124.64992768000002,48.75003647999995,25.245750010880002,40.69050000512
6.15e-08,124.64992768000002,95.62503935999996,25.22075001344,40.696750004479995
6.2e-08,118.39992831999996,64.37503744000003,25.18950001664,40.70612500352
6.250000000000001e-08,130.89992703999997,64.37503744000003,25.18325001728,40.7092500032
6.300000000000001e-08,118.39992831999996,64.37503744000003,25.18325001728,40.712375002879995
6.35e-08,118.39992831999996,95.62503935999996,25.20825001472,40.712375002879995
6.4e-08,118.39992831999996,95.62503935999996,25.21450001408,40.70612500352
6.45e-08,112.14992896000001,111.25004031999993,25.22075001344,40.703000003839996
6.5e-08,105.89992960000006,111.25004031999993,25.21450001408,40.70612500352
6.55e-08,118.39992831999996,111.25004031999993,25.22075001344,40.7092500032
6.600000000000001e-08,105.89992960000006,111.25004031999993,25.2270000128,40.712375002879995
6.65e-08,99.64993024,111.25004031999993,25.22075001344,40.712375002879995
6.7e-08,99.64993024,126.87504128,25.2270000128,40.696750004479995
6.75e-08,105.89992960000006,126.87504128,25.22075001344,40.681125006079995
6.8e-08,105.89992960000006,126.87504128,25.21450001408,40.681125006079995
6.85e-08,99.64993024,142.50004223999997,25.23325001216,40.6780000064
6.900000000000001e-08,93.39993088000006,126.87504128,25.23325001216,40.681125006079995
6.950000000000001e-08,99.64993024,158.12504319999994,25.23950001152,40.67487500672
7e-08,93.39993088000006,126.87504128,25.23325001216,40.66862500736
7.05e-08,99.64993024,111.25004031999993,25.245750010880002,40.65612500864
7.1e-08,87.14993152,126.87504128,25.26450000896,40.65925000832
7.15e-08,93.39993088000006,142.50004223999997,25.2895000064,40.671750007039996
7.200000000000001e-08,87.14993152,142.50004223999997,25.30200000512,40.6780000064
7.250000000000001e-08,80.89993216000005,158.12504319999994,25.30825000448,40.681125006079995
7.3e-08,74.64993279999999,158.12504319999994,25.29575000576,40.6780000064
7.35e-08,87.14993152,142.50004223999997,25.28325000704,40.67487500672
7.4e-08,80.89993216000005,142.50004223999997,25.27075000832,40.67487500672
7.45e-08,68.39993344000004,158.12504319999994,25.2582500096,40.69050000512
7.500000000000001e-08,74.64993279999999,173.75004416000002,25.245750010880002,40.69987500416
7.550000000000001e-08,80.89993216000005,158.12504319999994,25.23325001216,40.70612500352
7.6e-08,68.39993344000004,158.12504319999994,25.23325001216,40.718625002239996
7.65e-08,68.39993344000004,189.37504511999998,25.2582500096,40.718625002239996
7.7e-08,68.39993344000004,158.12504319999994,25.26450000896,40.71550000256
7.75e-08,68.39993344000004,189.37504511999998,25.27075000832,40.7092500032
7.800000000000001e-08,68.39993344000004,173.75004416000002,25.27075000832,40.7092500032
7.850000000000001e-08,68.39993344000004,158.12504319999994,25.26450000896,40.703000003839996
7.9e-08,55.89993472000003,173.75004416000002,25.27075000832,40.7092500032
7.95e-08,62.14993407999998,189.37504511999998,25.27700000768,40.712375002879995
8e-08,62.14993407999998,205.00004607999995,25.27700000768,40.712375002879995
8.05e-08,62.14993407999998,189.37504511999998,25.27700000768,40.703000003839996
8.100000000000001e-08,49.64993535999997,189.37504511999998,25.2582500096,40.687375005439996
8.150000000000001e-08,62.14993407999998,189.37504511999998,25.2582500096,40.681125006079995
8.2e-08,55.89993472000003,189.37504511999998,25.245750010880002,40.68425000576
8.25e-08,49.64993535999997,205.00004607999995,25.23950001152,40.696750004479995
8.3e-08,55.89993472000003,205.00004607999995,25.23325001216,40.69987500416
8.35e-08,49.64993535999997,205.00004607999995,25.22075001344,40.69987500416
8.400000000000001e-08,55.89993472000003,205.00004607999995,25.22075001344,40.70612500352
8.450000000000001e-08,49.64993535999997,220.62504704000003,25.23325001216,40.696750004479995
8.500000000000001e-08,43.399936000000025,189.37504511999998,25.23325001216,40.696750004479995
8.55e-08,43.399936000000025,236.250048,25.23325001216,40.696750004479995
8.6e-08,43.399936000000025,189.37504511999998,25.21450001408,40.69987500416
8.65e-08,43.399936000000025,173.75004416000002,25.20200001536,40.696750004479995
8.700000000000001e-08,37.149936639999964,173.75004416000002,25.18950001664,40.70612500352
8.750000000000001e-08,37.149936639999964,189.37504511999998,25.195750016,40.718625002239996
8.800000000000001e-08,43.399936000000025,205.00004607999995,25.195750016,40.7248750016
8.85e-08,30.899937280000017,189.37504511999998,25.195750016,40.7248750016
8.9e-08,30.899937280000017,189.37504511999998,25.18325001728,40.718625002239996
8.95e-08,30.899937280000017,189.37504511999998,25.18950001664,40.712375002879995
9.000000000000001e-08,24.649937919999957,189.37504511999998,25.18950001664,40.7092500032
9.050000000000001e-08,24.649937919999957,173.75004416000002,25.18950001664,40.71550000256
9.100000000000001e-08,24.649937919999957,189.37504511999998,25.18325001728,40.718625002239996
9.15e-08,30.899937280000017,173.75004416000002,25.17075001856,40.718625002239996
9.2e-08,30.899937280000017,189.37504511999998,25.164500019200002,40.7248750016
9.25e-08,18.39993856000001,205.00004607999995,25.17700001792,40.72175000192
9.300000000000001e-08,18.39993856000001,173.75004416000002,25.17075001856,40.71550000256
9.350000000000001e-08,24.649937919999957,205.00004607999995,25.17700001792,40.718625002239996
9.400000000000001e-08,24.649937919999957,173.75004416000002,25.17075001856,40.728000001279995
9.45e-08,24.649937919999957,158.12504319999994,25.17700001792,40.734250000639996
9.5e-08,18.39993856000001,158.12504319999994,25.17700001792,40.749874999039996
9.55e-08,24.649937919999957,158.12504319999994,25.18325001728,40.76862499712
9.600000000000001e-08,24.649937919999957,158.12504319999994,25.18325001728,40.77799999616
9.650000000000001e-08,18.39993856000001,158.12504319999994,25.18950001664,40.7717499968
9.700000000000001e-08,5.899939840000002,158.12504319999994,25.164500019200002,40.759249998079994
9.75e-08,18.39993856000001,142.50004223999997,25.15825001984,40.743624999679994
9.8e-08,12.149939200000063,142.50004223999997,25.14575002112,40.73112500096
9.85e-08,5.899939840000002,142.50004223999997,25.12700002304,40.734250000639996
9.9e-08,12.149939200000063,142.50004223999997,25.1332500224,40.7405
9.950000000000001e-08,18.39993856000001,126.87504128,25.11450002432,40.734250000639996
1.0000000000000001e-07,18.39993856000001,142.50004223999997,25.10825002496,40.7405
1.005e-07,5.899939840000002,142.50004223999997,25.12700002304,40.73112500096
1.01e-07,5.899939840000002,111.25004031999993,25.12700002304,40.728000001279995
1.015e-07,5.899939840000002,126.87504128,25.1332500224,40.7248750016
1.02e-07,5.899939840000002,95.62503935999996,25.12700002304,40.7248750016
1.0250000000000001e-07,12.149939200000063,95.62503935999996,25.12075002368,40.71550000256
1.0300000000000001e-07,5.899939840000002,80.0000384,25.12075002368,40.712375002879995
1.0350000000000001e-07,-0.3500595199999452,80.0000384,25.12075002368,40.70612500352
1.04e-07,5.899939840000002,80.0000384,25.12075002368,40.703000003839996
1.045e-07,-6.600058880000006,80.0000384,25.11450002432,40.6936250048
1.05e-07,-6.600058880000006,95.62503935999996,25.1020000256,40.687375005439996
1.0550000000000001e-07,-0.3500595199999452,80.0000384,25.10825002496,40.681125006079995
1.0600000000000001e-07,-6.600058880000006,80.0000384,25.11450002432,40.67487500672
1.0650000000000001e-07,-12.850058239999953,80.0000384,25.1332500224,40.671750007039996
1.07e-07,-6.600058880000006,80.0000384,25.164500019200002,40.66862500736
1.075e-07,-6.600058880000006,80.0000384,25.17700001792,40.671750007039996
1.08e-07,-12.850058239999953,80.0000384,25.18950001664,40.6780000064
1.0850000000000001e-07,-12.850058239999953,80.0000384,25.20200001536,40.6780000064
1.0900000000000001e-07,-19.100057600000014,64.37503744000003,25.195750016,40.6780000064
1.0950000000000001e-07,-19.100057600000014,95.62503935999996,25.18950001664,40.681125006079995
1.1e-07,-25.35005695999996,64.37503744000003,25.17700001792,40.681125006079995
1.105e-07,-12.850058239999953,48.75003647999995,25.164500019200002,40.68425000576
1.11e-07,-25.35005695999996,48.75003647999995,25.14575002112,40.696750004479995
1.1150000000000001e-07,-31.60005632000002,64.37503744000003,25.12700002304,40.71550000256
1.1200000000000001e-07,-25.35005695999996,80.0000384,25.12075002368,40.728000001279995
1.1250000000000001e-07,-37.85005567999997,64.37503744000003,25.1332500224,40.73112500096
1.13e-07,-44.10005504000003,64.37503744000003,25.12075002368,40.734250000639996
1.135e-07,-37.85005567999997,64.37503744000003,25.12075002368,40.73737500032
1.14e-07,-44.10005504000003,48.75003647999995,25.12075002368,40.728000001279995
1.1450000000000001e-07,-50.350054399999976,48.75003647999995,25.1020000256,40.734250000639996
1.1500000000000001e-07,-50.350054399999976,48.75003647999995,25.1020000256,40.734250000639996
1.1550000000000001e-07,-50.350054399999976,48.75003647999995,25.07700002816,40.728000001279995
1.16e-07,-50.350054399999976,48.75003647999995,25.083250027520002,40.72175000192
1.165e-07,-50.350054399999976,33.12503551999998,25.1020000256,40.71550000256
1.17e-07,-56.60005376000004,17.500034560000017,25.09575002624,40.70612500352
1.1750000000000001e-07,-62.850053119999984,48.75003647999995,25.083250027520002,40.696750004479995
1.1800000000000001e-07,-62.850053119999984,17.500034560000017,25.0707500288,40.696750004479995
1.1850000000000001e-07,-56.60005376000004,1.875033599999938,25.07700002816,40.6936250048
1.1900000000000001e-07,-69.10005248000004,-13.749967360000028,25.08950002688,40.69987500416
1.195e-07,-69.10005248000004,1.875033599999938,25.1020000256,40.7092500032
1.2000000000000002e-07,-75.35005183999999,1.875033599999938,25.10825002496,40.718625002239996
1.205e-07,-75.35005183999999,1.875033599999938,25.09575002624,40.718625002239996
1.21e-07,-81.6000512,1.875033599999938,25.0707500288,40.712375002879995
