!Keysight Technologies,E5063A,MY54100949,A.07.00
!Date: Tue Nov 25 20:39:45 2025
!Data & Calibration Information:
!Freq	S11:SOLT2(ON)	S21:SOLT2(ON)	S12:SOLT2(ON)	S22:SOLT2(ON)
# Hz S RI R 50
50000.000	-8.119083e-001	2.112474e-002	5.726312e-001	-8.394035e-003	5.726976e-001	-8.303937e-003	8.198738e-001	-1.631803e-003
51995.000	-8.109923e-001	1.775959e-002	5.722488e-001	-6.999068e-003	5.723582e-001	-7.275579e-003	8.201351e-001	-2.211709e-003
53990.000	-8.113688e-001	1.628420e-002	5.723682e-001	-6.682945e-003	5.723080e-001	-6.712425e-003	8.201645e-001	-2.595806e-003
55985.000	-8.102557e-001	1.608350e-002	5.719419e-001	-6.812765e-003	5.719892e-001	-6.970248e-003	8.202797e-001	-2.608916e-003
57980.000	-8.106434e-001	1.535372e-002	5.721100e-001	-6.711440e-003	5.721059e-001	-6.637235e-003	8.201906e-001	-2.884125e-003
59975.000	-8.099558e-001	1.649712e-002	5.718836e-001	-6.874398e-003	5.719111e-001	-6.877360e-003	8.201960e-001	-3.041135e-003
61970.000	-8.097505e-001	1.713623e-002	5.717986e-001	-7.127500e-003	5.718050e-001	-7.182787e-003	8.201778e-001	-3.123923e-003
63965.000	-8.099984e-001	1.571529e-002	5.719030e-001	-6.847891e-003	5.719474e-001	-6.742654e-003	8.201028e-001	-3.426339e-003
65960.000	-8.093819e-001	1.479784e-002	5.716961e-001	-6.577188e-003	5.717723e-001	-6.583064e-003	8.201946e-001	-3.666646e-003
67955.000	-8.089114e-001	1.498119e-002	5.715699e-001	-6.718853e-003	5.715450e-001	-6.586378e-003	8.202037e-001	-3.857030e-003
69950.000	-8.079844e-001	1.487230e-002	5.712788e-001	-6.797331e-003	5.713823e-001	-6.730371e-003	8.202514e-001	-3.907411e-003
71945.000	-8.080711e-001	1.525144e-002	5.712198e-001	-6.953539e-003	5.712114e-001	-6.850289e-003	8.202945e-001	-4.072561e-003
73940.000	-8.082955e-001	1.408283e-002	5.712835e-001	-6.578820e-003	5.713172e-001	-6.535653e-003	8.202687e-001	-4.391789e-003
75935.000	-8.083984e-001	1.476881e-002	5.712573e-001	-7.082602e-003	5.713897e-001	-7.006692e-003	8.202102e-001	-4.299805e-003
77930.000	-8.083748e-001	1.469559e-002	5.712795e-001	-6.923163e-003	5.712854e-001	-6.936282e-003	8.201785e-001	-4.527825e-003
79925.000	-8.082620e-001	1.445871e-002	5.712636e-001	-6.771178e-003	5.711444e-001	-6.861887e-003	8.201885e-001	-4.753870e-003
81920.000	-8.072633e-001	1.419890e-002	5.709919e-001	-6.934618e-003	5.710605e-001	-6.722591e-003	8.201960e-001	-4.915977e-003
83915.000	-8.076905e-001	1.416411e-002	5.712147e-001	-7.011792e-003	5.711440e-001	-6.924183e-003	8.201196e-001	-5.011957e-003
85910.000	-8.075988e-001	1.430741e-002	5.711188e-001	-6.999605e-003	5.711458e-001	-6.983458e-003	8.201452e-001	-5.192912e-003
87905.000	-8.075838e-001	1.431023e-002	5.710793e-001	-7.158814e-003	5.711224e-001	-7.022815e-003	8.200822e-001	-5.299106e-003
89900.000	-8.075346e-001	1.411814e-002	5.709875e-001	-7.054081e-003	5.709914e-001	-6.928624e-003	8.201471e-001	-5.552783e-003
91895.000	-8.073915e-001	1.420422e-002	5.710586e-001	-7.249227e-003	5.711692e-001	-7.262166e-003	8.200112e-001	-5.573074e-003
93890.000	-8.071077e-001	1.429787e-002	5.710142e-001	-7.370668e-003	5.710049e-001	-7.096143e-003	8.200495e-001	-5.741000e-003
95885.000	-8.070383e-001	1.332306e-002	5.708861e-001	-7.070284e-003	5.708411e-001	-7.010007e-003	8.201459e-001	-5.962320e-003
97880.000	-8.073186e-001	1.383109e-002	5.710649e-001	-7.223039e-003	5.711030e-001	-7.157383e-003	8.199767e-001	-6.071035e-003
99875.000	-8.075108e-001	1.421336e-002	5.709986e-001	-7.406363e-003	5.711270e-001	-7.557437e-003	8.199483e-001	-6.136770e-003
101870.000	-8.070452e-001	1.348047e-002	5.708664e-001	-7.406630e-003	5.709261e-001	-7.366269e-003	8.200183e-001	-6.297690e-003
103865.000	-8.064840e-001	1.338362e-002	5.707609e-001	-7.301620e-003	5.708000e-001	-7.207713e-003	8.200588e-001	-6.529224e-003
105860.000	-8.069533e-001	1.372726e-002	5.709015e-001	-7.483301e-003	5.710025e-001	-7.321390e-003	8.199505e-001	-6.664544e-003
107855.000	-8.064465e-001	1.408954e-002	5.707514e-001	-7.589979e-003	5.707482e-001	-7.441299e-003	8.200339e-001	-6.783314e-003
109850.000	-8.071442e-001	1.401728e-002	5.708947e-001	-7.700792e-003	5.709998e-001	-7.450105e-003	8.199259e-001	-6.916735e-003
111845.000	-8.066115e-001	1.385512e-002	5.708146e-001	-7.655019e-003	5.708477e-001	-7.609208e-003	8.199659e-001	-7.050360e-003
113840.000	-8.068527e-001	1.359978e-002	5.708426e-001	-7.707447e-003	5.708289e-001	-7.548112e-003	8.199546e-001	-7.209408e-003
115835.000	-8.063974e-001	1.426172e-002	5.706788e-001	-7.823786e-003	5.706913e-001	-7.838404e-003	8.199786e-001	-7.288903e-003
117830.000	-8.065254e-001	1.380302e-002	5.708389e-001	-7.720839e-003	5.707738e-001	-7.551450e-003	8.199209e-001	-7.560432e-003
119825.000	-8.065500e-001	1.433009e-002	5.707147e-001	-7.998594e-003	5.706792e-001	-7.896809e-003	8.199775e-001	-7.611713e-003
121820.000	-8.061667e-001	1.452532e-002	5.707223e-001	-8.052606e-003	5.707628e-001	-7.970855e-003	8.198998e-001	-7.711788e-003
123815.000	-8.068149e-001	1.436805e-002	5.708347e-001	-8.111475e-003	5.707234e-001	-8.115365e-003	8.199194e-001	-7.841990e-003
125810.000	-8.068592e-001	1.377022e-002	5.707548e-001	-7.917623e-003	5.708287e-001	-7.871019e-003	8.198771e-001	-8.123887e-003
127805.000	-8.063149e-001	1.431209e-002	5.706889e-001	-8.227272e-003	5.706839e-001	-8.145608e-003	8.199244e-001	-8.135062e-003
129800.000	-8.066050e-001	1.389197e-002	5.706541e-001	-8.126669e-003	5.708071e-001	-8.109734e-003	8.199077e-001	-8.319512e-003
131795.000	-8.065561e-001	1.404954e-002	5.707285e-001	-8.190936e-003	5.707923e-001	-8.093685e-003	8.198840e-001	-8.514090e-003
133790.000	-8.064086e-001	1.452932e-002	5.706897e-001	-8.430652e-003	5.707890e-001	-8.381094e-003	8.198535e-001	-8.536876e-003
135785.000	-8.065925e-001	1.466006e-002	5.708204e-001	-8.559707e-003	5.708185e-001	-8.401787e-003	8.198096e-001	-8.693382e-003
137780.000	-8.064986e-001	1.436773e-002	5.707663e-001	-8.446612e-003	5.707240e-001	-8.330497e-003	8.198491e-001	-8.890496e-003
139775.000	-8.064478e-001	1.476661e-002	5.707262e-001	-8.687084e-003	5.707337e-001	-8.556422e-003	8.198432e-001	-8.949319e-003
141770.000	-8.066781e-001	1.500481e-002	5.707729e-001	-8.828900e-003	5.707244e-001	-8.617259e-003	8.198389e-001	-9.091781e-003
143765.000	-8.061004e-001	1.499988e-002	5.705815e-001	-8.805712e-003	5.705924e-001	-8.755646e-003	8.198764e-001	-9.217129e-003
145760.000	-8.063743e-001	1.495201e-002	5.707325e-001	-8.931046e-003	5.706625e-001	-8.874911e-003	8.198571e-001	-9.302755e-003
147755.000	-8.067448e-001	1.506891e-002	5.709382e-001	-8.982921e-003	5.710072e-001	-8.866039e-003	8.196791e-001	-9.488105e-003
149750.000	-8.061598e-001	1.471023e-002	5.707459e-001	-8.951369e-003	5.707521e-001	-8.751587e-003	8.197846e-001	-9.674753e-003
151745.000	-8.061814e-001	1.496578e-002	5.707307e-001	-9.005461e-003	5.707000e-001	-8.849957e-003	8.197824e-001	-9.854184e-003
153740.000	-8.067713e-001	1.516775e-002	5.708733e-001	-9.055062e-003	5.708706e-001	-8.875909e-003	8.197105e-001	-1.002420e-002
155735.000	-8.063849e-001	1.510099e-002	5.707838e-001	-9.268328e-003	5.708476e-001	-9.175062e-003	8.196986e-001	-9.984021e-003
157730.000	-8.062782e-001	1.555826e-002	5.706351e-001	-9.360443e-003	5.707070e-001	-9.261440e-003	8.197953e-001	-1.017446e-002
159725.000	-8.058121e-001	1.565844e-002	5.705672e-001	-9.429366e-003	5.705518e-001	-9.391134e-003	8.198225e-001	-1.028309e-002
161720.000	-8.061839e-001	1.528265e-002	5.707136e-001	-9.467904e-003	5.707566e-001	-9.346306e-003	8.197317e-001	-1.045327e-002
163715.000	-8.061555e-001	1.562034e-002	5.706395e-001	-9.532879e-003	5.706496e-001	-9.453478e-003	8.197941e-001	-1.058514e-002
165710.000	-8.067028e-001	1.580016e-002	5.708265e-001	-9.601700e-003	5.707603e-001	-9.564670e-003	8.196956e-001	-1.072277e-002
167705.000	-8.064092e-001	1.531626e-002	5.708337e-001	-9.507651e-003	5.708214e-001	-9.340744e-003	8.196887e-001	-1.097881e-002
169700.000	-8.065472e-001	1.563792e-002	5.707960e-001	-9.779913e-003	5.708661e-001	-9.616008e-003	8.196581e-001	-1.101999e-002
171695.000	-8.062106e-001	1.589428e-002	5.706805e-001	-9.821316e-003	5.706882e-001	-9.628259e-003	8.197281e-001	-1.118151e-002
173690.000	-8.059954e-001	1.602458e-002	5.706814e-001	-9.913785e-003	5.706198e-001	-9.841971e-003	8.197308e-001	-1.127513e-002
175685.000	-8.061487e-001	1.620196e-002	5.707482e-001	-1.002329e-002	5.707135e-001	-9.906868e-003	8.196923e-001	-1.140244e-002
177680.000	-8.063158e-001	1.644631e-002	5.707256e-001	-1.014545e-002	5.706901e-001	-1.006101e-002	8.197113e-001	-1.153972e-002
179675.000	-8.061553e-001	1.669365e-002	5.707043e-001	-1.034739e-002	5.708269e-001	-1.026448e-002	8.196697e-001	-1.158689e-002
181670.000	-8.059338e-001	1.648618e-002	5.706740e-001	-1.027338e-002	5.705683e-001	-1.013438e-002	8.197352e-001	-1.183063e-002
183665.000	-8.062553e-001	1.655790e-002	5.707865e-001	-1.041059e-002	5.708393e-001	-1.029675e-002	8.196193e-001	-1.194153e-002
185660.000	-8.061851e-001	1.670642e-002	5.708062e-001	-1.054709e-002	5.707546e-001	-1.037300e-002	8.196200e-001	-1.205226e-002
187655.000	-8.063928e-001	1.689312e-002	5.708754e-001	-1.058806e-002	5.708029e-001	-1.038975e-002	8.195806e-001	-1.220145e-002
189650.000	-8.062210e-001	1.729250e-002	5.708120e-001	-1.087890e-002	5.709325e-001	-1.061205e-002	8.195584e-001	-1.225502e-002
191645.000	-8.061213e-001	1.695801e-002	5.708634e-001	-1.074846e-002	5.707499e-001	-1.051169e-002	8.195893e-001	-1.249241e-002
193640.000	-8.063966e-001	1.714771e-002	5.708487e-001	-1.082294e-002	5.708521e-001	-1.063081e-002	8.195649e-001	-1.262997e-002
195635.000	-8.063173e-001	1.705999e-002	5.708403e-001	-1.085442e-002	5.708061e-001	-1.076420e-002	8.195851e-001	-1.275249e-002
197630.000	-8.064457e-001	1.758794e-002	5.708170e-001	-1.105293e-002	5.709165e-001	-1.088285e-002	8.195505e-001	-1.286181e-002
199625.000	-8.066973e-001	1.744959e-002	5.709179e-001	-1.111523e-002	5.709146e-001	-1.102358e-002	8.195415e-001	-1.298505e-002
201620.000	-8.060336e-001	1.760141e-002	5.707992e-001	-1.109379e-002	5.708527e-001	-1.101070e-002	8.195445e-001	-1.319380e-002
203615.000	-8.063791e-001	1.776296e-002	5.708336e-001	-1.124205e-002	5.708671e-001	-1.106038e-002	8.195319e-001	-1.330591e-002
205610.000	-8.061880e-001	1.748449e-002	5.708203e-001	-1.130732e-002	5.708578e-001	-1.115900e-002	8.195067e-001	-1.338416e-002
207605.000	-8.059673e-001	1.764623e-002	5.707810e-001	-1.139456e-002	5.707852e-001	-1.122561e-002	8.195452e-001	-1.355842e-002
209600.000	-8.063433e-001	1.762962e-002	5.708139e-001	-1.143618e-002	5.707945e-001	-1.137791e-002	8.195626e-001	-1.368221e-002
211595.000	-8.062977e-001	1.821842e-002	5.709167e-001	-1.170210e-002	5.709541e-001	-1.156059e-002	8.194625e-001	-1.377141e-002
213590.000	-8.064252e-001	1.825209e-002	5.709690e-001	-1.169595e-002	5.709145e-001	-1.161012e-002	8.194501e-001	-1.392452e-002
215585.000	-8.058549e-001	1.832629e-002	5.707061e-001	-1.172788e-002	5.708542e-001	-1.163712e-002	8.195181e-001	-1.409528e-002
217580.000	-8.063808e-001	1.827575e-002	5.708889e-001	-1.172203e-002	5.709388e-001	-1.163176e-002	8.194591e-001	-1.429104e-002
219575.000	-8.059684e-001	1.855179e-002	5.708779e-001	-1.194058e-002	5.708744e-001	-1.188372e-002	8.194670e-001	-1.433461e-002
221570.000	-8.061292e-001	1.858999e-002	5.709049e-001	-1.198811e-002	5.709068e-001	-1.198003e-002	8.194395e-001	-1.447578e-002
223565.000	-8.061969e-001	1.854938e-002	5.709237e-001	-1.209696e-002	5.708385e-001	-1.197507e-002	8.194424e-001	-1.462709e-002
225560.000	-8.060082e-001	1.908960e-002	5.708869e-001	-1.228017e-002	5.708626e-001	-1.206718e-002	8.194477e-001	-1.473664e-002
227555.000	-8.061345e-001	1.927162e-002	5.709291e-001	-1.235718e-002	5.709577e-001	-1.234145e-002	8.194097e-001	-1.482967e-002
229550.000	-8.061737e-001	1.905648e-002	5.709681e-001	-1.232258e-002	5.708616e-001	-1.215420e-002	8.194065e-001	-1.507566e-002
231545.000	-8.062531e-001	1.923419e-002	5.709530e-001	-1.241099e-002	5.708148e-001	-1.230168e-002	8.194388e-001	-1.517748e-002
233540.000	-8.062977e-001	1.936518e-002	5.709701e-001	-1.261376e-002	5.709204e-001	-1.253693e-002	8.193890e-001	-1.524063e-002
235535.000	-8.059239e-001	1.924630e-002	5.709259e-001	-1.260949e-002	5.709349e-001	-1.247881e-002	8.193849e-001	-1.543939e-002
237530.000	-8.062710e-001	1.980494e-002	5.709437e-001	-1.280950e-002	5.709006e-001	-1.263796e-002	8.194139e-001	-1.552813e-002
239525.000	-8.062488e-001	1.958056e-002	5.710052e-001	-1.285037e-002	5.710531e-001	-1.265611e-002	8.193333e-001	-1.569089e-002
241520.000	-8.062384e-001	1.956412e-002	5.709613e-001	-1.287476e-002	5.709866e-001	-1.283063e-002	8.193520e-001	-1.579172e-002
243515.000	-8.062374e-001	1.984498e-002	5.710095e-001	-1.300064e-002	5.708962e-001	-1.289181e-002	8.193771e-001	-1.594079e-002
245510.000	-8.060919e-001	2.024086e-002	5.709444e-001	-1.323684e-002	5.709247e-001	-1.314054e-002	8.193598e-001	-1.598775e-002
247505.000	-8.060468e-001	1.998637e-002	5.709826e-001	-1.318170e-002	5.710364e-001	-1.307807e-002	8.193001e-001	-1.620762e-002
249500.000	-8.061728e-001	2.025008e-002	5.709831e-001	-1.329635e-002	5.709542e-001	-1.319450e-002	8.193556e-001	-1.633998e-002
251495.000	-8.061661e-001	2.031473e-002	5.710184e-001	-1.339580e-002	5.709455e-001	-1.336528e-002	8.192979e-001	-1.643723e-002
253490.000	-8.060204e-001	2.072527e-002	5.709206e-001	-1.351261e-002	5.709321e-001	-1.342870e-002	8.193617e-001	-1.657925e-002
255485.000	-8.058916e-001	2.018214e-002	5.709294e-001	-1.343288e-002	5.709122e-001	-1.335283e-002	8.193223e-001	-1.677228e-002
257480.000	-8.059164e-001	2.105517e-002	5.709018e-001	-1.377547e-002	5.708843e-001	-1.361531e-002	8.193528e-001	-1.684127e-002
259475.000	-8.060365e-001	2.107943e-002	5.710131e-001	-1.387238e-002	5.710787e-001	-1.364055e-002	8.192274e-001	-1.696979e-002
261470.000	-8.059578e-001	2.082988e-002	5.710239e-001	-1.381595e-002	5.710238e-001	-1.358277e-002	8.192508e-001	-1.719733e-002
263465.000	-8.060447e-001	2.111966e-002	5.710128e-001	-1.398703e-002	5.710302e-001	-1.384995e-002	8.192552e-001	-1.725687e-002
265460.000	-8.060377e-001	2.125507e-002	5.710210e-001	-1.407765e-002	5.709235e-001	-1.395312e-002	8.192585e-001	-1.737605e-002
267455.000	-8.058018e-001	2.120718e-002	5.710651e-001	-1.405613e-002	5.710071e-001	-1.391658e-002	8.192116e-001	-1.759267e-002
269450.000	-8.057718e-001	2.153406e-002	5.710610e-001	-1.425552e-002	5.709147e-001	-1.402113e-002	8.192388e-001	-1.766821e-002
271445.000	-8.061577e-001	2.138499e-002	5.710827e-001	-1.429791e-002	5.711217e-001	-1.416740e-002	8.191972e-001	-1.780324e-002
273440.000	-8.061553e-001	2.204923e-002	5.711096e-001	-1.449803e-002	5.711954e-001	-1.438870e-002	8.191613e-001	-1.790491e-002
275435.000	-8.058080e-001	2.204056e-002	5.710355e-001	-1.458773e-002	5.709699e-001	-1.436611e-002	8.192299e-001	-1.806668e-002
277430.000	-8.059041e-001	2.191580e-002	5.711095e-001	-1.457318e-002	5.709419e-001	-1.443428e-002	8.192134e-001	-1.820581e-002
279425.000	-8.056555e-001	2.198154e-002	5.710638e-001	-1.471506e-002	5.709921e-001	-1.446649e-002	8.191909e-001	-1.834696e-002
281420.000	-8.058272e-001	2.182972e-002	5.710514e-001	-1.470185e-002	5.710762e-001	-1.454721e-002	8.191719e-001	-1.850640e-002
283415.000	-8.059185e-001	2.223752e-002	5.711037e-001	-1.483375e-002	5.709936e-001	-1.463984e-002	8.191828e-001	-1.864452e-002
285410.000	-8.058314e-001	2.239792e-002	5.711621e-001	-1.497022e-002	5.710824e-001	-1.466777e-002	8.191093e-001	-1.878360e-002
287405.000	-8.055931e-001	2.246366e-002	5.709742e-001	-1.502001e-002	5.710070e-001	-1.489943e-002	8.191868e-001	-1.887181e-002
289400.000	-8.056335e-001	2.259323e-002	5.710612e-001	-1.514609e-002	5.710081e-001	-1.497761e-002	8.191475e-001	-1.901392e-002
291395.000	-8.055099e-001	2.280710e-002	5.710788e-001	-1.529051e-002	5.710213e-001	-1.511453e-002	8.191450e-001	-1.911141e-002
293390.000	-8.057095e-001	2.274582e-002	5.711016e-001	-1.532891e-002	5.710729e-001	-1.517500e-002	8.191039e-001	-1.927604e-002
295385.000	-8.060697e-001	2.283126e-002	5.711935e-001	-1.543487e-002	5.712264e-001	-1.518791e-002	8.190512e-001	-1.939915e-002
297380.000	-8.060515e-001	2.336799e-002	5.712665e-001	-1.564539e-002	5.712476e-001	-1.541570e-002	8.190159e-001	-1.948775e-002
299375.000	-8.059694e-001	2.338743e-002	5.712147e-001	-1.572753e-002	5.712290e-001	-1.543513e-002	8.190164e-001	-1.964278e-002
301370.000	-8.059630e-001	2.300307e-002	5.711707e-001	-1.562010e-002	5.711673e-001	-1.549842e-002	8.190635e-001	-1.981512e-002
303365.000	-8.058993e-001	2.362038e-002	5.711362e-001	-1.582067e-002	5.711222e-001	-1.560143e-002	8.190569e-001	-1.994980e-002
305360.000	-8.060032e-001	2.392797e-002	5.713134e-001	-1.596589e-002	5.712461e-001	-1.580228e-002	8.189540e-001	-2.008337e-002
307355.000	-8.056330e-001	2.385021e-002	5.711998e-001	-1.602707e-002	5.712240e-001	-1.586290e-002	8.189823e-001	-2.018361e-002
309350.000	-8.059431e-001	2.369911e-002	5.712745e-001	-1.603472e-002	5.713154e-001	-1.579638e-002	8.189510e-001	-2.038802e-002
311345.000	-8.054442e-001	2.396231e-002	5.711709e-001	-1.620896e-002	5.711476e-001	-1.610484e-002	8.190211e-001	-2.042789e-002
313340.000	-8.057568e-001	2.412250e-002	5.712249e-001	-1.625863e-002	5.712692e-001	-1.608843e-002	8.189568e-001	-2.061641e-002
315335.000	-8.056404e-001	2.437144e-002	5.711845e-001	-1.641513e-002	5.711094e-001	-1.627720e-002	8.189892e-001	-2.068329e-002
317330.000	-8.053318e-001	2.441500e-002	5.711720e-001	-1.642153e-002	5.710354e-001	-1.624882e-002	8.190065e-001	-2.088650e-002
319325.000	-8.055221e-001	2.442894e-002	5.711783e-001	-1.655173e-002	5.711835e-001	-1.641200e-002	8.189405e-001	-2.097677e-002
321320.000	-8.055027e-001	2.449440e-002	5.712178e-001	-1.665440e-002	5.711732e-001	-1.650015e-002	8.189602e-001	-2.112118e-002
323315.000	-8.056362e-001	2.474557e-002	5.712362e-001	-1.671261e-002	5.712273e-001	-1.654643e-002	8.189144e-001	-2.128621e-002
325310.000	-8.053131e-001	2.511824e-002	5.711989e-001	-1.691511e-002	5.711571e-001	-1.674934e-002	8.189350e-001	-2.136887e-002
327305.000	-8.056194e-001	2.511463e-002	5.712966e-001	-1.689414e-002	5.711946e-001	-1.669028e-002	8.189046e-001	-2.156970e-002
329300.000	-8.056022e-001	2.517311e-002	5.712742e-001	-1.697776e-002	5.711449e-001	-1.683114e-002	8.189431e-001	-2.167541e-002
331295.000	-8.053486e-001	2.546421e-002	5.713492e-001	-1.720332e-002	5.712061e-001	-1.691424e-002	8.188588e-001	-2.180675e-002
333290.000	-8.052007e-001	2.517722e-002	5.711823e-001	-1.721810e-002	5.711901e-001	-1.700952e-002	8.189063e-001	-2.193150e-002
335285.000	-8.056497e-001	2.534736e-002	5.713566e-001	-1.723963e-002	5.713298e-001	-1.698449e-002	8.188237e-001	-2.213173e-002
337280.000	-8.057993e-001	2.561972e-002	5.713889e-001	-1.746807e-002	5.714279e-001	-1.723107e-002	8.187733e-001	-2.217215e-002
339275.000	-8.052986e-001	2.576497e-002	5.713089e-001	-1.749599e-002	5.712661e-001	-1.736317e-002	8.188300e-001	-2.232779e-002
341270.000	-8.055222e-001	2.608177e-002	5.713123e-001	-1.769399e-002	5.713793e-001	-1.745162e-002	8.187695e-001	-2.242613e-002
343265.000	-8.052763e-001	2.559816e-002	5.712574e-001	-1.760262e-002	5.711686e-001	-1.742592e-002	8.188752e-001	-2.262473e-002
345260.000	-8.053410e-001	2.581497e-002	5.712180e-001	-1.773278e-002	5.712558e-001	-1.750252e-002	8.188357e-001	-2.276345e-002
347255.000	-8.058753e-001	2.578081e-002	5.714177e-001	-1.771060e-002	5.713858e-001	-1.757998e-002	8.187666e-001	-2.292246e-002
349250.000	-8.057417e-001	2.629333e-002	5.713901e-001	-1.793705e-002	5.714291e-001	-1.772299e-002	8.187206e-001	-2.301687e-002
351245.000	-8.053108e-001	2.632908e-002	5.712529e-001	-1.805791e-002	5.712288e-001	-1.784504e-002	8.188156e-001	-2.313325e-002
353240.000	-8.056120e-001	2.658414e-002	5.713573e-001	-1.805533e-002	5.713315e-001	-1.794823e-002	8.187619e-001	-2.330491e-002
355235.000	-8.052957e-001	2.649860e-002	5.713244e-001	-1.818241e-002	5.712589e-001	-1.807938e-002	8.187681e-001	-2.340249e-002
357230.000	-8.056022e-001	2.676718e-002	5.714589e-001	-1.834161e-002	5.714042e-001	-1.813905e-002	8.187042e-001	-2.353784e-002
359225.000	-8.057146e-001	2.686958e-002	5.714710e-001	-1.838810e-002	5.714527e-001	-1.826528e-002	8.186649e-001	-2.366030e-002
