"# Channel 1"
"# Trace 3"
Frequency, Formatted Data, Formatted Data
+5.00000000000E+004, +5.43329680251E-002, +1.34289323530E-003
+5.19950000000E+004, +5.43895132739E-002, +1.17710522334E-003
+5.39900000000E+004, +5.43984519285E-002, +1.08606615369E-003
+5.59850000000E+004, +5.44496797668E-002, +1.12823773997E-003
+5.79800000000E+004, +5.44312511466E-002, +1.07417707035E-003
+5.99750000000E+004, +5.44624446760E-002, +1.11331356448E-003
+6.19700000000E+004, +5.44791856886E-002, +1.16291138949E-003
+6.39650000000E+004, +5.44567669266E-002, +1.09145763180E-003
+6.59600000000E+004, +5.44853181263E-002, +1.06586252564E-003
+6.79550000000E+004, +5.45221182302E-002, +1.06670749482E-003
+6.99500000000E+004, +5.45482796450E-002, +1.09025307687E-003
+7.19450000000E+004, +5.45757951502E-002, +1.10991928533E-003
+7.39400000000E+004, +5.45590907053E-002, +1.05879946300E-003
+7.59350000000E+004, +5.45466939425E-002, +1.13500197268E-003
+7.79300000000E+004, +5.45636934829E-002, +1.12374596340E-003
+7.99250000000E+004, +5.45866354923E-002, +1.11189317747E-003
+8.19200000000E+004, +5.46004327848E-002, +1.08943904716E-003
+8.39150000000E+004, +5.45866135728E-002, +1.12198778635E-003
+8.59100000000E+004, +5.45862296952E-002, +1.13158949510E-003
+8.79050000000E+004, +5.45899770933E-002, +1.13800059656E-003
+8.99000000000E+004, +5.46113432988E-002, +1.12292555671E-003
+9.18950000000E+004, +5.45820302692E-002, +1.17671415150E-003
+9.38900000000E+004, +5.46089126278E-002, +1.15005456023E-003
+9.58850000000E+004, +5.46355745773E-002, +1.13633206808E-003
+9.78800000000E+004, +5.45929231194E-002, +1.15983430146E-003
+9.98750000000E+004, +5.45884258151E-002, +1.22462153839E-003
+1.01870000000E+005, +5.46212815503E-002, +1.19395100005E-003
+1.03865000000E+005, +5.46419494866E-002, +1.16844029452E-003
+1.05860000000E+005, +5.46089616612E-002, +1.18656181460E-003
+1.07855000000E+005, +5.46500029575E-002, +1.20638493315E-003
+1.09850000000E+005, +5.46091943383E-002, +1.20742550455E-003
+1.11845000000E+005, +5.46336071408E-002, +1.23344878796E-003
+1.13840000000E+005, +5.46367425149E-002, +1.22357484142E-003
+1.15835000000E+005, +5.46585867995E-002, +1.27085238102E-003
+1.17830000000E+005, +5.46456781077E-002, +1.22420174525E-003
+1.19825000000E+005, +5.46604588031E-002, +1.28034099434E-003
+1.21820000000E+005, +5.46467796018E-002, +1.29220808986E-003
+1.23815000000E+005, +5.46529277428E-002, +1.31570041422E-003
+1.25810000000E+005, +5.46362746310E-002, +1.27591702666E-003
+1.27805000000E+005, +5.46592885530E-002, +1.32066975667E-003
+1.29800000000E+005, +5.46393702558E-002, +1.31464739607E-003
+1.31795000000E+005, +5.46417966052E-002, +1.31207066407E-003
+1.33790000000E+005, +5.46418539549E-002, +1.35866586690E-003
+1.35785000000E+005, +5.46370291415E-002, +1.36196896121E-003
+1.37780000000E+005, +5.46524638261E-002, +1.35057562220E-003
+1.39775000000E+005, +5.46505042016E-002, +1.38718431187E-003
+1.41770000000E+005, +5.46519024296E-002, +1.39706335029E-003
+1.43765000000E+005, +5.46730507020E-002, +1.41973622297E-003
+1.45760000000E+005, +5.46614716376E-002, +1.43894552412E-003
+1.47755000000E+005, +5.46056257709E-002, +1.43687656105E-003
+1.49750000000E+005, +5.46471814174E-002, +1.41878981772E-003
+1.51745000000E+005, +5.46554421924E-002, +1.43483143919E-003
+1.53740000000E+005, +5.46277364271E-002, +1.43872610910E-003
+1.55735000000E+005, +5.46309127851E-002, +1.48725728899E-003
+1.57730000000E+005, +5.46535454424E-002, +1.50152682500E-003
+1.59725000000E+005, +5.46784520722E-002, +1.52285300668E-003
+1.61720000000E+005, +5.46453375564E-002, +1.51518915446E-003
+1.63715000000E+005, +5.46624681836E-002, +1.53277085665E-003
+1.65710000000E+005, +5.46443076732E-002, +1.55057946973E-003
+1.67705000000E+005, +5.46348457383E-002, +1.51416250133E-003
+1.69700000000E+005, +5.46270581320E-002, +1.55869168123E-003
+1.71695000000E+005, +5.46558742806E-002, +1.56103086622E-003
+1.73690000000E+005, +5.46665281107E-002, +1.59581627497E-003
+1.75685000000E+005, +5.46512093764E-002, +1.60614649523E-003
+1.77680000000E+005, +5.46546788737E-002, +1.63118244835E-003
+1.79675000000E+005, +5.46320861739E-002, +1.66387916416E-003
+1.81670000000E+005, +5.46742819428E-002, +1.64333213666E-003
+1.83665000000E+005, +5.46299990450E-002, +1.66908342043E-003
+1.85660000000E+005, +5.46435618182E-002, +1.68162401829E-003
+1.87655000000E+005, +5.46357082331E-002, +1.68423453729E-003
+1.89650000000E+005, +5.46142089534E-002, +1.71998381526E-003
+1.91645000000E+005, +5.46440326822E-002, +1.70411607329E-003
+1.93640000000E+005, +5.46272072620E-002, +1.72320113861E-003
+1.95635000000E+005, +5.46343645457E-002, +1.74492215617E-003
+1.97630000000E+005, +5.46162039720E-002, +1.76390610218E-003
+1.99625000000E+005, +5.46162049189E-002, +1.78671845435E-003
+2.01620000000E+005, +5.46262647054E-002, +1.78477168942E-003
+2.03615000000E+005, +5.46238147486E-002, +1.79279036365E-003
+2.05610000000E+005, +5.46251011947E-002, +1.80879646187E-003
+2.07605000000E+005, +5.46367136688E-002, +1.81976025428E-003
+2.09600000000E+005, +5.46348415677E-002, +1.84442418235E-003
+2.11595000000E+005, +5.46085387177E-002, +1.87365425100E-003
+2.13590000000E+005, +5.46148516506E-002, +1.88177620854E-003
+2.15585000000E+005, +5.46245545714E-002, +1.88629638609E-003
+2.17580000000E+005, +5.46108563569E-002, +1.88522452916E-003
+2.19575000000E+005, +5.46206817211E-002, +1.92621492663E-003
+2.21570000000E+005, +5.46151906438E-002, +1.94174338284E-003
+2.23565000000E+005, +5.46262685729E-002, +1.94110729573E-003
+2.25560000000E+005, +5.46221323268E-002, +1.95597730907E-003
+2.27555000000E+005, +5.46060336108E-002, +2.00018679689E-003
+2.29550000000E+005, +5.46220789646E-002, +1.97008278115E-003
+2.31545000000E+005, +5.46292996400E-002, +1.99410418099E-003
+2.33540000000E+005, +5.46115753130E-002, +2.03195934351E-003
+2.35535000000E+005, +5.46093736931E-002, +2.02250436325E-003
+2.37530000000E+005, +5.46145331283E-002, +2.04838519134E-003
+2.39525000000E+005, +5.45897742473E-002, +2.05092739607E-003
+2.41520000000E+005, +5.46000765325E-002, +2.07938015257E-003
+2.43515000000E+005, +5.46145773293E-002, +2.08953451514E-003
+2.45510000000E+005, +5.46092885831E-002, +2.12976638619E-003
+2.47505000000E+005, +5.45913504596E-002, +2.11934162978E-003
+2.49500000000E+005, +5.46043614991E-002, +2.13843042222E-003
+2.51495000000E+005, +5.46052994464E-002, +2.16613008975E-003
+2.53490000000E+005, +5.46072905277E-002, +2.17644406042E-003
+2.55485000000E+005, +5.46107298008E-002, +2.16420333415E-003
+2.57480000000E+005, +5.46145160543E-002, +2.20681739254E-003
+2.59475000000E+005, +5.45829421903E-002, +2.21036115278E-003
+2.61470000000E+005, +5.45920016808E-002, +2.20115298913E-003
+2.63465000000E+005, +5.45902149072E-002, +2.24442673912E-003
+2.65460000000E+005, +5.46072026038E-002, +2.26144977812E-003
+2.67455000000E+005, +5.45937667310E-002, +2.25528841243E-003
+2.69450000000E+005, +5.46084436806E-002, +2.27249711995E-003
+2.71445000000E+005, +5.45744706529E-002, +2.29559416509E-003
+2.73440000000E+005, +5.45618789881E-002, +2.33122798781E-003
+2.75435000000E+005, +5.45984868680E-002, +2.32823667727E-003
+2.77430000000E+005, +5.46028240810E-002, +2.33936558901E-003
+2.79425000000E+005, +5.45945890803E-002, +2.34443651642E-003
+2.81420000000E+005, +5.45807227723E-002, +2.35726275424E-003
+2.83415000000E+005, +5.45938245334E-002, +2.37251901008E-003
+2.85410000000E+005, +5.45793442706E-002, +2.37677657259E-003
+2.87405000000E+005, +5.45908586901E-002, +2.41453930961E-003
+2.89400000000E+005, +5.45904348021E-002, +2.42720298902E-003
+2.91395000000E+005, +5.45878826816E-002, +2.44934767840E-003
+2.93390000000E+005, +5.45793240321E-002, +2.45898275119E-003
+2.95385000000E+005, +5.45544302230E-002, +2.46059387302E-003
+2.97380000000E+005, +5.45502693282E-002, +2.49742317353E-003
+2.99375000000E+005, +5.45532161977E-002, +2.50062897586E-003
+3.01370000000E+005, +5.45630072239E-002, +2.51107872137E-003
+3.03365000000E+005, +5.45699842301E-002, +2.52790944633E-003
+3.05360000000E+005, +5.45492652018E-002, +2.56004440247E-003
+3.07355000000E+005, +5.45526491055E-002, +2.56993523998E-003
+3.09350000000E+005, +5.45380606422E-002, +2.55886267494E-003
+3.11345000000E+005, +5.45642213143E-002, +2.60937608933E-003
+3.13340000000E+005, +5.45445856014E-002, +2.60631508347E-003
+3.15335000000E+005, +5.45698428355E-002, +2.63742597817E-003
+3.17330000000E+005, +5.45819219435E-002, +2.63307685109E-003
+3.19325000000E+005, +5.45573905098E-002, +2.65901260682E-003
+3.21320000000E+005, +5.45587469828E-002, +2.67332489506E-003
+3.23315000000E+005, +5.45498344053E-002, +2.68063805854E-003
+3.25310000000E+005, +5.45605076556E-002, +2.71374571667E-003
+3.27305000000E+005, +5.45546320191E-002, +2.70405024292E-003
+3.29300000000E+005, +5.45622013234E-002, +2.72703846096E-003
+3.31295000000E+005, +5.45520029917E-002, +2.74028582455E-003
+3.33290000000E+005, +5.45542585188E-002, +2.75577457526E-003
+3.35285000000E+005, +5.45317185058E-002, +2.75123072189E-003
+3.37280000000E+005, +5.45149671125E-002, +2.79081579874E-003
+3.39275000000E+005, +5.45406905542E-002, +2.81278451594E-003
+3.41270000000E+005, +5.45220434397E-002, +2.82670232861E-003
+3.43265000000E+005, +5.45562626983E-002, +2.82329754824E-003
+3.45260000000E+005, +5.45418573106E-002, +2.83539072497E-003
+3.47255000000E+005, +5.45205245539E-002, +2.84746445330E-003
+3.49250000000E+005, +5.45129873346E-002, +2.87046367506E-003
+3.51245000000E+005, +5.45449794863E-002, +2.89096287778E-003
+3.53240000000E+005, +5.45279784651E-002, +2.90729666608E-003
+3.55235000000E+005, +5.45392420423E-002, +2.92880600914E-003
+3.57230000000E+005, +5.45154959131E-002, +2.93792588294E-003
+3.59225000000E+005, +5.45071570667E-002, +2.95818254265E-003
+3.61220000000E+005, +5.45195808672E-002, +2.96852219626E-003
+3.63215000000E+005, +5.45075559698E-002, +2.97062701372E-003
+3.65210000000E+005, +5.45068205347E-002, +3.00617360278E-003
+3.67205000000E+005, +5.44952262817E-002, +3.00381087139E-003
+3.69200000000E+005, +5.44905593230E-002, +3.03623102201E-003
+3.71195000000E+005, +5.45046981776E-002, +3.04487920990E-003
+3.73190000000E+005, +5.44986048300E-002, +3.07055364343E-003
+3.75185000000E+005, +5.45104299305E-002, +3.08102324409E-003
+3.77180000000E+005, +5.44766199982E-002, +3.08774356398E-003
+3.79175000000E+005, +5.45077154510E-002, +3.10728089574E-003
+3.81170000000E+005, +5.45161164399E-002, +3.11457306971E-003
+3.83165000000E+005, +5.45059204616E-002, +3.15250441073E-003
+3.85160000000E+005, +5.44962093769E-002, +3.14434338067E-003
+3.87155000000E+005, +5.45045070043E-002, +3.15069054709E-003
+3.89150000000E+005, +5.45058323270E-002, +3.19424070363E-003
+3.91145000000E+005, +5.44899915245E-002, +3.20755417503E-003
+3.93140000000E+005, +5.45032105219E-002, +3.22164238254E-003
+3.95135000000E+005, +5.44834389443E-002, +3.23489819928E-003
+3.97130000000E+005, +5.44706486393E-002, +3.23736062643E-003
+3.99125000000E+005, +5.44768221471E-002, +3.24943201115E-003
+4.01120000000E+005, +5.44760898437E-002, +3.26392812819E-003
+4.03115000000E+005, +5.44691309104E-002, +3.28756848082E-003
+4.05110000000E+005, +5.44701242221E-002, +3.31284070792E-003
+4.07105000000E+005, +5.44886393888E-002, +3.31703178223E-003
+4.09100000000E+005, +5.44743443146E-002, +3.34812990455E-003
+4.11095000000E+005, +5.44648188397E-002, +3.36729005991E-003
+4.13090000000E+005, +5.44552393101E-002, +3.37820643355E-003
+4.15085000000E+005, +5.44533212275E-002, +3.38316196886E-003
+4.17080000000E+005, +5.44474158164E-002, +3.40536803129E-003
+4.19075000000E+005, +5.44741567889E-002, +3.41912315039E-003
+4.21070000000E+005, +5.44718395288E-002, +3.41473265582E-003
+4.23065000000E+005, +5.44515763077E-002, +3.44132591506E-003
+4.25060000000E+005, +5.44697056898E-002, +3.44356517278E-003
+4.27055000000E+005, +5.44740184606E-002, +3.44299910039E-003
+4.29050000000E+005, +5.44409840979E-002, +3.47965733244E-003
+4.31045000000E+005, +5.44436387568E-002, +3.50482561668E-003
+4.33040000000E+005, +5.44495611597E-002, +3.50952249639E-003
+4.35035000000E+005, +5.44427842414E-002, +3.54970290838E-003
+4.37030000000E+005, +5.44317406615E-002, +3.55509431683E-003
+4.39025000000E+005, +5.44118910542E-002, +3.55845789932E-003
+4.41020000000E+005, +5.44281862390E-002, +3.56973484183E-003
+4.43015000000E+005, +5.44126699703E-002, +3.59236747694E-003
+4.45010000000E+005, +5.44294754560E-002, +3.62339780938E-003
+4.47005000000E+005, +5.44076033805E-002, +3.61823785173E-003
+4.49000000000E+005, +5.44216275741E-002, +3.63518490509E-003
+4.50995000000E+005, +5.44207387701E-002, +3.65367237406E-003
+4.52990000000E+005, +5.44162012732E-002, +3.65856682252E-003
+4.54985000000E+005, +5.44135888029E-002, +3.66513483676E-003
+4.56980000000E+005, +5.44071610081E-002, +3.70380565561E-003
+4.58975000000E+005, +5.44144186019E-002, +3.70619470762E-003
+4.60970000000E+005, +5.44213913765E-002, +3.73179600243E-003
+4.62965000000E+005, +5.44054714032E-002, +3.75438084403E-003
+4.64960000000E+005, +5.44053137919E-002, +3.78164578940E-003
+4.66955000000E+005, +5.44240914206E-002, +3.76167803930E-003
+4.68950000000E+005, +5.44118829963E-002, +3.78452315054E-003
+4.70945000000E+005, +5.44219956532E-002, +3.81260360793E-003
+4.72940000000E+005, +5.43971771491E-002, +3.82639991550E-003
+4.74935000000E+005, +5.43974364249E-002, +3.84206834475E-003
+4.76930000000E+005, +5.43901165801E-002, +3.85765105891E-003
+4.78925000000E+005, +5.44070902725E-002, +3.86676373179E-003
+4.80920000000E+005, +5.43863945317E-002, +3.89509687706E-003
+4.82915000000E+005, +5.43972263196E-002, +3.91984926971E-003
+4.84910000000E+005, +5.43793437083E-002, +3.92514066310E-003
+4.86905000000E+005, +5.43972133053E-002, +3.93292403866E-003
+4.88900000000E+005, +5.43969827554E-002, +3.94204966749E-003
+4.90895000000E+005, +5.43801390271E-002, +3.93908113383E-003
+4.92890000000E+005, +5.43856591051E-002, +3.98670150576E-003
+4.94885000000E+005, +5.43759736247E-002, +3.98793206826E-003
+4.96880000000E+005, +5.43665871223E-002, +4.01289808912E-003
+4.98875000000E+005, +5.43451050603E-002, +4.02517235055E-003
+5.00870000000E+005, +5.43755266372E-002, +4.02455026260E-003
+5.02865000000E+005, +5.43450424125E-002, +4.07500487507E-003
+5.04860000000E+005, +5.43551518002E-002, +4.07012870482E-003
+5.06855000000E+005, +5.43507568117E-002, +4.07238623654E-003
+5.08850000000E+005, +5.43670754326E-002, +4.09160470455E-003
+5.10845000000E+005, +5.43537279584E-002, +4.12857085696E-003
+5.12840000000E+005, +5.43590032139E-002, +4.13490411825E-003
+5.14835000000E+005, +5.43425875173E-002, +4.13782496105E-003
+5.16830000000E+005, +5.43474029956E-002, +4.16109980206E-003
+5.18825000000E+005, +5.43378555098E-002, +4.19016013761E-003
+5.20820000000E+005, +5.43447290890E-002, +4.19568675359E-003
+5.22815000000E+005, +5.43273979404E-002, +4.21060747286E-003
+5.24810000000E+005, +5.43466167524E-002, +4.22278157797E-003
+5.26805000000E+005, +5.43376681807E-002, +4.24357077601E-003
+5.28800000000E+005, +5.43088613291E-002, +4.23739611409E-003
+5.30795000000E+005, +5.43094148886E-002, +4.25686966958E-003
+5.32790000000E+005, +5.43231293031E-002, +4.29177497026E-003
+5.34785000000E+005, +5.43253060648E-002, +4.30500245392E-003
+5.36780000000E+005, +5.43058654605E-002, +4.30880377311E-003
+5.38775000000E+005, +5.43053674319E-002, +4.33335009326E-003
+5.40770000000E+005, +5.42971210112E-002, +4.35043864770E-003
+5.42765000000E+005, +5.43029244906E-002, +4.36135283850E-003
+5.44760000000E+005, +5.42920991006E-002, +4.39618819402E-003
+5.46755000000E+005, +5.43146947371E-002, +4.38354302973E-003
+5.48750000000E+005, +5.42883781892E-002, +4.39884841245E-003
+5.50745000000E+005, +5.42860703872E-002, +4.40210436027E-003
+5.52740000000E+005, +5.43037063169E-002, +4.43921549292E-003
+5.54735000000E+005, +5.42894104769E-002, +4.44983358829E-003
+5.56730000000E+005, +5.42947534708E-002, +4.45531767428E-003
+5.58725000000E+005, +5.42840720223E-002, +4.48397484582E-003
+5.60720000000E+005, +5.42856237162E-002, +4.48498372552E-003
+5.62715000000E+005, +5.43008834841E-002, +4.53453095652E-003
+5.64710000000E+005, +5.43100087284E-002, +4.51757763313E-003
+5.66705000000E+005, +5.42591221177E-002, +4.54678396740E-003
+5.68700000000E+005, +5.42768867544E-002, +4.54591307140E-003
+5.70695000000E+005, +5.42704159827E-002, +4.56861050394E-003
+5.72690000000E+005, +5.42637250225E-002, +4.60041526858E-003
+5.74685000000E+005, +5.42667723815E-002, +4.59537628804E-003
+5.76680000000E+005, +5.42525479450E-002, +4.63082377988E-003
+5.78675000000E+005, +5.42511489513E-002, +4.64606851494E-003
+5.80670000000E+005, +5.42570230754E-002, +4.66997016209E-003
+5.82665000000E+005, +5.42514148527E-002, +4.68085006131E-003
+5.84660000000E+005, +5.42438131853E-002, +4.68450395700E-003
+5.86655000000E+005, +5.42297069012E-002, +4.68784736270E-003
+5.88650000000E+005, +5.42474555963E-002, +4.73184787412E-003
+5.90645000000E+005, +5.42400428866E-002, +4.71682354162E-003
+5.92640000000E+005, +5.42746241734E-002, +4.75395211932E-003
+5.94635000000E+005, +5.42360127473E-002, +4.76771031074E-003
+5.96630000000E+005, +5.42405854341E-002, +4.80062143604E-003
+5.98625000000E+005, +5.42260415903E-002, +4.80342328510E-003
+6.00620000000E+005, +5.42213740708E-002, +4.79861768587E-003
+6.02615000000E+005, +5.42208297933E-002, +4.82739381113E-003
+6.04610000000E+005, +5.42078149768E-002, +4.85138089684E-003
+6.06605000000E+005, +5.42274597823E-002, +4.84564775350E-003
+6.08600000000E+005, +5.42210523170E-002, +4.86226952683E-003
+6.10595000000E+005, +5.42275318222E-002, +4.87469309161E-003
+6.12590000000E+005, +5.42009232921E-002, +4.90852074440E-003
+6.14585000000E+005, +5.41972104636E-002, +4.92461047367E-003
+6.16580000000E+005, +5.41995894203E-002, +4.93611443930E-003
+6.18575000000E+005, +5.42093617591E-002, +4.94005638566E-003
+6.20570000000E+005, +5.41955157299E-002, +4.95388431943E-003
+6.22565000000E+005, +5.41831766033E-002, +4.98393901888E-003
+6.24560000000E+005, +5.41738856132E-002, +5.00356459439E-003
+6.26555000000E+005, +5.41861207874E-002, +5.00351544187E-003
+6.28550000000E+005, +5.42098734274E-002, +5.00574250760E-003
+6.30545000000E+005, +5.41932908817E-002, +5.04544370743E-003
+6.32540000000E+005, +5.41893144420E-002, +5.04769662771E-003
+6.34535000000E+005, +5.41593141310E-002, +5.07443406044E-003
+6.36530000000E+005, +5.41656284566E-002, +5.09348227967E-003
+6.38525000000E+005, +5.41726281548E-002, +5.09412866102E-003
+6.40520000000E+005, +5.41690089692E-002, +5.11199095118E-003
+6.42515000000E+005, +5.41607871605E-002, +5.12419390162E-003
+6.44510000000E+005, +5.41468000464E-002, +5.15837977629E-003
+6.46505000000E+005, +5.41735613983E-002, +5.18739500798E-003
+6.48500000000E+005, +5.41903114317E-002, +5.17385886387E-003
+6.50495000000E+005, +5.41691559436E-002, +5.20788690008E-003
+6.52490000000E+005, +5.41609095025E-002, +5.19364363195E-003
+6.54485000000E+005, +5.41555152017E-002, +5.19485523627E-003
+6.56480000000E+005, +5.41511156254E-002, +5.25617904768E-003
+6.58475000000E+005, +5.41427067436E-002, +5.24567045511E-003
+6.60470000000E+005, +5.41296447211E-002, +5.27446617650E-003
+6.62465000000E+005, +5.41290372864E-002, +5.28027043505E-003
+6.64460000000E+005, +5.41263671349E-002, +5.30288059074E-003
+6.66455000000E+005, +5.41236505043E-002, +5.30203504479E-003
+6.68450000000E+005, +5.41259088759E-002, +5.33154481511E-003
+6.70445000000E+005, +5.41165001652E-002, +5.35376160328E-003
+6.72440000000E+005, +5.41157917513E-002, +5.37003033537E-003
+6.74435000000E+005, +5.41139059152E-002, +5.38496943503E-003
+6.76430000000E+005, +5.41079660276E-002, +5.39818587562E-003
+6.78425000000E+005, +5.41141174489E-002, +5.40997522009E-003
+6.80420000000E+005, +5.40952263142E-002, +5.42137258981E-003
+6.82415000000E+005, +5.40827830168E-002, +5.45028656967E-003
+6.84410000000E+005, +5.40743789094E-002, +5.47830742536E-003
+6.86405000000E+005, +5.40871095656E-002, +5.48943772790E-003
+6.88400000000E+005, +5.40811349556E-002, +5.49622658227E-003
