Time (s),VIN,IIN,VOUT
0.0,24.13724998272,1.697900002688,49.64787500672
5e-10,24.13724998272,1.696337502592,49.58537500288
1e-09,24.12162498176,1.696337502592,49.55412500096
1.5000000000000002e-09,24.13724998272,1.694775002496,49.6166250048
2e-09,24.21537498752,1.696337502592,49.60100000384
2.5e-09,24.32474999424,1.696337502592,49.5385
3.0000000000000004e-09,24.4185,1.6932125024,49.50724999808
3.5000000000000003e-09,24.481000003840002,1.688525002112,49.55412500096
4e-09,24.481000003840002,1.686962502016,49.58537500288
4.500000000000001e-09,24.496625004800002,1.690087502208,49.64787500672
5e-09,24.465375002880002,1.691650002304,49.67912500864
5.5000000000000004e-09,24.40287499904,1.691650002304,49.71037501056
6.000000000000001e-09,24.30912499328,1.691650002304,49.66350000768
6.5e-09,24.1841249856,1.691650002304,49.6947500096
7.000000000000001e-09,24.1059999808,1.6932125024,49.6947500096
7.500000000000001e-09,24.09037497984,1.6932125024,49.67912500864
8e-09,24.16849998464,1.691650002304,49.64787500672
8.5e-09,24.23099998848,1.688525002112,49.55412500096
9.000000000000001e-09,24.29349999232,1.690087502208,49.47599999616
9.5e-09,24.35599999616,1.688525002112,49.52287499904
1e-08,24.449750001920002,1.688525002112,49.52287499904
1.0500000000000001e-08,24.496625004800002,1.68540000192,49.52287499904
1.1000000000000001e-08,24.527875006720002,1.688525002112,49.50724999808
1.15e-08,24.527875006720002,1.690087502208,49.52287499904
1.2000000000000002e-08,24.449750001920002,1.691650002304,49.55412500096
1.2500000000000001e-08,24.38724999808,1.6932125024,49.64787500672
1.3e-08,24.30912499328,1.691650002304,49.72600001152
1.35e-08,24.2622499904,1.690087502208,49.74162501248
1.4000000000000001e-08,24.19974998656,1.690087502208,49.64787500672
1.45e-08,24.12162498176,1.690087502208,49.58537500288
1.5000000000000002e-08,24.1059999808,1.691650002304,49.5385
1.55e-08,24.15287498368,1.694775002496,49.50724999808
1.6e-08,24.21537498752,1.6932125024,49.49162499712
1.6500000000000002e-08,24.27787499136,1.691650002304,49.42912499328
1.7e-08,24.32474999424,1.691650002304,49.3822499904
1.75e-08,24.37162499712,1.6932125024,49.44474999424
1.8000000000000002e-08,24.449750001920002,1.688525002112,49.52287499904
1.85e-08,24.559125008640002,1.686962502016,49.58537500288
1.9e-08,24.590375010560003,1.68540000192,49.63225000576
1.9500000000000003e-08,24.527875006720002,1.686962502016,49.64787500672
2e-08,24.40287499904,1.691650002304,49.64787500672
2.05e-08,24.27787499136,1.694775002496,49.67912500864
2.1000000000000003e-08,24.19974998656,1.694775002496,49.6947500096
2.15e-08,24.16849998464,1.6932125024,49.6947500096
2.2000000000000002e-08,24.16849998464,1.6932125024,49.6166250048
2.2500000000000003e-08,24.19974998656,1.6932125024,49.5385
2.3e-08,24.27787499136,1.6932125024,49.47599999616
2.3500000000000002e-08,24.30912499328,1.691650002304,49.44474999424
2.4000000000000003e-08,24.35599999616,1.691650002304,49.41349999232
2.45e-08,24.465375002880002,1.691650002304,49.41349999232
2.5000000000000002e-08,24.652875014400003,1.6932125024,49.41349999232
2.55e-08,24.699750017280003,1.691650002304,49.47599999616
2.6e-08,24.574750009600002,1.690087502208,49.58537500288
2.6500000000000002e-08,24.4185,1.688525002112,49.66350000768
2.7e-08,24.2622499904,1.686962502016,49.71037501056
2.75e-08,24.1841249856,1.690087502208,49.71037501056
2.8000000000000003e-08,24.15287498368,1.694775002496,49.6947500096
2.85e-08,24.16849998464,1.694775002496,49.66350000768
2.9e-08,24.13724998272,1.694775002496,49.64787500672
2.9500000000000003e-08,24.12162498176,1.694775002496,49.60100000384
3.0000000000000004e-08,24.1841249856,1.696337502592,49.49162499712
3.05e-08,24.30912499328,1.696337502592,49.41349999232
3.1e-08,24.4185,1.6932125024,49.3822499904
3.1500000000000004e-08,24.43412500096,1.690087502208,49.3822499904
3.2e-08,24.43412500096,1.686962502016,49.39787499136
3.25e-08,24.43412500096,1.683837501824,49.41349999232
3.3000000000000004e-08,24.465375002880002,1.68540000192,49.42912499328
3.35e-08,24.481000003840002,1.688525002112,49.52287499904
3.4e-08,24.43412500096,1.690087502208,49.60100000384
3.4500000000000005e-08,24.27787499136,1.691650002304,49.66350000768
3.5e-08,24.15287498368,1.6932125024,49.6947500096
3.55e-08,24.16849998464,1.694775002496,49.67912500864
3.6000000000000005e-08,24.30912499328,1.694775002496,49.60100000384
3.65e-08,24.449750001920002,1.697900002688,49.55412500096
3.7e-08,24.449750001920002,1.702587502976,49.52287499904
3.7500000000000005e-08,24.3403749952,1.702587502976,49.52287499904
3.8e-08,24.24662498944,1.699462502784,49.49162499712
3.85e-08,24.30912499328,1.6932125024,49.44474999424
3.9000000000000005e-08,24.43412500096,1.691650002304,49.3822499904
3.95e-08,24.43412500096,1.691650002304,49.41349999232
4e-08,24.4185,1.691650002304,49.4603749952
4.0500000000000005e-08,24.30912499328,1.6932125024,49.5385
4.1e-08,24.19974998656,1.697900002688,49.56975000192
4.15e-08,24.15287498368,1.699462502784,49.63225000576
4.2000000000000006e-08,24.13724998272,1.697900002688,49.6166250048
4.2500000000000003e-08,24.15287498368,1.697900002688,49.60100000384
4.3e-08,24.27787499136,1.697900002688,49.60100000384
4.3500000000000006e-08,24.4185,1.70102500288,49.56975000192
4.4000000000000004e-08,24.4185,1.702587502976,49.50724999808
4.45e-08,24.37162499712,1.70102500288,49.44474999424
4.5000000000000006e-08,24.27787499136,1.696337502592,49.41349999232
4.5500000000000004e-08,24.29349999232,1.696337502592,49.44474999424
4.6e-08,24.3403749952,1.694775002496,49.4603749952
4.6500000000000006e-08,24.4185,1.6932125024,49.50724999808
4.7000000000000004e-08,24.38724999808,1.694775002496,49.47599999616
4.75e-08,24.2622499904,1.697900002688,49.49162499712
4.8000000000000006e-08,24.13724998272,1.697900002688,49.52287499904
4.8500000000000004e-08,24.09037497984,1.696337502592,49.60100000384
4.9e-08,24.12162498176,1.699462502784,49.64787500672
4.95e-08,24.19974998656,1.70102500288,49.6166250048
5.0000000000000004e-08,24.2622499904,1.70102500288,49.50724999808
5.05e-08,24.24662498944,1.70102500288,49.4603749952
5.1e-08,24.29349999232,1.704150003072,49.49162499712
5.1500000000000005e-08,24.35599999616,1.704150003072,49.52287499904
5.2e-08,24.37162499712,1.699462502784,49.47599999616
5.25e-08,24.38724999808,1.70102500288,49.41349999232
5.3000000000000005e-08,24.32474999424,1.699462502784,49.39787499136
5.35e-08,24.29349999232,1.699462502784,49.4603749952
5.4e-08,24.24662498944,1.702587502976,49.52287499904
5.4500000000000005e-08,24.21537498752,1.705712503168,49.58537500288
5.5e-08,24.15287498368,1.704150003072,49.55412500096
5.55e-08,24.027874976000003,1.702587502976,49.55412500096
5.6000000000000005e-08,23.980999973120003,1.704150003072,49.56975000192
5.65e-08,24.012249975040003,1.702587502976,49.58537500288
5.7e-08,24.16849998464,1.704150003072,49.58537500288
5.7500000000000005e-08,24.3403749952,1.705712503168,49.56975000192
5.8e-08,24.4185,1.707275003264,49.47599999616
5.85e-08,24.40287499904,1.705712503168,49.44474999424
5.9000000000000006e-08,24.37162499712,1.705712503168,49.47599999616
5.9500000000000003e-08,24.35599999616,1.702587502976,49.52287499904
6.000000000000001e-08,24.35599999616,1.699462502784,49.49162499712
6.05e-08,24.3403749952,1.70102500288,49.47599999616
6.1e-08,24.23099998848,1.702587502976,49.49162499712
6.15e-08,24.07474997888,1.702587502976,49.56975000192
6.2e-08,23.980999973120003,1.705712503168,49.60100000384
6.250000000000001e-08,23.980999973120003,1.707275003264,49.63225000576
6.300000000000001e-08,24.09037497984,1.705712503168,49.56975000192
6.35e-08,24.1841249856,1.711962503552,49.5385
6.4e-08,24.24662498944,1.70883750336,49.5385
6.45e-08,24.27787499136,1.70883750336,49.5385
6.5e-08,24.3403749952,1.70883750336,49.52287499904
6.55e-08,24.38724999808,1.711962503552,49.52287499904
6.600000000000001e-08,24.4185,1.707275003264,49.44474999424
6.65e-08,24.40287499904,1.702587502976,49.42912499328
6.7e-08,24.29349999232,1.699462502784,49.49162499712
6.75e-08,24.23099998848,1.702587502976,49.5385
6.8e-08,24.16849998464,1.704150003072,49.5385
6.85e-08,24.09037497984,1.704150003072,49.55412500096
6.900000000000001e-08,24.027874976000003,1.705712503168,49.55412500096
6.950000000000001e-08,24.012249975040003,1.705712503168,49.60100000384
7e-08,24.059124977920003,1.70883750336,49.60100000384
7.05e-08,24.13724998272,1.70883750336,49.6166250048
7.1e-08,24.24662498944,1.710400003456,49.55412500096
7.15e-08,24.30912499328,1.711962503552,49.5385
7.200000000000001e-08,24.3403749952,1.713525003648,49.52287499904
7.250000000000001e-08,24.32474999424,1.710400003456,49.52287499904
7.3e-08,24.35599999616,1.70883750336,49.50724999808
7.35e-08,24.35599999616,1.705712503168,49.52287499904
7.4e-08,24.32474999424,1.705712503168,49.49162499712
7.45e-08,24.23099998848,1.70883750336,49.49162499712
7.500000000000001e-08,24.13724998272,1.707275003264,49.56975000192
7.550000000000001e-08,24.1059999808,1.707275003264,49.63225000576
7.6e-08,24.09037497984,1.707275003264,49.64787500672
7.65e-08,24.09037497984,1.713525003648,49.63225000576
7.7e-08,24.1059999808,1.715087503744,49.60100000384
7.75e-08,24.1841249856,1.713525003648,49.63225000576
7.800000000000001e-08,24.24662498944,1.715087503744,49.6166250048
7.850000000000001e-08,24.2622499904,1.713525003648,49.6166250048
7.9e-08,24.32474999424,1.713525003648,49.58537500288
7.95e-08,24.30912499328,1.715087503744,49.55412500096
8e-08,24.32474999424,1.71665000384,49.56975000192
8.05e-08,24.30912499328,1.715087503744,49.58537500288
8.100000000000001e-08,24.30912499328,1.711962503552,49.6166250048
8.150000000000001e-08,24.27787499136,1.70883750336,49.66350000768
8.2e-08,24.21537498752,1.707275003264,49.63225000576
8.25e-08,24.15287498368,1.710400003456,49.60100000384
8.3e-08,24.1059999808,1.713525003648,49.6166250048
8.35e-08,24.07474997888,1.71665000384,49.66350000768
8.400000000000001e-08,24.09037497984,1.71665000384,49.66350000768
8.450000000000001e-08,24.12162498176,1.718212503936,49.63225000576
8.500000000000001e-08,24.13724998272,1.715087503744,49.6166250048
8.55e-08,24.1841249856,1.71665000384,49.6166250048
8.6e-08,24.23099998848,1.718212503936,49.6166250048
8.65e-08,24.2622499904,1.711962503552,49.63225000576
8.700000000000001e-08,24.30912499328,1.713525003648,49.6166250048
8.750000000000001e-08,24.30912499328,1.715087503744,49.60100000384
8.800000000000001e-08,24.29349999232,1.715087503744,49.58537500288
8.85e-08,24.2622499904,1.713525003648,49.60100000384
8.9e-08,24.1841249856,1.715087503744,49.6166250048
8.95e-08,24.1059999808,1.715087503744,49.71037501056
9.000000000000001e-08,24.09037497984,1.715087503744,49.6947500096
9.050000000000001e-08,24.07474997888,1.715087503744,49.64787500672
9.100000000000001e-08,24.07474997888,1.71665000384,49.64787500672
9.15e-08,24.07474997888,1.718212503936,49.6947500096
9.2e-08,24.13724998272,1.715087503744,49.6947500096
9.25e-08,24.21537498752,1.715087503744,49.6947500096
9.300000000000001e-08,24.29349999232,1.715087503744,49.67912500864
9.350000000000001e-08,24.32474999424,1.718212503936,49.67912500864
9.400000000000001e-08,24.30912499328,1.715087503744,49.66350000768
9.45e-08,24.2622499904,1.710400003456,49.67912500864
9.5e-08,24.27787499136,1.711962503552,49.64787500672
9.55e-08,24.23099998848,1.711962503552,49.63225000576
9.600000000000001e-08,24.15287498368,1.710400003456,49.63225000576
9.650000000000001e-08,24.059124977920003,1.711962503552,49.6166250048
9.700000000000001e-08,24.027874976000003,1.711962503552,49.63225000576
9.75e-08,24.059124977920003,1.713525003648,49.67912500864
9.8e-08,24.13724998272,1.71665000384,49.6947500096
9.85e-08,24.16849998464,1.718212503936,49.66350000768
9.9e-08,24.16849998464,1.71665000384,49.66350000768
9.950000000000001e-08,24.23099998848,1.718212503936,49.6947500096
1.0000000000000001e-07,24.2622499904,1.71665000384,49.67912500864
1.005e-07,24.30912499328,1.715087503744,49.71037501056
1.01e-07,24.29349999232,1.711962503552,49.74162501248
1.015e-07,24.2622499904,1.711962503552,49.74162501248
1.02e-07,24.16849998464,1.710400003456,49.6947500096
1.0250000000000001e-07,24.12162498176,1.707275003264,49.71037501056
1.0300000000000001e-07,24.09037497984,1.70883750336,49.6947500096
1.0350000000000001e-07,24.059124977920003,1.711962503552,49.67912500864
1.04e-07,24.07474997888,1.715087503744,49.64787500672
1.045e-07,24.1059999808,1.711962503552,49.60100000384
1.05e-07,24.16849998464,1.711962503552,49.55412500096
1.0550000000000001e-07,24.24662498944,1.710400003456,49.6166250048
1.0600000000000001e-07,24.27787499136,1.70883750336,49.63225000576
1.0650000000000001e-07,24.23099998848,1.70883750336,49.6166250048
1.07e-07,24.1841249856,1.70883750336,49.64787500672
1.075e-07,24.2622499904,1.710400003456,49.71037501056
1.08e-07,24.35599999616,1.711962503552,49.75725001344
1.0850000000000001e-07,24.37162499712,1.711962503552,49.75725001344
1.0900000000000001e-07,24.23099998848,1.710400003456,49.75725001344
1.0950000000000001e-07,24.09037497984,1.70883750336,49.7728750144
1.1e-07,24.043499976960003,1.710400003456,49.75725001344
1.105e-07,24.15287498368,1.70883750336,49.75725001344
1.11e-07,24.30912499328,1.713525003648,49.67912500864
1.1150000000000001e-07,24.32474999424,1.715087503744,49.58537500288
1.1200000000000001e-07,24.21537498752,1.715087503744,49.58537500288
1.1250000000000001e-07,24.12162498176,1.711962503552,49.58537500288
1.13e-07,24.13724998272,1.711962503552,49.56975000192
1.135e-07,24.2622499904,1.710400003456,49.63225000576
1.14e-07,24.3403749952,1.710400003456,49.67912500864
1.1450000000000001e-07,24.32474999424,1.710400003456,49.6947500096
1.1500000000000001e-07,24.1841249856,1.70883750336,49.72600001152
1.1550000000000001e-07,24.13724998272,1.70883750336,49.75725001344
1.16e-07,24.15287498368,1.710400003456,49.7728750144
1.165e-07,24.2622499904,1.710400003456,49.75725001344
1.17e-07,24.2622499904,1.70883750336,49.72600001152
1.1750000000000001e-07,24.21537498752,1.707275003264,49.72600001152
1.1800000000000001e-07,24.15287498368,1.70883750336,49.6947500096
1.1850000000000001e-07,24.16849998464,1.70883750336,49.72600001152
1.1900000000000001e-07,24.2622499904,1.713525003648,49.67912500864
1.195e-07,24.32474999424,1.713525003648,49.6166250048
1.2000000000000002e-07,24.35599999616,1.710400003456,49.6166250048
1.205e-07,24.29349999232,1.705712503168,49.67912500864
1.21e-07,24.19974998656,1.704150003072,49.72600001152
1.215e-07,24.19974998656,1.705712503168,49.7728750144
1.22e-07,24.27787499136,1.711962503552,49.75725001344
1.2250000000000002e-07,24.30912499328,1.713525003648,49.74162501248
1.23e-07,24.21537498752,1.711962503552,49.74162501248
1.2350000000000001e-07,24.15287498368,1.707275003264,49.75725001344
1.24e-07,24.1059999808,1.707275003264,49.75725001344
1.245e-07,24.15287498368,1.70883750336,49.72600001152
1.2500000000000002e-07,24.19974998656,1.710400003456,49.67912500864
1.255e-07,24.23099998848,1.707275003264,49.66350000768
1.2600000000000002e-07,24.1841249856,1.70883750336,49.66350000768
1.265e-07,24.23099998848,1.707275003264,49.74162501248
1.27e-07,24.3403749952,1.707275003264,49.74162501248
1.275e-07,24.35599999616,1.710400003456,49.71037501056
1.28e-07,24.32474999424,1.707275003264,49.67912500864
1.2850000000000002e-07,24.21537498752,1.705712503168,49.71037501056
1.29e-07,24.13724998272,1.705712503168,49.7728750144
1.2950000000000001e-07,24.13724998272,1.702587502976,49.86662502016
1.3e-07,24.1841249856,1.704150003072,49.8510000192
1.305e-07,24.19974998656,1.705712503168,49.75725001344
1.31e-07,24.19974998656,1.705712503168,49.71037501056
1.315e-07,24.19974998656,1.705712503168,49.74162501248
1.3200000000000002e-07,24.19974998656,1.705712503168,49.74162501248
1.325e-07,24.29349999232,1.702587502976,49.71037501056
1.33e-07,24.3403749952,1.704150003072,49.64787500672
1.335e-07,24.35599999616,1.702587502976,49.64787500672
1.34e-07,24.30912499328,1.70102500288,49.63225000576
1.3450000000000002e-07,24.30912499328,1.696337502592,49.71037501056
1.35e-07,24.32474999424,1.697900002688,49.75725001344
1.3550000000000002e-07,24.29349999232,1.70102500288,49.7728750144
1.36e-07,24.21537498752,1.697900002688,49.72600001152
1.365e-07,24.12162498176,1.697900002688,49.72600001152
1.37e-07,24.07474997888,1.697900002688,49.75725001344
1.375e-07,24.15287498368,1.699462502784,49.86662502016
1.3800000000000002e-07,24.27787499136,1.70102500288,49.8510000192
1.385e-07,24.35599999616,1.70102500288,49.75725001344
1.3900000000000001e-07,24.3403749952,1.699462502784,49.6947500096
1.395e-07,24.29349999232,1.697900002688,49.6947500096
1.4e-07,24.2622499904,1.696337502592,49.6947500096
1.4050000000000002e-07,24.29349999232,1.697900002688,49.67912500864
1.41e-07,24.30912499328,1.697900002688,49.64787500672
1.4150000000000002e-07,24.29349999232,1.696337502592,49.66350000768
1.42e-07,24.16849998464,1.696337502592,49.64787500672
1.425e-07,24.07474997888,1.694775002496,49.6947500096
1.43e-07,24.07474997888,1.694775002496,49.71037501056
1.435e-07,24.16849998464,1.697900002688,49.67912500864
1.4400000000000002e-07,24.32474999424,1.697900002688,49.63225000576
1.445e-07,24.35599999616,1.696337502592,49.63225000576
1.4500000000000001e-07,24.3403749952,1.696337502592,49.64787500672
1.455e-07,24.37162499712,1.694775002496,49.71037501056
1.46e-07,24.481000003840002,1.696337502592,49.6947500096
1.4650000000000002e-07,24.512250005760002,1.696337502592,49.66350000768
1.47e-07,24.465375002880002,1.696337502592,49.64787500672
1.4750000000000002e-07,24.40287499904,1.696337502592,49.71037501056
1.48e-07,24.2622499904,1.696337502592,49.72600001152
1.485e-07,24.13724998272,1.699462502784,49.72600001152
1.49e-07,24.1059999808,1.696337502592,49.67912500864
1.495e-07,24.12162498176,1.6932125024,49.63225000576
1.5000000000000002e-07,24.12162498176,1.694775002496,49.58537500288
1.505e-07,24.1059999808,1.6932125024,49.60100000384
1.5100000000000002e-07,24.1841249856,1.6932125024,49.60100000384
1.515e-07,24.24662498944,1.6932125024,49.56975000192
1.52e-07,24.37162499712,1.6932125024,49.52287499904
1.5250000000000002e-07,24.465375002880002,1.691650002304,49.52287499904
1.53e-07,24.496625004800002,1.691650002304,49.5385
1.5350000000000002e-07,24.481000003840002,1.6932125024,49.63225000576
1.54e-07,24.481000003840002,1.6932125024,49.66350000768
1.5450000000000001e-07,24.43412500096,1.6932125024,49.67912500864
1.55e-07,24.37162499712,1.691650002304,49.66350000768
1.555e-07,24.24662498944,1.691650002304,49.67912500864
1.5600000000000002e-07,24.09037497984,1.6932125024,49.67912500864
1.565e-07,24.07474997888,1.696337502592,49.6947500096
1.5700000000000002e-07,24.12162498176,1.697900002688,49.64787500672
1.575e-07,24.19974998656,1.694775002496,49.6166250048
1.58e-07,24.2622499904,1.6932125024,49.50724999808
1.5850000000000002e-07,24.30912499328,1.691650002304,49.49162499712
1.59e-07,24.40287499904,1.691650002304,49.50724999808
1.5950000000000002e-07,24.481000003840002,1.691650002304,49.52287499904
1.6e-07,24.543500007680002,1.691650002304,49.50724999808
1.6050000000000001e-07,24.527875006720002,1.690087502208,49.50724999808
1.61e-07,24.496625004800002,1.6932125024,49.52287499904
1.615e-07,24.4185,1.6932125024,49.6166250048
1.6200000000000002e-07,24.35599999616,1.696337502592,49.6947500096
1.625e-07,24.32474999424,1.696337502592,49.72600001152
1.6300000000000002e-07,24.24662498944,1.694775002496,49.67912500864
1.635e-07,24.16849998464,1.694775002496,49.6166250048
1.64e-07,24.09037497984,1.694775002496,49.55412500096
1.645e-07,24.13724998272,1.694775002496,49.52287499904
1.65e-07,24.1841249856,1.691650002304,49.49162499712
1.6550000000000002e-07,24.2622499904,1.690087502208,49.47599999616
1.66e-07,24.32474999424,1.691650002304,49.41349999232
1.6650000000000002e-07,24.35599999616,1.691650002304,49.39787499136
1.67e-07,24.4185,1.691650002304,49.47599999616
1.675e-07,24.481000003840002,1.690087502208,49.55412500096
1.6800000000000002e-07,24.590375010560003,1.691650002304,49.6166250048
1.685e-07,24.590375010560003,1.690087502208,49.63225000576
1.6900000000000002e-07,24.481000003840002,1.6932125024,49.63225000576
