Time (s),VIN,IIN,VOUT
0.0,24.136624979839997,1.521687503168,46.97712501248
5e-10,24.12099997888,1.520125003072,46.96150001152
1e-09,24.199124983679997,1.521687503168,46.89900000768
1.5000000000000002e-09,24.308499990399998,1.520125003072,46.86775000576
2e-09,24.3866249952,1.51700000288,46.91462500864
2.5e-09,24.370999994239998,1.51700000288,46.96150001152
3.0000000000000004e-09,24.355374993279998,1.51700000288,46.94587501056
3.5000000000000003e-09,24.370999994239998,1.513875002688,46.9302500096
4e-09,24.43349999808,1.513875002688,46.94587501056
4.500000000000001e-09,24.44912499904,1.513875002688,46.97712501248
5e-09,24.339749992319998,1.515437502784,47.02400001536
5.5000000000000004e-09,24.261624987519998,1.51700000288,47.02400001536
6.000000000000001e-09,24.214749984639997,1.515437502784,46.97712501248
6.5e-09,24.245999986559998,1.51700000288,46.89900000768
7.000000000000001e-09,24.292874989439998,1.515437502784,46.91462500864
7.500000000000001e-09,24.339749992319998,1.520125003072,46.9302500096
8e-09,24.324124991359998,1.520125003072,46.94587501056
8.5e-09,24.245999986559998,1.518562502976,46.96150001152
9.000000000000001e-09,24.261624987519998,1.512312502592,46.91462500864
9.5e-09,24.308499990399998,1.512312502592,46.88337500672
1e-08,24.370999994239998,1.515437502784,46.91462500864
1.0500000000000001e-08,24.40224999616,1.515437502784,46.96150001152
1.1000000000000001e-08,24.3866249952,1.512312502592,46.96150001152
1.15e-08,24.3866249952,1.513875002688,46.9302500096
1.2000000000000002e-08,24.355374993279998,1.513875002688,46.89900000768
1.2500000000000001e-08,24.3866249952,1.513875002688,46.8521250048
1.3e-08,24.370999994239998,1.513875002688,46.88337500672
1.35e-08,24.3866249952,1.512312502592,46.89900000768
1.4000000000000001e-08,24.324124991359998,1.512312502592,46.9302500096
1.45e-08,24.308499990399998,1.512312502592,46.88337500672
1.5000000000000002e-08,24.308499990399998,1.5107500024959999,46.88337500672
1.55e-08,24.308499990399998,1.5107500024959999,46.89900000768
1.6e-08,24.339749992319998,1.515437502784,46.89900000768
1.6500000000000002e-08,24.292874989439998,1.513875002688,46.96150001152
1.7e-08,24.292874989439998,1.512312502592,46.96150001152
1.75e-08,24.324124991359998,1.512312502592,46.91462500864
1.8000000000000002e-08,24.339749992319998,1.513875002688,46.89900000768
1.85e-08,24.339749992319998,1.515437502784,46.91462500864
1.9e-08,24.355374993279998,1.513875002688,46.89900000768
1.9500000000000003e-08,24.339749992319998,1.512312502592,46.86775000576
2e-08,24.308499990399998,1.513875002688,46.80525000192
2.05e-08,24.355374993279998,1.512312502592,46.72712499712
2.1000000000000003e-08,24.41787499712,1.5107500024959999,46.6958749952
2.15e-08,24.44912499904,1.5091875023999999,46.74274999808
2.2000000000000002e-08,24.43349999808,1.5091875023999999,46.80525000192
2.2500000000000003e-08,24.41787499712,1.5107500024959999,46.83650000384
2.3e-08,24.370999994239998,1.5091875023999999,46.8521250048
2.3500000000000002e-08,24.324124991359998,1.5107500024959999,46.83650000384
2.4000000000000003e-08,24.292874989439998,1.5107500024959999,46.88337500672
2.45e-08,24.245999986559998,1.5091875023999999,46.96150001152
2.5000000000000002e-08,24.245999986559998,1.5076250023039999,46.99275001344
2.55e-08,24.308499990399998,1.5076250023039999,46.91462500864
2.6e-08,24.40224999616,1.5076250023039999,46.86775000576
2.6500000000000002e-08,24.41787499712,1.5076250023039999,46.78962500096
2.7e-08,24.40224999616,1.5076250023039999,46.74274999808
2.75e-08,24.3866249952,1.5076250023039999,46.74274999808
2.8000000000000003e-08,24.40224999616,1.5076250023039999,46.74274999808
2.85e-08,24.46475,1.5091875023999999,46.6958749952
2.9e-08,24.48037500096,1.5076250023039999,46.6958749952
2.9500000000000003e-08,24.48037500096,1.5060625022079999,46.75837499904
3.0000000000000004e-08,24.41787499712,1.5076250023039999,46.8521250048
3.05e-08,24.355374993279998,1.512312502592,46.88337500672
3.1e-08,24.277249988479998,1.5091875023999999,46.88337500672
3.1500000000000004e-08,24.292874989439998,1.5091875023999999,46.8521250048
3.2e-08,24.41787499712,1.5107500024959999,46.83650000384
3.25e-08,24.40224999616,1.5091875023999999,46.83650000384
3.3000000000000004e-08,24.339749992319998,1.5091875023999999,46.83650000384
3.35e-08,24.230374985599997,1.5091875023999999,46.82087500288
3.4e-08,24.199124983679997,1.5091875023999999,46.78962500096
3.4500000000000005e-08,24.261624987519998,1.5091875023999999,46.74274999808
3.5e-08,24.355374993279998,1.5076250023039999,46.72712499712
3.55e-08,24.43349999808,1.5045000021119999,46.74274999808
3.6000000000000005e-08,24.49600000192,1.5045000021119999,46.74274999808
3.65e-08,24.49600000192,1.5060625022079999,46.71149999616
3.7e-08,24.48037500096,1.5076250023039999,46.72712499712
3.7500000000000005e-08,24.49600000192,1.5076250023039999,46.78962500096
3.8e-08,24.41787499712,1.5060625022079999,46.86775000576
3.85e-08,24.261624987519998,1.5060625022079999,46.89900000768
3.9000000000000005e-08,24.136624979839997,1.5091875023999999,46.8521250048
3.95e-08,24.136624979839997,1.513875002688,46.80525000192
4e-08,24.261624987519998,1.515437502784,46.80525000192
4.0500000000000005e-08,24.370999994239998,1.512312502592,46.82087500288
4.1e-08,24.41787499712,1.5091875023999999,46.80525000192
4.15e-08,24.40224999616,1.5060625022079999,46.774
4.2000000000000006e-08,24.41787499712,1.5060625022079999,46.75837499904
4.2500000000000003e-08,24.46475,1.5060625022079999,46.71149999616
4.3e-08,24.6210000096,1.5060625022079999,46.68024999424
4.3500000000000006e-08,24.66787501248,1.5060625022079999,46.74274999808
4.4000000000000004e-08,24.5428750048,1.5076250023039999,46.83650000384
4.45e-08,24.355374993279998,1.5091875023999999,46.89900000768
4.5000000000000006e-08,24.167874981759997,1.5107500024959999,46.86775000576
4.5500000000000004e-08,24.136624979839997,1.5091875023999999,46.83650000384
4.6e-08,24.167874981759997,1.5076250023039999,46.86775000576
4.6500000000000006e-08,24.183499982719997,1.5107500024959999,46.8521250048
4.7000000000000004e-08,24.183499982719997,1.513875002688,46.83650000384
4.75e-08,24.245999986559998,1.51700000288,46.774
4.8000000000000006e-08,24.355374993279998,1.51700000288,46.72712499712
4.8500000000000004e-08,24.40224999616,1.515437502784,46.6958749952
4.9e-08,24.43349999808,1.513875002688,46.68024999424
4.95e-08,24.41787499712,1.515437502784,46.71149999616
5.0000000000000004e-08,24.51162500288,1.513875002688,46.75837499904
5.05e-08,24.58975000768,1.5091875023999999,46.75837499904
5.1e-08,24.57412500672,1.5076250023039999,46.75837499904
5.1500000000000005e-08,24.41787499712,1.5076250023039999,46.80525000192
5.2e-08,24.230374985599997,1.5107500024959999,46.88337500672
5.25e-08,24.136624979839997,1.512312502592,46.91462500864
5.3000000000000005e-08,24.136624979839997,1.512312502592,46.9302500096
5.35e-08,24.199124983679997,1.5107500024959999,46.8521250048
5.4e-08,24.230374985599997,1.515437502784,46.83650000384
5.4500000000000005e-08,24.199124983679997,1.518562502976,46.78962500096
5.5e-08,24.199124983679997,1.513875002688,46.78962500096
5.55e-08,24.292874989439998,1.5107500024959999,46.774
5.6000000000000005e-08,24.43349999808,1.5091875023999999,46.72712499712
5.65e-08,24.51162500288,1.5091875023999999,46.66462499328
5.7e-08,24.52725000384,1.5107500024959999,46.68024999424
5.7500000000000005e-08,24.48037500096,1.513875002688,46.75837499904
5.8e-08,24.43349999808,1.515437502784,46.83650000384
5.85e-08,24.370999994239998,1.512312502592,46.8521250048
5.9000000000000006e-08,24.277249988479998,1.512312502592,46.80525000192
5.9500000000000003e-08,24.136624979839997,1.512312502592,46.78962500096
6.000000000000001e-08,24.05849997504,1.512312502592,46.8521250048
6.05e-08,24.074124976,1.51700000288,46.86775000576
6.1e-08,24.12099997888,1.520125003072,46.86775000576
6.15e-08,24.230374985599997,1.520125003072,46.80525000192
6.2e-08,24.261624987519998,1.520125003072,46.72712499712
6.250000000000001e-08,24.292874989439998,1.518562502976,46.71149999616
6.300000000000001e-08,24.339749992319998,1.513875002688,46.74274999808
6.35e-08,24.3866249952,1.512312502592,46.74274999808
6.4e-08,24.49600000192,1.513875002688,46.75837499904
6.45e-08,24.52725000384,1.515437502784,46.75837499904
6.5e-08,24.51162500288,1.51700000288,46.774
6.55e-08,24.370999994239998,1.518562502976,46.774
6.600000000000001e-08,24.245999986559998,1.51700000288,46.8521250048
6.65e-08,24.152249980799997,1.515437502784,46.80525000192
6.7e-08,24.12099997888,1.513875002688,46.75837499904
6.75e-08,24.10537497792,1.51700000288,46.774
6.8e-08,24.08974997696,1.520125003072,46.83650000384
6.85e-08,24.08974997696,1.521687503168,46.86775000576
6.900000000000001e-08,24.10537497792,1.521687503168,46.8521250048
6.950000000000001e-08,24.214749984639997,1.521687503168,46.78962500096
7e-08,24.339749992319998,1.521687503168,46.75837499904
7.05e-08,24.44912499904,1.518562502976,46.74274999808
7.1e-08,24.48037500096,1.51700000288,46.774
7.15e-08,24.41787499712,1.51700000288,46.774
7.200000000000001e-08,24.370999994239998,1.51700000288,46.774
7.250000000000001e-08,24.277249988479998,1.518562502976,46.75837499904
7.3e-08,24.245999986559998,1.523250003264,46.75837499904
7.35e-08,24.183499982719997,1.52481250336,46.774
7.4e-08,24.12099997888,1.520125003072,46.82087500288
7.45e-08,24.08974997696,1.51700000288,46.78962500096
7.500000000000001e-08,24.10537497792,1.520125003072,46.75837499904
7.550000000000001e-08,24.12099997888,1.523250003264,46.75837499904
7.6e-08,24.167874981759997,1.526375003456,46.80525000192
7.65e-08,24.292874989439998,1.523250003264,46.83650000384
7.7e-08,24.355374993279998,1.52481250336,46.83650000384
7.75e-08,24.370999994239998,1.52481250336,46.774
7.800000000000001e-08,24.324124991359998,1.52481250336,46.75837499904
7.850000000000001e-08,24.308499990399998,1.52481250336,46.75837499904
7.9e-08,24.230374985599997,1.523250003264,46.82087500288
7.95e-08,24.214749984639997,1.523250003264,46.83650000384
8e-08,24.214749984639997,1.523250003264,46.80525000192
8.05e-08,24.230374985599997,1.523250003264,46.774
8.100000000000001e-08,24.277249988479998,1.527937503552,46.75837499904
8.150000000000001e-08,24.277249988479998,1.531062503744,46.774
8.2e-08,24.261624987519998,1.527937503552,46.78962500096
8.25e-08,24.214749984639997,1.523250003264,46.774
8.3e-08,24.214749984639997,1.521687503168,46.74274999808
8.35e-08,24.214749984639997,1.523250003264,46.75837499904
8.400000000000001e-08,24.199124983679997,1.526375003456,46.78962500096
8.450000000000001e-08,24.230374985599997,1.526375003456,46.774
8.500000000000001e-08,24.245999986559998,1.526375003456,46.78962500096
8.55e-08,24.245999986559998,1.52481250336,46.774
8.6e-08,24.214749984639997,1.52481250336,46.75837499904
8.65e-08,24.230374985599997,1.527937503552,46.75837499904
8.700000000000001e-08,24.214749984639997,1.527937503552,46.83650000384
8.750000000000001e-08,24.214749984639997,1.526375003456,46.86775000576
8.800000000000001e-08,24.245999986559998,1.523250003264,46.89900000768
8.85e-08,24.245999986559998,1.52481250336,46.89900000768
8.9e-08,24.277249988479998,1.527937503552,46.8521250048
8.95e-08,24.292874989439998,1.53262500384,46.8521250048
9.000000000000001e-08,24.292874989439998,1.529500003648,46.86775000576
9.050000000000001e-08,24.245999986559998,1.527937503552,46.8521250048
9.100000000000001e-08,24.245999986559998,1.527937503552,46.80525000192
9.15e-08,24.261624987519998,1.529500003648,46.82087500288
9.2e-08,24.261624987519998,1.5341875039359998,46.774
9.25e-08,24.292874989439998,1.5341875039359998,46.78962500096
9.300000000000001e-08,24.245999986559998,1.5341875039359998,46.83650000384
9.350000000000001e-08,24.230374985599997,1.53262500384,46.83650000384
9.400000000000001e-08,24.214749984639997,1.53262500384,46.86775000576
9.45e-08,24.230374985599997,1.5357500040319998,46.82087500288
9.5e-08,24.261624987519998,1.53262500384,46.83650000384
9.55e-08,24.292874989439998,1.5341875039359998,46.8521250048
9.600000000000001e-08,24.324124991359998,1.5357500040319998,46.88337500672
9.650000000000001e-08,24.292874989439998,1.5357500040319998,46.91462500864
9.700000000000001e-08,24.324124991359998,1.5341875039359998,46.86775000576
9.75e-08,24.324124991359998,1.5373125041279998,46.82087500288
9.8e-08,24.308499990399998,1.5341875039359998,46.86775000576
9.85e-08,24.214749984639997,1.5341875039359998,46.88337500672
9.9e-08,24.167874981759997,1.531062503744,46.86775000576
9.950000000000001e-08,24.152249980799997,1.53262500384,46.88337500672
1.0000000000000001e-07,24.214749984639997,1.53262500384,46.88337500672
1.005e-07,24.277249988479998,1.531062503744,46.89900000768
1.01e-07,24.230374985599997,1.531062503744,46.94587501056
1.015e-07,24.199124983679997,1.531062503744,46.96150001152
1.02e-07,24.245999986559998,1.5357500040319998,46.94587501056
1.0250000000000001e-07,24.339749992319998,1.5373125041279998,46.86775000576
1.0300000000000001e-07,24.370999994239998,1.5341875039359998,46.8521250048
1.0350000000000001e-07,24.339749992319998,1.531062503744,46.8521250048
1.04e-07,24.324124991359998,1.529500003648,46.89900000768
1.045e-07,24.292874989439998,1.527937503552,46.91462500864
1.05e-07,24.324124991359998,1.527937503552,46.88337500672
1.0550000000000001e-07,24.339749992319998,1.531062503744,46.86775000576
1.0600000000000001e-07,24.324124991359998,1.531062503744,46.89900000768
1.0650000000000001e-07,24.261624987519998,1.53262500384,46.94587501056
1.07e-07,24.261624987519998,1.529500003648,46.96150001152
1.075e-07,24.245999986559998,1.529500003648,46.97712501248
1.08e-07,24.230374985599997,1.529500003648,46.99275001344
1.0850000000000001e-07,24.230374985599997,1.529500003648,46.96150001152
1.0900000000000001e-07,24.214749984639997,1.5341875039359998,46.91462500864
1.0950000000000001e-07,24.245999986559998,1.5373125041279998,46.86775000576
1.1e-07,24.261624987519998,1.5357500040319998,46.86775000576
1.105e-07,24.292874989439998,1.5341875039359998,46.82087500288
1.11e-07,24.230374985599997,1.529500003648,46.83650000384
1.1150000000000001e-07,24.199124983679997,1.529500003648,46.83650000384
1.1200000000000001e-07,24.199124983679997,1.529500003648,46.8521250048
1.1250000000000001e-07,24.277249988479998,1.531062503744,46.88337500672
1.13e-07,24.41787499712,1.5341875039359998,46.89900000768
1.135e-07,24.44912499904,1.53262500384,46.86775000576
1.14e-07,24.355374993279998,1.529500003648,46.91462500864
1.1450000000000001e-07,24.230374985599997,1.529500003648,46.97712501248
1.1500000000000001e-07,24.199124983679997,1.531062503744,46.97712501248
1.1550000000000001e-07,24.292874989439998,1.53262500384,46.96150001152
1.16e-07,24.3866249952,1.5357500040319998,46.94587501056
1.165e-07,24.40224999616,1.531062503744,46.9302500096
1.17e-07,24.261624987519998,1.531062503744,46.91462500864
1.1750000000000001e-07,24.167874981759997,1.529500003648,46.88337500672
1.1800000000000001e-07,24.167874981759997,1.531062503744,46.89900000768
1.1850000000000001e-07,24.308499990399998,1.531062503744,46.83650000384
1.1900000000000001e-07,24.44912499904,1.529500003648,46.83650000384
1.195e-07,24.40224999616,1.527937503552,46.8521250048
1.2000000000000002e-07,24.277249988479998,1.527937503552,46.88337500672
1.205e-07,24.183499982719997,1.529500003648,46.89900000768
1.21e-07,24.230374985599997,1.529500003648,46.91462500864
1.215e-07,24.324124991359998,1.53262500384,46.91462500864
1.22e-07,24.355374993279998,1.5341875039359998,46.91462500864
1.2250000000000002e-07,24.277249988479998,1.5341875039359998,46.96150001152
1.23e-07,24.167874981759997,1.53262500384,46.99275001344
1.2350000000000001e-07,24.10537497792,1.53262500384,46.99275001344
1.24e-07,24.214749984639997,1.53262500384,46.94587501056
1.245e-07,24.355374993279998,1.53262500384,46.91462500864
1.2500000000000002e-07,24.40224999616,1.531062503744,46.91462500864
1.255e-07,24.355374993279998,1.527937503552,46.91462500864
1.2600000000000002e-07,24.261624987519998,1.529500003648,46.9302500096
1.265e-07,24.261624987519998,1.531062503744,46.88337500672
1.27e-07,24.324124991359998,1.527937503552,46.86775000576
1.275e-07,24.370999994239998,1.523250003264,46.88337500672
1.28e-07,24.339749992319998,1.523250003264,46.91462500864
1.2850000000000002e-07,24.261624987519998,1.527937503552,46.96150001152
1.29e-07,24.230374985599997,1.529500003648,46.94587501056
1.2950000000000001e-07,24.261624987519998,1.531062503744,46.9302500096
1.3e-07,24.292874989439998,1.527937503552,46.91462500864
1.305e-07,24.230374985599997,1.526375003456,46.94587501056
1.31e-07,24.167874981759997,1.526375003456,46.99275001344
1.315e-07,24.167874981759997,1.526375003456,46.99275001344
1.3200000000000002e-07,24.245999986559998,1.52481250336,46.96150001152
1.325e-07,24.324124991359998,1.523250003264,46.88337500672
1.33e-07,24.324124991359998,1.526375003456,46.88337500672
1.335e-07,24.324124991359998,1.527937503552,46.97712501248
1.34e-07,24.277249988479998,1.527937503552,47.05525001728
1.3450000000000002e-07,24.261624987519998,1.531062503744,47.0083750144
1.35e-07,24.292874989439998,1.529500003648,46.94587501056
1.3550000000000002e-07,24.324124991359998,1.529500003648,46.91462500864
1.36e-07,24.339749992319998,1.526375003456,46.94587501056
1.365e-07,24.261624987519998,1.526375003456,46.99275001344
1.37e-07,24.199124983679997,1.527937503552,46.97712501248
1.375e-07,24.167874981759997,1.527937503552,46.89900000768
1.3800000000000002e-07,24.152249980799997,1.52481250336,46.89900000768
1.385e-07,24.12099997888,1.520125003072,46.86775000576
1.3900000000000001e-07,24.167874981759997,1.520125003072,46.89900000768
1.395e-07,24.245999986559998,1.521687503168,46.96150001152
1.4e-07,24.324124991359998,1.521687503168,46.99275001344
1.4050000000000002e-07,24.40224999616,1.520125003072,46.94587501056
1.41e-07,24.40224999616,1.520125003072,46.9302500096
1.4150000000000002e-07,24.40224999616,1.518562502976,46.97712501248
1.42e-07,24.355374993279998,1.51700000288,47.05525001728
1.425e-07,24.339749992319998,1.51700000288,47.05525001728
1.43e-07,24.370999994239998,1.518562502976,46.99275001344
1.435e-07,24.355374993279998,1.521687503168,46.94587501056
1.4400000000000002e-07,24.292874989439998,1.523250003264,46.9302500096
1.445e-07,24.167874981759997,1.521687503168,46.96150001152
1.4500000000000001e-07,24.12099997888,1.521687503168,46.96150001152
1.455e-07,24.136624979839997,1.521687503168,46.89900000768
1.46e-07,24.230374985599997,1.518562502976,46.86775000576
1.4650000000000002e-07,24.324124991359998,1.518562502976,46.86775000576
1.47e-07,24.370999994239998,1.518562502976,46.88337500672
1.4750000000000002e-07,24.370999994239998,1.518562502976,46.9302500096
1.48e-07,24.324124991359998,1.518562502976,46.94587501056
1.485e-07,24.40224999616,1.515437502784,46.89900000768
1.49e-07,24.44912499904,1.515437502784,46.89900000768
1.495e-07,24.43349999808,1.513875002688,46.9302500096
1.5000000000000002e-07,24.324124991359998,1.515437502784,46.99275001344
1.505e-07,24.245999986559998,1.51700000288,46.97712501248
1.5100000000000002e-07,24.230374985599997,1.515437502784,46.91462500864
1.515e-07,24.261624987519998,1.51700000288,46.8521250048
1.52e-07,24.339749992319998,1.51700000288,46.86775000576
1.5250000000000002e-07,24.324124991359998,1.518562502976,46.91462500864
1.53e-07,24.308499990399998,1.51700000288,46.9302500096
1.5350000000000002e-07,24.261624987519998,1.515437502784,46.91462500864
1.54e-07,24.277249988479998,1.513875002688,46.89900000768
1.5450000000000001e-07,24.324124991359998,1.512312502592,46.86775000576
1.55e-07,24.40224999616,1.512312502592,46.88337500672
1.555e-07,24.43349999808,1.512312502592,46.9302500096
1.5600000000000002e-07,24.40224999616,1.513875002688,46.94587501056
1.565e-07,24.40224999616,1.512312502592,46.89900000768
1.5700000000000002e-07,24.3866249952,1.512312502592,46.86775000576
1.575e-07,24.40224999616,1.512312502592,46.83650000384
1.58e-07,24.370999994239998,1.513875002688,46.86775000576
1.5850000000000002e-07,24.3866249952,1.515437502784,46.89900000768
1.59e-07,24.355374993279998,1.513875002688,46.91462500864
