!Keysight Technologies,E5063A,MY54100949,A.07.30
!Date: Wed Nov 26 02:42:20 2025
!Data & Calibration Information:
!Freq	S11:SOLT1(ON)
# Hz S RI R 50
50000.000	1.013532e+000	-5.686421e-003
51995.000	1.005043e+000	-6.225104e-003
53990.000	1.003459e+000	-6.123009e-003
55985.000	1.002679e+000	-6.710731e-003
57980.000	1.002060e+000	-6.610551e-003
59975.000	1.002198e+000	-7.005657e-003
61970.000	1.001797e+000	-7.435091e-003
63965.000	1.001955e+000	-7.754895e-003
65960.000	1.001276e+000	-8.192933e-003
67955.000	1.003093e+000	-8.692745e-003
69950.000	1.002585e+000	-8.880788e-003
71945.000	1.002360e+000	-9.227700e-003
73940.000	1.002551e+000	-9.459294e-003
75935.000	1.002187e+000	-9.717007e-003
77930.000	1.002024e+000	-1.001599e-002
79925.000	1.001682e+000	-1.037181e-002
81920.000	1.001589e+000	-1.080154e-002
83915.000	1.002046e+000	-1.110096e-002
85910.000	1.001893e+000	-1.140956e-002
87905.000	1.001874e+000	-1.152968e-002
89900.000	1.001785e+000	-1.186611e-002
91895.000	1.001866e+000	-1.227680e-002
93890.000	1.001799e+000	-1.258409e-002
95885.000	1.001911e+000	-1.306005e-002
97880.000	1.001853e+000	-1.322801e-002
99875.000	1.002074e+000	-1.364697e-002
101870.000	1.001940e+000	-1.403306e-002
103865.000	1.001983e+000	-1.413311e-002
105860.000	1.002066e+000	-1.449076e-002
107855.000	1.001815e+000	-1.463606e-002
109850.000	1.001738e+000	-1.489202e-002
111845.000	1.001556e+000	-1.522503e-002
113840.000	1.002077e+000	-1.577628e-002
115835.000	1.001529e+000	-1.598867e-002
117830.000	1.001646e+000	-1.620442e-002
119825.000	1.001668e+000	-1.651512e-002
121820.000	1.001851e+000	-1.659311e-002
123815.000	1.001692e+000	-1.691624e-002
125810.000	1.001799e+000	-1.741507e-002
127805.000	1.001761e+000	-1.750705e-002
129800.000	1.001711e+000	-1.792009e-002
131795.000	1.001543e+000	-1.813631e-002
133790.000	1.002088e+000	-1.839562e-002
135785.000	1.002008e+000	-1.876171e-002
137780.000	1.001843e+000	-1.912906e-002
139775.000	1.001955e+000	-1.910144e-002
141770.000	1.001893e+000	-1.931644e-002
143765.000	1.001859e+000	-1.995084e-002
145760.000	1.001528e+000	-1.984413e-002
147755.000	1.001600e+000	-2.041044e-002
149750.000	1.001671e+000	-2.058227e-002
151745.000	1.001538e+000	-2.067797e-002
153740.000	1.001333e+000	-2.113669e-002
155735.000	1.001265e+000	-2.146855e-002
157730.000	1.001576e+000	-2.148249e-002
159725.000	1.001590e+000	-2.173338e-002
161720.000	1.001568e+000	-2.215185e-002
163715.000	1.001403e+000	-2.218423e-002
165710.000	1.001454e+000	-2.278570e-002
167705.000	1.001377e+000	-2.276613e-002
169700.000	1.001706e+000	-2.305826e-002
171695.000	1.001282e+000	-2.301885e-002
173690.000	1.001249e+000	-2.366406e-002
175685.000	1.001512e+000	-2.375003e-002
177680.000	1.001709e+000	-2.373787e-002
179675.000	1.001447e+000	-2.442254e-002
181670.000	1.001387e+000	-2.476849e-002
183665.000	1.001490e+000	-2.503875e-002
185660.000	1.001346e+000	-2.528504e-002
187655.000	1.001247e+000	-2.546392e-002
189650.000	1.001326e+000	-2.568790e-002
191645.000	1.001336e+000	-2.585346e-002
193640.000	1.001258e+000	-2.637946e-002
195635.000	1.001396e+000	-2.655089e-002
197630.000	1.001043e+000	-2.657360e-002
199625.000	1.001560e+000	-2.693795e-002
201620.000	1.001827e+000	-2.743215e-002
203615.000	1.001738e+000	-2.737121e-002
205610.000	1.001540e+000	-2.801742e-002
207605.000	1.001345e+000	-2.792862e-002
209600.000	1.001272e+000	-2.833174e-002
211595.000	1.001393e+000	-2.870093e-002
213590.000	1.001339e+000	-2.886586e-002
215585.000	1.001327e+000	-2.916131e-002
217580.000	1.001426e+000	-2.941725e-002
219575.000	1.001329e+000	-2.951515e-002
221570.000	1.001349e+000	-3.011081e-002
223565.000	1.001100e+000	-3.006344e-002
225560.000	1.001275e+000	-3.038127e-002
227555.000	1.001252e+000	-3.058266e-002
229550.000	1.001161e+000	-3.063335e-002
231545.000	1.001201e+000	-3.098413e-002
233540.000	1.001127e+000	-3.141082e-002
235535.000	1.001096e+000	-3.174074e-002
237530.000	1.001146e+000	-3.202631e-002
239525.000	1.000971e+000	-3.223581e-002
241520.000	1.001069e+000	-3.242773e-002
243515.000	1.000999e+000	-3.277170e-002
245510.000	1.001207e+000	-3.286947e-002
247505.000	1.001005e+000	-3.338862e-002
249500.000	1.001033e+000	-3.354421e-002
251495.000	1.001000e+000	-3.383337e-002
253490.000	1.000792e+000	-3.415098e-002
255485.000	1.001085e+000	-3.420918e-002
257480.000	1.000907e+000	-3.457490e-002
259475.000	1.000751e+000	-3.467275e-002
261470.000	1.001014e+000	-3.526502e-002
263465.000	1.000876e+000	-3.543970e-002
265460.000	1.001149e+000	-3.569301e-002
267455.000	1.001196e+000	-3.599904e-002
269450.000	1.001179e+000	-3.627130e-002
271445.000	1.001145e+000	-3.645547e-002
273440.000	1.001021e+000	-3.659188e-002
275435.000	1.001022e+000	-3.701440e-002
277430.000	1.001161e+000	-3.738646e-002
279425.000	1.001058e+000	-3.742495e-002
281420.000	1.001077e+000	-3.771106e-002
283415.000	1.000954e+000	-3.798829e-002
285410.000	1.000960e+000	-3.834840e-002
287405.000	1.000999e+000	-3.842118e-002
289400.000	1.000904e+000	-3.890527e-002
291395.000	1.000861e+000	-3.911582e-002
293390.000	1.000912e+000	-3.933895e-002
295385.000	1.000898e+000	-3.960073e-002
297380.000	1.001031e+000	-3.987512e-002
299375.000	1.000861e+000	-4.029728e-002
301370.000	1.000807e+000	-4.049868e-002
303365.000	1.000671e+000	-4.057365e-002
305360.000	1.000590e+000	-4.100615e-002
307355.000	1.000867e+000	-4.129656e-002
309350.000	1.000821e+000	-4.139409e-002
311345.000	1.000841e+000	-4.175304e-002
313340.000	1.000649e+000	-4.188634e-002
315335.000	1.000484e+000	-4.220683e-002
317330.000	1.000593e+000	-4.247811e-002
319325.000	1.000639e+000	-4.278130e-002
321320.000	1.000768e+000	-4.309655e-002
323315.000	1.000674e+000	-4.341298e-002
325310.000	1.000501e+000	-4.332280e-002
327305.000	1.000643e+000	-4.355672e-002
329300.000	1.000636e+000	-4.386976e-002
331295.000	1.000629e+000	-4.429184e-002
333290.000	1.000535e+000	-4.455690e-002
335285.000	1.000396e+000	-4.500041e-002
337280.000	1.000473e+000	-4.516867e-002
339275.000	1.000550e+000	-4.545999e-002
341270.000	1.000522e+000	-4.551128e-002
343265.000	1.000242e+000	-4.596543e-002
345260.000	1.000282e+000	-4.620144e-002
347255.000	1.000294e+000	-4.665610e-002
349250.000	1.000383e+000	-4.690706e-002
351245.000	1.000326e+000	-4.685288e-002
353240.000	1.000564e+000	-4.724996e-002
355235.000	1.000589e+000	-4.747297e-002
357230.000	1.000302e+000	-4.758223e-002
359225.000	1.000358e+000	-4.796114e-002
361220.000	1.000470e+000	-4.838313e-002
363215.000	1.000438e+000	-4.856746e-002
365210.000	1.000219e+000	-4.875437e-002
367205.000	1.000204e+000	-4.892073e-002
369200.000	1.000277e+000	-4.928085e-002
371195.000	1.000382e+000	-4.959300e-002
373190.000	1.000468e+000	-5.005710e-002
375185.000	1.000150e+000	-5.009678e-002
377180.000	1.000246e+000	-5.036131e-002
379175.000	1.000179e+000	-5.066815e-002
381170.000	1.000058e+000	-5.097439e-002
383165.000	1.000016e+000	-5.099815e-002
385160.000	1.000270e+000	-5.154322e-002
387155.000	1.000242e+000	-5.164499e-002
389150.000	1.000188e+000	-5.206053e-002
391145.000	1.000200e+000	-5.218050e-002
393140.000	1.000172e+000	-5.255458e-002
395135.000	9.999892e-001	-5.271048e-002
397130.000	1.000225e+000	-5.300991e-002
399125.000	1.000017e+000	-5.336291e-002
401120.000	1.000460e+000	-5.382853e-002
403115.000	1.000408e+000	-5.400047e-002
405110.000	1.000245e+000	-5.410916e-002
407105.000	1.000284e+000	-5.453345e-002
409100.000	1.000256e+000	-5.466107e-002
411095.000	1.000239e+000	-5.495570e-002
413090.000	1.000125e+000	-5.505343e-002
415085.000	1.000169e+000	-5.552654e-002
417080.000	1.000193e+000	-5.580269e-002
419075.000	1.000073e+000	-5.598300e-002
421070.000	1.000049e+000	-5.633493e-002
423065.000	9.999920e-001	-5.653232e-002
425060.000	9.999699e-001	-5.683821e-002
427055.000	1.000002e+000	-5.708223e-002
429050.000	9.999507e-001	-5.737601e-002
431045.000	1.000011e+000	-5.770264e-002
433040.000	9.998461e-001	-5.800109e-002
435035.000	9.998471e-001	-5.817800e-002
437030.000	9.996637e-001	-5.837798e-002
439025.000	9.998170e-001	-5.871892e-002
441020.000	9.998184e-001	-5.883920e-002
443015.000	9.997000e-001	-5.919108e-002
445010.000	9.998622e-001	-5.951788e-002
447005.000	9.999387e-001	-5.968173e-002
449000.000	9.997437e-001	-5.980502e-002
450995.000	9.996056e-001	-6.034269e-002
452990.000	9.997156e-001	-6.055303e-002
454985.000	9.996319e-001	-6.067550e-002
456980.000	9.995483e-001	-6.102077e-002
458975.000	9.996177e-001	-6.132417e-002
460970.000	9.996541e-001	-6.155463e-002
462965.000	9.997190e-001	-6.188902e-002
464960.000	9.994879e-001	-6.206391e-002
466955.000	9.992662e-001	-6.218116e-002
468950.000	9.995313e-001	-6.254701e-002
470945.000	9.994923e-001	-6.281976e-002
472940.000	9.994989e-001	-6.335843e-002
474935.000	9.994855e-001	-6.333256e-002
476930.000	9.995426e-001	-6.371617e-002
478925.000	9.995902e-001	-6.392755e-002
480920.000	9.993469e-001	-6.408150e-002
482915.000	9.994928e-001	-6.455144e-002
484910.000	9.995033e-001	-6.489000e-002
486905.000	9.993435e-001	-6.486217e-002
488900.000	9.992068e-001	-6.530717e-002
490895.000	9.994772e-001	-6.548603e-002
492890.000	9.994455e-001	-6.565768e-002
494885.000	9.992170e-001	-6.604977e-002
496880.000	9.992939e-001	-6.634292e-002
498875.000	9.992047e-001	-6.654733e-002
500870.000	9.994762e-001	-6.690069e-002
502865.000	9.993522e-001	-6.724857e-002
504860.000	9.992055e-001	-6.762673e-002
506855.000	9.991392e-001	-6.750040e-002
508850.000	9.991768e-001	-6.805898e-002
510845.000	9.993071e-001	-6.835350e-002
512840.000	9.990708e-001	-6.864214e-002
514835.000	9.990757e-001	-6.869621e-002
516830.000	9.990730e-001	-6.910082e-002
518825.000	9.990903e-001	-6.913306e-002
520820.000	9.991172e-001	-6.948909e-002
522815.000	9.990486e-001	-6.971728e-002
524810.000	9.990324e-001	-7.000366e-002
526805.000	9.990534e-001	-7.021258e-002
528800.000	9.990297e-001	-7.039793e-002
530795.000	9.993320e-001	-7.080118e-002
532790.000	9.992025e-001	-7.125969e-002
534785.000	9.991187e-001	-7.139397e-002
536780.000	9.991650e-001	-7.190579e-002
538775.000	9.991889e-001	-7.202977e-002
540770.000	9.989758e-001	-7.219383e-002
542765.000	9.990602e-001	-7.255464e-002
544760.000	9.990385e-001	-7.269477e-002
546755.000	9.990807e-001	-7.302874e-002
548750.000	9.989463e-001	-7.337719e-002
550745.000	9.988857e-001	-7.356527e-002
552740.000	9.988233e-001	-7.373634e-002
554735.000	9.988192e-001	-7.390899e-002
556730.000	9.986437e-001	-7.422350e-002
558725.000	9.987678e-001	-7.460091e-002
560720.000	9.986719e-001	-7.482862e-002
562715.000	9.987139e-001	-7.519584e-002
564710.000	9.987493e-001	-7.545304e-002
566705.000	9.986785e-001	-7.549167e-002
568700.000	9.985212e-001	-7.581274e-002
570695.000	9.986557e-001	-7.626687e-002
572690.000	9.985351e-001	-7.640651e-002
574685.000	9.986246e-001	-7.671878e-002
576680.000	9.982737e-001	-7.694197e-002
578675.000	9.985117e-001	-7.719339e-002
580670.000	9.984854e-001	-7.758073e-002
582665.000	9.984413e-001	-7.770179e-002
584660.000	9.983782e-001	-7.794570e-002
586655.000	9.982713e-001	-7.815160e-002
588650.000	9.983587e-001	-7.866412e-002
590645.000	9.984251e-001	-7.885051e-002
592640.000	9.984107e-001	-7.901540e-002
594635.000	9.984434e-001	-7.950550e-002
596630.000	9.981636e-001	-7.956507e-002
598625.000	9.982684e-001	-7.978059e-002
600620.000	9.982336e-001	-8.021148e-002
602615.000	9.982536e-001	-8.030303e-002
604610.000	9.983626e-001	-8.056025e-002
606605.000	9.983405e-001	-8.081803e-002
608600.000	9.980527e-001	-8.117331e-002
610595.000	9.981454e-001	-8.147129e-002
612590.000	9.981978e-001	-8.186441e-002
614585.000	9.981532e-001	-8.216929e-002
616580.000	9.981376e-001	-8.231379e-002
618575.000	9.980602e-001	-8.256173e-002
620570.000	9.980902e-001	-8.281049e-002
622565.000	9.980796e-001	-8.308976e-002
624560.000	9.979066e-001	-8.347653e-002
626555.000	9.979449e-001	-8.363393e-002
628550.000	9.980902e-001	-8.379452e-002
630545.000	9.980472e-001	-8.418561e-002
632540.000	9.979411e-001	-8.423812e-002
634535.000	9.978337e-001	-8.463460e-002
636530.000	9.979575e-001	-8.494390e-002
638525.000	9.976435e-001	-8.511586e-002
640520.000	9.982325e-001	-8.541545e-002
642515.000	9.980614e-001	-8.595725e-002
644510.000	9.980151e-001	-8.605161e-002
646505.000	9.977484e-001	-8.622923e-002
648500.000	9.980895e-001	-8.656943e-002
650495.000	9.977305e-001	-8.663707e-002
652490.000	9.979574e-001	-8.699322e-002
654485.000	9.978228e-001	-8.747378e-002
656480.000	9.977709e-001	-8.761285e-002
658475.000	9.976975e-001	-8.794082e-002
660470.000	9.975599e-001	-8.796591e-002
662465.000	9.975364e-001	-8.827004e-002
664460.000	9.976167e-001	-8.856170e-002
666455.000	9.974773e-001	-8.888470e-002
668450.000	9.976153e-001	-8.907195e-002
670445.000	9.975880e-001	-8.946793e-002
672440.000	9.975011e-001	-8.974810e-002
674435.000	9.975866e-001	-8.991307e-002
676430.000	9.974993e-001	-9.022012e-002
678425.000	9.974159e-001	-9.042689e-002
680420.000	9.972604e-001	-9.075473e-002
682415.000	9.973624e-001	-9.094793e-002
684410.000	9.972400e-001	-9.124326e-002
686405.000	9.971982e-001	-9.143934e-002
688400.000	9.973267e-001	-9.184114e-002
690395.000	9.971493e-001	-9.205453e-002
692390.000	9.973632e-001	-9.211325e-002
694385.000	9.971879e-001	-9.262844e-002
696380.000	9.972151e-001	-9.272910e-002
698375.000	9.971472e-001	-9.316381e-002
700370.000	9.971997e-001	-9.339946e-002
702365.000	9.971518e-001	-9.367665e-002
704360.000	9.971085e-001	-9.378990e-002
706355.000	9.970377e-001	-9.418141e-002
708350.000	9.969342e-001	-9.442402e-002
710345.000	9.970492e-001	-9.456678e-002
712340.000	9.971139e-001	-9.505193e-002
714335.000	9.970138e-001	-9.526432e-002
716330.000	9.969290e-001	-9.551663e-002
718325.000	9.969128e-001	-9.587304e-002
720320.000	9.967743e-001	-9.590667e-002
722315.000	9.968757e-001	-9.614680e-002
724310.000	9.969003e-001	-9.657939e-002
726305.000	9.968202e-001	-9.677291e-002
728300.000	9.966123e-001	-9.712130e-002
730295.000	9.968043e-001	-9.729347e-002
732290.000	9.967268e-001	-9.754691e-002
734285.000	9.966182e-001	-9.783244e-002
736280.000	9.969015e-001	-9.811040e-002
738275.000	9.967281e-001	-9.839895e-002
740270.000	9.965630e-001	-9.871746e-002
742265.000	9.964868e-001	-9.910610e-002
744260.000	9.964902e-001	-9.905963e-002
746255.000	9.966211e-001	-9.948758e-002
748250.000	9.963836e-001	-9.992268e-002
750245.000	9.968006e-001	-1.000316e-001
752240.000	9.968473e-001	-1.004194e-001
754235.000	9.966106e-001	-1.003828e-001
756230.000	9.967049e-001	-1.008497e-001
758225.000	9.964856e-001	-1.012430e-001
760220.000	9.964444e-001	-1.014394e-001
762215.000	9.966098e-001	-1.017690e-001
764210.000	9.963416e-001	-1.018737e-001
766205.000	9.962460e-001	-1.020564e-001
768200.000	9.963804e-001	-1.023446e-001
770195.000	9.961834e-001	-1.027904e-001
772190.000	9.962578e-001	-1.027129e-001
774185.000	9.960696e-001	-1.030999e-001
776180.000	9.962518e-001	-1.035423e-001
778175.000	9.961383e-001	-1.036259e-001
780170.000	9.961247e-001	-1.038498e-001
782165.000	9.961512e-001	-1.042435e-001
784160.000	9.960917e-001	-1.044665e-001
786155.000	9.957854e-001	-1.045965e-001
788150.000	9.959306e-001	-1.049400e-001
790145.000	9.958518e-001	-1.052830e-001
792140.000	9.957783e-001	-1.054820e-001
794135.000	9.958211e-001	-1.058226e-001
796130.000	9.957339e-001	-1.061406e-001
798125.000	9.958367e-001	-1.063476e-001
800120.000	9.958078e-001	-1.066590e-001
802115.000	9.957095e-001	-1.068882e-001
804110.000	9.957420e-001	-1.071713e-001
806105.000	9.955829e-001	-1.073355e-001
808100.000	9.956359e-001	-1.077003e-001
810095.000	9.956554e-001	-1.079083e-001
812090.000	9.956376e-001	-1.080918e-001
814085.000	9.955505e-001	-1.084738e-001
816080.000	9.953807e-001	-1.087069e-001
818075.000	9.955788e-001	-1.089355e-001
820070.000	9.953918e-001	-1.090665e-001
822065.000	9.955435e-001	-1.095563e-001
824060.000	9.953181e-001	-1.098386e-001
826055.000	9.954712e-001	-1.098868e-001
828050.000	9.952653e-001	-1.103922e-001
830045.000	9.954136e-001	-1.105798e-001
832040.000	9.953423e-001	-1.107663e-001
834035.000	9.953782e-001	-1.111327e-001
836030.000	9.953724e-001	-1.113820e-001
838025.000	9.951214e-001	-1.115307e-001
840020.000	9.951506e-001	-1.119899e-001
842015.000	9.952709e-001	-1.121308e-001
844010.000	9.953312e-001	-1.122528e-001
846005.000	9.950850e-001	-1.126740e-001
848000.000	9.949469e-001	-1.127912e-001
849995.000	9.951570e-001	-1.132089e-001
851990.000	9.954143e-001	-1.134449e-001
853985.000	9.954668e-001	-1.138609e-001
855980.000	9.952720e-001	-1.139939e-001
857975.000	9.952508e-001	-1.142821e-001
859970.000	9.950778e-001	-1.146137e-001
861965.000	9.950169e-001	-1.147986e-001
863960.000	9.949780e-001	-1.152216e-001
865955.000	9.949242e-001	-1.152977e-001
867950.000	9.948166e-001	-1.156838e-001
869945.000	9.947007e-001	-1.158162e-001
871940.000	9.948159e-001	-1.160254e-001
873935.000	9.945965e-001	-1.163924e-001
875930.000	9.946519e-001	-1.167454e-001
877925.000	9.945656e-001	-1.168906e-001
879920.000	9.945446e-001	-1.171367e-001
881915.000	9.945851e-001	-1.173880e-001
883910.000	9.945498e-001	-1.177512e-001
885905.000	9.945680e-001	-1.178661e-001
887900.000	9.945198e-001	-1.182318e-001
889895.000	9.944168e-001	-1.183803e-001
891890.000	9.944973e-001	-1.186971e-001
893885.000	9.943809e-001	-1.191022e-001
895880.000	9.944314e-001	-1.190596e-001
897875.000	9.944284e-001	-1.195097e-001
899870.000	9.942783e-001	-1.197773e-001
901865.000	9.942086e-001	-1.201207e-001
903860.000	9.943244e-001	-1.201360e-001
905855.000	9.942599e-001	-1.205760e-001
907850.000	9.940853e-001	-1.209182e-001
909845.000	9.940406e-001	-1.211286e-001
911840.000	9.941087e-001	-1.214195e-001
913835.000	9.940766e-001	-1.217633e-001
915830.000	9.940445e-001	-1.219630e-001
917825.000	9.939905e-001	-1.220046e-001
919820.000	9.939676e-001	-1.224175e-001
921815.000	9.940990e-001	-1.227438e-001
923810.000	9.939270e-001	-1.229307e-001
925805.000	9.938962e-001	-1.234630e-001
927800.000	9.939858e-001	-1.234824e-001
929795.000	9.937897e-001	-1.235337e-001
931790.000	9.937999e-001	-1.239734e-001
933785.000	9.936983e-001	-1.243601e-001
935780.000	9.938234e-001	-1.244741e-001
937775.000	9.936421e-001	-1.248220e-001
939770.000	9.937611e-001	-1.250195e-001
941765.000	9.941435e-001	-1.253576e-001
943760.000	9.936960e-001	-1.255045e-001
945755.000	9.938257e-001	-1.258572e-001
947750.000	9.938761e-001	-1.261915e-001
949745.000	9.936087e-001	-1.261918e-001
951740.000	9.935938e-001	-1.266191e-001
953735.000	9.936132e-001	-1.270140e-001
955730.000	9.934767e-001	-1.272709e-001
957725.000	9.934952e-001	-1.274176e-001
959720.000	9.935008e-001	-1.278061e-001
961715.000	9.933176e-001	-1.280798e-001
963710.000	9.933640e-001	-1.282460e-001
965705.000	9.932287e-001	-1.286012e-001
967700.000	9.931532e-001	-1.287676e-001
969695.000	9.931500e-001	-1.289881e-001
971690.000	9.932401e-001	-1.293421e-001
973685.000	9.930073e-001	-1.293958e-001
975680.000	9.929494e-001	-1.298981e-001
977675.000	9.929333e-001	-1.301374e-001
979670.000	9.930113e-001	-1.303468e-001
981665.000	9.928599e-001	-1.305894e-001
983660.000	9.929859e-001	-1.308539e-001
985655.000	9.928178e-001	-1.311461e-001
987650.000	9.927548e-001	-1.314739e-001
989645.000	9.928542e-001	-1.317639e-001
991640.000	9.926154e-001	-1.316712e-001
993635.000	9.928047e-001	-1.320829e-001
995630.000	9.927816e-001	-1.325879e-001
997625.000	9.927421e-001	-1.327308e-001
999620.000	9.926105e-001	-1.330696e-001
1001615.000	9.927096e-001	-1.333717e-001
1003610.000	9.924831e-001	-1.334096e-001
1005605.000	9.925720e-001	-1.337488e-001
1007600.000	9.925084e-001	-1.339065e-001
1009595.000	9.923855e-001	-1.343423e-001
1011590.000	9.922363e-001	-1.345529e-001
1013585.000	9.923240e-001	-1.348110e-001
1015580.000	9.922506e-001	-1.351487e-001
1017575.000	9.923500e-001	-1.353943e-001
1019570.000	9.923346e-001	-1.356396e-001
1021565.000	9.921569e-001	-1.359612e-001
1023560.000	9.920810e-001	-1.361990e-001
1025555.000	9.922313e-001	-1.364570e-001
1027550.000	9.920524e-001	-1.366428e-001
1029545.000	9.921342e-001	-1.370080e-001
1031540.000	9.925100e-001	-1.373483e-001
1033535.000	9.922760e-001	-1.375376e-001
1035530.000	9.922541e-001	-1.376800e-001
1037525.000	9.919717e-001	-1.378040e-001
