Time (s),V_PRI,V_SEC,V_IN,V_OUT
0.0,-68.90004735999997,-218.6999808,25.3415000416,-0.005674978560000016
5e-10,-62.65004799999997,-218.6999808,25.32900004288,-0.0025499788800000256
1e-09,-68.90004735999997,-224.94998016,25.31650004416,-0.0025499788800000256
1.5000000000000002e-09,-56.400048639999966,-224.94998016,25.3102500448,-0.008799978240000006
2e-09,-50.15004927999996,-231.19997952,25.29775004608,-0.0025499788800000256
2.5e-09,-50.15004927999996,-231.19997952,25.285250047359998,-0.008799978240000006
3.0000000000000004e-09,-37.650050559999954,-224.94998016,25.27275004864,-0.005674978560000016
3.5000000000000003e-09,-31.40005119999995,-231.19997952,25.25400005056,-0.005674978560000016
4e-09,-37.650050559999954,-224.94998016,25.26025004992,-0.011924977920000024
4.500000000000001e-09,-31.40005119999995,-231.19997952,25.26650004928,-0.005674978560000016
5e-09,-31.40005119999995,-237.44997888,25.27275004864,-0.0025499788800000256
5.5000000000000004e-09,-31.40005119999995,-231.19997952,25.279000048,-0.005674978560000016
6.000000000000001e-09,-18.90005248,-237.44997888,25.279000048,-0.008799978240000006
6.5e-09,-12.650053119999939,-243.69997824,25.285250047359998,0.0005750207999999923
7.000000000000001e-09,-18.90005248,-243.69997824,25.29150004672,-0.0025499788800000256
7.500000000000001e-09,-6.400053759999992,-243.69997824,25.279000048,-0.008799978240000006
8e-09,-6.400053759999992,-237.44997888,25.279000048,-0.005674978560000016
8.5e-09,-6.400053759999992,-237.44997888,25.27275004864,-0.005674978560000016
9.000000000000001e-09,-6.400053759999992,-237.44997888,25.26025004992,-0.0025499788800000256
9.5e-09,6.099944960000016,-237.44997888,25.26025004992,-0.005674978560000016
1e-08,-0.15005439999993087,-249.9499776,25.25400005056,-0.005674978560000016
1.0500000000000001e-08,6.099944960000016,-243.69997824,25.24150005184,-0.008799978240000006
1.1000000000000001e-08,12.349944320000077,-237.44997888,25.24150005184,-0.005674978560000016
1.15e-08,18.599943680000024,-243.69997824,25.22900005312,-0.0025499788800000256
1.2000000000000002e-08,18.599943680000024,-243.69997824,25.24150005184,-0.011924977920000024
1.2500000000000001e-08,24.849943040000085,-237.44997888,25.24150005184,-0.005674978560000016
1.3e-08,18.599943680000024,-237.44997888,25.22900005312,-0.0025499788800000256
1.35e-08,31.09994240000003,-231.19997952,25.22275005376,-0.005674978560000016
1.4000000000000001e-08,37.34994176000009,-237.44997888,25.21025005504,-0.008799978240000006
1.45e-08,43.59994112000004,-243.69997824,25.204000055679998,-0.0025499788800000256
1.5000000000000002e-08,43.59994112000004,-243.69997824,25.19150005696,-0.005674978560000016
1.55e-08,43.59994112000004,-237.44997888,25.1852500576,-0.008799978240000006
1.6e-08,49.8499404800001,-231.19997952,25.17900005824,-0.008799978240000006
1.6500000000000002e-08,56.09993984000005,-237.44997888,25.17900005824,-0.0025499788800000256
1.7e-08,49.8499404800001,-224.94998016,25.16650005952,-0.0025499788800000256
1.75e-08,62.34993920000011,-231.19997952,25.1852500576,-0.005674978560000016
1.8000000000000002e-08,62.34993920000011,-231.19997952,25.19150005696,-0.0025499788800000256
1.85e-08,62.34993920000011,-224.94998016,25.204000055679998,-0.008799978240000006
1.9e-08,68.59993856000006,-224.94998016,25.21025005504,-0.005674978560000016
1.9500000000000003e-08,74.84993792,-218.6999808,25.19150005696,-0.005674978560000016
2e-08,74.84993792,-218.6999808,25.19775005632,-0.008799978240000006
2.05e-08,74.84993792,-212.44998144,25.22275005376,-0.005674978560000016
2.1000000000000003e-08,81.09993728000006,-218.6999808,25.2165000544,-0.0025499788800000256
2.15e-08,81.09993728000006,-206.19998207999998,25.22900005312,-0.005674978560000016
2.2000000000000002e-08,87.34993664000001,-218.6999808,25.22275005376,-0.008799978240000006
2.2500000000000003e-08,93.59993600000007,-212.44998144,25.22900005312,-0.0025499788800000256
2.3e-08,87.34993664000001,-212.44998144,25.23525005248,-0.005674978560000016
2.3500000000000002e-08,93.59993600000007,-212.44998144,25.24150005184,-0.008799978240000006
2.4000000000000003e-08,99.84993536000002,-199.94998272,25.26025004992,-0.005674978560000016
2.45e-08,99.84993536000002,-206.19998207999998,25.26025004992,-0.0025499788800000256
2.5000000000000002e-08,93.59993600000007,-193.69998336,25.25400005056,-0.0025499788800000256
2.55e-08,106.09993472000008,-193.69998336,25.25400005056,-0.005674978560000016
2.6e-08,106.09993472000008,-193.69998336,25.25400005056,-0.0025499788800000256
2.6500000000000002e-08,106.09993472000008,-187.449984,25.24150005184,-0.011924977920000024
2.7e-08,106.09993472000008,-187.449984,25.24150005184,-0.005674978560000016
2.75e-08,118.59993344000009,-181.19998464,25.22900005312,-0.005674978560000016
2.8000000000000003e-08,118.59993344000009,-174.94998528,25.23525005248,-0.011924977920000024
2.85e-08,124.84993280000003,-168.69998592,25.2477500512,-0.005674978560000016
2.9e-08,118.59993344000009,-174.94998528,25.2477500512,-0.0025499788800000256
2.9500000000000003e-08,124.84993280000003,-162.44998655999999,25.26025004992,-0.008799978240000006
3.0000000000000004e-08,131.0999321600001,-168.69998592,25.26650004928,-0.008799978240000006
3.05e-08,137.34993152000004,-168.69998592,25.285250047359998,-0.0025499788800000256
3.1e-08,131.0999321600001,-162.44998655999999,25.285250047359998,-0.0025499788800000256
3.1500000000000004e-08,131.0999321600001,-162.44998655999999,25.29775004608,-0.008799978240000006
3.2e-08,143.5999308800001,-149.94998784,25.3102500448,-0.0025499788800000256
3.25e-08,137.34993152000004,-149.94998784,25.31650004416,-0.005674978560000016
3.3000000000000004e-08,143.5999308800001,-143.69998848,25.30400004544,-0.0025499788800000256
3.35e-08,149.84993024000005,-137.44998912,25.31650004416,-0.005674978560000016
3.4e-08,149.84993024000005,-143.69998848,25.32275004352,0.0005750207999999923
3.4500000000000005e-08,149.84993024000005,-131.19998976,25.31650004416,-0.008799978240000006
3.5e-08,156.0999296000001,-131.19998976,25.31650004416,-0.005674978560000016
3.55e-08,168.59992832,-124.9499904,25.285250047359998,-0.005674978560000016
3.6000000000000005e-08,162.34992896000006,-118.69999104,25.285250047359998,-0.011924977920000024
3.65e-08,162.34992896000006,-112.44999168000001,25.279000048,-0.005674978560000016
3.7e-08,162.34992896000006,-118.69999104,25.26025004992,-0.0025499788800000256
3.7500000000000005e-08,174.84992768000006,-99.94999296,25.24150005184,-0.005674978560000016
3.8e-08,174.84992768000006,-106.19999232,25.22900005312,-0.005674978560000016
3.85e-08,187.34992640000007,-106.19999232,25.22275005376,-0.0025499788800000256
3.9000000000000005e-08,181.09992704,-106.19999232,25.21025005504,-0.0025499788800000256
3.95e-08,187.34992640000007,-93.6999936,25.204000055679998,-0.008799978240000006
4e-08,187.34992640000007,-81.19999488,25.19150005696,-0.005674978560000016
4.0500000000000005e-08,193.59992576000002,-74.94999552,25.1852500576,-0.0025499788800000256
4.1e-08,187.34992640000007,-74.94999552,25.17275005888,-0.0025499788800000256
4.15e-08,206.09992448000003,-68.69999616,25.17275005888,-0.005674978560000016
4.2000000000000006e-08,199.84992512000008,-68.69999616,25.17900005824,-0.0025499788800000256
4.2500000000000003e-08,199.84992512000008,-62.4499968,25.17900005824,-0.011924977920000024
4.3e-08,199.84992512000008,-56.199997440000004,25.17275005888,-0.005674978560000016
4.3500000000000006e-08,212.3499238400001,-56.199997440000004,25.14775006144,-0.005674978560000016
4.4000000000000004e-08,218.59992320000003,-49.94999808,25.1540000608,-0.008799978240000006
4.45e-08,212.3499238400001,-43.699998719999996,25.17275005888,-0.005674978560000016
4.5000000000000006e-08,212.3499238400001,-49.94999808,25.17900005824,-0.005674978560000016
4.5500000000000004e-08,212.3499238400001,-31.2,25.1852500576,-0.005674978560000016
4.6e-08,218.59992320000003,-31.2,25.19775005632,-0.008799978240000006
4.6500000000000006e-08,224.8499225600001,-43.699998719999996,25.22275005376,-0.0025499788800000256
4.7000000000000004e-08,218.59992320000003,-37.44999936,25.22275005376,-0.005674978560000016
4.75e-08,218.59992320000003,-18.70000128,25.2165000544,-0.008799978240000006
4.8000000000000006e-08,224.8499225600001,-18.70000128,25.19775005632,-0.008799978240000006
4.8500000000000004e-08,218.59992320000003,-18.70000128,25.17900005824,-0.005674978560000016
4.9e-08,212.3499238400001,-6.200002559999998,25.14775006144,-0.0025499788800000256
4.95e-08,224.8499225600001,0.049996800000002395,25.14150006208,-0.005674978560000016
5.0000000000000004e-08,212.3499238400001,-6.200002559999998,25.14775006144,-0.0025499788800000256
5.05e-08,206.09992448000003,0.049996800000002395,25.14150006208,-0.011924977920000024
5.1e-08,212.3499238400001,12.54999552,25.12900006336,-0.0025499788800000256
5.1500000000000005e-08,218.59992320000003,12.54999552,25.09775006656,-0.005674978560000016
5.2e-08,212.3499238400001,18.799994880000003,25.10400006592,-0.008799978240000006
5.25e-08,218.59992320000003,31.299993600000004,25.122750064,-0.005674978560000016
5.3000000000000005e-08,206.09992448000003,31.299993600000004,25.14150006208,-0.005674978560000016
5.35e-08,212.3499238400001,43.79999232,25.16025006016,-0.005674978560000016
5.4e-08,212.3499238400001,43.79999232,25.16025006016,-0.008799978240000006
5.4500000000000005e-08,218.59992320000003,37.54999296,25.1540000608,-0.0025499788800000256
5.5e-08,206.09992448000003,43.79999232,25.14150006208,-0.005674978560000016
5.55e-08,206.09992448000003,56.299991039999995,25.14150006208,-0.008799978240000006
5.6000000000000005e-08,206.09992448000003,56.299991039999995,25.14150006208,-0.008799978240000006
5.65e-08,206.09992448000003,56.299991039999995,25.14150006208,-0.005674978560000016
5.7e-08,193.59992576000002,62.5499904,25.122750064,-0.0025499788800000256
5.7500000000000005e-08,193.59992576000002,68.79998976,25.122750064,-0.005674978560000016
5.8e-08,187.34992640000007,68.79998976,25.122750064,-0.005674978560000016
5.85e-08,187.34992640000007,75.04998912,25.11650006464,-0.008799978240000006
5.9000000000000006e-08,187.34992640000007,81.29998848000001,25.11650006464,-0.008799978240000006
5.9500000000000003e-08,187.34992640000007,87.54998784,25.0915000672,-0.005674978560000016
6.000000000000001e-08,181.09992704,93.7999872,25.08525006784,-0.008799978240000006
6.05e-08,181.09992704,100.04998656,25.08525006784,-0.008799978240000006
6.1e-08,174.84992768000006,93.7999872,25.07900006848,-0.0025499788800000256
6.15e-08,174.84992768000006,106.29998592,25.09775006656,-0.008799978240000006
6.2e-08,168.59992832,100.04998656,25.10400006592,-0.008799978240000006
6.250000000000001e-08,168.59992832,100.04998656,25.11025006528,-0.005674978560000016
6.300000000000001e-08,156.0999296000001,100.04998656,25.11025006528,-0.008799978240000006
6.35e-08,162.34992896000006,112.54998528,25.11025006528,-0.008799978240000006
6.4e-08,156.0999296000001,118.79998464,25.10400006592,-0.005674978560000016
6.45e-08,156.0999296000001,118.79998464,25.11025006528,-0.005674978560000016
6.5e-08,143.5999308800001,125.04998400000001,25.10400006592,-0.0025499788800000256
6.55e-08,149.84993024000005,125.04998400000001,25.11025006528,-0.005674978560000016
6.600000000000001e-08,143.5999308800001,131.29998336000003,25.122750064,-0.0025499788800000256
6.65e-08,131.0999321600001,131.29998336000003,25.13525006272,-0.008799978240000006
6.7e-08,131.0999321600001,143.79998208,25.14150006208,-0.005674978560000016
6.75e-08,137.34993152000004,137.54998272000003,25.14775006144,-0.005674978560000016
6.8e-08,124.84993280000003,150.04998144,25.16650005952,-0.008799978240000006
6.85e-08,118.59993344000009,150.04998144,25.19775005632,-0.008799978240000006
6.900000000000001e-08,112.34993408000003,143.79998208,25.204000055679998,-0.0025499788800000256
6.950000000000001e-08,112.34993408000003,156.29998080000001,25.22275005376,-0.005674978560000016
7e-08,106.09993472000008,156.29998080000001,25.22900005312,-0.008799978240000006
7.05e-08,112.34993408000003,150.04998144,25.22275005376,-0.0025499788800000256
7.1e-08,99.84993536000002,156.29998080000001,25.204000055679998,-0.005674978560000016
7.15e-08,93.59993600000007,162.54998016000002,25.1852500576,-0.008799978240000006
7.200000000000001e-08,93.59993600000007,162.54998016000002,25.16025006016,-0.005674978560000016
7.250000000000001e-08,87.34993664000001,162.54998016000002,25.14775006144,-0.005674978560000016
7.3e-08,81.09993728000006,175.04997888000003,25.13525006272,-0.0025499788800000256
7.35e-08,81.09993728000006,175.04997888000003,25.14775006144,-0.005674978560000016
7.4e-08,68.59993856000006,175.04997888000003,25.1540000608,-0.0025499788800000256
7.45e-08,68.59993856000006,168.79997952000002,25.16025006016,-0.008799978240000006
7.500000000000001e-08,62.34993920000011,181.29997824000003,25.16650005952,-0.005674978560000016
7.550000000000001e-08,62.34993920000011,175.04997888000003,25.16025006016,-0.005674978560000016
7.6e-08,56.09993984000005,175.04997888000003,25.16650005952,-0.008799978240000006
7.65e-08,56.09993984000005,187.54997760000003,25.17275005888,-0.005674978560000016
7.7e-08,49.8499404800001,175.04997888000003,25.14775006144,-0.0025499788800000256
7.75e-08,43.59994112000004,193.79997696000004,25.14150006208,-0.008799978240000006
7.800000000000001e-08,43.59994112000004,181.29997824000003,25.12900006336,-0.008799978240000006
7.850000000000001e-08,43.59994112000004,181.29997824000003,25.122750064,-0.0025499788800000256
7.9e-08,31.09994240000003,181.29997824000003,25.11025006528,-0.005674978560000016
7.95e-08,31.09994240000003,187.54997760000003,25.11025006528,-0.005674978560000016
8e-08,31.09994240000003,193.79997696000004,25.10400006592,-0.005674978560000016
8.05e-08,18.599943680000024,187.54997760000003,25.122750064,-0.005674978560000016
8.100000000000001e-08,12.349944320000077,187.54997760000003,25.11650006464,-0.0025499788800000256
8.150000000000001e-08,12.349944320000077,187.54997760000003,25.12900006336,-0.005674978560000016
8.2e-08,12.349944320000077,187.54997760000003,25.14150006208,-0.0025499788800000256
8.25e-08,6.099944960000016,187.54997760000003,25.13525006272,-0.008799978240000006
8.3e-08,-0.15005439999993087,193.79997696000004,25.12900006336,-0.005674978560000016
8.35e-08,6.099944960000016,187.54997760000003,25.09775006656,-0.005674978560000016
8.400000000000001e-08,-6.400053759999992,193.79997696000004,25.0915000672,-0.011924977920000024
8.450000000000001e-08,-6.400053759999992,200.04997632,25.08525006784,-0.005674978560000016
8.500000000000001e-08,-12.650053119999939,193.79997696000004,25.07275006912,-0.005674978560000016
8.55e-08,-12.650053119999939,200.04997632,25.07900006848,-0.005674978560000016
8.6e-08,-12.650053119999939,187.54997760000003,25.07275006912,-0.008799978240000006
8.65e-08,-18.90005248,187.54997760000003,25.09775006656,-0.0025499788800000256
8.700000000000001e-08,-25.150051839999946,181.29997824000003,25.0915000672,-0.005674978560000016
8.750000000000001e-08,-25.150051839999946,193.79997696000004,25.0915000672,-0.008799978240000006
8.800000000000001e-08,-25.150051839999946,187.54997760000003,25.0915000672,-0.008799978240000006
8.85e-08,-31.40005119999995,187.54997760000003,25.0915000672,-0.005674978560000016
8.9e-08,-43.90004991999996,187.54997760000003,25.08525006784,-0.0025499788800000256
8.95e-08,-37.650050559999954,187.54997760000003,25.0915000672,-0.005674978560000016
9.000000000000001e-08,-43.90004991999996,181.29997824000003,25.0915000672,-0.005674978560000016
9.050000000000001e-08,-56.400048639999966,181.29997824000003,25.0915000672,-0.008799978240000006
9.100000000000001e-08,-56.400048639999966,187.54997760000003,25.0915000672,-0.005674978560000016
9.15e-08,-50.15004927999996,175.04997888000003,25.08525006784,-0.005674978560000016
9.2e-08,-56.400048639999966,181.29997824000003,25.10400006592,-0.011924977920000024
9.25e-08,-62.65004799999997,181.29997824000003,25.122750064,-0.005674978560000016
9.300000000000001e-08,-68.90004735999997,175.04997888000003,25.11650006464,-0.0025499788800000256
9.350000000000001e-08,-68.90004735999997,187.54997760000003,25.122750064,-0.005674978560000016
9.400000000000001e-08,-75.15004671999998,168.79997952000002,25.122750064,-0.008799978240000006
9.45e-08,-68.90004735999997,162.54998016000002,25.122750064,-0.0025499788800000256
9.5e-08,-87.65004543999993,156.29998080000001,25.11650006464,-0.005674978560000016
9.55e-08,-81.40004607999992,168.79997952000002,25.122750064,-0.008799978240000006
9.600000000000001e-08,-87.65004543999993,162.54998016000002,25.11650006464,-0.005674978560000016
9.650000000000001e-08,-87.65004543999993,162.54998016000002,25.12900006336,-0.005674978560000016
9.700000000000001e-08,-100.15004415999994,162.54998016000002,25.12900006336,-0.0025499788800000256
9.75e-08,-100.15004415999994,162.54998016000002,25.14775006144,-0.008799978240000006
9.8e-08,-100.15004415999994,150.04998144,25.16650005952,-0.0025499788800000256
9.85e-08,-106.40004351999994,150.04998144,25.17900005824,-0.008799978240000006
9.9e-08,-106.40004351999994,150.04998144,25.17900005824,-0.005674978560000016
9.950000000000001e-08,-100.15004415999994,150.04998144,25.16650005952,-0.005674978560000016
1.0000000000000001e-07,-112.65004287999994,143.79998208,25.16650005952,-0.008799978240000006
1.005e-07,-112.65004287999994,143.79998208,25.17275005888,-0.005674978560000016
1.01e-07,-112.65004287999994,131.29998336000003,25.16025006016,-0.005674978560000016
1.015e-07,-118.90004223999995,143.79998208,25.14775006144,-0.005674978560000016
1.02e-07,-118.90004223999995,131.29998336000003,25.14150006208,-0.005674978560000016
1.0250000000000001e-07,-112.65004287999994,125.04998400000001,25.1540000608,-0.0025499788800000256
1.0300000000000001e-07,-131.40004095999996,118.79998464,25.16025006016,-0.005674978560000016
1.0350000000000001e-07,-131.40004095999996,118.79998464,25.17900005824,-0.008799978240000006
1.04e-07,-125.15004159999995,112.54998528,25.19775005632,-0.005674978560000016
1.045e-07,-125.15004159999995,112.54998528,25.22900005312,-0.008799978240000006
1.05e-07,-143.90003967999996,112.54998528,25.2477500512,-0.005674978560000016
1.0550000000000001e-07,-137.65004031999996,106.29998592,25.26650004928,-0.005674978560000016
1.0600000000000001e-07,-143.90003967999996,100.04998656,25.279000048,-0.005674978560000016
1.0650000000000001e-07,-150.15003903999997,100.04998656,25.27275004864,-0.008799978240000006
1.07e-07,-143.90003967999996,100.04998656,25.26650004928,-0.008799978240000006
1.075e-07,-143.90003967999996,87.54998784,25.25400005056,-0.005674978560000016
1.08e-07,-150.15003903999997,87.54998784,25.24150005184,-0.008799978240000006
1.0850000000000001e-07,-156.40003839999997,87.54998784,25.24150005184,-0.005674978560000016
1.0900000000000001e-07,-162.65003775999998,81.29998848000001,25.22275005376,-0.005674978560000016
1.0950000000000001e-07,-168.90003711999998,87.54998784,25.22275005376,-0.005674978560000016
1.1e-07,-168.90003711999998,68.79998976,25.2165000544,-0.008799978240000006
1.105e-07,-156.40003839999997,62.5499904,25.24150005184,-0.0025499788800000256
1.11e-07,-175.15003647999998,56.299991039999995,25.2477500512,-0.005674978560000016
1.1150000000000001e-07,-181.40003584,56.299991039999995,25.25400005056,-0.008799978240000006
1.1200000000000001e-07,-175.15003647999998,50.049991680000005,25.2477500512,-0.005674978560000016
1.1250000000000001e-07,-187.65003519999993,50.049991680000005,25.2477500512,-0.0025499788800000256
1.13e-07,-193.90003455999994,43.79999232,25.22275005376,-0.005674978560000016
1.135e-07,-193.90003455999994,43.79999232,25.22275005376,-0.005674978560000016
1.14e-07,-193.90003455999994,37.54999296,25.2165000544,-0.0025499788800000256
1.1450000000000001e-07,-200.15003391999994,31.299993600000004,25.204000055679998,-0.008799978240000006
1.1500000000000001e-07,-200.15003391999994,25.049994240000007,25.1852500576,-0.0025499788800000256
1.1550000000000001e-07,-206.40003327999995,25.049994240000007,25.16025006016,-0.005674978560000016
1.16e-07,-200.15003391999994,18.799994880000003,25.17275005888,-0.008799978240000006
