Time (s),V_PRI,V_SEC,V_IN,V_OUT
0.0,-125.15004159999995,-184.249984,25.3512500416,-0.00909997824
5e-10,-118.90004223999995,-196.74998272000002,25.35750004096,-0.0059749785600000105
1e-09,-112.65004287999994,-184.249984,25.37000003968,-0.00909997824
1.5000000000000002e-09,-112.65004287999994,-196.74998272000002,25.37625003904,-0.0059749785600000105
2e-09,-93.90004479999993,-202.99998208,25.37625003904,-0.0028499788800000203
2.5e-09,-100.15004415999994,-209.24998144,25.37000003968,-0.0059749785600000105
3.0000000000000004e-09,-93.90004479999993,-209.24998144,25.37000003968,-0.00909997824
3.5000000000000003e-09,-87.65004543999993,-215.4999808,25.36375004032,-0.0059749785600000105
4e-09,-81.40004607999992,-215.4999808,25.35750004096,-0.0028499788800000203
4.500000000000001e-09,-87.65004543999993,-209.24998144,25.33875004288,-0.0028499788800000203
5e-09,-75.15004671999998,-215.4999808,25.33250004352,-0.0059749785600000105
5.5000000000000004e-09,-68.90004735999997,-221.74998016,25.3200000448,-0.0059749785600000105
6.000000000000001e-09,-68.90004735999997,-227.99997952,25.31375004544,-0.00909997824
6.5e-09,-62.65004799999997,-221.74998016,25.30750004608,-0.0059749785600000105
7.000000000000001e-09,-50.15004927999996,-221.74998016,25.29500004736,-0.0059749785600000105
7.500000000000001e-09,-50.15004927999996,-221.74998016,25.29500004736,-0.00909997824
8e-09,-50.15004927999996,-221.74998016,25.30125004672,-0.0059749785600000105
8.5e-09,-50.15004927999996,-234.24997888000001,25.29500004736,-0.0059749785600000105
9.000000000000001e-09,-43.90004991999996,-221.74998016,25.29500004736,-0.00909997824
9.5e-09,-37.650050559999954,-234.24997888000001,25.28250004864,-0.00909997824
1e-08,-25.150051839999946,-240.49997824000002,25.29500004736,-0.0059749785600000105
1.0500000000000001e-08,-37.650050559999954,-240.49997824000002,25.288750048,-0.0059749785600000105
1.1000000000000001e-08,-25.150051839999946,-234.24997888000001,25.288750048,-0.00909997824
1.15e-08,-18.90005248,-234.24997888000001,25.28250004864,-0.0059749785600000105
1.2000000000000002e-08,-25.150051839999946,-234.24997888000001,25.28250004864,-0.0028499788800000203
1.2500000000000001e-08,-18.90005248,-234.24997888000001,25.27000004992,-0.0028499788800000203
1.3e-08,-12.650053119999939,-227.99997952,25.27625004928,-0.0059749785600000105
1.35e-08,-6.400053759999992,-246.74997760000002,25.288750048,-0.0028499788800000203
1.4000000000000001e-08,-12.650053119999939,-240.49997824000002,25.29500004736,-0.00909997824
1.45e-08,-6.400053759999992,-240.49997824000002,25.29500004736,-0.0028499788800000203
1.5000000000000002e-08,-0.15005439999993087,-240.49997824000002,25.27000004992,-0.0059749785600000105
1.55e-08,6.099944960000016,-240.49997824000002,25.27000004992,-0.00909997824
1.6e-08,6.099944960000016,-234.24997888000001,25.27000004992,-0.00909997824
1.6500000000000002e-08,12.349944320000077,-240.49997824000002,25.25125005184,-0.0028499788800000203
1.7e-08,18.599943680000024,-234.24997888000001,25.23875005312,-0.00909997824
1.75e-08,18.599943680000024,-240.49997824000002,25.2262500544,-0.00909997824
1.8000000000000002e-08,31.09994240000003,-240.49997824000002,25.22000005504,-0.0028499788800000203
1.85e-08,24.849943040000085,-246.74997760000002,25.213750055680002,-0.0028499788800000203
1.9e-08,31.09994240000003,-240.49997824000002,25.20750005632,-0.00909997824
1.9500000000000003e-08,37.34994176000009,-240.49997824000002,25.20125005696,-0.00909997824
2e-08,37.34994176000009,-240.49997824000002,25.20125005696,-0.0028499788800000203
2.05e-08,31.09994240000003,-234.24997888000001,25.1950000576,-0.0028499788800000203
2.1000000000000003e-08,49.8499404800001,-234.24997888000001,25.213750055680002,-0.0028499788800000203
2.15e-08,43.59994112000004,-240.49997824000002,25.20750005632,-0.0028499788800000203
2.2000000000000002e-08,49.8499404800001,-234.24997888000001,25.20125005696,-0.00909997824
2.2500000000000003e-08,56.09993984000005,-227.99997952,25.1950000576,-0.0059749785600000105
2.3e-08,62.34993920000011,-227.99997952,25.18250005888,-0.0059749785600000105
2.3500000000000002e-08,62.34993920000011,-221.74998016,25.18250005888,-0.00909997824
2.4000000000000003e-08,68.59993856000006,-221.74998016,25.18875005824,-0.00909997824
2.45e-08,68.59993856000006,-227.99997952,25.1950000576,-0.0059749785600000105
2.5000000000000002e-08,68.59993856000006,-215.4999808,25.1950000576,-0.00909997824
2.55e-08,74.84993792,-221.74998016,25.20125005696,-0.00909997824
2.6e-08,81.09993728000006,-227.99997952,25.22000005504,-0.0028499788800000203
2.6500000000000002e-08,74.84993792,-221.74998016,25.23250005376,-0.0059749785600000105
2.7e-08,81.09993728000006,-221.74998016,25.23875005312,-0.00909997824
2.75e-08,87.34993664000001,-209.24998144,25.23875005312,-0.0059749785600000105
2.8000000000000003e-08,87.34993664000001,-209.24998144,25.23875005312,-0.0028499788800000203
2.85e-08,87.34993664000001,-209.24998144,25.23250005376,-0.0028499788800000203
2.9e-08,99.84993536000002,-209.24998144,25.23875005312,-0.0028499788800000203
2.9500000000000003e-08,93.59993600000007,-202.99998208,25.245000052480002,-0.0028499788800000203
3.0000000000000004e-08,99.84993536000002,-202.99998208,25.245000052480002,-0.00909997824
3.05e-08,99.84993536000002,-196.74998272000002,25.245000052480002,-0.0059749785600000105
3.1e-08,106.09993472000008,-196.74998272000002,25.23875005312,-0.0059749785600000105
3.1500000000000004e-08,106.09993472000008,-190.49998336000002,25.245000052480002,-0.00909997824
3.2e-08,106.09993472000008,-184.249984,25.25125005184,-0.0059749785600000105
3.25e-08,106.09993472000008,-190.49998336000002,25.245000052480002,-0.0028499788800000203
3.3000000000000004e-08,112.34993408000003,-177.99998464,25.245000052480002,-0.00909997824
3.35e-08,118.59993344000009,-184.249984,25.245000052480002,-0.00909997824
3.4e-08,124.84993280000003,-184.249984,25.23875005312,-0.0028499788800000203
3.4500000000000005e-08,118.59993344000009,-177.99998464,25.23875005312,-0.0028499788800000203
3.5e-08,118.59993344000009,-177.99998464,25.245000052480002,-0.00909997824
3.55e-08,124.84993280000003,-165.49998592,25.245000052480002,-0.0059749785600000105
3.6000000000000005e-08,124.84993280000003,-165.49998592,25.2575000512,-0.0059749785600000105
3.65e-08,118.59993344000009,-159.24998656,25.2575000512,-0.0028499788800000203
3.7e-08,131.0999321600001,-152.99998720000002,25.27000004992,-0.0028499788800000203
3.7500000000000005e-08,137.34993152000004,-152.99998720000002,25.288750048,-0.0028499788800000203
3.8e-08,137.34993152000004,-152.99998720000002,25.29500004736,-0.00909997824
3.85e-08,143.5999308800001,-152.99998720000002,25.30750004608,-0.0059749785600000105
3.9000000000000005e-08,149.84993024000005,-140.49998848,25.29500004736,-0.0059749785600000105
3.95e-08,149.84993024000005,-134.24998912,25.30125004672,-0.012224977920000019
4e-08,149.84993024000005,-134.24998912,25.3200000448,-0.0059749785600000105
4.0500000000000005e-08,156.0999296000001,-134.24998912,25.31375004544,-0.0059749785600000105
4.1e-08,162.34992896000006,-115.49999104,25.30125004672,-0.00909997824
4.15e-08,162.34992896000006,-121.7499904,25.27625004928,-0.00909997824
4.2000000000000006e-08,168.59992832,-121.7499904,25.26375005056,-0.0028499788800000203
4.2500000000000003e-08,168.59992832,-121.7499904,25.245000052480002,-0.0028499788800000203
4.3e-08,174.84992768000006,-109.24999168000001,25.23250005376,-0.00909997824
4.3500000000000006e-08,181.09992704,-109.24999168000001,25.22000005504,-0.0059749785600000105
4.4000000000000004e-08,181.09992704,-102.99999232,25.213750055680002,-0.0028499788800000203
4.45e-08,174.84992768000006,-96.74999296,25.20125005696,-0.0028499788800000203
4.5000000000000006e-08,187.34992640000007,-90.49999360000001,25.1950000576,-0.0028499788800000203
4.5500000000000004e-08,181.09992704,-90.49999360000001,25.18875005824,-0.0028499788800000203
4.6e-08,181.09992704,-84.24999424,25.17000006016,-0.00909997824
4.6500000000000006e-08,187.34992640000007,-84.24999424,25.15750006144,-0.0059749785600000105
4.7000000000000004e-08,199.84992512000008,-77.99999488,25.132500064,-0.0059749785600000105
4.75e-08,199.84992512000008,-65.49999616,25.13875006336,-0.00909997824
4.8000000000000006e-08,206.09992448000003,-52.99999744,25.15125006208,-0.00909997824
4.8500000000000004e-08,199.84992512000008,-65.49999616,25.15750006144,-0.0059749785600000105
4.9e-08,206.09992448000003,-46.74999808,25.15750006144,-0.0059749785600000105
4.95e-08,212.3499238400001,-52.99999744,25.15750006144,-0.00909997824
5.0000000000000004e-08,218.59992320000003,-46.74999808,25.17625005952,-0.0028499788800000203
5.05e-08,212.3499238400001,-52.99999744,25.17625005952,-0.0059749785600000105
5.1e-08,212.3499238400001,-40.49999872,25.18875005824,-0.0059749785600000105
5.1500000000000005e-08,218.59992320000003,-34.249999360000004,25.18875005824,-0.0059749785600000105
5.2e-08,218.59992320000003,-34.249999360000004,25.20125005696,-0.0028499788800000203
5.25e-08,206.09992448000003,-34.249999360000004,25.18875005824,-0.0028499788800000203
5.3000000000000005e-08,224.8499225600001,-21.75000064,25.18875005824,-0.0059749785600000105
5.35e-08,212.3499238400001,-21.75000064,25.18250005888,-0.0028499788800000203
5.4e-08,206.09992448000003,-21.75000064,25.15750006144,-0.00909997824
5.4500000000000005e-08,218.59992320000003,-9.250001919999999,25.13875006336,-0.0028499788800000203
5.5e-08,224.8499225600001,-9.250001919999999,25.12000006528,-0.0059749785600000105
5.55e-08,218.59992320000003,3.2499968000000017,25.13875006336,-0.00909997824
5.6000000000000005e-08,218.59992320000003,3.2499968000000017,25.1637500608,-0.0059749785600000105
5.65e-08,212.3499238400001,3.2499968000000017,25.17000006016,-0.0059749785600000105
5.7e-08,218.59992320000003,21.999994880000003,25.14500006272,-0.0059749785600000105
5.7500000000000005e-08,212.3499238400001,15.749995519999999,25.12625006464,-0.0059749785600000105
5.8e-08,218.59992320000003,21.999994880000003,25.12625006464,-0.0028499788800000203
5.85e-08,212.3499238400001,21.999994880000003,25.12000006528,-0.0059749785600000105
5.9000000000000006e-08,212.3499238400001,28.249994240000007,25.132500064,-0.00909997824
5.9500000000000003e-08,212.3499238400001,34.4999936,25.12000006528,-0.0059749785600000105
6.000000000000001e-08,212.3499238400001,34.4999936,25.12000006528,-0.0059749785600000105
6.05e-08,193.59992576000002,46.999992320000004,25.08875006848,-0.0028499788800000203
6.1e-08,206.09992448000003,46.999992320000004,25.09500006784,-0.0028499788800000203
6.15e-08,199.84992512000008,53.24999168000001,25.09500006784,-0.0028499788800000203
6.2e-08,193.59992576000002,53.24999168000001,25.09500006784,-0.0059749785600000105
6.250000000000001e-08,193.59992576000002,65.7499904,25.1012500672,-0.0059749785600000105
6.300000000000001e-08,193.59992576000002,71.99998976,25.08875006848,-0.0059749785600000105
6.35e-08,193.59992576000002,71.99998976,25.11375006592,-0.012224977920000019
6.4e-08,187.34992640000007,78.24998912000001,25.12625006464,-0.0059749785600000105
6.45e-08,181.09992704,84.49998848000001,25.12625006464,-0.0028499788800000203
6.5e-08,187.34992640000007,90.74998784,25.12000006528,-0.0059749785600000105
6.55e-08,181.09992704,90.74998784,25.1012500672,-0.00909997824
6.600000000000001e-08,181.09992704,84.49998848000001,25.09500006784,-0.0028499788800000203
6.65e-08,168.59992832,84.49998848000001,25.07625006976,-0.0059749785600000105
6.7e-08,168.59992832,90.74998784,25.07625006976,-0.00909997824
6.75e-08,174.84992768000006,96.9999872,25.08250006912,-0.0059749785600000105
6.8e-08,162.34992896000006,103.24998656,25.08250006912,-0.0028499788800000203
6.85e-08,156.0999296000001,109.49998592,25.0700000704,-0.0028499788800000203
6.900000000000001e-08,162.34992896000006,109.49998592,25.0700000704,-0.0059749785600000105
6.950000000000001e-08,156.0999296000001,109.49998592,25.07625006976,-0.0028499788800000203
7e-08,149.84993024000005,115.74998528,25.08875006848,-0.00909997824
7.05e-08,149.84993024000005,121.99998464000001,25.1012500672,-0.0059749785600000105
7.1e-08,156.0999296000001,128.249984,25.10750006656,-0.0059749785600000105
7.15e-08,143.5999308800001,134.49998336000002,25.12625006464,-0.012224977920000019
7.200000000000001e-08,143.5999308800001,134.49998336000002,25.14500006272,-0.00909997824
7.250000000000001e-08,131.0999321600001,134.49998336000002,25.14500006272,-0.0028499788800000203
7.3e-08,131.0999321600001,146.99998208,25.13875006336,-0.0059749785600000105
7.35e-08,124.84993280000003,140.74998272000002,25.13875006336,-0.00909997824
7.4e-08,131.0999321600001,140.74998272000002,25.13875006336,0.0002750207999999976
7.45e-08,118.59993344000009,140.74998272000002,25.13875006336,-0.0028499788800000203
7.500000000000001e-08,112.34993408000003,153.24998144,25.14500006272,-0.0059749785600000105
7.550000000000001e-08,112.34993408000003,153.24998144,25.1637500608,-0.0059749785600000105
7.6e-08,106.09993472000008,159.4999808,25.17625005952,-0.0028499788800000203
7.65e-08,93.59993600000007,159.4999808,25.17625005952,-0.0028499788800000203
7.7e-08,99.84993536000002,159.4999808,25.18875005824,-0.0059749785600000105
7.75e-08,93.59993600000007,159.4999808,25.1950000576,-0.0028499788800000203
7.800000000000001e-08,87.34993664000001,159.4999808,25.18875005824,-0.00909997824
7.850000000000001e-08,87.34993664000001,165.74998016,25.1950000576,-0.00909997824
7.9e-08,87.34993664000001,171.99997952,25.17625005952,-0.0059749785600000105
7.95e-08,81.09993728000006,178.24997888000001,25.17625005952,-0.012224977920000019
8e-08,74.84993792,178.24997888000001,25.17000006016,-0.00909997824
8.05e-08,68.59993856000006,171.99997952,25.15125006208,-0.0059749785600000105
8.100000000000001e-08,68.59993856000006,184.49997824000002,25.13875006336,-0.00909997824
8.150000000000001e-08,62.34993920000011,171.99997952,25.12000006528,-0.0059749785600000105
8.2e-08,62.34993920000011,171.99997952,25.12625006464,-0.0059749785600000105
8.25e-08,49.8499404800001,171.99997952,25.12000006528,-0.0028499788800000203
8.3e-08,43.59994112000004,178.24997888000001,25.12625006464,-0.00909997824
8.35e-08,49.8499404800001,184.49997824000002,25.12000006528,-0.0059749785600000105
8.400000000000001e-08,37.34994176000009,184.49997824000002,25.12625006464,-0.0059749785600000105
8.450000000000001e-08,31.09994240000003,184.49997824000002,25.11375006592,-0.0028499788800000203
8.500000000000001e-08,37.34994176000009,190.74997760000002,25.12625006464,-0.0059749785600000105
8.55e-08,24.849943040000085,184.49997824000002,25.12000006528,-0.0028499788800000203
8.6e-08,18.599943680000024,184.49997824000002,25.11375006592,-0.00909997824
8.65e-08,18.599943680000024,190.74997760000002,25.11375006592,-0.0059749785600000105
8.700000000000001e-08,24.849943040000085,190.74997760000002,25.09500006784,-0.0059749785600000105
8.750000000000001e-08,12.349944320000077,190.74997760000002,25.1012500672,-0.00909997824
8.800000000000001e-08,12.349944320000077,203.24997632,25.11375006592,-0.0059749785600000105
8.85e-08,6.099944960000016,184.49997824000002,25.1012500672,-0.0028499788800000203
8.9e-08,-0.15005439999993087,196.99997696000003,25.10750006656,-0.00909997824
8.95e-08,-6.400053759999992,190.74997760000002,25.1012500672,-0.00909997824
9.000000000000001e-08,-0.15005439999993087,184.49997824000002,25.10750006656,-0.0028499788800000203
9.050000000000001e-08,-6.400053759999992,184.49997824000002,25.1012500672,-0.0028499788800000203
9.100000000000001e-08,-12.650053119999939,190.74997760000002,25.10750006656,-0.00909997824
9.15e-08,-12.650053119999939,190.74997760000002,25.10750006656,-0.0059749785600000105
9.2e-08,-12.650053119999939,190.74997760000002,25.11375006592,-0.0059749785600000105
9.25e-08,-25.150051839999946,190.74997760000002,25.1012500672,-0.0028499788800000203
9.300000000000001e-08,-25.150051839999946,184.49997824000002,25.1012500672,-0.0059749785600000105
9.350000000000001e-08,-31.40005119999995,184.49997824000002,25.10750006656,-0.0028499788800000203
9.400000000000001e-08,-37.650050559999954,184.49997824000002,25.10750006656,-0.0059749785600000105
9.45e-08,-31.40005119999995,190.74997760000002,25.10750006656,-0.0059749785600000105
9.5e-08,-37.650050559999954,184.49997824000002,25.08875006848,-0.0059749785600000105
9.55e-08,-43.90004991999996,184.49997824000002,25.09500006784,-0.00909997824
9.600000000000001e-08,-43.90004991999996,184.49997824000002,25.1012500672,-0.0059749785600000105
9.650000000000001e-08,-56.400048639999966,178.24997888000001,25.08875006848,-0.0028499788800000203
9.700000000000001e-08,-50.15004927999996,190.74997760000002,25.08250006912,-0.0059749785600000105
9.75e-08,-56.400048639999966,178.24997888000001,25.07625006976,-0.0059749785600000105
9.8e-08,-50.15004927999996,171.99997952,25.07625006976,-0.0028499788800000203
9.85e-08,-68.90004735999997,171.99997952,25.07625006976,-0.0028499788800000203
9.9e-08,-62.65004799999997,171.99997952,25.08250006912,-0.00909997824
9.950000000000001e-08,-68.90004735999997,171.99997952,25.08875006848,-0.0059749785600000105
1.0000000000000001e-07,-75.15004671999998,171.99997952,25.11375006592,-0.0059749785600000105
1.005e-07,-87.65004543999993,171.99997952,25.11375006592,-0.0028499788800000203
1.01e-07,-81.40004607999992,165.74998016,25.132500064,-0.0028499788800000203
1.015e-07,-87.65004543999993,165.74998016,25.14500006272,-0.0059749785600000105
1.02e-07,-93.90004479999993,159.4999808,25.15750006144,-0.00909997824
1.0250000000000001e-07,-87.65004543999993,165.74998016,25.15125006208,-0.0059749785600000105
1.0300000000000001e-07,-87.65004543999993,159.4999808,25.132500064,-0.0059749785600000105
1.0350000000000001e-07,-93.90004479999993,153.24998144,25.132500064,-0.00909997824
1.04e-07,-93.90004479999993,159.4999808,25.13875006336,-0.0059749785600000105
1.045e-07,-100.15004415999994,146.99998208,25.132500064,-0.0028499788800000203
1.05e-07,-100.15004415999994,159.4999808,25.13875006336,-0.00909997824
1.0550000000000001e-07,-106.40004351999994,146.99998208,25.132500064,-0.00909997824
1.0600000000000001e-07,-106.40004351999994,134.49998336000002,25.14500006272,-0.0059749785600000105
1.0650000000000001e-07,-112.65004287999994,134.49998336000002,25.15125006208,-0.0059749785600000105
1.07e-07,-118.90004223999995,134.49998336000002,25.15750006144,-0.00909997824
1.075e-07,-112.65004287999994,128.249984,25.17000006016,-0.00909997824
1.08e-07,-125.15004159999995,121.99998464000001,25.17000006016,-0.0059749785600000105
1.0850000000000001e-07,-125.15004159999995,128.249984,25.15750006144,-0.0028499788800000203
1.0900000000000001e-07,-125.15004159999995,115.74998528,25.1637500608,-0.0028499788800000203
1.0950000000000001e-07,-125.15004159999995,115.74998528,25.17000006016,-0.0028499788800000203
1.1e-07,-131.40004095999996,109.49998592,25.17000006016,-0.00909997824
1.105e-07,-125.15004159999995,109.49998592,25.17625005952,-0.0059749785600000105
1.11e-07,-131.40004095999996,109.49998592,25.17000006016,-0.0059749785600000105
1.1150000000000001e-07,-137.65004031999996,103.24998656,25.18875005824,-0.00909997824
1.1200000000000001e-07,-137.65004031999996,109.49998592,25.22000005504,-0.00909997824
1.1250000000000001e-07,-143.90003967999996,90.74998784,25.23250005376,-0.0059749785600000105
1.13e-07,-150.15003903999997,103.24998656,25.25125005184,-0.00909997824
1.135e-07,-150.15003903999997,90.74998784,25.26375005056,-0.00909997824
1.14e-07,-143.90003967999996,78.24998912000001,25.26375005056,-0.0028499788800000203
1.1450000000000001e-07,-156.40003839999997,78.24998912000001,25.25125005184,-0.0028499788800000203
1.1500000000000001e-07,-162.65003775999998,78.24998912000001,25.23875005312,-0.00909997824
1.1550000000000001e-07,-162.65003775999998,78.24998912000001,25.23250005376,-0.0059749785600000105
1.16e-07,-162.65003775999998,71.99998976,25.2262500544,-0.0028499788800000203
1.165e-07,-175.15003647999998,71.99998976,25.20750005632,-0.0028499788800000203
1.17e-07,-175.15003647999998,59.49999104,25.20750005632,-0.0028499788800000203
1.1750000000000001e-07,-181.40003584,53.24999168000001,25.20125005696,-0.0028499788800000203
