Time (s),V_PRI,V_SEC,V_IN,V_OUT
0.0,-18.90005248,-234.24997888000001,25.29100004672,-0.0027499788800000313
5e-10,-12.650053119999939,-234.24997888000001,25.30350004544,-0.0058749785600000215
1e-09,-6.400053759999992,-246.74997760000002,25.3097500448,-0.0027499788800000313
1.5000000000000002e-09,-6.400053759999992,-240.49997824000002,25.3097500448,-0.01212497792000003
2e-09,-0.15005439999993087,-240.49997824000002,25.30350004544,-0.0058749785600000215
2.5e-09,12.349944320000077,-240.49997824000002,25.278500048,-0.0058749785600000215
3.0000000000000004e-09,6.099944960000016,-240.49997824000002,25.27225004864,-0.008999978240000012
3.5000000000000003e-09,12.349944320000077,-234.24997888000001,25.27225004864,-0.0058749785600000215
4e-09,12.349944320000077,-240.49997824000002,25.25975004992,-0.0027499788800000313
4.500000000000001e-09,18.599943680000024,-227.99997952,25.25350005056,-0.0058749785600000215
5e-09,24.849943040000085,-240.49997824000002,25.2472500512,-0.0058749785600000215
5.5000000000000004e-09,31.09994240000003,-240.49997824000002,25.24100005184,0.0003750207999999866
6.000000000000001e-09,24.849943040000085,-240.49997824000002,25.22225005376,-0.0058749785600000215
6.5e-09,37.34994176000009,-240.49997824000002,25.20975005504,-0.008999978240000012
7.000000000000001e-09,37.34994176000009,-240.49997824000002,25.20975005504,-0.0027499788800000313
7.500000000000001e-09,37.34994176000009,-234.24997888000001,25.216000054400002,-0.0027499788800000313
8e-09,37.34994176000009,-234.24997888000001,25.19725005632,-0.0027499788800000313
8.5e-09,49.8499404800001,-227.99997952,25.19100005696,-0.0027499788800000313
9.000000000000001e-09,49.8499404800001,-240.49997824000002,25.19100005696,-0.0027499788800000313
9.5e-09,49.8499404800001,-234.24997888000001,25.17850005824,-0.008999978240000012
1e-08,62.34993920000011,-227.99997952,25.184750057600002,-0.0058749785600000215
1.0500000000000001e-08,62.34993920000011,-227.99997952,25.16600005952,-0.0058749785600000215
1.1000000000000001e-08,62.34993920000011,-221.74998016,25.17225005888,-0.008999978240000012
1.15e-08,68.59993856000006,-221.74998016,25.19725005632,-0.008999978240000012
1.2000000000000002e-08,68.59993856000006,-227.99997952,25.203500055680003,-0.0058749785600000215
1.2500000000000001e-08,74.84993792,-209.24998144,25.216000054400002,-0.008999978240000012
1.3e-08,74.84993792,-221.74998016,25.22225005376,-0.008999978240000012
1.35e-08,87.34993664000001,-221.74998016,25.24100005184,-0.0027499788800000313
1.4000000000000001e-08,81.09993728000006,-215.4999808,25.2472500512,-0.0058749785600000215
1.45e-08,87.34993664000001,-215.4999808,25.25350005056,-0.008999978240000012
1.5000000000000002e-08,87.34993664000001,-209.24998144,25.25350005056,-0.008999978240000012
1.55e-08,87.34993664000001,-209.24998144,25.266000049280002,-0.0058749785600000215
1.6e-08,87.34993664000001,-202.99998208,25.266000049280002,-0.0027499788800000313
1.6500000000000002e-08,93.59993600000007,-196.74998272000002,25.27225004864,-0.0058749785600000215
1.7e-08,99.84993536000002,-196.74998272000002,25.27225004864,-0.0027499788800000313
1.75e-08,99.84993536000002,-202.99998208,25.266000049280002,-0.008999978240000012
1.8000000000000002e-08,99.84993536000002,-190.49998336000002,25.25350005056,-0.0058749785600000215
1.85e-08,106.09993472000008,-190.49998336000002,25.234750052480003,-0.0058749785600000215
1.9e-08,112.34993408000003,-184.249984,25.234750052480003,-0.01212497792000003
1.9500000000000003e-08,106.09993472000008,-177.99998464,25.22850005312,-0.0058749785600000215
2e-08,112.34993408000003,-184.249984,25.216000054400002,-0.0058749785600000215
2.05e-08,112.34993408000003,-171.74998528,25.216000054400002,-0.0058749785600000215
2.1000000000000003e-08,118.59993344000009,-171.74998528,25.216000054400002,-0.008999978240000012
2.15e-08,131.0999321600001,-171.74998528,25.22225005376,-0.0027499788800000313
2.2000000000000002e-08,124.84993280000003,-177.99998464,25.22225005376,-0.0058749785600000215
2.2500000000000003e-08,131.0999321600001,-165.49998592,25.22850005312,-0.008999978240000012
2.3e-08,124.84993280000003,-159.24998656,25.24100005184,-0.0058749785600000215
2.3500000000000002e-08,131.0999321600001,-159.24998656,25.25975004992,-0.0058749785600000215
2.4000000000000003e-08,131.0999321600001,-152.99998720000002,25.266000049280002,-0.0027499788800000313
2.45e-08,137.34993152000004,-152.99998720000002,25.29100004672,-0.0058749785600000215
2.5000000000000002e-08,137.34993152000004,-146.74998784000002,25.30350004544,-0.0058749785600000215
2.55e-08,143.5999308800001,-146.74998784000002,25.3097500448,-0.008999978240000012
2.6e-08,143.5999308800001,-140.49998848,25.32225004352,-0.0058749785600000215
2.6500000000000002e-08,156.0999296000001,-134.24998912,25.30350004544,-0.0058749785600000215
2.7e-08,149.84993024000005,-127.99998976,25.3097500448,-0.01212497792000003
2.75e-08,149.84993024000005,-121.7499904,25.316000044160003,-0.0058749785600000215
2.8000000000000003e-08,156.0999296000001,-127.99998976,25.297250046080002,-0.0027499788800000313
2.85e-08,162.34992896000006,-115.49999104,25.28475004736,-0.008999978240000012
2.9e-08,168.59992832,-115.49999104,25.266000049280002,-0.008999978240000012
2.9500000000000003e-08,181.09992704,-115.49999104,25.25350005056,-0.0027499788800000313
3.0000000000000004e-08,168.59992832,-109.24999168000001,25.234750052480003,-0.0058749785600000215
3.05e-08,174.84992768000006,-102.99999232,25.22850005312,-0.008999978240000012
3.1e-08,181.09992704,-102.99999232,25.22225005376,-0.0058749785600000215
3.1500000000000004e-08,181.09992704,-96.74999296,25.216000054400002,-0.0058749785600000215
3.2e-08,181.09992704,-96.74999296,25.19725005632,-0.0027499788800000313
3.25e-08,193.59992576000002,-84.24999424,25.184750057600002,-0.0027499788800000313
3.3000000000000004e-08,193.59992576000002,-84.24999424,25.17225005888,-0.0058749785600000215
3.35e-08,193.59992576000002,-84.24999424,25.16600005952,-0.008999978240000012
3.4e-08,199.84992512000008,-77.99999488,25.16600005952,-0.0058749785600000215
3.4500000000000005e-08,199.84992512000008,-71.74999552,25.14100006208,-0.0058749785600000215
3.5e-08,206.09992448000003,-59.249996800000005,25.14725006144,-0.008999978240000012
3.55e-08,199.84992512000008,-52.99999744,25.15975006016,-0.008999978240000012
3.6000000000000005e-08,199.84992512000008,-52.99999744,25.153500060800003,-0.0058749785600000215
3.65e-08,212.3499238400001,-46.74999808,25.15975006016,-0.0058749785600000215
3.7e-08,206.09992448000003,-46.74999808,25.17225005888,-0.008999978240000012
3.7500000000000005e-08,224.8499225600001,-46.74999808,25.17850005824,-0.0027499788800000313
3.8e-08,212.3499238400001,-46.74999808,25.19725005632,-0.0058749785600000215
3.85e-08,218.59992320000003,-34.249999360000004,25.20975005504,-0.008999978240000012
3.9000000000000005e-08,224.8499225600001,-34.249999360000004,25.22225005376,-0.0058749785600000215
3.95e-08,218.59992320000003,-21.75000064,25.234750052480003,-0.0058749785600000215
4e-08,212.3499238400001,-21.75000064,25.22225005376,-0.0027499788800000313
4.0500000000000005e-08,218.59992320000003,-9.250001919999999,25.22225005376,-0.0058749785600000215
4.1e-08,218.59992320000003,-15.50000128,25.19725005632,-0.0027499788800000313
4.15e-08,212.3499238400001,-15.50000128,25.17850005824,-0.008999978240000012
4.2000000000000006e-08,218.59992320000003,-3.0000025599999987,25.17225005888,-0.0058749785600000215
4.2500000000000003e-08,224.8499225600001,3.2499968000000017,25.15975006016,-0.0058749785600000215
4.3e-08,218.59992320000003,9.499996160000002,25.153500060800003,-0.008999978240000012
4.3500000000000006e-08,212.3499238400001,9.499996160000002,25.153500060800003,-0.0058749785600000215
4.4000000000000004e-08,212.3499238400001,9.499996160000002,25.122250064,-0.0027499788800000313
4.45e-08,218.59992320000003,21.999994880000003,25.10975006528,-0.0058749785600000215
4.5000000000000006e-08,206.09992448000003,21.999994880000003,25.10975006528,-0.01212497792000003
4.5500000000000004e-08,224.8499225600001,15.749995519999999,25.11600006464,-0.0027499788800000313
4.6e-08,206.09992448000003,28.249994240000007,25.12850006336,-0.0058749785600000215
4.6500000000000006e-08,206.09992448000003,34.4999936,25.14100006208,-0.008999978240000012
4.7000000000000004e-08,206.09992448000003,40.74999296,25.134750062720002,-0.0058749785600000215
4.75e-08,206.09992448000003,46.999992320000004,25.14100006208,-0.0058749785600000215
4.8000000000000006e-08,193.59992576000002,53.24999168000001,25.14100006208,-0.0027499788800000313
4.8500000000000004e-08,199.84992512000008,53.24999168000001,25.14725006144,-0.0058749785600000215
4.9e-08,193.59992576000002,59.49999104,25.153500060800003,-0.0027499788800000313
4.95e-08,193.59992576000002,59.49999104,25.15975006016,-0.008999978240000012
5.0000000000000004e-08,193.59992576000002,65.7499904,25.153500060800003,-0.0058749785600000215
5.05e-08,193.59992576000002,71.99998976,25.134750062720002,-0.0058749785600000215
5.1e-08,193.59992576000002,78.24998912000001,25.134750062720002,-0.008999978240000012
5.1500000000000005e-08,181.09992704,84.49998848000001,25.134750062720002,-0.008999978240000012
5.2e-08,174.84992768000006,84.49998848000001,25.11600006464,-0.0058749785600000215
5.25e-08,181.09992704,103.24998656,25.09725006656,-0.0058749785600000215
5.3000000000000005e-08,174.84992768000006,96.9999872,25.07850006848,-0.008999978240000012
5.35e-08,181.09992704,90.74998784,25.07850006848,-0.0058749785600000215
5.4e-08,168.59992832,90.74998784,25.072250069120003,-0.0058749785600000215
5.4500000000000005e-08,168.59992832,103.24998656,25.07850006848,-0.008999978240000012
5.5e-08,168.59992832,103.24998656,25.07850006848,-0.0058749785600000215
5.55e-08,156.0999296000001,109.49998592,25.07850006848,-0.0058749785600000215
5.6000000000000005e-08,149.84993024000005,115.74998528,25.06600006976,-0.0058749785600000215
5.65e-08,156.0999296000001,115.74998528,25.08475006784,-0.0058749785600000215
5.7e-08,149.84993024000005,115.74998528,25.08475006784,-0.0058749785600000215
5.7500000000000005e-08,143.5999308800001,121.99998464000001,25.09725006656,-0.01212497792000003
5.8e-08,143.5999308800001,128.249984,25.103500065920002,-0.008999978240000012
5.85e-08,143.5999308800001,128.249984,25.103500065920002,-0.0058749785600000215
5.9000000000000006e-08,131.0999321600001,140.74998272000002,25.11600006464,-0.01212497792000003
5.9500000000000003e-08,124.84993280000003,140.74998272000002,25.134750062720002,-0.008999978240000012
6.000000000000001e-08,124.84993280000003,140.74998272000002,25.14100006208,-0.0058749785600000215
6.05e-08,124.84993280000003,153.24998144,25.15975006016,-0.008999978240000012
6.1e-08,118.59993344000009,146.99998208,25.16600005952,-0.01212497792000003
6.15e-08,124.84993280000003,146.99998208,25.184750057600002,-0.0058749785600000215
6.2e-08,112.34993408000003,140.74998272000002,25.203500055680003,-0.0058749785600000215
6.250000000000001e-08,112.34993408000003,153.24998144,25.22850005312,-0.008999978240000012
6.300000000000001e-08,99.84993536000002,153.24998144,25.22850005312,-0.008999978240000012
6.35e-08,99.84993536000002,159.4999808,25.234750052480003,-0.0058749785600000215
6.4e-08,87.34993664000001,159.4999808,25.22225005376,-0.0027499788800000313
6.45e-08,87.34993664000001,159.4999808,25.20975005504,-0.0058749785600000215
6.5e-08,81.09993728000006,165.74998016,25.19100005696,-0.0027499788800000313
6.55e-08,74.84993792,159.4999808,25.17225005888,-0.01212497792000003
6.600000000000001e-08,81.09993728000006,171.99997952,25.16600005952,-0.0058749785600000215
6.65e-08,81.09993728000006,165.74998016,25.134750062720002,-0.0058749785600000215
6.7e-08,68.59993856000006,178.24997888000001,25.12850006336,-0.008999978240000012
6.75e-08,68.59993856000006,178.24997888000001,25.134750062720002,-0.008999978240000012
6.8e-08,62.34993920000011,178.24997888000001,25.122250064,-0.0027499788800000313
6.85e-08,62.34993920000011,190.74997760000002,25.134750062720002,-0.0058749785600000215
6.900000000000001e-08,56.09993984000005,178.24997888000001,25.14100006208,-0.0058749785600000215
6.950000000000001e-08,56.09993984000005,178.24997888000001,25.14725006144,-0.0027499788800000313
7e-08,43.59994112000004,178.24997888000001,25.14100006208,-0.008999978240000012
7.05e-08,43.59994112000004,178.24997888000001,25.14725006144,-0.008999978240000012
7.1e-08,43.59994112000004,184.49997824000002,25.14100006208,-0.0058749785600000215
7.15e-08,31.09994240000003,184.49997824000002,25.14100006208,-0.008999978240000012
7.200000000000001e-08,24.849943040000085,190.74997760000002,25.122250064,-0.0027499788800000313
7.250000000000001e-08,24.849943040000085,184.49997824000002,25.12850006336,-0.0027499788800000313
7.3e-08,18.599943680000024,190.74997760000002,25.12850006336,-0.0058749785600000215
7.35e-08,12.349944320000077,190.74997760000002,25.12850006336,-0.008999978240000012
7.4e-08,12.349944320000077,196.99997696000003,25.14100006208,-0.0058749785600000215
7.45e-08,12.349944320000077,190.74997760000002,25.122250064,-0.0058749785600000215
7.500000000000001e-08,12.349944320000077,196.99997696000003,25.134750062720002,-0.008999978240000012
7.550000000000001e-08,6.099944960000016,190.74997760000002,25.14725006144,-0.0058749785600000215
7.6e-08,-0.15005439999993087,184.49997824000002,25.134750062720002,-0.0027499788800000313
7.65e-08,-0.15005439999993087,196.99997696000003,25.12850006336,-0.008999978240000012
7.7e-08,-12.650053119999939,190.74997760000002,25.11600006464,-0.008999978240000012
7.75e-08,-6.400053759999992,184.49997824000002,25.10975006528,-0.0027499788800000313
7.800000000000001e-08,-12.650053119999939,178.24997888000001,25.09725006656,-0.0058749785600000215
7.850000000000001e-08,-18.90005248,190.74997760000002,25.103500065920002,-0.008999978240000012
7.9e-08,-18.90005248,190.74997760000002,25.103500065920002,-0.0058749785600000215
7.95e-08,-25.150051839999946,190.74997760000002,25.10975006528,-0.0027499788800000313
8e-08,-37.650050559999954,190.74997760000002,25.09725006656,-0.0058749785600000215
8.05e-08,-31.40005119999995,190.74997760000002,25.09725006656,-0.0058749785600000215
8.100000000000001e-08,-31.40005119999995,178.24997888000001,25.10975006528,-0.0058749785600000215
8.150000000000001e-08,-43.90004991999996,184.49997824000002,25.10975006528,-0.008999978240000012
8.2e-08,-37.650050559999954,190.74997760000002,25.122250064,-0.0058749785600000215
8.25e-08,-43.90004991999996,184.49997824000002,25.103500065920002,-0.0058749785600000215
8.3e-08,-50.15004927999996,184.49997824000002,25.10975006528,-0.008999978240000012
8.35e-08,-56.400048639999966,190.74997760000002,25.11600006464,-0.0058749785600000215
8.400000000000001e-08,-56.400048639999966,178.24997888000001,25.11600006464,-0.0027499788800000313
8.450000000000001e-08,-62.65004799999997,184.49997824000002,25.11600006464,-0.008999978240000012
8.500000000000001e-08,-62.65004799999997,178.24997888000001,25.12850006336,-0.008999978240000012
8.55e-08,-56.400048639999966,171.99997952,25.134750062720002,-0.0027499788800000313
8.6e-08,-68.90004735999997,165.74998016,25.14100006208,-0.0027499788800000313
8.65e-08,-68.90004735999997,171.99997952,25.153500060800003,-0.008999978240000012
8.700000000000001e-08,-68.90004735999997,171.99997952,25.153500060800003,-0.0027499788800000313
8.750000000000001e-08,-75.15004671999998,171.99997952,25.15975006016,-0.0058749785600000215
8.800000000000001e-08,-87.65004543999993,171.99997952,25.15975006016,-0.0058749785600000215
8.85e-08,-75.15004671999998,165.74998016,25.14725006144,-0.0058749785600000215
8.9e-08,-87.65004543999993,159.4999808,25.14725006144,-0.0027499788800000313
8.95e-08,-93.90004479999993,159.4999808,25.14100006208,-0.008999978240000012
9.000000000000001e-08,-87.65004543999993,153.24998144,25.14100006208,-0.0058749785600000215
9.050000000000001e-08,-93.90004479999993,153.24998144,25.122250064,-0.0058749785600000215
9.100000000000001e-08,-100.15004415999994,153.24998144,25.122250064,-0.008999978240000012
9.15e-08,-106.40004351999994,153.24998144,25.134750062720002,-0.0058749785600000215
9.2e-08,-106.40004351999994,140.74998272000002,25.134750062720002,-0.0027499788800000313
9.25e-08,-106.40004351999994,153.24998144,25.14100006208,-0.0058749785600000215
9.300000000000001e-08,-112.65004287999994,146.99998208,25.14100006208,-0.0058749785600000215
9.350000000000001e-08,-100.15004415999994,128.249984,25.153500060800003,-0.0027499788800000313
9.400000000000001e-08,-118.90004223999995,128.249984,25.14725006144,-0.0058749785600000215
9.45e-08,-118.90004223999995,128.249984,25.14725006144,-0.008999978240000012
9.5e-08,-118.90004223999995,121.99998464000001,25.153500060800003,-0.0058749785600000215
9.55e-08,-131.40004095999996,121.99998464000001,25.15975006016,-0.0058749785600000215
9.600000000000001e-08,-131.40004095999996,121.99998464000001,25.15975006016,-0.0027499788800000313
9.650000000000001e-08,-125.15004159999995,115.74998528,25.17850005824,-0.0027499788800000313
9.700000000000001e-08,-131.40004095999996,115.74998528,25.19725005632,-0.0027499788800000313
9.75e-08,-137.65004031999996,103.24998656,25.216000054400002,-0.008999978240000012
9.8e-08,-137.65004031999996,109.49998592,25.24100005184,-0.0058749785600000215
9.85e-08,-131.40004095999996,103.24998656,25.24100005184,-0.0058749785600000215
9.9e-08,-143.90003967999996,103.24998656,25.266000049280002,-0.008999978240000012
9.950000000000001e-08,-150.15003903999997,96.9999872,25.28475004736,-0.008999978240000012
1.0000000000000001e-07,-150.15003903999997,84.49998848000001,25.28475004736,-0.0058749785600000215
1.005e-07,-156.40003839999997,96.9999872,25.28475004736,-0.0058749785600000215
1.01e-07,-156.40003839999997,84.49998848000001,25.25975004992,-0.008999978240000012
1.015e-07,-150.15003903999997,71.99998976,25.2472500512,-0.0027499788800000313
1.02e-07,-156.40003839999997,71.99998976,25.22225005376,-0.0058749785600000215
1.0250000000000001e-07,-162.65003775999998,78.24998912000001,25.216000054400002,-0.008999978240000012
1.0300000000000001e-07,-168.90003711999998,71.99998976,25.216000054400002,-0.0058749785600000215
1.0350000000000001e-07,-175.15003647999998,59.49999104,25.216000054400002,-0.0058749785600000215
1.04e-07,-181.40003584,65.7499904,25.20975005504,-0.0027499788800000313
1.045e-07,-181.40003584,59.49999104,25.20975005504,-0.0058749785600000215
1.05e-07,-181.40003584,46.999992320000004,25.216000054400002,-0.0058749785600000215
1.0550000000000001e-07,-187.65003519999993,40.74999296,25.216000054400002,-0.008999978240000012
1.0600000000000001e-07,-187.65003519999993,40.74999296,25.216000054400002,-0.0058749785600000215
1.0650000000000001e-07,-193.90003455999994,40.74999296,25.19100005696,-0.0058749785600000215
1.07e-07,-193.90003455999994,40.74999296,25.19100005696,-0.01212497792000003
1.075e-07,-200.15003391999994,34.4999936,25.17850005824,-0.008999978240000012
1.08e-07,-200.15003391999994,21.999994880000003,25.17225005888,-0.0058749785600000215
1.0850000000000001e-07,-200.15003391999994,28.249994240000007,25.17225005888,-0.008999978240000012
1.0900000000000001e-07,-206.40003327999995,15.749995519999999,25.19100005696,-0.008999978240000012
1.0950000000000001e-07,-206.40003327999995,9.499996160000002,25.20975005504,-0.0027499788800000313
1.1e-07,-212.65003263999995,-3.0000025599999987,25.216000054400002,-0.0027499788800000313
1.105e-07,-218.90003199999995,3.2499968000000017,25.22225005376,-0.008999978240000012
1.11e-07,-218.90003199999995,-3.0000025599999987,25.2472500512,-0.0058749785600000215
1.1150000000000001e-07,-218.90003199999995,-3.0000025599999987,25.278500048,-0.0058749785600000215
1.1200000000000001e-07,-225.15003135999996,-9.250001919999999,25.28475004736,-0.0027499788800000313
1.1250000000000001e-07,-218.90003199999995,-15.50000128,25.29100004672,-0.0058749785600000215
1.13e-07,-225.15003135999996,-28.0,25.278500048,-0.0027499788800000313
1.135e-07,-231.40003071999996,-34.249999360000004,25.266000049280002,-0.008999978240000012
1.14e-07,-225.15003135999996,-34.249999360000004,25.25350005056,-0.0058749785600000215
