!Keysight Technologies,E5063A,MY54100949,A.07.30
!Date: Thu Dec 25 21:20:08 2025
!Data & Calibration Information:
!Freq	S11:SOLT1(ON)
# Hz S RI R 50
50000.000	1.005997e+000	3.807823e-004
99995.000	1.001713e+000	-1.522756e-003
149990.000	1.001822e+000	-2.503077e-003
199985.000	1.001397e+000	-2.283995e-003
249980.000	1.001639e+000	-2.349270e-003
299975.000	1.001490e+000	-2.851387e-003
349970.000	1.001167e+000	-2.670807e-003
399965.000	1.001104e+000	-2.904671e-003
449960.000	1.001345e+000	-2.933485e-003
499955.000	1.001098e+000	-3.464781e-003
549950.000	1.001446e+000	-3.561548e-003
599945.000	1.001367e+000	-3.957262e-003
649940.000	1.001502e+000	-4.039964e-003
699935.000	1.001150e+000	-4.403378e-003
749930.000	1.001190e+000	-4.696683e-003
799925.000	1.001435e+000	-4.829553e-003
849920.000	1.001293e+000	-5.298472e-003
899915.000	1.001296e+000	-5.533858e-003
949910.000	1.001209e+000	-5.893332e-003
999905.000	1.001315e+000	-6.259776e-003
1049900.000	1.001414e+000	-6.639140e-003
1099895.000	1.001561e+000	-6.798365e-003
1149890.000	1.001289e+000	-7.006242e-003
1199885.000	1.001165e+000	-7.501603e-003
1249880.000	1.001077e+000	-7.765348e-003
1299875.000	1.001419e+000	-8.334540e-003
1349870.000	1.001175e+000	-8.427842e-003
1399865.000	1.001119e+000	-8.791466e-003
1449860.000	1.001056e+000	-8.993501e-003
1499855.000	1.001144e+000	-9.392599e-003
1549850.000	1.000951e+000	-9.711456e-003
1599845.000	1.001298e+000	-9.949844e-003
1649840.000	1.001165e+000	-1.029564e-002
1699835.000	1.000950e+000	-1.059362e-002
1749830.000	1.001193e+000	-1.112160e-002
1799825.000	1.001069e+000	-1.133810e-002
1849820.000	1.000954e+000	-1.162764e-002
1899815.000	1.000987e+000	-1.188822e-002
1949810.000	1.000960e+000	-1.228495e-002
1999805.000	1.000928e+000	-1.253365e-002
2049800.000	1.000842e+000	-1.290648e-002
2099795.000	1.000862e+000	-1.326689e-002
2149790.000	1.001264e+000	-1.370593e-002
2199785.000	1.000936e+000	-1.385085e-002
2249780.000	1.000900e+000	-1.422429e-002
2299775.000	1.000933e+000	-1.462289e-002
2349770.000	1.000834e+000	-1.497256e-002
2399765.000	1.000901e+000	-1.515945e-002
2449760.000	1.000696e+000	-1.560607e-002
2499755.000	1.000650e+000	-1.592694e-002
2549750.000	1.000715e+000	-1.622042e-002
2599745.000	1.000937e+000	-1.658257e-002
2649740.000	1.000627e+000	-1.691521e-002
2699735.000	1.000657e+000	-1.732368e-002
2749730.000	1.000713e+000	-1.764878e-002
2799725.000	1.000578e+000	-1.801204e-002
2849720.000	1.000619e+000	-1.828115e-002
2899715.000	1.000632e+000	-1.850490e-002
2949710.000	1.000601e+000	-1.882249e-002
2999705.000	1.000497e+000	-1.913938e-002
3049700.000	1.000736e+000	-1.948333e-002
3099695.000	1.000650e+000	-1.986703e-002
3149690.000	1.000386e+000	-2.022733e-002
3199685.000	1.000435e+000	-2.055563e-002
3249680.000	1.000402e+000	-2.082555e-002
3299675.000	1.000320e+000	-2.123191e-002
3349670.000	1.000453e+000	-2.144175e-002
3399665.000	1.000397e+000	-2.186216e-002
3449660.000	1.000622e+000	-2.224192e-002
3499655.000	1.000366e+000	-2.247113e-002
3549650.000	1.000361e+000	-2.276045e-002
3599645.000	1.000332e+000	-2.312018e-002
3649640.000	1.000686e+000	-2.342856e-002
3699635.000	1.000347e+000	-2.381912e-002
3749630.000	1.000333e+000	-2.423861e-002
3799625.000	1.000223e+000	-2.450692e-002
3849620.000	1.000264e+000	-2.477130e-002
3899615.000	1.000440e+000	-2.515435e-002
3949610.000	1.000254e+000	-2.568234e-002
3999605.000	1.000213e+000	-2.591135e-002
4049600.000	9.999101e-001	-2.620666e-002
4099595.000	1.000058e+000	-2.636534e-002
4149590.000	9.999128e-001	-2.681456e-002
4199585.000	9.999159e-001	-2.707518e-002
4249580.000	1.000286e+000	-2.763130e-002
4299575.000	9.999575e-001	-2.798747e-002
4349570.000	9.999365e-001	-2.802787e-002
4399565.000	9.999230e-001	-2.863480e-002
4449560.000	9.998090e-001	-2.885495e-002
4499555.000	9.998601e-001	-2.910751e-002
4549550.000	9.998067e-001	-2.945255e-002
4599545.000	9.998811e-001	-2.987848e-002
4649540.000	9.998588e-001	-3.023170e-002
4699535.000	9.998359e-001	-3.064028e-002
4749530.000	9.995905e-001	-3.088089e-002
4799525.000	9.995938e-001	-3.134532e-002
4849520.000	9.997534e-001	-3.147729e-002
4899515.000	9.995539e-001	-3.180487e-002
4949510.000	9.995360e-001	-3.215164e-002
4999505.000	9.995668e-001	-3.267170e-002
5049500.000	9.995169e-001	-3.292425e-002
5099495.000	9.993728e-001	-3.308571e-002
5149490.000	9.994948e-001	-3.359282e-002
5199485.000	9.993466e-001	-3.392414e-002
5249480.000	9.992429e-001	-3.427093e-002
5299475.000	9.992289e-001	-3.465558e-002
5349470.000	9.990315e-001	-3.488813e-002
5399465.000	9.991447e-001	-3.522254e-002
5449460.000	9.988720e-001	-3.551220e-002
5499455.000	9.991653e-001	-3.596741e-002
5549450.000	9.992056e-001	-3.620272e-002
5599445.000	9.991659e-001	-3.648479e-002
5649440.000	9.989713e-001	-3.692697e-002
5699435.000	9.990410e-001	-3.722283e-002
5749430.000	9.989796e-001	-3.755319e-002
5799425.000	9.988457e-001	-3.775637e-002
5849420.000	9.988616e-001	-3.807307e-002
5899415.000	9.989749e-001	-3.864153e-002
5949410.000	9.987240e-001	-3.879745e-002
5999405.000	9.989011e-001	-3.918450e-002
6049400.000	9.988938e-001	-3.948883e-002
6099395.000	9.986298e-001	-3.989036e-002
6149390.000	9.985530e-001	-4.018839e-002
6199385.000	9.986780e-001	-4.035392e-002
6249380.000	9.984949e-001	-4.084562e-002
6299375.000	9.984860e-001	-4.114763e-002
6349370.000	9.984593e-001	-4.164512e-002
6399365.000	9.985153e-001	-4.190733e-002
6449360.000	9.984026e-001	-4.215435e-002
6499355.000	9.982305e-001	-4.248597e-002
6549350.000	9.983872e-001	-4.284604e-002
6599345.000	9.982022e-001	-4.327944e-002
6649340.000	9.982128e-001	-4.372011e-002
6699335.000	9.981689e-001	-4.379711e-002
6749330.000	9.980339e-001	-4.421401e-002
6799325.000	9.981890e-001	-4.456741e-002
6849320.000	9.979177e-001	-4.486819e-002
6899315.000	9.980773e-001	-4.517718e-002
6949310.000	9.979404e-001	-4.546673e-002
6999305.000	9.978766e-001	-4.592884e-002
7049300.000	9.979292e-001	-4.614223e-002
7099295.000	9.977597e-001	-4.640642e-002
7149290.000	9.978070e-001	-4.685716e-002
7199285.000	9.977200e-001	-4.722151e-002
7249280.000	9.976868e-001	-4.747978e-002
7299275.000	9.975084e-001	-4.793199e-002
7349270.000	9.974527e-001	-4.818105e-002
7399265.000	9.974730e-001	-4.861564e-002
7449260.000	9.976785e-001	-4.873463e-002
7499255.000	9.975362e-001	-4.918086e-002
7549250.000	9.974780e-001	-4.938716e-002
7599245.000	9.973597e-001	-4.983736e-002
7649240.000	9.970048e-001	-5.008094e-002
7699235.000	9.973957e-001	-5.059732e-002
7749230.000	9.971061e-001	-5.081364e-002
7799225.000	9.970763e-001	-5.121987e-002
7849220.000	9.971321e-001	-5.149947e-002
7899215.000	9.968753e-001	-5.181744e-002
7949210.000	9.967450e-001	-5.222707e-002
7999205.000	9.969300e-001	-5.247222e-002
8049200.000	9.966264e-001	-5.280120e-002
8099195.000	9.968027e-001	-5.309741e-002
8149190.000	9.966497e-001	-5.335963e-002
8199185.000	9.965560e-001	-5.388356e-002
8249180.000	9.967747e-001	-5.404810e-002
8299175.000	9.962834e-001	-5.441964e-002
8349170.000	9.965617e-001	-5.471560e-002
8399165.000	9.962680e-001	-5.515454e-002
8449160.000	9.963360e-001	-5.546273e-002
8499155.000	9.964761e-001	-5.575234e-002
8549150.000	9.962486e-001	-5.604434e-002
8599145.000	9.961409e-001	-5.636618e-002
8649140.000	9.961395e-001	-5.671607e-002
8699135.000	9.960626e-001	-5.705741e-002
8749130.000	9.959403e-001	-5.739913e-002
8799125.000	9.959218e-001	-5.769921e-002
8849120.000	9.959077e-001	-5.795965e-002
8899115.000	9.957921e-001	-5.833087e-002
8949110.000	9.957471e-001	-5.870490e-002
8999105.000	9.957251e-001	-5.904639e-002
9049100.000	9.956725e-001	-5.931351e-002
9099095.000	9.955432e-001	-5.966693e-002
9149090.000	9.955630e-001	-6.002446e-002
9199085.000	9.954409e-001	-6.030530e-002
9249080.000	9.953954e-001	-6.063143e-002
9299075.000	9.953216e-001	-6.093633e-002
9349070.000	9.952230e-001	-6.131934e-002
9399065.000	9.952415e-001	-6.166883e-002
9449060.000	9.951769e-001	-6.193165e-002
9499055.000	9.950564e-001	-6.233627e-002
9549050.000	9.949970e-001	-6.261385e-002
9599045.000	9.949461e-001	-6.287871e-002
9649040.000	9.947865e-001	-6.326655e-002
9699035.000	9.948650e-001	-6.358711e-002
9749030.000	9.947329e-001	-6.391177e-002
9799025.000	9.947230e-001	-6.419786e-002
9849020.000	9.945899e-001	-6.451409e-002
9899015.000	9.945515e-001	-6.486269e-002
9949010.000	9.944976e-001	-6.523861e-002
9999005.000	9.943731e-001	-6.559169e-002
10049000.000	9.943895e-001	-6.587604e-002
10098995.000	9.942697e-001	-6.619543e-002
10148990.000	9.942284e-001	-6.653337e-002
10198985.000	9.941506e-001	-6.685044e-002
10248980.000	9.941264e-001	-6.723918e-002
10298975.000	9.942331e-001	-6.755564e-002
10348970.000	9.939154e-001	-6.787679e-002
10398965.000	9.938460e-001	-6.814228e-002
10448960.000	9.936946e-001	-6.852429e-002
10498955.000	9.936596e-001	-6.883703e-002
10548950.000	9.935727e-001	-6.912306e-002
10598945.000	9.935118e-001	-6.943934e-002
10648940.000	9.935064e-001	-6.976334e-002
10698935.000	9.934554e-001	-7.019926e-002
10748930.000	9.933524e-001	-7.045207e-002
10798925.000	9.931932e-001	-7.077205e-002
10848920.000	9.931202e-001	-7.107107e-002
10898915.000	9.931672e-001	-7.145136e-002
10948910.000	9.930174e-001	-7.169972e-002
10998905.000	9.930123e-001	-7.204765e-002
11048900.000	9.929138e-001	-7.241887e-002
11098895.000	9.928030e-001	-7.272190e-002
11148890.000	9.927587e-001	-7.306066e-002
11198885.000	9.926583e-001	-7.338616e-002
11248880.000	9.925386e-001	-7.368624e-002
11298875.000	9.924805e-001	-7.401846e-002
11348870.000	9.923617e-001	-7.430012e-002
11398865.000	9.923452e-001	-7.468078e-002
11448860.000	9.922334e-001	-7.499749e-002
11498855.000	9.921513e-001	-7.529829e-002
11548850.000	9.921521e-001	-7.566064e-002
11598845.000	9.919910e-001	-7.594646e-002
11648840.000	9.919758e-001	-7.622059e-002
11698835.000	9.918447e-001	-7.658616e-002
11748830.000	9.918530e-001	-7.683614e-002
11798825.000	9.916936e-001	-7.722901e-002
11848820.000	9.916924e-001	-7.752973e-002
11898815.000	9.916316e-001	-7.785983e-002
11948810.000	9.915585e-001	-7.818818e-002
11998805.000	9.915293e-001	-7.851401e-002
12048800.000	9.913672e-001	-7.880877e-002
12098795.000	9.913534e-001	-7.913311e-002
12148790.000	9.912107e-001	-7.949260e-002
12198785.000	9.911570e-001	-7.977223e-002
12248780.000	9.910678e-001	-8.008925e-002
12298775.000	9.908704e-001	-8.047414e-002
12348770.000	9.908737e-001	-8.069871e-002
12398765.000	9.907851e-001	-8.101375e-002
12448760.000	9.906719e-001	-8.134870e-002
12498755.000	9.905874e-001	-8.172256e-002
12548750.000	9.904816e-001	-8.199775e-002
12598745.000	9.905111e-001	-8.236886e-002
12648740.000	9.904202e-001	-8.263223e-002
12698735.000	9.902831e-001	-8.297848e-002
12748730.000	9.901594e-001	-8.325062e-002
12798725.000	9.900807e-001	-8.362381e-002
12848720.000	9.903255e-001	-8.394371e-002
12898715.000	9.900882e-001	-8.423796e-002
12948710.000	9.899328e-001	-8.455466e-002
12998705.000	9.898691e-001	-8.484367e-002
13048700.000	9.897243e-001	-8.522672e-002
13098695.000	9.897840e-001	-8.550294e-002
13148690.000	9.895957e-001	-8.580186e-002
13198685.000	9.894459e-001	-8.612561e-002
13248680.000	9.894313e-001	-8.639161e-002
13298675.000	9.892462e-001	-8.677213e-002
13348670.000	9.892167e-001	-8.706461e-002
13398665.000	9.890736e-001	-8.738637e-002
13448660.000	9.890010e-001	-8.767238e-002
13498655.000	9.889397e-001	-8.805823e-002
13548650.000	9.888570e-001	-8.828078e-002
13598645.000	9.888869e-001	-8.865561e-002
13648640.000	9.888217e-001	-8.899369e-002
13698635.000	9.887134e-001	-8.930465e-002
13748630.000	9.886076e-001	-8.960222e-002
13798625.000	9.885214e-001	-8.989795e-002
13848620.000	9.884085e-001	-9.020795e-002
13898615.000	9.883154e-001	-9.058223e-002
13948610.000	9.882738e-001	-9.089142e-002
13998605.000	9.881115e-001	-9.114434e-002
14048600.000	9.880175e-001	-9.153297e-002
14098595.000	9.879753e-001	-9.180234e-002
14148590.000	9.878937e-001	-9.216871e-002
14198585.000	9.877092e-001	-9.246930e-002
14248580.000	9.876107e-001	-9.269239e-002
14298575.000	9.875398e-001	-9.310096e-002
14348570.000	9.875792e-001	-9.339635e-002
14398565.000	9.873920e-001	-9.374045e-002
14448560.000	9.871466e-001	-9.398319e-002
14498555.000	9.871691e-001	-9.435240e-002
14548550.000	9.870665e-001	-9.466204e-002
14598545.000	9.869670e-001	-9.500510e-002
14648540.000	9.869398e-001	-9.525952e-002
14698535.000	9.867540e-001	-9.561478e-002
14748530.000	9.866451e-001	-9.585641e-002
14798525.000	9.865652e-001	-9.622718e-002
14848520.000	9.867486e-001	-9.654293e-002
14898515.000	9.864710e-001	-9.685140e-002
14948510.000	9.864264e-001	-9.708270e-002
14998505.000	9.862814e-001	-9.739370e-002
15048500.000	9.861204e-001	-9.774525e-002
15098495.000	9.860165e-001	-9.804849e-002
15148490.000	9.858868e-001	-9.834021e-002
15198485.000	9.858982e-001	-9.867394e-002
15248480.000	9.857701e-001	-9.894847e-002
15298475.000	9.856122e-001	-9.928423e-002
15348470.000	9.855701e-001	-9.966907e-002
15398465.000	9.856299e-001	-9.995632e-002
15448460.000	9.853199e-001	-1.002133e-001
15498455.000	9.852159e-001	-1.006130e-001
15548450.000	9.851097e-001	-1.009721e-001
15598445.000	9.849849e-001	-1.011821e-001
15648440.000	9.849643e-001	-1.014816e-001
15698435.000	9.847059e-001	-1.017422e-001
15748430.000	9.846400e-001	-1.020812e-001
15798425.000	9.846195e-001	-1.024272e-001
15848420.000	9.845879e-001	-1.027137e-001
15898415.000	9.843804e-001	-1.030050e-001
15948410.000	9.842969e-001	-1.033753e-001
15998405.000	9.842208e-001	-1.036257e-001
16048400.000	9.840958e-001	-1.039196e-001
16098395.000	9.840515e-001	-1.042642e-001
16148390.000	9.839148e-001	-1.045820e-001
16198385.000	9.837627e-001	-1.048773e-001
16248380.000	9.837284e-001	-1.051634e-001
16298375.000	9.836048e-001	-1.054856e-001
16348370.000	9.834968e-001	-1.057838e-001
16398365.000	9.834164e-001	-1.061132e-001
16448360.000	9.832807e-001	-1.064502e-001
16498355.000	9.831881e-001	-1.067362e-001
16548350.000	9.831125e-001	-1.070414e-001
16598345.000	9.830035e-001	-1.073264e-001
16648340.000	9.828999e-001	-1.076612e-001
16698335.000	9.828159e-001	-1.079438e-001
16748330.000	9.826604e-001	-1.082480e-001
16798325.000	9.826071e-001	-1.085189e-001
16848320.000	9.824382e-001	-1.088496e-001
16898315.000	9.823033e-001	-1.091458e-001
16948310.000	9.825277e-001	-1.095078e-001
16998305.000	9.822130e-001	-1.097781e-001
17048300.000	9.820460e-001	-1.100908e-001
17098295.000	9.819680e-001	-1.103484e-001
17148290.000	9.817659e-001	-1.106762e-001
17198285.000	9.817034e-001	-1.110126e-001
17248280.000	9.816336e-001	-1.112391e-001
17298275.000	9.815141e-001	-1.116199e-001
17348270.000	9.813917e-001	-1.118445e-001
17398265.000	9.813241e-001	-1.121903e-001
17448260.000	9.811508e-001	-1.124877e-001
17498255.000	9.810202e-001	-1.127501e-001
17548250.000	9.809796e-001	-1.130668e-001
17598245.000	9.808151e-001	-1.134108e-001
17648240.000	9.807614e-001	-1.137111e-001
17698235.000	9.806484e-001	-1.140193e-001
17748230.000	9.805277e-001	-1.143518e-001
17798225.000	9.804362e-001	-1.146495e-001
17848220.000	9.803474e-001	-1.149252e-001
17898215.000	9.802630e-001	-1.151966e-001
17948210.000	9.800785e-001	-1.155449e-001
17998205.000	9.799137e-001	-1.158603e-001
18048200.000	9.798729e-001	-1.161377e-001
18098195.000	9.797753e-001	-1.164454e-001
18148190.000	9.796701e-001	-1.167403e-001
18198185.000	9.795421e-001	-1.169961e-001
18248180.000	9.793968e-001	-1.173655e-001
18298175.000	9.793204e-001	-1.176228e-001
18348170.000	9.792271e-001	-1.179127e-001
18398165.000	9.791103e-001	-1.182526e-001
18448160.000	9.789910e-001	-1.185547e-001
18498155.000	9.788092e-001	-1.187640e-001
18548150.000	9.787197e-001	-1.191181e-001
18598145.000	9.786643e-001	-1.194271e-001
18648140.000	9.785579e-001	-1.197382e-001
18698135.000	9.784533e-001	-1.200603e-001
18748130.000	9.783015e-001	-1.203517e-001
18798125.000	9.781919e-001	-1.206160e-001
18848120.000	9.781156e-001	-1.208804e-001
18898115.000	9.779581e-001	-1.211751e-001
18948110.000	9.778111e-001	-1.215103e-001
18998105.000	9.777755e-001	-1.218773e-001
19048100.000	9.776505e-001	-1.220966e-001
19098095.000	9.774887e-001	-1.224157e-001
19148090.000	9.774142e-001	-1.226862e-001
19198085.000	9.772795e-001	-1.229300e-001
19248080.000	9.771215e-001	-1.232999e-001
19298075.000	9.770551e-001	-1.235875e-001
19348070.000	9.769141e-001	-1.238297e-001
19398065.000	9.768512e-001	-1.241642e-001
19448060.000	9.767193e-001	-1.244645e-001
19498055.000	9.765059e-001	-1.247474e-001
19548050.000	9.764460e-001	-1.250713e-001
19598045.000	9.762950e-001	-1.253115e-001
19648040.000	9.761931e-001	-1.256132e-001
19698035.000	9.760915e-001	-1.259668e-001
19748030.000	9.759329e-001	-1.262617e-001
19798025.000	9.758411e-001	-1.265224e-001
19848020.000	9.757651e-001	-1.267901e-001
19898015.000	9.755151e-001	-1.270748e-001
19948010.000	9.754849e-001	-1.273554e-001
19998005.000	9.753623e-001	-1.277053e-001
20048000.000	9.751734e-001	-1.279751e-001
20097995.000	9.751167e-001	-1.282274e-001
20147990.000	9.749577e-001	-1.285727e-001
20197985.000	9.748839e-001	-1.288588e-001
20247980.000	9.748515e-001	-1.291543e-001
20297975.000	9.747051e-001	-1.294572e-001
20347970.000	9.745674e-001	-1.297261e-001
20397965.000	9.743775e-001	-1.300635e-001
20447960.000	9.742438e-001	-1.303473e-001
20497955.000	9.741253e-001	-1.306037e-001
20547950.000	9.740725e-001	-1.308945e-001
20597945.000	9.739371e-001	-1.312040e-001
20647940.000	9.737780e-001	-1.314652e-001
20697935.000	9.736616e-001	-1.317950e-001
20747930.000	9.734698e-001	-1.320769e-001
20797925.000	9.734181e-001	-1.323821e-001
20847920.000	9.732710e-001	-1.326983e-001
20897915.000	9.731622e-001	-1.329400e-001
20947910.000	9.731407e-001	-1.332723e-001
20997905.000	9.729331e-001	-1.335516e-001
21047900.000	9.727914e-001	-1.338003e-001
21097895.000	9.726660e-001	-1.341074e-001
21147890.000	9.725325e-001	-1.344073e-001
21197885.000	9.723656e-001	-1.346427e-001
21247880.000	9.723377e-001	-1.349891e-001
21297875.000	9.722502e-001	-1.352208e-001
21347870.000	9.721400e-001	-1.356008e-001
21397865.000	9.718950e-001	-1.357713e-001
21447860.000	9.718371e-001	-1.361534e-001
21497855.000	9.716867e-001	-1.364434e-001
21547850.000	9.716173e-001	-1.367261e-001
21597845.000	9.714485e-001	-1.369925e-001
21647840.000	9.713530e-001	-1.372560e-001
21697835.000	9.711731e-001	-1.375672e-001
21747830.000	9.710861e-001	-1.378721e-001
21797825.000	9.709518e-001	-1.381360e-001
21847820.000	9.708387e-001	-1.384220e-001
21897815.000	9.706865e-001	-1.386854e-001
21947810.000	9.705977e-001	-1.389963e-001
21997805.000	9.704049e-001	-1.393127e-001
22047800.000	9.702919e-001	-1.395689e-001
22097795.000	9.701335e-001	-1.398538e-001
22147790.000	9.700854e-001	-1.401487e-001
22197785.000	9.699731e-001	-1.404730e-001
22247780.000	9.698758e-001	-1.407014e-001
22297775.000	9.697281e-001	-1.410346e-001
22347770.000	9.695795e-001	-1.412765e-001
22397765.000	9.693489e-001	-1.415629e-001
22447760.000	9.691874e-001	-1.418688e-001
22497755.000	9.691067e-001	-1.420618e-001
22547750.000	9.690430e-001	-1.423828e-001
22597745.000	9.689566e-001	-1.427237e-001
22647740.000	9.687868e-001	-1.430147e-001
22697735.000	9.686977e-001	-1.432810e-001
22747730.000	9.685834e-001	-1.435413e-001
22797725.000	9.684258e-001	-1.438290e-001
22847720.000	9.682235e-001	-1.441063e-001
22897715.000	9.680900e-001	-1.444128e-001
22947710.000	9.679628e-001	-1.447122e-001
22997705.000	9.678591e-001	-1.449459e-001
23047700.000	9.679083e-001	-1.452805e-001
23097695.000	9.676024e-001	-1.455277e-001
23147690.000	9.673923e-001	-1.457851e-001
23197685.000	9.672570e-001	-1.461028e-001
23247680.000	9.671170e-001	-1.463531e-001
23297675.000	9.669572e-001	-1.466347e-001
23347670.000	9.669008e-001	-1.469173e-001
23397665.000	9.667694e-001	-1.471535e-001
23447660.000	9.666122e-001	-1.475021e-001
23497655.000	9.665463e-001	-1.477018e-001
23547650.000	9.664225e-001	-1.480519e-001
23597645.000	9.663516e-001	-1.483452e-001
23647640.000	9.660803e-001	-1.486572e-001
23697635.000	9.659827e-001	-1.488511e-001
23747630.000	9.658234e-001	-1.491771e-001
23797625.000	9.656570e-001	-1.493662e-001
23847620.000	9.655280e-001	-1.497066e-001
