Time (s),VIN,IIN,VOUT
0.0,25.2221250432,1.4421625075839999,44.78849999936
5e-10,25.034625031679997,1.4406000074879999,44.78225
1e-09,25.081500034559998,1.4390375073919999,44.78225
1.5000000000000002e-09,25.23775004416,1.4374750072959999,44.79474999872
2e-09,25.33150004992,1.4374750072959999,44.776000000639996
2.5e-09,25.190875041279998,1.4406000074879999,44.73225000512
3.0000000000000004e-09,24.987750028799997,1.4421625075839999,44.669750011519994
3.5000000000000003e-09,24.956500026879997,1.4390375073919999,44.63225001536
4e-09,25.144000038399998,1.4374750072959999,44.61975001664
4.500000000000001e-09,25.31587504896,1.4390375073919999,44.638500014719995
5e-09,25.34712505088,1.4406000074879999,44.61975001664
5.5000000000000004e-09,25.20650004224,1.445287507776,44.613500017279996
6.000000000000001e-09,25.081500034559998,1.4406000074879999,44.644750014079996
6.5e-09,25.128375037439998,1.4406000074879999,44.707250007679995
7.000000000000001e-09,25.28462504704,1.4406000074879999,44.7510000032
7.500000000000001e-09,25.3783750528,1.4406000074879999,44.76350000192
8e-09,25.28462504704,1.44372500768,44.72600000576
8.5e-09,25.081500034559998,1.4406000074879999,44.69475000896
9.000000000000001e-09,25.019000030719997,1.4374750072959999,44.66350001216
9.5e-09,25.065875033599998,1.4406000074879999,44.66350001216
1e-08,25.20650004224,1.4421625075839999,44.65100001344
1.0500000000000001e-08,25.23775004416,1.44372500768,44.61975001664
1.1000000000000001e-08,25.128375037439998,1.446850007872,44.5947500192
1.15e-08,25.019000030719997,1.445287507776,44.607250017919995
1.2000000000000002e-08,25.097125035519998,1.4421625075839999,44.6572500128
1.2500000000000001e-08,25.28462504704,1.4421625075839999,44.71350000704
1.3e-08,25.39400005376,1.445287507776,44.7197500064
1.35e-08,25.31587504896,1.446850007872,44.707250007679995
1.4000000000000001e-08,25.128375037439998,1.44372500768,44.707250007679995
1.45e-08,25.097125035519998,1.4406000074879999,44.7197500064
1.5000000000000002e-08,25.20650004224,1.4421625075839999,44.7197500064
1.55e-08,25.33150004992,1.4421625075839999,44.69475000896
1.6e-08,25.23775004416,1.44372500768,44.638500014719995
1.6500000000000002e-08,25.050250032639997,1.4421625075839999,44.607250017919995
1.7e-08,24.925250024959997,1.4390375073919999,44.576000021119995
1.75e-08,25.034625031679997,1.4406000074879999,44.58225002048
1.8000000000000002e-08,25.23775004416,1.4421625075839999,44.58225002048
1.85e-08,25.26900004608,1.4406000074879999,44.58225002048
1.9e-08,25.159625039359998,1.4406000074879999,44.58850001984
1.9500000000000003e-08,25.050250032639997,1.4406000074879999,44.613500017279996
2e-08,25.097125035519998,1.4390375073919999,44.6572500128
2.05e-08,25.26900004608,1.4406000074879999,44.69475000896
2.1000000000000003e-08,25.3783750528,1.4406000074879999,44.707250007679995
2.15e-08,25.28462504704,1.445287507776,44.676000010879996
2.2000000000000002e-08,25.081500034559998,1.446850007872,44.6572500128
2.2500000000000003e-08,25.003375029759997,1.445287507776,44.63225001536
2.3e-08,25.081500034559998,1.44372500768,44.613500017279996
2.3500000000000002e-08,25.159625039359998,1.4390375073919999,44.576000021119995
2.4000000000000003e-08,25.128375037439998,1.4406000074879999,44.55100002368
2.45e-08,25.019000030719997,1.4421625075839999,44.56975002176
2.5000000000000002e-08,24.972125027839997,1.4406000074879999,44.607250017919995
2.55e-08,25.097125035519998,1.4421625075839999,44.65100001344
2.6e-08,25.25337504512,1.4421625075839999,44.676000010879996
2.6500000000000002e-08,25.26900004608,1.44372500768,44.6885000096
2.7e-08,25.190875041279998,1.445287507776,44.70100000832
2.75e-08,25.097125035519998,1.4421625075839999,44.73225000512
2.8000000000000003e-08,25.159625039359998,1.4421625075839999,44.738500004479995
2.85e-08,25.25337504512,1.44372500768,44.73225000512
2.9e-08,25.28462504704,1.4406000074879999,44.70100000832
2.9500000000000003e-08,25.190875041279998,1.4390375073919999,44.66350001216
3.0000000000000004e-08,25.081500034559998,1.4406000074879999,44.63225001536
3.05e-08,25.034625031679997,1.4406000074879999,44.626000016
3.1e-08,25.112750036479998,1.44372500768,44.613500017279996
3.1500000000000004e-08,25.190875041279998,1.44372500768,44.63225001536
3.2e-08,25.159625039359998,1.445287507776,44.644750014079996
3.25e-08,25.065875033599998,1.44372500768,44.676000010879996
3.3000000000000004e-08,25.034625031679997,1.4421625075839999,44.69475000896
3.35e-08,25.144000038399998,1.4421625075839999,44.71350000704
3.4e-08,25.28462504704,1.44372500768,44.7197500064
3.4500000000000005e-08,25.28462504704,1.44372500768,44.7197500064
3.5e-08,25.23775004416,1.44372500768,44.73225000512
3.55e-08,25.112750036479998,1.4421625075839999,44.73225000512
3.6000000000000005e-08,25.144000038399998,1.4421625075839999,44.72600000576
3.65e-08,25.190875041279998,1.44372500768,44.707250007679995
3.7e-08,25.20650004224,1.44372500768,44.669750011519994
3.7500000000000005e-08,25.159625039359998,1.44372500768,44.6572500128
3.8e-08,25.081500034559998,1.44372500768,44.676000010879996
3.85e-08,25.050250032639997,1.44372500768,44.68225001024
3.9000000000000005e-08,25.081500034559998,1.44372500768,44.6572500128
3.95e-08,25.175250040319998,1.44372500768,44.638500014719995
4e-08,25.2221250432,1.44372500768,44.638500014719995
4.0500000000000005e-08,25.20650004224,1.4406000074879999,44.6885000096
4.1e-08,25.144000038399998,1.44372500768,44.738500004479995
4.15e-08,25.128375037439998,1.44372500768,44.75725000256
4.2000000000000006e-08,25.190875041279998,1.4406000074879999,44.73225000512
4.2500000000000003e-08,25.20650004224,1.4406000074879999,44.70100000832
4.3e-08,25.20650004224,1.44372500768,44.6885000096
4.3500000000000006e-08,25.112750036479998,1.4406000074879999,44.69475000896
4.4000000000000004e-08,25.065875033599998,1.4421625075839999,44.6885000096
4.45e-08,25.081500034559998,1.4406000074879999,44.669750011519994
4.5000000000000006e-08,25.144000038399998,1.4390375073919999,44.638500014719995
4.5500000000000004e-08,25.175250040319998,1.4421625075839999,44.63225001536
4.6e-08,25.144000038399998,1.44372500768,44.66350001216
4.6500000000000006e-08,25.112750036479998,1.44372500768,44.69475000896
4.7000000000000004e-08,25.159625039359998,1.44372500768,44.6885000096
4.75e-08,25.25337504512,1.44372500768,44.6572500128
4.8000000000000006e-08,25.28462504704,1.4421625075839999,44.638500014719995
4.8500000000000004e-08,25.2221250432,1.4421625075839999,44.66350001216
4.9e-08,25.128375037439998,1.4421625075839999,44.6572500128
4.95e-08,25.081500034559998,1.4421625075839999,44.676000010879996
5.0000000000000004e-08,25.159625039359998,1.4421625075839999,44.66350001216
5.05e-08,25.190875041279998,1.445287507776,44.626000016
5.1e-08,25.144000038399998,1.446850007872,44.58225002048
5.1500000000000005e-08,25.019000030719997,1.446850007872,44.55100002368
5.2e-08,24.987750028799997,1.445287507776,44.55100002368
5.25e-08,25.112750036479998,1.445287507776,44.56975002176
5.3000000000000005e-08,25.25337504512,1.445287507776,44.55100002368
5.35e-08,25.25337504512,1.44372500768,44.544750024319995
5.4e-08,25.159625039359998,1.44372500768,44.55725002304
5.4500000000000005e-08,25.112750036479998,1.4421625075839999,44.613500017279996
5.5e-08,25.159625039359998,1.4390375073919999,44.66350001216
5.55e-08,25.26900004608,1.4359125071999999,44.70100000832
5.6000000000000005e-08,25.23775004416,1.4374750072959999,44.69475000896
5.65e-08,25.112750036479998,1.4406000074879999,44.669750011519994
5.7e-08,24.956500026879997,1.4406000074879999,44.626000016
5.7500000000000005e-08,24.956500026879997,1.4406000074879999,44.613500017279996
5.8e-08,25.128375037439998,1.4406000074879999,44.60100001856
5.85e-08,25.190875041279998,1.4406000074879999,44.56975002176
5.9000000000000006e-08,25.128375037439998,1.4421625075839999,44.52600002624
5.9500000000000003e-08,25.019000030719997,1.4421625075839999,44.49475002944
6.000000000000001e-08,25.003375029759997,1.4421625075839999,44.507250028159994
6.05e-08,25.159625039359998,1.4421625075839999,44.56975002176
6.1e-08,25.31587504896,1.4390375073919999,44.626000016
6.15e-08,25.300250048,1.4390375073919999,44.638500014719995
6.2e-08,25.144000038399998,1.4406000074879999,44.61975001664
6.250000000000001e-08,25.034625031679997,1.4421625075839999,44.626000016
6.300000000000001e-08,25.050250032639997,1.44372500768,44.638500014719995
6.35e-08,25.175250040319998,1.4406000074879999,44.676000010879996
6.4e-08,25.20650004224,1.4390375073919999,44.66350001216
6.45e-08,25.112750036479998,1.4390375073919999,44.626000016
6.5e-08,25.003375029759997,1.4421625075839999,44.58225002048
6.55e-08,25.003375029759997,1.4421625075839999,44.55725002304
6.600000000000001e-08,25.128375037439998,1.4406000074879999,44.56975002176
6.65e-08,25.2221250432,1.44372500768,44.58225002048
6.7e-08,25.23775004416,1.44372500768,44.5947500192
6.75e-08,25.159625039359998,1.4406000074879999,44.613500017279996
6.8e-08,25.112750036479998,1.44372500768,44.638500014719995
6.85e-08,25.159625039359998,1.44372500768,44.69475000896
6.900000000000001e-08,25.26900004608,1.4390375073919999,44.73225000512
6.950000000000001e-08,25.300250048,1.4374750072959999,44.72600000576
7e-08,25.20650004224,1.4390375073919999,44.69475000896
7.05e-08,25.128375037439998,1.4421625075839999,44.6572500128
7.1e-08,25.097125035519998,1.445287507776,44.63225001536
7.15e-08,25.128375037439998,1.44372500768,44.626000016
7.200000000000001e-08,25.175250040319998,1.4421625075839999,44.61975001664
7.250000000000001e-08,25.159625039359998,1.4406000074879999,44.613500017279996
7.3e-08,25.081500034559998,1.4421625075839999,44.5947500192
7.35e-08,25.034625031679997,1.4421625075839999,44.607250017919995
7.4e-08,25.097125035519998,1.4390375073919999,44.626000016
7.45e-08,25.190875041279998,1.4421625075839999,44.6572500128
7.500000000000001e-08,25.26900004608,1.44372500768,44.669750011519994
7.550000000000001e-08,25.28462504704,1.4406000074879999,44.66350001216
7.6e-08,25.25337504512,1.4406000074879999,44.644750014079996
7.65e-08,25.190875041279998,1.4406000074879999,44.63225001536
7.7e-08,25.20650004224,1.4390375073919999,44.60100001856
7.75e-08,25.300250048,1.4374750072959999,44.576000021119995
7.800000000000001e-08,25.300250048,1.4390375073919999,44.56975002176
7.850000000000001e-08,25.20650004224,1.4421625075839999,44.56975002176
7.9e-08,25.097125035519998,1.44372500768,44.5635000224
7.95e-08,25.065875033599998,1.4421625075839999,44.56975002176
8e-08,25.144000038399998,1.4406000074879999,44.58850001984
8.05e-08,25.23775004416,1.4390375073919999,44.607250017919995
8.100000000000001e-08,25.25337504512,1.4390375073919999,44.58850001984
8.150000000000001e-08,25.159625039359998,1.44372500768,44.56975002176
8.2e-08,25.112750036479998,1.446850007872,44.544750024319995
8.25e-08,25.159625039359998,1.445287507776,44.5322500256
8.3e-08,25.300250048,1.44372500768,44.544750024319995
8.35e-08,25.33150004992,1.4421625075839999,44.53850002496
8.400000000000001e-08,25.20650004224,1.4421625075839999,44.53850002496
8.450000000000001e-08,25.050250032639997,1.44372500768,44.544750024319995
8.500000000000001e-08,25.050250032639997,1.44372500768,44.56975002176
8.55e-08,25.159625039359998,1.4390375073919999,44.61975001664
8.6e-08,25.26900004608,1.4390375073919999,44.676000010879996
8.65e-08,25.25337504512,1.4406000074879999,44.69475000896
8.700000000000001e-08,25.112750036479998,1.44372500768,44.676000010879996
8.750000000000001e-08,25.034625031679997,1.44372500768,44.6572500128
8.800000000000001e-08,25.112750036479998,1.44372500768,44.638500014719995
8.85e-08,25.28462504704,1.4421625075839999,44.638500014719995
8.9e-08,25.33150004992,1.4421625075839999,44.607250017919995
8.95e-08,25.190875041279998,1.4421625075839999,44.56975002176
9.000000000000001e-08,25.081500034559998,1.4406000074879999,44.544750024319995
9.050000000000001e-08,25.065875033599998,1.4406000074879999,44.544750024319995
9.100000000000001e-08,25.190875041279998,1.4390375073919999,44.55100002368
9.15e-08,25.26900004608,1.4390375073919999,44.56975002176
9.2e-08,25.190875041279998,1.4421625075839999,44.58225002048
9.25e-08,25.034625031679997,1.4421625075839999,44.5947500192
9.300000000000001e-08,24.987750028799997,1.44372500768,44.607250017919995
9.350000000000001e-08,25.081500034559998,1.445287507776,44.61975001664
9.400000000000001e-08,25.190875041279998,1.446850007872,44.63225001536
9.45e-08,25.20650004224,1.445287507776,44.626000016
9.5e-08,25.112750036479998,1.44372500768,44.5947500192
9.55e-08,25.065875033599998,1.4406000074879999,44.5635000224
9.600000000000001e-08,25.097125035519998,1.4406000074879999,44.55100002368
9.650000000000001e-08,25.190875041279998,1.4421625075839999,44.5635000224
9.700000000000001e-08,25.26900004608,1.445287507776,44.58225002048
9.75e-08,25.20650004224,1.446850007872,44.60100001856
9.8e-08,25.112750036479998,1.449975008064,44.613500017279996
9.85e-08,25.050250032639997,1.449975008064,44.626000016
9.9e-08,25.112750036479998,1.445287507776,44.65100001344
9.950000000000001e-08,25.175250040319998,1.4406000074879999,44.66350001216
1.0000000000000001e-07,25.175250040319998,1.4406000074879999,44.669750011519994
1.005e-07,25.112750036479998,1.44372500768,44.676000010879996
1.01e-07,25.034625031679997,1.4421625075839999,44.638500014719995
1.015e-07,25.019000030719997,1.446850007872,44.613500017279996
1.02e-07,25.050250032639997,1.446850007872,44.60100001856
1.0250000000000001e-07,25.175250040319998,1.446850007872,44.607250017919995
1.0300000000000001e-07,25.20650004224,1.446850007872,44.613500017279996
1.0350000000000001e-07,25.190875041279998,1.445287507776,44.63225001536
1.04e-07,25.112750036479998,1.445287507776,44.638500014719995
1.045e-07,25.128375037439998,1.44372500768,44.6572500128
1.05e-07,25.25337504512,1.4421625075839999,44.66350001216
1.0550000000000001e-07,25.300250048,1.4406000074879999,44.70100000832
1.0600000000000001e-07,25.25337504512,1.4406000074879999,44.7197500064
1.0650000000000001e-07,25.112750036479998,1.44372500768,44.738500004479995
1.07e-07,25.065875033599998,1.44372500768,44.72600000576
1.075e-07,25.097125035519998,1.4421625075839999,44.71350000704
1.08e-07,25.190875041279998,1.4390375073919999,44.6885000096
1.0850000000000001e-07,25.2221250432,1.4406000074879999,44.676000010879996
1.0900000000000001e-07,25.128375037439998,1.4390375073919999,44.644750014079996
1.0950000000000001e-07,25.065875033599998,1.4406000074879999,44.65100001344
1.1e-07,25.081500034559998,1.4390375073919999,44.676000010879996
1.105e-07,25.175250040319998,1.4406000074879999,44.6885000096
1.11e-07,25.25337504512,1.4421625075839999,44.6885000096
1.1150000000000001e-07,25.25337504512,1.445287507776,44.676000010879996
1.1200000000000001e-07,25.159625039359998,1.445287507776,44.669750011519994
1.1250000000000001e-07,25.081500034559998,1.445287507776,44.70100000832
1.13e-07,25.112750036479998,1.446850007872,44.738500004479995
1.135e-07,25.20650004224,1.445287507776,44.7510000032
1.14e-07,25.26900004608,1.445287507776,44.72600000576
1.1450000000000001e-07,25.190875041279998,1.445287507776,44.6885000096
1.1500000000000001e-07,25.128375037439998,1.445287507776,44.669750011519994
1.1550000000000001e-07,25.065875033599998,1.44372500768,44.68225001024
1.16e-07,25.112750036479998,1.445287507776,44.71350000704
1.165e-07,25.20650004224,1.446850007872,44.73225000512
1.17e-07,25.2221250432,1.446850007872,44.707250007679995
1.1750000000000001e-07,25.144000038399998,1.446850007872,44.6885000096
1.1800000000000001e-07,25.065875033599998,1.446850007872,44.69475000896
1.1850000000000001e-07,25.097125035519998,1.446850007872,44.72600000576
1.1900000000000001e-07,25.2221250432,1.44372500768,44.74475000384
1.195e-07,25.34712505088,1.4421625075839999,44.73225000512
1.2000000000000002e-07,25.300250048,1.44372500768,44.6885000096
1.205e-07,25.144000038399998,1.44372500768,44.6885000096
1.21e-07,25.050250032639997,1.4421625075839999,44.707250007679995
1.215e-07,25.097125035519998,1.4421625075839999,44.74475000384
1.22e-07,25.25337504512,1.4406000074879999,44.74475000384
1.2250000000000002e-07,25.26900004608,1.4390375073919999,44.7197500064
1.23e-07,25.175250040319998,1.44372500768,44.69475000896
1.2350000000000001e-07,25.034625031679997,1.44372500768,44.70100000832
1.24e-07,25.019000030719997,1.445287507776,44.72600000576
1.245e-07,25.20650004224,1.446850007872,44.738500004479995
1.2500000000000002e-07,25.39400005376,1.449975008064,44.72600000576
1.255e-07,25.34712505088,1.449975008064,44.69475000896
1.2600000000000002e-07,25.175250040319998,1.446850007872,44.69475000896
1.265e-07,25.065875033599998,1.445287507776,44.70100000832
1.27e-07,25.144000038399998,1.44372500768,44.69475000896
1.275e-07,25.33150004992,1.4421625075839999,44.70100000832
1.28e-07,25.36275005184,1.4406000074879999,44.71350000704
1.2850000000000002e-07,25.144000038399998,1.4421625075839999,44.73225000512
1.29e-07,24.909625023999997,1.44372500768,44.707250007679995
1.2950000000000001e-07,24.940875025919997,1.4421625075839999,44.69475000896
1.3e-07,25.159625039359998,1.4390375073919999,44.68225001024
1.305e-07,25.300250048,1.44372500768,44.707250007679995
1.31e-07,25.20650004224,1.445287507776,44.7197500064
1.315e-07,25.034625031679997,1.445287507776,44.70100000832
1.3200000000000002e-07,24.940875025919997,1.445287507776,44.69475000896
1.325e-07,25.128375037439998,1.446850007872,44.69475000896
1.33e-07,25.36275005184,1.445287507776,44.7197500064
1.335e-07,25.39400005376,1.44372500768,44.7510000032
1.34e-07,25.2221250432,1.44372500768,44.76350000192
1.3450000000000002e-07,25.019000030719997,1.44372500768,44.73225000512
1.35e-07,24.987750028799997,1.4421625075839999,44.707250007679995
1.3550000000000002e-07,25.190875041279998,1.4406000074879999,44.71350000704
1.36e-07,25.300250048,1.4421625075839999,44.738500004479995
1.365e-07,25.190875041279998,1.4421625075839999,44.74475000384
1.37e-07,24.956500026879997,1.445287507776,44.70100000832
1.375e-07,24.878375022079997,1.445287507776,44.644750014079996
1.3800000000000002e-07,25.112750036479998,1.4421625075839999,44.63225001536
1.385e-07,25.34712505088,1.4421625075839999,44.6885000096
1.3900000000000001e-07,25.39400005376,1.449975008064,44.74475000384
1.395e-07,25.190875041279998,1.449975008064,44.75725000256
1.4e-07,25.019000030719997,1.448412507968,44.74475000384
1.4050000000000002e-07,25.112750036479998,1.445287507776,44.776000000639996
1.41e-07,25.34712505088,1.4421625075839999,44.82599999552
1.4150000000000002e-07,25.3783750528,1.44372500768,44.85724999232
1.42e-07,25.2221250432,1.44372500768,44.8447499936
1.425e-07,24.956500026879997,1.44372500768,44.800999998079995
1.43e-07,24.925250024959997,1.4421625075839999,44.7510000032
1.435e-07,25.159625039359998,1.4390375073919999,44.7510000032
1.4400000000000002e-07,25.33150004992,1.4406000074879999,44.75725000256
1.445e-07,25.28462504704,1.4421625075839999,44.74475000384
1.4500000000000001e-07,25.097125035519998,1.445287507776,44.70100000832
1.455e-07,25.003375029759997,1.445287507776,44.68225001024
1.46e-07,25.159625039359998,1.4421625075839999,44.72600000576
1.4650000000000002e-07,25.36275005184,1.4421625075839999,44.776000000639996
1.47e-07,25.39400005376,1.44372500768,44.8134999968
1.4750000000000002e-07,25.2221250432,1.4421625075839999,44.800999998079995
1.48e-07,25.050250032639997,1.4421625075839999,44.78225
1.485e-07,25.081500034559998,1.4421625075839999,44.79474999872
1.49e-07,25.26900004608,1.4374750072959999,44.800999998079995
1.495e-07,25.34712505088,1.4374750072959999,44.78849999936
1.5000000000000002e-07,25.20650004224,1.4406000074879999,44.738500004479995
1.505e-07,25.019000030719997,1.44372500768,44.6885000096
1.5100000000000002e-07,24.987750028799997,1.4421625075839999,44.65100001344
1.515e-07,25.175250040319998,1.4390375073919999,44.638500014719995
1.52e-07,25.36275005184,1.4390375073919999,44.638500014719995
1.5250000000000002e-07,25.3783750528,1.4406000074879999,44.626000016
1.53e-07,25.23775004416,1.44372500768,44.613500017279996
1.5350000000000002e-07,25.112750036479998,1.44372500768,44.6572500128
