Time (s),VIN,IIN,VOUT
0.0,24.9902500288,1.454200007296,45.03625
5e-10,25.20900004224,1.455762507392,45.05499999808
1e-09,25.31837504896,1.455762507392,45.05499999808
1.5000000000000002e-09,25.2246250432,1.457325007488,45.011250002560004
2e-09,25.05275003264,1.455762507392,44.96750000704
2.5e-09,25.0683750336,1.4526375072,44.986250005120006
3.0000000000000004e-09,25.25587504512,1.4526375072,45.03000000064
3.5000000000000003e-09,25.39650005376,1.458887507584,45.06124999744
4e-09,25.36525005184,1.46045000768,45.042499999360004
4.500000000000001e-09,25.16212503936,1.46045000768,45.02375000128
5e-09,25.0683750336,1.46045000768,45.0050000032
5.5000000000000004e-09,25.16212503936,1.457325007488,45.03625
6.000000000000001e-09,25.28712504704,1.458887507584,45.05499999808
6.5e-09,25.28712504704,1.46045000768,45.05499999808
7.000000000000001e-09,25.13087503744,1.457325007488,45.011250002560004
7.500000000000001e-09,25.02150003072,1.454200007296,44.980000005760004
8e-09,25.09962503552,1.4526375072,44.9737500064
8.5e-09,25.27150004608,1.454200007296,44.980000005760004
9.000000000000001e-09,25.34962505088,1.455762507392,44.9425000096
9.5e-09,25.27150004608,1.457325007488,44.89875001408
1e-08,25.13087503744,1.457325007488,44.886250015360005
1.0500000000000001e-08,25.11525003648,1.457325007488,44.92375001152
1.1000000000000001e-08,25.25587504512,1.457325007488,44.96125000768
1.15e-08,25.36525005184,1.457325007488,44.986250005120006
1.2000000000000002e-08,25.33400004992,1.457325007488,44.980000005760004
1.2500000000000001e-08,25.17775004032,1.46045000768,44.96125000768
1.3e-08,25.09962503552,1.462012507776,44.9737500064
1.35e-08,25.09962503552,1.46045000768,44.99250000448
1.4000000000000001e-08,25.17775004032,1.458887507584,44.99250000448
1.45e-08,25.19337504128,1.457325007488,44.980000005760004
1.5000000000000002e-08,25.13087503744,1.454200007296,44.948750008960005
1.55e-08,25.08400003456,1.454200007296,44.917500012160005
1.6e-08,25.08400003456,1.454200007296,44.93000001088
1.6500000000000002e-08,25.20900004224,1.455762507392,44.948750008960005
1.7e-08,25.28712504704,1.457325007488,44.9425000096
1.75e-08,25.28712504704,1.458887507584,44.917500012160005
1.8000000000000002e-08,25.19337504128,1.46045000768,44.917500012160005
1.85e-08,25.17775004032,1.458887507584,44.948750008960005
1.9e-08,25.25587504512,1.458887507584,44.980000005760004
1.9500000000000003e-08,25.33400004992,1.458887507584,44.980000005760004
2e-08,25.31837504896,1.457325007488,44.955000008320006
2.05e-08,25.16212503936,1.455762507392,44.93625001024
2.1000000000000003e-08,25.05275003264,1.455762507392,44.92375001152
2.15e-08,25.0683750336,1.457325007488,44.911250012800004
2.2000000000000002e-08,25.1465000384,1.458887507584,44.886250015360005
2.2500000000000003e-08,25.17775004032,1.458887507584,44.86125001792
2.3e-08,25.11525003648,1.458887507584,44.848750019200004
2.3500000000000002e-08,25.02150003072,1.455762507392,44.855000018560006
2.4000000000000003e-08,25.08400003456,1.457325007488,44.886250015360005
2.45e-08,25.20900004224,1.457325007488,44.917500012160005
2.5000000000000002e-08,25.28712504704,1.455762507392,44.93625001024
2.55e-08,25.27150004608,1.455762507392,44.9425000096
2.6e-08,25.17775004032,1.454200007296,44.93625001024
2.6500000000000002e-08,25.1465000384,1.455762507392,44.948750008960005
2.7e-08,25.17775004032,1.454200007296,44.92375001152
2.75e-08,25.19337504128,1.454200007296,44.89250001472
2.8000000000000003e-08,25.11525003648,1.454200007296,44.87375001664
2.85e-08,24.9902500288,1.454200007296,44.86750001728
2.9e-08,24.97462502784,1.455762507392,44.886250015360005
2.9500000000000003e-08,25.0683750336,1.454200007296,44.917500012160005
3.0000000000000004e-08,25.17775004032,1.455762507392,44.92375001152
3.05e-08,25.1465000384,1.455762507392,44.9425000096
3.1e-08,25.11525003648,1.454200007296,44.96125000768
3.1500000000000004e-08,25.13087503744,1.454200007296,44.986250005120006
3.2e-08,25.2246250432,1.451075007104,45.017500001920006
3.25e-08,25.302750048,1.454200007296,45.017500001920006
3.3000000000000004e-08,25.302750048,1.4526375072,44.980000005760004
3.35e-08,25.20900004224,1.451075007104,44.955000008320006
3.4e-08,25.13087503744,1.455762507392,44.93000001088
3.4500000000000005e-08,25.13087503744,1.457325007488,44.92375001152
3.5e-08,25.17775004032,1.457325007488,44.89875001408
3.55e-08,25.1465000384,1.46045000768,44.880000016000004
3.6000000000000005e-08,25.08400003456,1.458887507584,44.880000016000004
3.65e-08,25.0683750336,1.46045000768,44.911250012800004
3.7e-08,25.11525003648,1.46045000768,44.948750008960005
3.7500000000000005e-08,25.17775004032,1.457325007488,44.96125000768
3.8e-08,25.20900004224,1.4526375072,44.9737500064
3.85e-08,25.2246250432,1.451075007104,44.986250005120006
3.9000000000000005e-08,25.24025004416,1.449512507008,44.99875000384
3.95e-08,25.24025004416,1.4526375072,45.03000000064
4e-08,25.20900004224,1.4526375072,45.042499999360004
4.0500000000000005e-08,25.20900004224,1.4526375072,45.017500001920006
4.1e-08,25.16212503936,1.451075007104,44.96750000704
4.15e-08,25.1465000384,1.451075007104,44.92375001152
4.2000000000000006e-08,25.16212503936,1.457325007488,44.911250012800004
4.2500000000000003e-08,25.17775004032,1.457325007488,44.93000001088
4.3e-08,25.1465000384,1.457325007488,44.92375001152
4.3500000000000006e-08,25.11525003648,1.457325007488,44.911250012800004
4.4000000000000004e-08,25.16212503936,1.455762507392,44.89875001408
4.45e-08,25.20900004224,1.458887507584,44.911250012800004
4.5000000000000006e-08,25.2246250432,1.458887507584,44.955000008320006
4.5500000000000004e-08,25.1465000384,1.454200007296,45.017500001920006
4.6e-08,25.09962503552,1.451075007104,45.05499999808
4.6500000000000006e-08,25.13087503744,1.4526375072,45.06124999744
4.7000000000000004e-08,25.17775004032,1.4526375072,45.017500001920006
4.75e-08,25.19337504128,1.457325007488,44.980000005760004
4.8000000000000006e-08,25.11525003648,1.457325007488,44.948750008960005
4.8500000000000004e-08,25.08400003456,1.457325007488,44.917500012160005
4.9e-08,25.13087503744,1.457325007488,44.89250001472
4.95e-08,25.2246250432,1.455762507392,44.87375001664
5.0000000000000004e-08,25.27150004608,1.454200007296,44.855000018560006
5.05e-08,25.19337504128,1.454200007296,44.87375001664
5.1e-08,25.09962503552,1.454200007296,44.911250012800004
5.1500000000000005e-08,25.13087503744,1.455762507392,44.948750008960005
5.2e-08,25.25587504512,1.454200007296,44.955000008320006
5.25e-08,25.302750048,1.455762507392,44.948750008960005
5.3000000000000005e-08,25.20900004224,1.455762507392,44.93625001024
5.35e-08,25.03712503168,1.455762507392,44.93625001024
5.4e-08,25.03712503168,1.454200007296,44.955000008320006
5.4500000000000005e-08,25.1465000384,1.4526375072,44.96125000768
5.5e-08,25.27150004608,1.454200007296,44.90500001344
5.55e-08,25.19337504128,1.455762507392,44.80500002368
5.6000000000000005e-08,25.00587502976,1.455762507392,44.74250003008
5.65e-08,24.9902500288,1.455762507392,44.748750029440004
5.7e-08,25.1465000384,1.455762507392,44.786250025600005
5.7500000000000005e-08,25.33400004992,1.455762507392,44.83000002112
5.8e-08,25.302750048,1.458887507584,44.83000002112
5.85e-08,25.08400003456,1.458887507584,44.84250001984
5.9000000000000006e-08,24.95900002688,1.458887507584,44.880000016000004
5.9500000000000003e-08,25.0683750336,1.457325007488,44.96125000768
6.000000000000001e-08,25.302750048,1.455762507392,44.99875000384
6.05e-08,25.31837504896,1.455762507392,44.986250005120006
6.1e-08,25.09962503552,1.457325007488,44.911250012800004
6.15e-08,24.880875022079998,1.454200007296,44.83625002048
6.2e-08,24.912125023999998,1.451075007104,44.817500022400004
6.250000000000001e-08,25.1465000384,1.454200007296,44.823750021760006
6.300000000000001e-08,25.31837504896,1.4526375072,44.80500002368
6.35e-08,25.20900004224,1.4526375072,44.76125002816
6.4e-08,24.97462502784,1.4526375072,44.74250003008
6.45e-08,24.943375025919998,1.455762507392,44.77375002688
6.5e-08,25.16212503936,1.455762507392,44.83625002048
6.55e-08,25.36525005184,1.455762507392,44.886250015360005
6.600000000000001e-08,25.31837504896,1.455762507392,44.886250015360005
6.65e-08,25.08400003456,1.454200007296,44.86125001792
6.7e-08,24.943375025919998,1.4526375072,44.848750019200004
6.75e-08,25.03712503168,1.457325007488,44.87375001664
6.8e-08,25.20900004224,1.455762507392,44.89875001408
6.85e-08,25.20900004224,1.4526375072,44.90500001344
6.900000000000001e-08,25.08400003456,1.4526375072,44.86125001792
6.950000000000001e-08,24.927750024959998,1.454200007296,44.83625002048
7e-08,24.97462502784,1.457325007488,44.83625002048
7.05e-08,25.1465000384,1.455762507392,44.86125001792
7.1e-08,25.28712504704,1.454200007296,44.86750001728
7.15e-08,25.24025004416,1.455762507392,44.87375001664
7.200000000000001e-08,25.1465000384,1.454200007296,44.886250015360005
7.250000000000001e-08,25.16212503936,1.454200007296,44.911250012800004
7.3e-08,25.2246250432,1.455762507392,44.93000001088
7.35e-08,25.302750048,1.454200007296,44.93625001024
7.4e-08,25.28712504704,1.4526375072,44.92375001152
7.45e-08,25.17775004032,1.454200007296,44.93000001088
7.500000000000001e-08,25.08400003456,1.455762507392,44.911250012800004
7.550000000000001e-08,25.05275003264,1.455762507392,44.911250012800004
7.6e-08,25.09962503552,1.454200007296,44.917500012160005
7.65e-08,25.13087503744,1.454200007296,44.93625001024
7.7e-08,25.11525003648,1.455762507392,44.93625001024
7.75e-08,25.08400003456,1.455762507392,44.93625001024
7.800000000000001e-08,25.0683750336,1.457325007488,44.93625001024
7.850000000000001e-08,25.13087503744,1.455762507392,44.92375001152
7.9e-08,25.2246250432,1.454200007296,44.90500001344
7.95e-08,25.28712504704,1.454200007296,44.90500001344
8e-08,25.31837504896,1.4526375072,44.90500001344
8.05e-08,25.28712504704,1.458887507584,44.89250001472
8.100000000000001e-08,25.19337504128,1.458887507584,44.86125001792
8.150000000000001e-08,25.17775004032,1.454200007296,44.848750019200004
8.2e-08,25.20900004224,1.4526375072,44.855000018560006
8.25e-08,25.24025004416,1.4526375072,44.89250001472
8.3e-08,25.16212503936,1.4526375072,44.90500001344
8.35e-08,25.09962503552,1.455762507392,44.911250012800004
8.400000000000001e-08,25.05275003264,1.455762507392,44.89250001472
8.450000000000001e-08,25.0683750336,1.455762507392,44.89875001408
8.500000000000001e-08,25.17775004032,1.455762507392,44.90500001344
8.55e-08,25.25587504512,1.455762507392,44.89250001472
8.6e-08,25.20900004224,1.458887507584,44.84250001984
8.65e-08,25.1465000384,1.46045000768,44.792500024960006
8.700000000000001e-08,25.16212503936,1.457325007488,44.76125002816
8.750000000000001e-08,25.27150004608,1.455762507392,44.77375002688
8.800000000000001e-08,25.33400004992,1.455762507392,44.817500022400004
8.85e-08,25.28712504704,1.458887507584,44.855000018560006
8.9e-08,25.13087503744,1.458887507584,44.855000018560006
8.95e-08,25.00587502976,1.455762507392,44.880000016000004
9.000000000000001e-08,25.08400003456,1.4526375072,44.92375001152
9.050000000000001e-08,25.24025004416,1.4526375072,44.99875000384
9.100000000000001e-08,25.25587504512,1.455762507392,45.011250002560004
9.15e-08,25.11525003648,1.458887507584,44.980000005760004
9.2e-08,25.02150003072,1.457325007488,44.93625001024
9.25e-08,25.05275003264,1.454200007296,44.917500012160005
9.300000000000001e-08,25.24025004416,1.455762507392,44.917500012160005
9.350000000000001e-08,25.36525005184,1.454200007296,44.911250012800004
9.400000000000001e-08,25.28712504704,1.4526375072,44.87375001664
9.45e-08,25.13087503744,1.455762507392,44.83625002048
9.5e-08,25.03712503168,1.454200007296,44.817500022400004
9.55e-08,25.13087503744,1.455762507392,44.823750021760006
9.600000000000001e-08,25.25587504512,1.455762507392,44.84250001984
9.650000000000001e-08,25.27150004608,1.458887507584,44.855000018560006
9.700000000000001e-08,25.09962503552,1.46045000768,44.84250001984
9.75e-08,24.943375025919998,1.457325007488,44.848750019200004
9.8e-08,25.00587502976,1.46045000768,44.86125001792
9.85e-08,25.1465000384,1.46045000768,44.89875001408
9.9e-08,25.2246250432,1.457325007488,44.89875001408
9.950000000000001e-08,25.16212503936,1.457325007488,44.886250015360005
1.0000000000000001e-07,25.05275003264,1.458887507584,44.86750001728
1.005e-07,25.03712503168,1.458887507584,44.87375001664
1.01e-07,25.17775004032,1.46045000768,44.880000016000004
1.015e-07,25.27150004608,1.458887507584,44.89250001472
1.02e-07,25.27150004608,1.458887507584,44.89875001408
1.0250000000000001e-07,25.1465000384,1.462012507776,44.90500001344
1.0300000000000001e-07,25.09962503552,1.462012507776,44.90500001344
1.0350000000000001e-07,25.09962503552,1.462012507776,44.90500001344
1.04e-07,25.16212503936,1.458887507584,44.917500012160005
1.045e-07,25.20900004224,1.457325007488,44.93000001088
1.05e-07,25.1465000384,1.455762507392,44.92375001152
1.0550000000000001e-07,25.05275003264,1.455762507392,44.89875001408
1.0600000000000001e-07,25.00587502976,1.457325007488,44.886250015360005
1.0650000000000001e-07,25.02150003072,1.458887507584,44.89875001408
1.07e-07,25.13087503744,1.46045000768,44.90500001344
1.075e-07,25.19337504128,1.463575007872,44.93000001088
1.08e-07,25.17775004032,1.458887507584,44.93000001088
1.0850000000000001e-07,25.09962503552,1.46045000768,44.92375001152
1.0900000000000001e-07,25.11525003648,1.46045000768,44.917500012160005
1.0950000000000001e-07,25.20900004224,1.46045000768,44.917500012160005
1.1e-07,25.302750048,1.458887507584,44.917500012160005
1.105e-07,25.27150004608,1.458887507584,44.93625001024
1.11e-07,25.17775004032,1.458887507584,44.9425000096
1.1150000000000001e-07,25.13087503744,1.458887507584,44.948750008960005
1.1200000000000001e-07,25.13087503744,1.458887507584,44.948750008960005
1.1250000000000001e-07,25.20900004224,1.458887507584,44.93625001024
1.13e-07,25.2246250432,1.458887507584,44.92375001152
1.135e-07,25.16212503936,1.457325007488,44.9425000096
1.14e-07,25.08400003456,1.455762507392,44.9737500064
1.1450000000000001e-07,25.0683750336,1.458887507584,45.011250002560004
1.1500000000000001e-07,25.11525003648,1.457325007488,45.0050000032
1.1550000000000001e-07,25.19337504128,1.457325007488,44.980000005760004
1.16e-07,25.25587504512,1.458887507584,44.955000008320006
1.165e-07,25.17775004032,1.458887507584,44.96125000768
1.17e-07,25.11525003648,1.46045000768,44.980000005760004
1.1750000000000001e-07,25.11525003648,1.458887507584,44.986250005120006
1.1800000000000001e-07,25.20900004224,1.458887507584,44.980000005760004
1.1850000000000001e-07,25.27150004608,1.457325007488,44.9737500064
1.1900000000000001e-07,25.27150004608,1.457325007488,44.96750000704
1.195e-07,25.16212503936,1.458887507584,44.9737500064
1.2000000000000002e-07,25.05275003264,1.46045000768,44.99875000384
1.205e-07,25.0683750336,1.462012507776,45.017500001920006
1.21e-07,25.1465000384,1.46045000768,45.011250002560004
1.215e-07,25.20900004224,1.457325007488,44.99875000384
1.22e-07,25.1465000384,1.457325007488,44.99250000448
1.2250000000000002e-07,25.0683750336,1.46045000768,44.99875000384
1.23e-07,25.0683750336,1.462012507776,44.99875000384
1.2350000000000001e-07,25.20900004224,1.462012507776,44.99250000448
1.24e-07,25.34962505088,1.455762507392,44.9737500064
1.245e-07,25.31837504896,1.454200007296,44.96125000768
1.2500000000000002e-07,25.16212503936,1.455762507392,44.96750000704
1.255e-07,25.0683750336,1.454200007296,44.986250005120006
1.2600000000000002e-07,25.11525003648,1.451075007104,45.0050000032
1.265e-07,25.25587504512,1.4526375072,45.02375000128
1.27e-07,25.31837504896,1.454200007296,45.011250002560004
1.275e-07,25.20900004224,1.458887507584,44.99250000448
1.28e-07,25.02150003072,1.462012507776,44.986250005120006
1.2850000000000002e-07,25.02150003072,1.465137507968,44.99250000448
1.29e-07,25.2246250432,1.462012507776,44.99250000448
1.2950000000000001e-07,25.39650005376,1.46045000768,44.986250005120006
1.3e-07,25.28712504704,1.462012507776,44.980000005760004
1.305e-07,25.08400003456,1.463575007872,44.980000005760004
1.31e-07,24.95900002688,1.458887507584,44.96750000704
1.315e-07,25.08400003456,1.455762507392,44.980000005760004
1.3200000000000002e-07,25.302750048,1.454200007296,45.017500001920006
1.325e-07,25.302750048,1.457325007488,45.042499999360004
1.33e-07,25.11525003648,1.455762507392,45.02375000128
1.335e-07,24.912125023999998,1.455762507392,44.9737500064
1.34e-07,24.9902500288,1.454200007296,44.93000001088
1.3450000000000002e-07,25.24025004416,1.454200007296,44.9425000096
1.35e-07,25.36525005184,1.455762507392,44.9737500064
1.3550000000000002e-07,25.25587504512,1.462012507776,44.980000005760004
1.36e-07,25.00587502976,1.462012507776,44.948750008960005
1.365e-07,24.95900002688,1.46045000768,44.93000001088
1.37e-07,25.1465000384,1.457325007488,44.9425000096
1.375e-07,25.36525005184,1.4526375072,45.011250002560004
1.3800000000000002e-07,25.36525005184,1.454200007296,45.042499999360004
1.385e-07,25.16212503936,1.458887507584,45.03000000064
1.3900000000000001e-07,24.97462502784,1.455762507392,44.96750000704
1.395e-07,25.05275003264,1.454200007296,44.955000008320006
1.4e-07,25.25587504512,1.454200007296,44.980000005760004
1.4050000000000002e-07,25.302750048,1.457325007488,45.017500001920006
1.41e-07,25.17775004032,1.46045000768,44.980000005760004
1.4150000000000002e-07,24.97462502784,1.457325007488,44.917500012160005
1.42e-07,25.00587502976,1.455762507392,44.880000016000004
1.425e-07,25.20900004224,1.457325007488,44.93000001088
1.43e-07,25.39650005376,1.455762507392,45.0050000032
1.435e-07,25.3808750528,1.458887507584,45.042499999360004
1.4400000000000002e-07,25.1465000384,1.458887507584,45.042499999360004
1.445e-07,25.03712503168,1.457325007488,45.03000000064
1.4500000000000001e-07,25.16212503936,1.455762507392,45.06124999744
1.455e-07,25.33400004992,1.455762507392,45.12374999104
1.46e-07,25.302750048,1.458887507584,45.13624998976
1.4650000000000002e-07,25.09962503552,1.458887507584,45.0987499936
1.47e-07,24.927750024959998,1.458887507584,45.03625
1.4750000000000002e-07,24.97462502784,1.457325007488,45.03625
1.48e-07,25.20900004224,1.454200007296,45.048749998720005
1.485e-07,25.31837504896,1.457325007488,45.05499999808
1.49e-07,25.24025004416,1.457325007488,45.017500001920006
1.495e-07,25.0683750336,1.455762507392,44.9737500064
1.5000000000000002e-07,25.08400003456,1.454200007296,44.980000005760004
1.505e-07,25.25587504512,1.454200007296,45.03625
1.5100000000000002e-07,25.39650005376,1.455762507392,45.0674999968
1.515e-07,25.36525005184,1.458887507584,45.05499999808
1.52e-07,25.19337504128,1.457325007488,45.017500001920006
1.5250000000000002e-07,25.09962503552,1.457325007488,45.011250002560004
1.53e-07,25.16212503936,1.455762507392,45.03625
1.5350000000000002e-07,25.302750048,1.455762507392,45.06124999744
1.54e-07,25.302750048,1.457325007488,45.042499999360004
1.5450000000000001e-07,25.13087503744,1.457325007488,45.02375000128
1.55e-07,25.00587502976,1.454200007296,44.980000005760004
1.555e-07,25.08400003456,1.4526375072,44.986250005120006
1.5600000000000002e-07,25.28712504704,1.4526375072,44.986250005120006
1.565e-07,25.36525005184,1.455762507392,44.955000008320006
1.5700000000000002e-07,25.302750048,1.457325007488,44.90500001344
1.575e-07,25.1465000384,1.457325007488,44.89250001472
1.58e-07,25.13087503744,1.457325007488,44.92375001152
1.5850000000000002e-07,25.25587504512,1.46045000768,44.9737500064
1.59e-07,25.36525005184,1.458887507584,44.99875000384
1.5950000000000002e-07,25.31837504896,1.457325007488,44.986250005120006
1.6e-07,25.19337504128,1.455762507392,44.9737500064
1.6050000000000001e-07,25.11525003648,1.455762507392,44.980000005760004
1.61e-07,25.11525003648,1.457325007488,44.99875000384
1.615e-07,25.17775004032,1.455762507392,44.99875000384
1.6200000000000002e-07,25.17775004032,1.454200007296,44.9737500064
1.625e-07,25.1465000384,1.4526375072,44.948750008960005
1.6300000000000002e-07,25.08400003456,1.4526375072,44.93000001088
1.635e-07,25.08400003456,1.4526375072,44.93000001088
1.64e-07,25.20900004224,1.454200007296,44.9425000096
1.645e-07,25.302750048,1.457325007488,44.9425000096
