Time (s),VIN,IIN,VOUT
0.0,25.05225003264,1.45622500768,44.94350000512
5e-10,25.2241250432,1.453100007488,44.9935
1e-09,25.34912505088,1.454662507584,45.049749994239995
1.5000000000000002e-09,25.23975004416,1.457787507776,45.06224999296
2e-09,25.00537502976,1.454662507584,45.018499997439996
2.5e-09,24.911625024,1.4484125072,44.987250000639996
3.0000000000000004e-09,25.0678750336,1.445287507008,45.012249998079994
3.5000000000000003e-09,25.28662504704,1.446850007104,45.049749994239995
4e-09,25.31787504896,1.451537507392,45.012249998079994
4.500000000000001e-09,25.19287504128,1.453100007488,44.94350000512
5e-09,25.0678750336,1.453100007488,44.887250010879995
5.5000000000000004e-09,25.1460000384,1.451537507392,44.8997500096
6.000000000000001e-09,25.33350004992,1.451537507392,44.9310000064
6.5e-09,25.39600005376,1.45622500768,44.956000003839996
7.000000000000001e-09,25.28662504704,1.45622500768,44.93725000576
7.500000000000001e-09,25.0678750336,1.454662507584,44.93725000576
8e-09,25.0678750336,1.453100007488,44.97475000192
8.5e-09,25.20850004224,1.449975007296,45.03099999616
9.000000000000001e-09,25.31787504896,1.4484125072,45.06224999296
9.5e-09,25.23975004416,1.451537507392,45.049749994239995
1e-08,25.08350003456,1.4484125072,44.987250000639996
1.0500000000000001e-08,25.03662503168,1.445287507008,44.93725000576
1.1000000000000001e-08,25.1460000384,1.443725006912,44.90600000896
1.15e-08,25.31787504896,1.445287507008,44.87475001216
1.2000000000000002e-08,25.34912505088,1.451537507392,44.818500017919995
1.2500000000000001e-08,25.20850004224,1.454662507584,44.76850002304
1.3e-08,25.09912503552,1.45622500768,44.78100002176
1.35e-08,25.1460000384,1.45622500768,44.86225001344
1.4000000000000001e-08,25.27100004608,1.457787507776,44.9310000064
1.45e-08,25.33350004992,1.459350007872,44.97475000192
1.5000000000000002e-08,25.27100004608,1.457787507776,44.96850000256
1.55e-08,25.13037503744,1.453100007488,44.9622500032
1.6e-08,25.09912503552,1.451537507392,44.97475000192
1.6500000000000002e-08,25.13037503744,1.451537507392,44.97475000192
1.7e-08,25.17725004032,1.453100007488,44.93725000576
1.75e-08,25.17725004032,1.453100007488,44.881000011519994
1.8000000000000002e-08,25.11475003648,1.449975007296,44.81225001856
1.85e-08,25.03662503168,1.449975007296,44.79975001984
1.9e-08,25.09912503552,1.453100007488,44.818500017919995
1.9500000000000003e-08,25.20850004224,1.457787507776,44.86225001344
2e-08,25.302250048,1.460912507968,44.86225001344
2.05e-08,25.27100004608,1.459350007872,44.881000011519994
2.1000000000000003e-08,25.20850004224,1.454662507584,44.90600000896
2.15e-08,25.20850004224,1.453100007488,44.9622500032
2.2000000000000002e-08,25.302250048,1.453100007488,44.987250000639996
2.2500000000000003e-08,25.31787504896,1.451537507392,44.9622500032
2.3e-08,25.23975004416,1.449975007296,44.90600000896
2.3500000000000002e-08,25.0678750336,1.451537507392,44.856000014079996
2.4000000000000003e-08,24.9897500288,1.453100007488,44.81225001856
2.45e-08,25.03662503168,1.451537507392,44.7747500224
2.5000000000000002e-08,25.11475003648,1.454662507584,44.74975002496
2.55e-08,25.13037503744,1.45622500768,44.7435000256
2.6e-08,25.0678750336,1.454662507584,44.74975002496
2.6500000000000002e-08,25.0678750336,1.451537507392,44.787250021119995
2.7e-08,25.17725004032,1.449975007296,44.84350001536
2.75e-08,25.33350004992,1.451537507392,44.89350001024
2.8000000000000003e-08,25.3803750528,1.451537507392,44.8997500096
2.85e-08,25.28662504704,1.449975007296,44.90600000896
2.9e-08,25.17725004032,1.451537507392,44.8997500096
2.9500000000000003e-08,25.16162503936,1.454662507584,44.89350001024
3.0000000000000004e-08,25.16162503936,1.454662507584,44.84350001536
3.05e-08,25.09912503552,1.45622500768,44.79975001984
3.1e-08,25.02100003072,1.454662507584,44.76225002368
3.1500000000000004e-08,24.95850002688,1.453100007488,44.7747500224
3.2e-08,25.00537502976,1.453100007488,44.824750017279996
3.25e-08,25.11475003648,1.453100007488,44.86225001344
3.3000000000000004e-08,25.20850004224,1.451537507392,44.87475001216
3.35e-08,25.2241250432,1.451537507392,44.90600000896
3.4e-08,25.19287504128,1.451537507392,44.9310000064
3.4500000000000005e-08,25.20850004224,1.453100007488,44.9622500032
3.5e-08,25.302250048,1.449975007296,44.97475000192
3.55e-08,25.302250048,1.453100007488,44.949750004479995
3.6000000000000005e-08,25.20850004224,1.453100007488,44.89350001024
3.65e-08,25.11475003648,1.454662507584,44.849750014719994
3.7e-08,25.05225003264,1.45622500768,44.818500017919995
3.7500000000000005e-08,25.09912503552,1.45622500768,44.81225001856
3.8e-08,25.13037503744,1.454662507584,44.79975001984
3.85e-08,25.09912503552,1.45622500768,44.793500020479996
3.9000000000000005e-08,25.0678750336,1.454662507584,44.81225001856
3.95e-08,25.0678750336,1.454662507584,44.86225001344
4e-08,25.13037503744,1.45622500768,44.91225000832
4.0500000000000005e-08,25.20850004224,1.454662507584,44.93725000576
4.1e-08,25.23975004416,1.453100007488,44.94350000512
4.15e-08,25.25537504512,1.451537507392,44.949750004479995
4.2000000000000006e-08,25.25537504512,1.449975007296,44.9622500032
4.2500000000000003e-08,25.2241250432,1.451537507392,44.97475000192
4.3e-08,25.20850004224,1.449975007296,44.956000003839996
4.3500000000000006e-08,25.19287504128,1.453100007488,44.90600000896
4.4000000000000004e-08,25.17725004032,1.457787507776,44.84350001536
4.45e-08,25.19287504128,1.459350007872,44.818500017919995
4.5000000000000006e-08,25.16162503936,1.460912507968,44.837250016
4.5500000000000004e-08,25.13037503744,1.457787507776,44.881000011519994
4.6e-08,25.08350003456,1.453100007488,44.87475001216
4.6500000000000006e-08,25.08350003456,1.454662507584,44.8685000128
4.7000000000000004e-08,25.1460000384,1.45622500768,44.8685000128
4.75e-08,25.19287504128,1.45622500768,44.90600000896
4.8000000000000006e-08,25.17725004032,1.45622500768,44.981000001279995
4.8500000000000004e-08,25.09912503552,1.454662507584,45.012249998079994
4.9e-08,25.08350003456,1.454662507584,44.9935
4.95e-08,25.1460000384,1.454662507584,44.949750004479995
5.0000000000000004e-08,25.23975004416,1.454662507584,44.8997500096
5.05e-08,25.20850004224,1.454662507584,44.86225001344
5.1e-08,25.11475003648,1.449975007296,44.84350001536
5.1500000000000005e-08,25.08350003456,1.449975007296,44.824750017279996
5.2e-08,25.1460000384,1.451537507392,44.8060000192
5.25e-08,25.20850004224,1.454662507584,44.81225001856
5.3000000000000005e-08,25.19287504128,1.454662507584,44.83100001664
5.35e-08,25.08350003456,1.454662507584,44.881000011519994
5.4e-08,25.05225003264,1.454662507584,44.92475000704
5.4500000000000005e-08,25.16162503936,1.454662507584,44.93725000576
5.5e-08,25.28662504704,1.454662507584,44.91225000832
5.55e-08,25.25537504512,1.454662507584,44.87475001216
5.6000000000000005e-08,25.16162503936,1.454662507584,44.8685000128
5.65e-08,25.0678750336,1.451537507392,44.86225001344
5.7e-08,25.09912503552,1.4484125072,44.849750014719994
5.7500000000000005e-08,25.2241250432,1.4484125072,44.824750017279996
5.8e-08,25.23975004416,1.449975007296,44.7747500224
5.85e-08,25.0678750336,1.453100007488,44.7122500288
5.9000000000000006e-08,24.92725002496,1.45622500768,44.70600002944
5.9500000000000003e-08,24.9897500288,1.45622500768,44.7435000256
6.000000000000001e-08,25.17725004032,1.45622500768,44.793500020479996
6.05e-08,25.302250048,1.454662507584,44.81225001856
6.1e-08,25.20850004224,1.45622500768,44.8060000192
6.15e-08,25.02100003072,1.453100007488,44.824750017279996
6.2e-08,25.05225003264,1.451537507392,44.86225001344
6.250000000000001e-08,25.23975004416,1.451537507392,44.91225000832
6.300000000000001e-08,25.36475005184,1.451537507392,44.918500007679995
6.35e-08,25.23975004416,1.453100007488,44.87475001216
6.4e-08,25.00537502976,1.453100007488,44.818500017919995
6.45e-08,24.864750021120003,1.449975007296,44.76850002304
6.5e-08,24.9897500288,1.449975007296,44.7747500224
6.55e-08,25.20850004224,1.449975007296,44.793500020479996
6.600000000000001e-08,25.23975004416,1.451537507392,44.76850002304
6.65e-08,25.0678750336,1.453100007488,44.718500028159994
6.7e-08,24.94287502592,1.45622500768,44.70600002944
6.75e-08,25.05225003264,1.457787507776,44.73725002624
6.8e-08,25.302250048,1.457787507776,44.793500020479996
6.85e-08,25.39600005376,1.454662507584,44.818500017919995
6.900000000000001e-08,25.23975004416,1.453100007488,44.79975001984
6.950000000000001e-08,25.02100003072,1.449975007296,44.7747500224
7e-08,24.9897500288,1.446850007104,44.78100002176
7.05e-08,25.11475003648,1.446850007104,44.84350001536
7.1e-08,25.20850004224,1.445287507008,44.881000011519994
7.15e-08,25.11475003648,1.4484125072,44.87475001216
7.200000000000001e-08,24.9897500288,1.451537507392,44.83100001664
7.250000000000001e-08,24.911625024,1.453100007488,44.8060000192
7.3e-08,25.03662503168,1.454662507584,44.79975001984
7.35e-08,25.20850004224,1.453100007488,44.8060000192
7.4e-08,25.28662504704,1.453100007488,44.793500020479996
7.45e-08,25.20850004224,1.451537507392,44.78100002176
7.500000000000001e-08,25.16162503936,1.453100007488,44.79975001984
7.550000000000001e-08,25.20850004224,1.454662507584,44.83100001664
7.6e-08,25.27100004608,1.453100007488,44.8685000128
7.65e-08,25.28662504704,1.451537507392,44.89350001024
7.7e-08,25.2241250432,1.449975007296,44.89350001024
7.75e-08,25.09912503552,1.451537507392,44.887250010879995
7.800000000000001e-08,25.03662503168,1.453100007488,44.87475001216
7.850000000000001e-08,25.05225003264,1.454662507584,44.8685000128
7.9e-08,25.11475003648,1.45622500768,44.856000014079996
7.95e-08,25.13037503744,1.454662507584,44.849750014719994
8e-08,25.13037503744,1.453100007488,44.837250016
8.05e-08,25.11475003648,1.453100007488,44.818500017919995
8.100000000000001e-08,25.13037503744,1.451537507392,44.79975001984
8.150000000000001e-08,25.19287504128,1.453100007488,44.8060000192
8.2e-08,25.27100004608,1.451537507392,44.81225001856
8.25e-08,25.31787504896,1.451537507392,44.824750017279996
8.3e-08,25.302250048,1.449975007296,44.84350001536
8.35e-08,25.23975004416,1.449975007296,44.856000014079996
8.400000000000001e-08,25.16162503936,1.451537507392,44.83100001664
8.450000000000001e-08,25.16162503936,1.446850007104,44.824750017279996
8.500000000000001e-08,25.20850004224,1.446850007104,44.83100001664
8.55e-08,25.17725004032,1.449975007296,44.84350001536
8.6e-08,25.09912503552,1.449975007296,44.824750017279996
8.65e-08,25.05225003264,1.449975007296,44.81225001856
8.700000000000001e-08,25.0678750336,1.449975007296,44.793500020479996
8.750000000000001e-08,25.13037503744,1.453100007488,44.793500020479996
8.800000000000001e-08,25.23975004416,1.454662507584,44.79975001984
8.85e-08,25.27100004608,1.451537507392,44.787250021119995
8.9e-08,25.19287504128,1.453100007488,44.74975002496
8.95e-08,25.13037503744,1.453100007488,44.73100002688
9.000000000000001e-08,25.19287504128,1.451537507392,44.724750027519995
9.050000000000001e-08,25.31787504896,1.451537507392,44.756000024319995
9.100000000000001e-08,25.31787504896,1.453100007488,44.78100002176
9.15e-08,25.19287504128,1.454662507584,44.793500020479996
9.2e-08,25.00537502976,1.454662507584,44.78100002176
9.25e-08,24.9897500288,1.451537507392,44.81225001856
9.300000000000001e-08,25.13037503744,1.449975007296,44.8685000128
9.350000000000001e-08,25.23975004416,1.449975007296,44.92475000704
9.400000000000001e-08,25.19287504128,1.449975007296,44.918500007679995
9.45e-08,25.08350003456,1.453100007488,44.887250010879995
9.5e-08,25.03662503168,1.453100007488,44.86225001344
9.55e-08,25.13037503744,1.453100007488,44.86225001344
9.600000000000001e-08,25.302250048,1.451537507392,44.8685000128
9.650000000000001e-08,25.34912505088,1.451537507392,44.837250016
9.700000000000001e-08,25.2241250432,1.451537507392,44.787250021119995
9.75e-08,25.08350003456,1.454662507584,44.756000024319995
9.8e-08,25.05225003264,1.453100007488,44.73725002624
9.85e-08,25.17725004032,1.451537507392,44.74975002496
9.9e-08,25.25537504512,1.449975007296,44.76225002368
9.950000000000001e-08,25.17725004032,1.453100007488,44.7747500224
1.0000000000000001e-07,24.9897500288,1.454662507584,44.7747500224
1.005e-07,24.911625024,1.453100007488,44.793500020479996
1.01e-07,25.00537502976,1.454662507584,44.84350001536
1.015e-07,25.1460000384,1.453100007488,44.881000011519994
1.02e-07,25.17725004032,1.453100007488,44.87475001216
1.0250000000000001e-07,25.11475003648,1.454662507584,44.856000014079996
1.0300000000000001e-07,25.0678750336,1.453100007488,44.824750017279996
1.0350000000000001e-07,25.08350003456,1.453100007488,44.824750017279996
1.04e-07,25.19287504128,1.454662507584,44.824750017279996
1.045e-07,25.25537504512,1.454662507584,44.824750017279996
1.05e-07,25.23975004416,1.454662507584,44.81225001856
1.0550000000000001e-07,25.13037503744,1.457787507776,44.81225001856
1.0600000000000001e-07,25.05225003264,1.45622500768,44.81225001856
1.0650000000000001e-07,25.0678750336,1.451537507392,44.837250016
1.07e-07,25.17725004032,1.449975007296,44.8685000128
1.075e-07,25.19287504128,1.451537507392,44.887250010879995
1.08e-07,25.09912503552,1.453100007488,44.8685000128
1.0850000000000001e-07,24.97412502784,1.451537507392,44.8685000128
1.0900000000000001e-07,24.95850002688,1.453100007488,44.8685000128
1.0950000000000001e-07,25.03662503168,1.454662507584,44.887250010879995
1.1e-07,25.1460000384,1.45622500768,44.887250010879995
1.105e-07,25.19287504128,1.45622500768,44.881000011519994
1.11e-07,25.13037503744,1.454662507584,44.856000014079996
1.1150000000000001e-07,25.0678750336,1.451537507392,44.837250016
1.1200000000000001e-07,25.1460000384,1.449975007296,44.818500017919995
1.1250000000000001e-07,25.25537504512,1.4484125072,44.824750017279996
1.13e-07,25.28662504704,1.449975007296,44.849750014719994
1.135e-07,25.2241250432,1.451537507392,44.887250010879995
1.14e-07,25.13037503744,1.451537507392,44.91225000832
1.1450000000000001e-07,25.09912503552,1.451537507392,44.918500007679995
1.1500000000000001e-07,25.1460000384,1.449975007296,44.918500007679995
1.1550000000000001e-07,25.20850004224,1.449975007296,44.91225000832
1.16e-07,25.19287504128,1.4484125072,44.90600000896
1.165e-07,25.11475003648,1.4484125072,44.91225000832
1.17e-07,25.05225003264,1.449975007296,44.918500007679995
1.1750000000000001e-07,25.08350003456,1.451537507392,44.918500007679995
1.1800000000000001e-07,25.1460000384,1.453100007488,44.887250010879995
1.1850000000000001e-07,25.23975004416,1.457787507776,44.8685000128
1.1900000000000001e-07,25.25537504512,1.45622500768,44.86225001344
1.195e-07,25.16162503936,1.454662507584,44.89350001024
1.2000000000000002e-07,25.09912503552,1.454662507584,44.918500007679995
1.205e-07,25.13037503744,1.453100007488,44.9310000064
1.21e-07,25.2241250432,1.451537507392,44.918500007679995
1.215e-07,25.27100004608,1.451537507392,44.91225000832
1.22e-07,25.20850004224,1.451537507392,44.90600000896
1.2250000000000002e-07,25.09912503552,1.45622500768,44.91225000832
1.23e-07,25.03662503168,1.45622500768,44.9310000064
1.2350000000000001e-07,25.13037503744,1.45622500768,44.93725000576
1.24e-07,25.20850004224,1.457787507776,44.91225000832
1.245e-07,25.19287504128,1.45622500768,44.89350001024
1.2500000000000002e-07,25.11475003648,1.457787507776,44.89350001024
1.255e-07,25.0678750336,1.457787507776,44.918500007679995
1.2600000000000002e-07,25.09912503552,1.45622500768,44.92475000704
1.265e-07,25.27100004608,1.45622500768,44.92475000704
1.27e-07,25.3803750528,1.454662507584,44.90600000896
1.275e-07,25.27100004608,1.45622500768,44.90600000896
1.28e-07,25.09912503552,1.454662507584,44.918500007679995
1.2850000000000002e-07,25.0678750336,1.453100007488,44.9310000064
1.29e-07,25.17725004032,1.449975007296,44.92475000704
1.2950000000000001e-07,25.31787504896,1.451537507392,44.90600000896
1.3e-07,25.302250048,1.453100007488,44.8997500096
1.305e-07,25.13037503744,1.45622500768,44.887250010879995
1.31e-07,24.9897500288,1.45622500768,44.89350001024
1.315e-07,25.11475003648,1.45622500768,44.918500007679995
1.3200000000000002e-07,25.302250048,1.45622500768,44.93725000576
1.325e-07,25.3803750528,1.45622500768,44.9622500032
1.33e-07,25.20850004224,1.459350007872,44.9622500032
1.335e-07,25.00537502976,1.459350007872,44.94350000512
1.34e-07,25.02100003072,1.45622500768,44.91225000832
1.3450000000000002e-07,25.2241250432,1.453100007488,44.918500007679995
1.35e-07,25.3803750528,1.451537507392,44.93725000576
1.3550000000000002e-07,25.25537504512,1.449975007296,44.949750004479995
1.36e-07,25.02100003072,1.453100007488,44.90600000896
1.365e-07,24.94287502592,1.449975007296,44.856000014079996
1.37e-07,25.11475003648,1.449975007296,44.849750014719994
1.375e-07,25.31787504896,1.453100007488,44.8997500096
1.3800000000000002e-07,25.34912505088,1.453100007488,44.949750004479995
1.385e-07,25.13037503744,1.457787507776,44.94350000512
1.3900000000000001e-07,24.95850002688,1.459350007872,44.918500007679995
1.395e-07,25.02100003072,1.457787507776,44.91225000832
1.4e-07,25.25537504512,1.454662507584,44.9310000064
1.4050000000000002e-07,25.3803750528,1.451537507392,44.981000001279995
1.41e-07,25.28662504704,1.457787507776,44.9622500032
1.4150000000000002e-07,25.08350003456,1.457787507776,44.90600000896
1.42e-07,24.95850002688,1.45622500768,44.856000014079996
1.425e-07,25.09912503552,1.453100007488,44.8685000128
1.43e-07,25.302250048,1.453100007488,44.93725000576
1.435e-07,25.27100004608,1.454662507584,44.9622500032
1.4400000000000002e-07,25.0678750336,1.457787507776,44.93725000576
1.445e-07,24.911625024,1.45622500768,44.87475001216
1.4500000000000001e-07,25.0678750336,1.45622500768,44.8685000128
1.455e-07,25.31787504896,1.454662507584,44.9310000064
1.46e-07,25.41162505472,1.45622500768,44.9935
1.4650000000000002e-07,25.27100004608,1.457787507776,44.9935
1.47e-07,25.05225003264,1.457787507776,44.949750004479995
1.4750000000000002e-07,25.05225003264,1.457787507776,44.949750004479995
1.48e-07,25.2241250432,1.454662507584,44.9935
1.485e-07,25.34912505088,1.454662507584,45.049749994239995
1.49e-07,25.23975004416,1.457787507776,45.0559999936
1.495e-07,24.9897500288,1.459350007872,45.0247499968
1.5000000000000002e-07,24.89600002304,1.45622500768,44.987250000639996
1.505e-07,25.05225003264,1.453100007488,45.018499997439996
1.5100000000000002e-07,25.28662504704,1.451537507392,45.049749994239995
1.515e-07,25.31787504896,1.453100007488,45.0247499968
1.52e-07,25.17725004032,1.454662507584,44.949750004479995
1.5250000000000002e-07,25.0678750336,1.451537507392,44.881000011519994
1.53e-07,25.13037503744,1.451537507392,44.881000011519994
1.5350000000000002e-07,25.31787504896,1.457787507776,44.93725000576
1.54e-07,25.3803750528,1.460912507968,44.9622500032
1.5450000000000001e-07,25.27100004608,1.460912507968,44.949750004479995
1.55e-07,25.0678750336,1.45622500768,44.94350000512
1.555e-07,25.0678750336,1.453100007488,44.97475000192
1.5600000000000002e-07,25.19287504128,1.451537507392,45.03099999616
1.565e-07,25.302250048,1.4484125072,45.06224999296
1.5700000000000002e-07,25.23975004416,1.4484125072,45.043499994879994
1.575e-07,25.08350003456,1.446850007104,44.99974999936
1.58e-07,25.02100003072,1.445287507008,44.94350000512
1.5850000000000002e-07,25.16162503936,1.446850007104,44.91225000832
1.59e-07,25.31787504896,1.449975007296,44.87475001216
1.5950000000000002e-07,25.33350004992,1.453100007488,44.818500017919995
1.6e-07,25.2241250432,1.459350007872,44.76850002304
1.6050000000000001e-07,25.11475003648,1.45622500768,44.7747500224
1.61e-07,25.1460000384,1.454662507584,44.84350001536
1.615e-07,25.25537504512,1.457787507776,44.92475000704
1.6200000000000002e-07,25.33350004992,1.459350007872,44.96850000256
1.625e-07,25.27100004608,1.454662507584,44.96850000256
1.6300000000000002e-07,25.13037503744,1.449975007296,44.96850000256
1.635e-07,25.08350003456,1.449975007296,44.97475000192
1.64e-07,25.09912503552,1.451537507392,44.96850000256
1.645e-07,25.16162503936,1.451537507392,44.9310000064
1.65e-07,25.16162503936,1.451537507392,44.8685000128
1.6550000000000002e-07,25.09912503552,1.449975007296,44.818500017919995
1.66e-07,25.05225003264,1.451537507392,44.793500020479996
