!Keysight Technologies,E5063A,MY54100949,A.07.30
!Date: Wed Nov 26 00:07:19 2025
!Data & Calibration Information:
!Freq	S11:SOLT1(ON)
# Hz S RI R 50
50000.000	-9.702267e-001	1.255277e-001
51995.000	-9.742679e-001	1.312441e-001
53990.000	-9.736846e-001	1.362639e-001
55985.000	-9.722607e-001	1.404549e-001
57980.000	-9.726248e-001	1.456725e-001
59975.000	-9.708276e-001	1.503532e-001
61970.000	-9.710584e-001	1.547890e-001
63965.000	-9.694043e-001	1.591315e-001
65960.000	-9.689206e-001	1.632524e-001
67955.000	-9.675821e-001	1.678219e-001
69950.000	-9.662611e-001	1.721192e-001
71945.000	-9.656102e-001	1.760051e-001
73940.000	-9.647205e-001	1.811163e-001
75935.000	-9.639283e-001	1.851482e-001
77930.000	-9.620598e-001	1.894795e-001
79925.000	-9.614529e-001	1.944236e-001
81920.000	-9.607994e-001	1.988714e-001
83915.000	-9.593226e-001	2.033245e-001
85910.000	-9.582413e-001	2.071242e-001
87905.000	-9.569768e-001	2.121837e-001
89900.000	-9.555507e-001	2.160245e-001
91895.000	-9.556782e-001	2.209819e-001
93890.000	-9.539769e-001	2.248799e-001
95885.000	-9.525382e-001	2.291529e-001
97880.000	-9.511178e-001	2.334241e-001
99875.000	-9.503018e-001	2.382584e-001
101870.000	-9.489405e-001	2.426602e-001
103865.000	-9.477976e-001	2.468624e-001
105860.000	-9.462581e-001	2.507893e-001
107855.000	-9.450242e-001	2.552182e-001
109850.000	-9.442610e-001	2.600735e-001
111845.000	-9.427291e-001	2.642790e-001
113840.000	-9.409666e-001	2.682249e-001
115835.000	-9.400822e-001	2.726553e-001
117830.000	-9.383298e-001	2.768354e-001
119825.000	-9.369647e-001	2.815421e-001
121820.000	-9.357587e-001	2.855345e-001
123815.000	-9.343767e-001	2.903100e-001
125810.000	-9.330035e-001	2.946022e-001
127805.000	-9.315238e-001	2.983932e-001
129800.000	-9.302082e-001	3.029902e-001
131795.000	-9.285541e-001	3.067818e-001
133790.000	-9.265699e-001	3.107941e-001
135785.000	-9.253980e-001	3.152442e-001
137780.000	-9.239593e-001	3.192589e-001
139775.000	-9.220618e-001	3.236096e-001
141770.000	-9.207411e-001	3.275604e-001
143765.000	-9.192158e-001	3.317223e-001
145760.000	-9.176858e-001	3.361223e-001
147755.000	-9.158828e-001	3.400930e-001
149750.000	-9.142849e-001	3.442717e-001
151745.000	-9.125688e-001	3.485631e-001
153740.000	-9.111630e-001	3.527894e-001
155735.000	-9.091281e-001	3.569079e-001
157730.000	-9.073836e-001	3.612867e-001
159725.000	-9.056570e-001	3.648257e-001
161720.000	-9.039809e-001	3.689357e-001
163715.000	-9.023299e-001	3.731126e-001
165710.000	-9.006758e-001	3.769811e-001
167705.000	-8.988076e-001	3.809995e-001
169700.000	-8.971424e-001	3.853158e-001
171695.000	-8.950295e-001	3.891146e-001
173690.000	-8.933262e-001	3.934454e-001
175685.000	-8.912131e-001	3.970413e-001
177680.000	-8.893454e-001	4.013287e-001
179675.000	-8.877204e-001	4.054068e-001
181670.000	-8.857608e-001	4.088536e-001
183665.000	-8.838179e-001	4.125772e-001
185660.000	-8.821043e-001	4.168297e-001
187655.000	-8.797712e-001	4.210504e-001
189650.000	-8.778656e-001	4.247288e-001
191645.000	-8.760525e-001	4.289708e-001
193640.000	-8.744321e-001	4.324725e-001
195635.000	-8.718699e-001	4.364966e-001
197630.000	-8.699003e-001	4.403558e-001
199625.000	-8.679890e-001	4.442668e-001
201620.000	-8.658171e-001	4.477009e-001
203615.000	-8.639519e-001	4.521010e-001
205610.000	-8.618579e-001	4.554479e-001
207605.000	-8.597824e-001	4.593211e-001
209600.000	-8.576593e-001	4.631267e-001
211595.000	-8.552984e-001	4.665604e-001
213590.000	-8.533184e-001	4.702479e-001
215585.000	-8.510901e-001	4.739333e-001
217580.000	-8.490434e-001	4.777725e-001
219575.000	-8.471460e-001	4.817710e-001
221570.000	-8.448538e-001	4.855254e-001
223565.000	-8.426466e-001	4.887772e-001
225560.000	-8.406939e-001	4.925119e-001
227555.000	-8.381235e-001	4.965063e-001
229550.000	-8.357208e-001	5.004556e-001
231545.000	-8.335760e-001	5.035427e-001
233540.000	-8.313667e-001	5.067841e-001
235535.000	-8.290434e-001	5.108809e-001
237530.000	-8.268135e-001	5.142642e-001
239525.000	-8.245665e-001	5.178745e-001
241520.000	-8.224440e-001	5.215753e-001
243515.000	-8.199727e-001	5.249876e-001
245510.000	-8.176882e-001	5.282631e-001
247505.000	-8.153431e-001	5.320173e-001
249500.000	-8.130830e-001	5.356130e-001
251495.000	-8.107652e-001	5.389209e-001
253490.000	-8.081082e-001	5.424183e-001
255485.000	-8.058796e-001	5.461964e-001
257480.000	-8.034200e-001	5.494973e-001
259475.000	-8.010685e-001	5.527972e-001
261470.000	-7.986913e-001	5.558742e-001
263465.000	-7.961881e-001	5.596089e-001
265460.000	-7.936601e-001	5.628106e-001
267455.000	-7.914408e-001	5.657964e-001
269450.000	-7.890286e-001	5.693822e-001
271445.000	-7.864453e-001	5.725782e-001
273440.000	-7.837851e-001	5.760797e-001
275435.000	-7.816798e-001	5.794225e-001
277430.000	-7.791698e-001	5.824247e-001
279425.000	-7.765412e-001	5.859085e-001
281420.000	-7.739262e-001	5.889684e-001
283415.000	-7.714830e-001	5.922342e-001
285410.000	-7.690975e-001	5.956678e-001
287405.000	-7.665601e-001	5.989073e-001
289400.000	-7.638433e-001	6.019598e-001
291395.000	-7.610332e-001	6.051567e-001
293390.000	-7.589267e-001	6.080872e-001
295385.000	-7.563824e-001	6.114918e-001
297380.000	-7.537121e-001	6.143362e-001
299375.000	-7.508818e-001	6.176117e-001
301370.000	-7.485454e-001	6.207307e-001
303365.000	-7.457526e-001	6.236085e-001
305360.000	-7.430197e-001	6.266815e-001
307355.000	-7.405417e-001	6.299040e-001
309350.000	-7.379774e-001	6.332431e-001
311345.000	-7.353533e-001	6.358980e-001
313340.000	-7.322237e-001	6.388550e-001
315335.000	-7.302140e-001	6.416558e-001
317330.000	-7.270900e-001	6.450108e-001
319325.000	-7.246943e-001	6.479218e-001
321320.000	-7.216939e-001	6.507863e-001
323315.000	-7.191315e-001	6.535517e-001
325310.000	-7.161043e-001	6.565823e-001
327305.000	-7.136912e-001	6.595236e-001
329300.000	-7.110813e-001	6.623011e-001
331295.000	-7.080884e-001	6.653971e-001
333290.000	-7.058240e-001	6.681071e-001
335285.000	-7.028545e-001	6.708224e-001
337280.000	-7.000281e-001	6.736728e-001
339275.000	-6.974574e-001	6.762356e-001
341270.000	-6.944067e-001	6.793800e-001
343265.000	-6.919592e-001	6.821617e-001
345260.000	-6.889281e-001	6.849453e-001
347255.000	-6.865229e-001	6.876166e-001
349250.000	-6.835473e-001	6.903468e-001
351245.000	-6.806644e-001	6.929890e-001
353240.000	-6.781740e-001	6.954671e-001
355235.000	-6.753098e-001	6.981424e-001
357230.000	-6.724250e-001	7.008413e-001
359225.000	-6.697238e-001	7.036353e-001
361220.000	-6.668837e-001	7.061344e-001
363215.000	-6.638700e-001	7.088605e-001
365210.000	-6.609810e-001	7.115942e-001
367205.000	-6.583806e-001	7.142553e-001
369200.000	-6.552071e-001	7.164699e-001
371195.000	-6.528727e-001	7.189774e-001
373190.000	-6.497640e-001	7.213211e-001
375185.000	-6.471486e-001	7.240938e-001
377180.000	-6.441295e-001	7.270152e-001
379175.000	-6.414175e-001	7.292959e-001
381170.000	-6.386607e-001	7.317017e-001
383165.000	-6.356098e-001	7.341070e-001
385160.000	-6.325883e-001	7.367199e-001
387155.000	-6.300755e-001	7.388672e-001
389150.000	-6.269893e-001	7.412801e-001
391145.000	-6.241137e-001	7.437154e-001
393140.000	-6.210896e-001	7.462257e-001
395135.000	-6.183815e-001	7.484782e-001
397130.000	-6.157435e-001	7.507288e-001
399125.000	-6.125712e-001	7.530730e-001
401120.000	-6.102067e-001	7.551450e-001
403115.000	-6.071558e-001	7.578481e-001
405110.000	-6.040495e-001	7.599601e-001
407105.000	-6.011737e-001	7.619127e-001
409100.000	-5.981406e-001	7.645926e-001
411095.000	-5.956667e-001	7.666357e-001
413090.000	-5.925614e-001	7.691038e-001
415085.000	-5.896162e-001	7.710651e-001
417080.000	-5.870610e-001	7.731814e-001
419075.000	-5.836381e-001	7.760274e-001
421070.000	-5.806338e-001	7.779086e-001
423065.000	-5.778138e-001	7.802282e-001
425060.000	-5.745618e-001	7.823935e-001
427055.000	-5.720214e-001	7.842164e-001
429050.000	-5.691540e-001	7.865474e-001
431045.000	-5.662147e-001	7.886397e-001
433040.000	-5.634993e-001	7.906057e-001
435035.000	-5.603448e-001	7.926346e-001
437030.000	-5.573505e-001	7.948280e-001
439025.000	-5.542615e-001	7.967158e-001
441020.000	-5.514639e-001	7.989507e-001
443015.000	-5.484611e-001	8.011013e-001
445010.000	-5.457409e-001	8.030579e-001
447005.000	-5.427236e-001	8.051736e-001
449000.000	-5.398681e-001	8.069184e-001
450995.000	-5.368853e-001	8.089610e-001
452990.000	-5.338424e-001	8.109635e-001
454985.000	-5.308249e-001	8.129387e-001
456980.000	-5.280093e-001	8.147941e-001
458975.000	-5.250629e-001	8.164922e-001
460970.000	-5.222434e-001	8.184792e-001
462965.000	-5.189636e-001	8.199180e-001
464960.000	-5.161785e-001	8.224264e-001
466955.000	-5.129828e-001	8.242788e-001
468950.000	-5.102601e-001	8.261483e-001
470945.000	-5.071435e-001	8.278685e-001
472940.000	-5.045896e-001	8.294421e-001
474935.000	-5.013371e-001	8.312548e-001
476930.000	-4.982704e-001	8.331649e-001
478925.000	-4.957862e-001	8.347128e-001
480920.000	-4.924205e-001	8.366565e-001
482915.000	-4.896560e-001	8.382669e-001
484910.000	-4.866256e-001	8.402758e-001
486905.000	-4.834925e-001	8.419939e-001
488900.000	-4.805922e-001	8.437258e-001
490895.000	-4.777405e-001	8.450947e-001
492890.000	-4.746749e-001	8.466344e-001
494885.000	-4.716459e-001	8.486764e-001
496880.000	-4.688131e-001	8.502491e-001
498875.000	-4.659081e-001	8.519477e-001
500870.000	-4.630340e-001	8.531917e-001
502865.000	-4.597758e-001	8.550254e-001
504860.000	-4.571995e-001	8.566948e-001
506855.000	-4.538742e-001	8.582347e-001
508850.000	-4.511219e-001	8.596219e-001
510845.000	-4.481856e-001	8.612357e-001
512840.000	-4.452413e-001	8.628823e-001
514835.000	-4.422857e-001	8.645187e-001
516830.000	-4.393311e-001	8.658466e-001
518825.000	-4.367877e-001	8.674141e-001
520820.000	-4.335722e-001	8.689925e-001
522815.000	-4.304283e-001	8.704953e-001
524810.000	-4.274757e-001	8.718267e-001
526805.000	-4.246744e-001	8.730862e-001
528800.000	-4.214654e-001	8.747863e-001
530795.000	-4.191579e-001	8.759709e-001
532790.000	-4.159020e-001	8.773493e-001
534785.000	-4.127485e-001	8.789769e-001
536780.000	-4.101235e-001	8.803858e-001
538775.000	-4.067948e-001	8.819354e-001
540770.000	-4.036958e-001	8.831426e-001
542765.000	-4.012948e-001	8.838424e-001
544760.000	-3.982919e-001	8.856286e-001
546755.000	-3.953925e-001	8.869819e-001
548750.000	-3.923476e-001	8.885016e-001
550745.000	-3.895832e-001	8.893977e-001
552740.000	-3.862442e-001	8.909325e-001
554735.000	-3.830656e-001	8.922694e-001
556730.000	-3.801256e-001	8.935856e-001
558725.000	-3.778533e-001	8.948112e-001
560720.000	-3.747185e-001	8.961919e-001
562715.000	-3.717758e-001	8.976157e-001
564710.000	-3.689733e-001	8.985685e-001
566705.000	-3.658946e-001	8.994265e-001
568700.000	-3.631722e-001	9.006897e-001
570695.000	-3.600736e-001	9.018529e-001
572690.000	-3.573910e-001	9.036047e-001
574685.000	-3.543413e-001	9.043896e-001
576680.000	-3.516200e-001	9.054331e-001
578675.000	-3.489491e-001	9.069448e-001
580670.000	-3.458640e-001	9.075147e-001
582665.000	-3.429041e-001	9.084134e-001
584660.000	-3.399585e-001	9.100297e-001
586655.000	-3.368981e-001	9.112723e-001
588650.000	-3.342673e-001	9.123088e-001
590645.000	-3.310159e-001	9.135231e-001
592640.000	-3.282893e-001	9.146222e-001
594635.000	-3.252503e-001	9.155922e-001
596630.000	-3.225983e-001	9.163638e-001
598625.000	-3.197090e-001	9.176475e-001
600620.000	-3.169982e-001	9.186136e-001
602615.000	-3.139154e-001	9.192415e-001
604610.000	-3.111320e-001	9.204436e-001
606605.000	-3.083746e-001	9.213603e-001
608600.000	-3.057450e-001	9.222542e-001
610595.000	-3.026962e-001	9.233564e-001
612590.000	-3.000412e-001	9.242694e-001
614585.000	-2.969376e-001	9.255740e-001
616580.000	-2.944898e-001	9.262904e-001
618575.000	-2.914061e-001	9.271301e-001
620570.000	-2.882772e-001	9.280317e-001
622565.000	-2.853260e-001	9.288950e-001
624560.000	-2.829666e-001	9.298166e-001
626555.000	-2.799001e-001	9.308566e-001
628550.000	-2.771513e-001	9.314705e-001
630545.000	-2.744083e-001	9.320769e-001
632540.000	-2.715530e-001	9.331810e-001
634535.000	-2.690947e-001	9.340007e-001
636530.000	-2.660777e-001	9.350704e-001
638525.000	-2.632753e-001	9.357307e-001
640520.000	-2.605817e-001	9.363542e-001
642515.000	-2.579954e-001	9.374180e-001
644510.000	-2.552468e-001	9.383364e-001
646505.000	-2.520483e-001	9.390684e-001
648500.000	-2.493650e-001	9.396467e-001
650495.000	-2.465491e-001	9.405988e-001
652490.000	-2.442082e-001	9.408154e-001
654485.000	-2.413623e-001	9.420551e-001
656480.000	-2.383278e-001	9.427159e-001
658475.000	-2.354978e-001	9.436257e-001
660470.000	-2.326957e-001	9.439559e-001
662465.000	-2.298560e-001	9.447633e-001
664460.000	-2.272530e-001	9.452668e-001
666455.000	-2.244417e-001	9.463953e-001
668450.000	-2.217247e-001	9.468282e-001
670445.000	-2.191123e-001	9.476948e-001
672440.000	-2.162527e-001	9.483594e-001
674435.000	-2.132971e-001	9.487514e-001
676430.000	-2.108545e-001	9.491608e-001
678425.000	-2.079091e-001	9.501402e-001
680420.000	-2.052805e-001	9.509798e-001
682415.000	-2.026757e-001	9.511338e-001
684410.000	-2.000639e-001	9.519798e-001
686405.000	-1.972196e-001	9.523966e-001
688400.000	-1.944125e-001	9.531235e-001
690395.000	-1.916145e-001	9.534695e-001
692390.000	-1.891338e-001	9.540662e-001
694385.000	-1.863056e-001	9.546962e-001
696380.000	-1.837378e-001	9.551801e-001
698375.000	-1.810060e-001	9.561547e-001
700370.000	-1.785563e-001	9.562402e-001
702365.000	-1.759061e-001	9.570003e-001
704360.000	-1.730579e-001	9.575982e-001
706355.000	-1.704689e-001	9.578321e-001
708350.000	-1.679005e-001	9.584718e-001
710345.000	-1.651478e-001	9.588793e-001
712340.000	-1.625713e-001	9.596170e-001
714335.000	-1.601124e-001	9.600190e-001
716330.000	-1.573776e-001	9.601570e-001
718325.000	-1.546403e-001	9.605914e-001
720320.000	-1.520794e-001	9.611524e-001
722315.000	-1.493780e-001	9.616082e-001
724310.000	-1.467349e-001	9.620740e-001
726305.000	-1.443059e-001	9.627700e-001
728300.000	-1.414936e-001	9.631146e-001
730295.000	-1.386892e-001	9.637251e-001
732290.000	-1.362047e-001	9.638833e-001
734285.000	-1.338673e-001	9.643412e-001
736280.000	-1.311140e-001	9.646540e-001
738275.000	-1.287917e-001	9.648104e-001
740270.000	-1.259504e-001	9.653174e-001
742265.000	-1.232840e-001	9.658478e-001
744260.000	-1.208910e-001	9.659267e-001
746255.000	-1.182622e-001	9.664242e-001
748250.000	-1.154524e-001	9.667164e-001
750245.000	-1.130665e-001	9.671866e-001
752240.000	-1.108693e-001	9.674016e-001
754235.000	-1.082446e-001	9.676624e-001
756230.000	-1.056679e-001	9.679391e-001
758225.000	-1.030691e-001	9.683984e-001
760220.000	-1.003193e-001	9.686125e-001
762215.000	-9.809865e-002	9.687571e-001
764210.000	-9.562392e-002	9.691880e-001
766205.000	-9.262882e-002	9.693160e-001
768200.000	-9.055774e-002	9.699200e-001
770195.000	-8.778134e-002	9.701207e-001
772190.000	-8.540095e-002	9.702232e-001
774185.000	-8.265479e-002	9.702482e-001
776180.000	-8.028237e-002	9.708773e-001
778175.000	-7.796946e-002	9.709121e-001
780170.000	-7.547305e-002	9.707707e-001
782165.000	-7.267409e-002	9.713984e-001
784160.000	-7.035109e-002	9.715947e-001
786155.000	-6.781776e-002	9.717918e-001
788150.000	-6.540463e-002	9.719038e-001
790145.000	-6.303371e-002	9.723864e-001
792140.000	-6.052079e-002	9.723965e-001
794135.000	-5.798356e-002	9.726472e-001
796130.000	-5.567949e-002	9.725216e-001
798125.000	-5.333871e-002	9.726941e-001
800120.000	-5.072377e-002	9.727777e-001
802115.000	-4.839441e-002	9.734591e-001
804110.000	-4.593745e-002	9.734240e-001
806105.000	-4.333282e-002	9.736616e-001
808100.000	-4.102410e-002	9.736317e-001
810095.000	-3.892655e-002	9.736882e-001
812090.000	-3.631585e-002	9.735929e-001
814085.000	-3.387693e-002	9.743271e-001
816080.000	-3.173505e-002	9.741753e-001
818075.000	-2.926220e-002	9.741182e-001
820070.000	-2.636878e-002	9.742587e-001
822065.000	-2.453331e-002	9.745852e-001
824060.000	-2.227186e-002	9.744356e-001
826055.000	-1.974633e-002	9.744583e-001
828050.000	-1.743652e-002	9.745955e-001
830045.000	-1.506422e-002	9.746066e-001
832040.000	-1.265405e-002	9.746530e-001
834035.000	-1.025561e-002	9.748389e-001
836030.000	-8.017188e-003	9.747110e-001
838025.000	-5.351806e-003	9.750062e-001
840020.000	-3.421364e-003	9.751332e-001
842015.000	-4.872332e-004	9.750942e-001
844010.000	1.341165e-003	9.750037e-001
846005.000	3.687022e-003	9.751007e-001
848000.000	5.992257e-003	9.753215e-001
849995.000	8.187646e-003	9.751182e-001
851990.000	1.039160e-002	9.752636e-001
853985.000	1.250443e-002	9.752958e-001
855980.000	1.524476e-002	9.751208e-001
857975.000	1.745726e-002	9.753342e-001
859970.000	1.971243e-002	9.751028e-001
861965.000	2.205208e-002	9.749841e-001
863960.000	2.414315e-002	9.753990e-001
865955.000	2.631143e-002	9.749510e-001
867950.000	2.880874e-002	9.753309e-001
869945.000	3.089661e-002	9.749779e-001
871940.000	3.338387e-002	9.749069e-001
873935.000	3.563609e-002	9.747027e-001
875930.000	3.753840e-002	9.750225e-001
877925.000	4.015385e-002	9.747416e-001
879920.000	4.204612e-002	9.746297e-001
881915.000	4.461234e-002	9.746907e-001
883910.000	4.691288e-002	9.748170e-001
885905.000	4.879911e-002	9.743947e-001
887900.000	5.089806e-002	9.746955e-001
889895.000	5.314989e-002	9.745381e-001
891890.000	5.575955e-002	9.740482e-001
893885.000	5.758935e-002	9.742974e-001
895880.000	5.965605e-002	9.739258e-001
897875.000	6.201311e-002	9.738877e-001
899870.000	6.427631e-002	9.739055e-001
901865.000	6.624810e-002	9.737545e-001
903860.000	6.832537e-002	9.735381e-001
905855.000	7.056020e-002	9.734571e-001
907850.000	7.289552e-002	9.737137e-001
909845.000	7.527636e-002	9.733029e-001
911840.000	7.718408e-002	9.729223e-001
913835.000	7.930231e-002	9.733311e-001
915830.000	8.138959e-002	9.728036e-001
917825.000	8.321233e-002	9.727279e-001
919820.000	8.568028e-002	9.726421e-001
921815.000	8.757449e-002	9.724673e-001
923810.000	8.978373e-002	9.722055e-001
925805.000	9.166725e-002	9.722969e-001
927800.000	9.372434e-002	9.716973e-001
929795.000	9.615340e-002	9.717966e-001
931790.000	9.802905e-002	9.713298e-001
933785.000	1.003224e-001	9.713818e-001
935780.000	1.027722e-001	9.712604e-001
937775.000	1.047114e-001	9.711301e-001
939770.000	1.068569e-001	9.706689e-001
941765.000	1.083361e-001	9.705073e-001
943760.000	1.107953e-001	9.703863e-001
945755.000	1.126847e-001	9.702409e-001
947750.000	1.146041e-001	9.699286e-001
949745.000	1.167330e-001	9.696981e-001
951740.000	1.187902e-001	9.695586e-001
953735.000	1.207847e-001	9.692275e-001
955730.000	1.230715e-001	9.689268e-001
957725.000	1.250241e-001	9.687441e-001
959720.000	1.269287e-001	9.686672e-001
961715.000	1.289884e-001	9.681694e-001
963710.000	1.312078e-001	9.680748e-001
965705.000	1.332950e-001	9.677688e-001
967700.000	1.352478e-001	9.676267e-001
969695.000	1.370480e-001	9.674352e-001
971690.000	1.391435e-001	9.671873e-001
973685.000	1.411412e-001	9.668943e-001
975680.000	1.433650e-001	9.666757e-001
977675.000	1.450799e-001	9.663352e-001
979670.000	1.471579e-001	9.659983e-001
981665.000	1.492007e-001	9.658521e-001
983660.000	1.510985e-001	9.655533e-001
985655.000	1.530945e-001	9.653622e-001
987650.000	1.549453e-001	9.646400e-001
989645.000	1.570196e-001	9.649486e-001
991640.000	1.590320e-001	9.641132e-001
993635.000	1.606714e-001	9.638225e-001
995630.000	1.629397e-001	9.638201e-001
997625.000	1.643714e-001	9.635524e-001
999620.000	1.665870e-001	9.634602e-001
1001615.000	1.684964e-001	9.631055e-001
1003610.000	1.702250e-001	9.626011e-001
1005605.000	1.722715e-001	9.622668e-001
1007600.000	1.742891e-001	9.618013e-001
1009595.000	1.760773e-001	9.617314e-001
1011590.000	1.781361e-001	9.615369e-001
1013585.000	1.800877e-001	9.611410e-001
1015580.000	1.819012e-001	9.607713e-001
1017575.000	1.835628e-001	9.604834e-001
1019570.000	1.858752e-001	9.600064e-001
1021565.000	1.874494e-001	9.597471e-001
1023560.000	1.896952e-001	9.596910e-001
1025555.000	1.913562e-001	9.590256e-001
1027550.000	1.927451e-001	9.591077e-001
1029545.000	1.947037e-001	9.585519e-001
1031540.000	1.965221e-001	9.582148e-001
1033535.000	1.983919e-001	9.576841e-001
1035530.000	2.001671e-001	9.575638e-001
1037525.000	2.023730e-001	9.571336e-001
1039520.000	2.039776e-001	9.567128e-001
1041515.000	2.060616e-001	9.564085e-001
