VIN,V_IN,I_IN,P_IN,V_OUT,I_OUT,P_OUT,V_GS_A_pp,V_GS_A_amp,V_GS_A_max,V_GS_A_top,V_GS_A_min,V_GS_A_bot,V_GS_B_pp,V_GS_B_amp,V_GS_B_max,V_GS_B_top,V_GS_B_min,V_GS_B_bot,V_DS_A_pp,V_DS_A_amp,V_DS_A_max,V_DS_A_top,V_DS_A_min,V_DS_A_bot,V_DS_B_pp
18.0,18.070783,1.22902883,22.20951328767389,0.003405837,0.001588873,3.555576e-07,7.25,5.0,5.38,4.94,-1.88,-0.06,8.5,5.0,5.75,4.88,-2.75,-0.13,41.3,40.0,38.1,38.1,-3.1,-1.9,38.8
18.5,18.580836,1.26616798,23.526459584831283,0.003466914,0.001572312,6.979469e-07,7.25,5.0,5.38,4.94,-1.88,-0.06,8.38,5.0,5.69,4.88,-2.69,-0.13,42.5,41.9,39.4,39.4,-3.1,-1.9,40.6
19.0,19.089988,1.30324665,24.878962909540203,0.003729735,0.001499432,5.358693e-07,7.25,5.0,5.38,4.94,-1.88,-0.06,8.38,4.94,5.69,4.88,-2.75,-0.13,43.8,41.9,40.6,40.6,-3.1,-1.9,41.9
19.5,19.598361,1.34037255,26.26910510939055,0.003916475,0.001466318,8.701546e-07,7.13,5.0,5.38,4.94,-1.88,-0.06,8.38,5.0,5.69,4.88,-2.69,-0.13,45.0,38.1,41.3,41.9,-3.1,-1.9,42.5
20.0,20.107086,1.37770373,27.701607381630776,0.003538383,0.001575363,8.046468e-07,7.25,5.0,5.38,4.94,-1.88,-0.06,8.44,5.0,5.69,4.94,-2.69,-0.13,45.6,44.4,42.5,43.8,-3.1,-1.9,43.8
20.5,20.617512,1.41526601,29.179263944367122,0.003648165,0.001531166,3.48467e-07,7.19,5.0,5.38,4.94,-1.81,-0.06,8.44,5.0,5.69,4.88,-2.75,-0.13,47.5,46.3,44.4,43.8,-3.1,-1.9,44.4
21.0,21.126572,1.45287111,30.69418611213492,0.003642152,0.001451437,6.37843e-07,7.19,5.0,5.38,4.94,-1.81,-0.06,8.38,5.0,5.69,4.88,-2.69,-0.13,48.8,46.9,45.0,44.4,-3.1,-1.9,46.3
21.5,21.637095,1.49086305,32.25794544483975,0.003481472,0.00148643,5.456611e-07,7.19,5.0,5.38,4.94,-1.81,-0.06,8.38,5.0,5.69,4.88,-2.69,-0.13,49.4,48.1,46.9,40.0,-3.1,-1.9,46.9
22.0,22.14571,1.52855277,33.8508863641167,0.003392698,0.001468071,4.187011e-07,7.19,5.06,5.38,4.94,-1.88,-0.13,8.38,5.0,5.69,4.88,-2.75,-0.13,50.6,49.4,46.9,47.5,-3.1,-1.9,48.1
22.5,22.655048,1.56622839,35.48297935441272,0.003510643,0.001519995,7.067255e-07,7.25,5.0,5.38,4.94,-1.88,-0.06,8.38,5.0,5.69,4.88,-2.75,-0.13,51.9,50.6,48.8,48.8,-3.1,-1.9,49.4
23.0,23.163137,1.6035261,37.1426947373757,0.003536242,0.001464149,2.944408e-07,7.25,5.0,5.38,4.94,-1.88,-0.06,8.38,5.0,5.69,4.88,-2.69,-0.13,53.8,51.3,49.4,49.4,-3.8,-1.9,50.0
23.5,23.671911,1.64061062,38.83638858229482,0.003735266,0.001501506,6.449338e-07,7.25,5.06,5.38,4.94,-1.88,-0.06,8.38,5.0,5.69,4.88,-2.75,-0.13,53.8,52.5,50.6,50.6,-3.1,-1.9,51.3
24.0,24.178849,1.67780271,40.56733837688079,0.003643657,0.001537955,9.164139e-07,7.31,4.94,5.38,4.94,-1.94,-0.06,8.38,5.0,5.63,4.88,-2.75,-0.13,54.4,53.8,51.3,51.9,-3.8,-1.9,51.3
24.5,24.694386,1.7140874,42.3283358933364,0.003637521,0.001524925,7.617642e-07,7.25,5.0,5.31,4.94,-1.88,-0.06,8.44,5.0,5.69,4.88,-2.75,-0.13,56.3,55.0,53.1,53.1,-3.8,-1.9,53.8
25.0,25.202245,1.75091607,44.12701577057715,0.003556087,0.001583115,8.583365e-07,7.19,4.94,5.31,4.88,-1.88,-0.06,8.44,5.0,5.69,4.88,-2.75,-0.13,58.1,56.3,53.8,53.8,-3.1,-1.9,55.0
25.5,25.720701,1.78828123,45.99584682074222,0.003850274,0.001568307,9.717893e-07,7.25,5.0,5.31,4.88,-1.88,-0.13,8.44,5.0,5.69,4.88,-2.75,-0.13,58.8,56.9,55.0,55.0,-3.8,-1.9,54.4
26.0,26.226834,1.82511558,47.86700334747372,0.003756419,0.001547774,8.921013e-07,7.25,4.94,5.38,4.88,-1.88,-0.06,8.44,5.0,5.69,4.88,-2.75,-0.13,58.8,57.5,55.6,55.6,-3.8,-1.9,57.5
26.5,26.733605,1.86251327,49.79169406743835,0.003688947,0.001509322,6.932192e-07,7.31,4.94,5.38,4.88,-1.94,-0.06,8.44,5.0,5.69,4.88,-2.75,-0.13,60.6,58.8,56.9,57.5,-3.8,-1.9,56.3
27.0,27.133828,1.90158778,51.597355749421844,0.003680367,0.001564636,1.286492e-06,7.31,5.0,5.38,4.88,-1.94,-0.06,8.5,5.0,5.75,4.88,-2.81,-0.13,61.3,60.0,58.1,57.5,-3.1,-1.9,60.6
27.5,27.677253,1.93910175,53.66900972749275,0.003512086,0.001591255,5.858424e-07,7.31,5.0,5.38,4.94,-2.0,-0.06,8.63,5.0,5.69,4.88,-2.81,-0.13,62.5,61.3,58.8,58.8,-4.4,-1.9,61.9
28.0,28.187941,1.97545312,55.68395599482592,0.003387227,0.001621192,5.399207e-07,7.44,5.0,5.38,4.94,-1.94,-0.06,8.5,5.06,5.81,4.88,-2.81,-0.13,63.8,62.5,60.0,60.0,-3.8,-1.9,63.1
