Time (s),VIN,IIN,VOUT
0.0,25.08712503552,1.187662507008,40.51174999424
5e-10,25.18087504128,1.189225007104,40.52424999296
1e-09,25.22775004416,1.193912507392,40.5179999936
1.5000000000000002e-09,25.14962503936,1.193912507392,40.4867499968
2e-09,25.00900003072,1.195475007488,40.436750001920004
2.5e-09,24.9777500288,1.1907875072,40.41175000448
3.0000000000000004e-09,25.11837503744,1.1907875072,40.4242500032
3.5000000000000003e-09,25.25900004608,1.193912507392,40.436750001920004
4e-09,25.25900004608,1.195475007488,40.405500005120004
4.500000000000001e-09,25.16525004032,1.195475007488,40.374250008320004
5e-09,25.11837503744,1.193912507392,40.374250008320004
5.5000000000000004e-09,25.18087504128,1.195475007488,40.41800000384
6.000000000000001e-09,25.27462504704,1.197037507584,40.47424999808
6.5e-09,25.27462504704,1.195475007488,40.52424999296
7.000000000000001e-09,25.19650004224,1.195475007488,40.5179999936
7.500000000000001e-09,25.02462503168,1.192350007296,40.51174999424
8e-09,25.04025003264,1.1907875072,40.52424999296
8.5e-09,25.08712503552,1.192350007296,40.5492499904
9.000000000000001e-09,25.16525004032,1.195475007488,40.5492499904
9.5e-09,25.1340000384,1.193912507392,40.52424999296
1e-08,25.07150003456,1.195475007488,40.48049999744
1.0500000000000001e-08,25.0558750336,1.195475007488,40.4555
1.1000000000000001e-08,25.16525004032,1.197037507584,40.48049999744
1.15e-08,25.32150004992,1.197037507584,40.51174999424
1.2000000000000002e-08,25.35275005184,1.195475007488,40.50549999488
1.2500000000000001e-08,25.25900004608,1.192350007296,40.49924999552
1.3e-08,25.1340000384,1.192350007296,40.53049999232
1.35e-08,25.11837503744,1.189225007104,40.599249985280004
1.4000000000000001e-08,25.18087504128,1.189225007104,40.65549997952
1.45e-08,25.22775004416,1.189225007104,40.6742499776
1.5000000000000002e-08,25.19650004224,1.1907875072,40.62424998272
1.55e-08,25.0558750336,1.1907875072,40.57424998784
1.6e-08,25.00900003072,1.1907875072,40.53674999168
1.6500000000000002e-08,25.0558750336,1.192350007296,40.5179999936
1.7e-08,25.16525004032,1.195475007488,40.49299999616
1.75e-08,25.22775004416,1.195475007488,40.48049999744
1.8000000000000002e-08,25.2121250432,1.197037507584,40.436750001920004
1.85e-08,25.14962503936,1.197037507584,40.41800000384
1.9e-08,25.14962503936,1.19860000768,40.4555
1.9500000000000003e-08,25.25900004608,1.200162507776,40.4867499968
2e-08,25.32150004992,1.197037507584,40.5179999936
2.05e-08,25.25900004608,1.192350007296,40.53049999232
2.1000000000000003e-08,25.14962503936,1.189225007104,40.56174998912
2.15e-08,25.08712503552,1.189225007104,40.58674998656
2.2000000000000002e-08,25.11837503744,1.192350007296,40.57424998784
2.2500000000000003e-08,25.18087504128,1.192350007296,40.5492499904
2.3e-08,25.16525004032,1.193912507392,40.51174999424
2.3500000000000002e-08,25.11837503744,1.197037507584,40.48049999744
2.4000000000000003e-08,25.0558750336,1.19860000768,40.46174999936
2.45e-08,25.04025003264,1.197037507584,40.4555
2.5000000000000002e-08,25.11837503744,1.19860000768,40.44925000064
2.55e-08,25.19650004224,1.19860000768,40.48049999744
2.6e-08,25.24337504512,1.197037507584,40.49924999552
2.6500000000000002e-08,25.18087504128,1.192350007296,40.5179999936
2.7e-08,25.11837503744,1.193912507392,40.5492499904
2.75e-08,25.1340000384,1.193912507392,40.5492499904
2.8000000000000003e-08,25.19650004224,1.1907875072,40.54299999104
2.85e-08,25.24337504512,1.1907875072,40.5492499904
2.9e-08,25.18087504128,1.192350007296,40.567999988480004
2.9500000000000003e-08,25.10275003648,1.193912507392,40.55549998976
3.0000000000000004e-08,25.04025003264,1.195475007488,40.5179999936
3.05e-08,25.07150003456,1.195475007488,40.49924999552
3.1e-08,25.14962503936,1.193912507392,40.49299999616
3.1500000000000004e-08,25.14962503936,1.197037507584,40.5179999936
3.2e-08,25.14962503936,1.200162507776,40.53674999168
3.25e-08,25.11837503744,1.200162507776,40.52424999296
3.3000000000000004e-08,25.16525004032,1.19860000768,40.49299999616
3.35e-08,25.2121250432,1.193912507392,40.49299999616
3.4e-08,25.24337504512,1.193912507392,40.49299999616
3.4500000000000005e-08,25.19650004224,1.192350007296,40.49924999552
3.5e-08,25.10275003648,1.193912507392,40.51174999424
3.55e-08,25.07150003456,1.193912507392,40.49924999552
3.6000000000000005e-08,25.0558750336,1.192350007296,40.4867499968
3.65e-08,25.10275003648,1.192350007296,40.49299999616
3.7e-08,25.08712503552,1.195475007488,40.51174999424
3.7500000000000005e-08,25.07150003456,1.195475007488,40.51174999424
3.8e-08,25.04025003264,1.195475007488,40.46799999872
3.85e-08,25.07150003456,1.195475007488,40.41175000448
3.9000000000000005e-08,25.19650004224,1.195475007488,40.38675000704
3.95e-08,25.25900004608,1.195475007488,40.405500005120004
4e-08,25.27462504704,1.197037507584,40.41800000384
4.0500000000000005e-08,25.2121250432,1.197037507584,40.39925000576
4.1e-08,25.14962503936,1.195475007488,40.36800000896
4.15e-08,25.14962503936,1.195475007488,40.36800000896
4.2000000000000006e-08,25.2121250432,1.197037507584,40.39925000576
4.2500000000000003e-08,25.2121250432,1.197037507584,40.43050000256
4.3e-08,25.18087504128,1.197037507584,40.44925000064
4.3500000000000006e-08,25.1340000384,1.195475007488,40.4242500032
4.4000000000000004e-08,25.08712503552,1.192350007296,40.38050000768
4.45e-08,25.11837503744,1.1907875072,40.34925001088
4.5000000000000006e-08,25.19650004224,1.193912507392,40.33675001216
4.5500000000000004e-08,25.24337504512,1.193912507392,40.3305000128
4.6e-08,25.18087504128,1.193912507392,40.31800001408
4.6500000000000006e-08,25.11837503744,1.192350007296,40.34300001152
4.7000000000000004e-08,25.11837503744,1.193912507392,40.38050000768
4.75e-08,25.18087504128,1.195475007488,40.43050000256
4.8000000000000006e-08,25.25900004608,1.195475007488,40.44300000128
4.8500000000000004e-08,25.24337504512,1.200162507776,40.436750001920004
4.9e-08,25.19650004224,1.201725007872,40.436750001920004
4.95e-08,25.16525004032,1.200162507776,40.49299999616
5.0000000000000004e-08,25.2121250432,1.195475007488,40.49924999552
5.05e-08,25.25900004608,1.192350007296,40.44925000064
5.1e-08,25.24337504512,1.193912507392,40.3617500096
5.1500000000000005e-08,25.19650004224,1.195475007488,40.28675001728
5.2e-08,25.10275003648,1.195475007488,40.25550002048
5.25e-08,25.0558750336,1.193912507392,40.29300001664
5.3000000000000005e-08,25.10275003648,1.192350007296,40.299250016
5.35e-08,25.16525004032,1.193912507392,40.28675001728
5.4e-08,25.16525004032,1.19860000768,40.243000021760004
5.4500000000000005e-08,25.1340000384,1.197037507584,40.2680000192
5.5e-08,25.14962503936,1.197037507584,40.33675001216
5.55e-08,25.22775004416,1.195475007488,40.38675000704
5.6000000000000005e-08,25.32150004992,1.193912507392,40.3617500096
5.65e-08,25.30587504896,1.1907875072,40.28050001792
5.7e-08,25.2121250432,1.193912507392,40.211750024960004
5.7500000000000005e-08,25.11837503744,1.192350007296,40.211750024960004
5.8e-08,25.10275003648,1.1907875072,40.2367500224
5.85e-08,25.16525004032,1.189225007104,40.23050002304
5.9000000000000006e-08,25.18087504128,1.189225007104,40.18675002752
5.9500000000000003e-08,25.10275003648,1.192350007296,40.15550003072
6.000000000000001e-08,24.99337502976,1.193912507392,40.16800002944
6.05e-08,25.04025003264,1.192350007296,40.25550002048
6.1e-08,25.18087504128,1.192350007296,40.32425001344
6.15e-08,25.32150004992,1.192350007296,40.34300001152
6.2e-08,25.32150004992,1.193912507392,40.274250018560004
6.250000000000001e-08,25.2121250432,1.193912507392,40.211750024960004
6.300000000000001e-08,25.14962503936,1.195475007488,40.18675002752
6.35e-08,25.16525004032,1.195475007488,40.21800002432
6.4e-08,25.27462504704,1.193912507392,40.23050002304
6.45e-08,25.25900004608,1.193912507392,40.19300002688
6.5e-08,25.1340000384,1.197037507584,40.13050003328
6.55e-08,24.96212502784,1.195475007488,40.11800003456
6.600000000000001e-08,24.96212502784,1.19860000768,40.14925003136
6.65e-08,25.08712503552,1.195475007488,40.2055000256
6.7e-08,25.19650004224,1.193912507392,40.2367500224
6.75e-08,25.18087504128,1.193912507392,40.22425002368
6.8e-08,25.08712503552,1.195475007488,40.19925002624
6.85e-08,25.07150003456,1.193912507392,40.19925002624
6.900000000000001e-08,25.16525004032,1.192350007296,40.211750024960004
6.950000000000001e-08,25.27462504704,1.189225007104,40.2367500224
7e-08,25.290250048,1.192350007296,40.21800002432
7.05e-08,25.16525004032,1.192350007296,40.16800002944
7.1e-08,25.07150003456,1.193912507392,40.13050003328
7.15e-08,25.02462503168,1.193912507392,40.143000032
7.200000000000001e-08,25.10275003648,1.192350007296,40.16800002944
7.250000000000001e-08,25.11837503744,1.192350007296,40.1742500288
7.3e-08,25.1340000384,1.195475007488,40.14925003136
7.35e-08,25.07150003456,1.195475007488,40.10550003584
7.4e-08,25.04025003264,1.193912507392,40.06175004032
7.45e-08,25.07150003456,1.193912507392,40.049250041600004
7.500000000000001e-08,25.16525004032,1.193912507392,40.08675003776
7.550000000000001e-08,25.22775004416,1.195475007488,40.11800003456
7.6e-08,25.2121250432,1.193912507392,40.11800003456
7.65e-08,25.14962503936,1.197037507584,40.09925003648
7.7e-08,25.08712503552,1.195475007488,40.08675003776
7.75e-08,25.11837503744,1.192350007296,40.13675003264
7.800000000000001e-08,25.14962503936,1.192350007296,40.19300002688
7.850000000000001e-08,25.16525004032,1.192350007296,40.2367500224
7.9e-08,25.11837503744,1.193912507392,40.22425002368
7.95e-08,25.04025003264,1.195475007488,40.18050002816
8e-08,25.0558750336,1.193912507392,40.14925003136
8.05e-08,25.10275003648,1.1907875072,40.15550003072
8.100000000000001e-08,25.19650004224,1.193912507392,40.18675002752
8.150000000000001e-08,25.2121250432,1.193912507392,40.19300002688
8.2e-08,25.19650004224,1.193912507392,40.143000032
8.25e-08,25.11837503744,1.195475007488,40.11800003456
8.3e-08,25.16525004032,1.19860000768,40.14925003136
8.35e-08,25.24337504512,1.19860000768,40.23050002304
8.400000000000001e-08,25.25900004608,1.197037507584,40.28050001792
8.450000000000001e-08,25.2121250432,1.197037507584,40.26175001984
8.500000000000001e-08,25.07150003456,1.197037507584,40.18675002752
8.55e-08,25.02462503168,1.197037507584,40.14925003136
8.6e-08,25.07150003456,1.197037507584,40.14925003136
8.65e-08,25.16525004032,1.197037507584,40.1742500288
8.700000000000001e-08,25.22775004416,1.195475007488,40.14925003136
8.750000000000001e-08,25.14962503936,1.193912507392,40.08675003776
8.800000000000001e-08,25.07150003456,1.192350007296,40.02425004416
8.85e-08,25.10275003648,1.193912507392,40.03050004352
8.9e-08,25.24337504512,1.195475007488,40.10550003584
8.95e-08,25.38400005376,1.193912507392,40.19300002688
9.000000000000001e-08,25.35275005184,1.193912507392,40.21800002432
9.050000000000001e-08,25.2121250432,1.193912507392,40.18675002752
9.100000000000001e-08,25.1340000384,1.193912507392,40.1742500288
9.15e-08,25.19650004224,1.193912507392,40.19925002624
9.2e-08,25.25900004608,1.193912507392,40.22425002368
9.25e-08,25.24337504512,1.195475007488,40.21800002432
9.300000000000001e-08,25.11837503744,1.193912507392,40.14925003136
9.350000000000001e-08,24.9777500288,1.192350007296,40.09300003712
9.400000000000001e-08,25.02462503168,1.193912507392,40.06175004032
9.45e-08,25.16525004032,1.193912507392,40.09300003712
9.5e-08,25.25900004608,1.192350007296,40.12425003392
9.55e-08,25.22775004416,1.193912507392,40.14925003136
9.600000000000001e-08,25.16525004032,1.193912507392,40.15550003072
9.650000000000001e-08,25.11837503744,1.193912507392,40.18050002816
9.700000000000001e-08,25.19650004224,1.195475007488,40.22425002368
9.75e-08,25.290250048,1.195475007488,40.28050001792
9.8e-08,25.290250048,1.195475007488,40.29300001664
9.85e-08,25.19650004224,1.193912507392,40.28050001792
9.9e-08,25.10275003648,1.197037507584,40.24925002112
9.950000000000001e-08,25.10275003648,1.19860000768,40.23050002304
1.0000000000000001e-07,25.14962503936,1.193912507392,40.211750024960004
1.005e-07,25.18087504128,1.192350007296,40.211750024960004
1.01e-07,25.14962503936,1.193912507392,40.2055000256
1.015e-07,25.11837503744,1.195475007488,40.2055000256
1.02e-07,25.08712503552,1.193912507392,40.2055000256
1.0250000000000001e-07,25.11837503744,1.195475007488,40.21800002432
1.0300000000000001e-07,25.19650004224,1.197037507584,40.24925002112
1.0350000000000001e-07,25.2121250432,1.195475007488,40.299250016
1.04e-07,25.2121250432,1.192350007296,40.33675001216
1.045e-07,25.16525004032,1.195475007488,40.34300001152
1.05e-07,25.11837503744,1.19860000768,40.33675001216
1.0550000000000001e-07,25.16525004032,1.19860000768,40.32425001344
1.0600000000000001e-07,25.22775004416,1.19860000768,40.299250016
1.0650000000000001e-07,25.2121250432,1.19860000768,40.2680000192
1.07e-07,25.1340000384,1.200162507776,40.243000021760004
1.075e-07,25.02462503168,1.201725007872,40.211750024960004
1.08e-07,24.99337502976,1.200162507776,40.1742500288
1.0850000000000001e-07,25.07150003456,1.200162507776,40.16800002944
1.0900000000000001e-07,25.1340000384,1.197037507584,40.18675002752
1.0950000000000001e-07,25.14962503936,1.195475007488,40.23050002304
1.1e-07,25.07150003456,1.197037507584,40.26175001984
1.105e-07,25.04025003264,1.195475007488,40.29300001664
1.11e-07,25.10275003648,1.1907875072,40.3305000128
1.1150000000000001e-07,25.22775004416,1.1907875072,40.374250008320004
1.1200000000000001e-07,25.32150004992,1.192350007296,40.39925000576
1.1250000000000001e-07,25.27462504704,1.192350007296,40.38050000768
1.13e-07,25.16525004032,1.193912507392,40.32425001344
1.135e-07,25.11837503744,1.195475007488,40.28675001728
1.14e-07,25.16525004032,1.195475007488,40.274250018560004
1.1450000000000001e-07,25.22775004416,1.19860000768,40.274250018560004
1.1500000000000001e-07,25.16525004032,1.201725007872,40.274250018560004
1.1550000000000001e-07,25.04025003264,1.201725007872,40.25550002048
1.16e-07,24.94650002688,1.19860000768,40.243000021760004
1.165e-07,25.00900003072,1.195475007488,40.2680000192
1.17e-07,25.1340000384,1.195475007488,40.31175001472
1.1750000000000001e-07,25.2121250432,1.197037507584,40.405500005120004
1.1800000000000001e-07,25.19650004224,1.197037507584,40.46174999936
1.1850000000000001e-07,25.08712503552,1.193912507392,40.49299999616
1.1900000000000001e-07,25.10275003648,1.193912507392,40.48049999744
1.195e-07,25.18087504128,1.195475007488,40.46174999936
1.2000000000000002e-07,25.30587504896,1.193912507392,40.44925000064
1.205e-07,25.25900004608,1.195475007488,40.4242500032
1.21e-07,25.1340000384,1.195475007488,40.3930000064
1.215e-07,25.02462503168,1.192350007296,40.36800000896
1.22e-07,25.04025003264,1.192350007296,40.35550001024
1.2250000000000002e-07,25.11837503744,1.195475007488,40.34300001152
1.23e-07,25.2121250432,1.195475007488,40.34300001152
1.2350000000000001e-07,25.16525004032,1.195475007488,40.33675001216
1.24e-07,25.04025003264,1.193912507392,40.34300001152
1.245e-07,25.04025003264,1.192350007296,40.374250008320004
1.2500000000000002e-07,25.1340000384,1.192350007296,40.405500005120004
1.255e-07,25.24337504512,1.193912507392,40.436750001920004
1.2600000000000002e-07,25.22775004416,1.195475007488,40.43050000256
1.265e-07,25.10275003648,1.193912507392,40.436750001920004
1.27e-07,25.04025003264,1.192350007296,40.4242500032
1.275e-07,25.10275003648,1.193912507392,40.41800000384
1.28e-07,25.2121250432,1.192350007296,40.38675000704
1.2850000000000002e-07,25.19650004224,1.192350007296,40.35550001024
1.29e-07,25.10275003648,1.195475007488,40.34925001088
1.2950000000000001e-07,25.02462503168,1.193912507392,40.374250008320004
1.3e-07,25.08712503552,1.192350007296,40.38050000768
1.305e-07,25.2121250432,1.192350007296,40.374250008320004
1.31e-07,25.30587504896,1.192350007296,40.34925001088
1.315e-07,25.22775004416,1.1907875072,40.3617500096
1.3200000000000002e-07,25.10275003648,1.189225007104,40.38675000704
1.325e-07,25.07150003456,1.187662507008,40.436750001920004
1.33e-07,25.16525004032,1.187662507008,40.47424999808
1.335e-07,25.25900004608,1.186100006912,40.48049999744
1.34e-07,25.24337504512,1.1907875072,40.4555
1.3450000000000002e-07,25.11837503744,1.193912507392,40.44300000128
1.35e-07,25.02462503168,1.195475007488,40.4242500032
1.3550000000000002e-07,25.07150003456,1.195475007488,40.436750001920004
1.36e-07,25.2121250432,1.193912507392,40.436750001920004
1.365e-07,25.24337504512,1.197037507584,40.41800000384
1.37e-07,25.16525004032,1.197037507584,40.39925000576
1.375e-07,25.07150003456,1.195475007488,40.3930000064
1.3800000000000002e-07,25.08712503552,1.195475007488,40.38675000704
1.385e-07,25.19650004224,1.192350007296,40.41800000384
1.3900000000000001e-07,25.290250048,1.193912507392,40.46174999936
1.395e-07,25.25900004608,1.193912507392,40.48049999744
1.4e-07,25.1340000384,1.1907875072,40.4867499968
1.4050000000000002e-07,25.04025003264,1.189225007104,40.49924999552
1.41e-07,25.11837503744,1.189225007104,40.50549999488
1.4150000000000002e-07,25.2121250432,1.1907875072,40.53049999232
1.42e-07,25.24337504512,1.193912507392,40.51174999424
1.425e-07,25.1340000384,1.193912507392,40.48049999744
1.43e-07,25.00900003072,1.192350007296,40.4242500032
1.435e-07,25.00900003072,1.193912507392,40.4242500032
1.4400000000000002e-07,25.16525004032,1.192350007296,40.44925000064
1.445e-07,25.25900004608,1.193912507392,40.44925000064
1.4500000000000001e-07,25.22775004416,1.195475007488,40.41800000384
1.455e-07,25.14962503936,1.192350007296,40.39925000576
1.46e-07,25.14962503936,1.1907875072,40.405500005120004
1.4650000000000002e-07,25.2121250432,1.1907875072,40.46174999936
1.47e-07,25.27462504704,1.195475007488,40.53049999232
1.4750000000000002e-07,25.24337504512,1.197037507584,40.56174998912
1.48e-07,25.11837503744,1.192350007296,40.5492499904
1.485e-07,25.04025003264,1.189225007104,40.54299999104
1.49e-07,25.02462503168,1.192350007296,40.55549998976
1.495e-07,25.10275003648,1.192350007296,40.59299998592
1.5000000000000002e-07,25.14962503936,1.193912507392,40.5804999872
1.505e-07,25.10275003648,1.1907875072,40.53674999168
1.5100000000000002e-07,25.04025003264,1.192350007296,40.4867499968
1.515e-07,25.0558750336,1.193912507392,40.4867499968
1.52e-07,25.2121250432,1.195475007488,40.5179999936
1.5250000000000002e-07,25.32150004992,1.197037507584,40.53674999168
1.53e-07,25.32150004992,1.195475007488,40.52424999296
1.5350000000000002e-07,25.2121250432,1.193912507392,40.52424999296
1.54e-07,25.1340000384,1.192350007296,40.56174998912
1.5450000000000001e-07,25.1340000384,1.189225007104,40.62424998272
1.55e-07,25.19650004224,1.1907875072,40.66799997824
1.555e-07,25.2121250432,1.1907875072,40.66799997824
1.5600000000000002e-07,25.1340000384,1.189225007104,40.611749984
1.565e-07,25.02462503168,1.192350007296,40.56174998912
1.5700000000000002e-07,24.99337502976,1.195475007488,40.53049999232
1.575e-07,25.08712503552,1.195475007488,40.5179999936
1.58e-07,25.19650004224,1.197037507584,40.4867499968
1.5850000000000002e-07,25.2121250432,1.195475007488,40.4555
1.59e-07,25.19650004224,1.197037507584,40.41800000384
1.5950000000000002e-07,25.11837503744,1.19860000768,40.4242500032
1.6e-07,25.18087504128,1.197037507584,40.46174999936
1.6050000000000001e-07,25.27462504704,1.197037507584,40.49299999616
1.61e-07,25.32150004992,1.192350007296,40.5179999936
1.615e-07,25.22775004416,1.192350007296,40.5492499904
1.6200000000000002e-07,25.10275003648,1.192350007296,40.567999988480004
1.625e-07,25.07150003456,1.192350007296,40.5804999872
1.6300000000000002e-07,25.11837503744,1.192350007296,40.567999988480004
1.635e-07,25.18087504128,1.1907875072,40.53049999232
1.64e-07,25.14962503936,1.1907875072,40.4867499968
1.645e-07,25.08712503552,1.195475007488,40.46174999936
1.65e-07,25.02462503168,1.19860000768,40.44300000128
1.6550000000000002e-07,25.0558750336,1.19860000768,40.44925000064
1.66e-07,25.14962503936,1.197037507584,40.4555
1.6650000000000002e-07,25.22775004416,1.195475007488,40.47424999808
1.67e-07,25.2121250432,1.197037507584,40.49924999552
1.675e-07,25.16525004032,1.197037507584,40.53049999232
1.6800000000000002e-07,25.14962503936,1.195475007488,40.54299999104
