Time (s),VIN,IIN,VOUT
0.0,25.07000003456,1.1127000069119999,38.95500000128
5e-10,25.02312503168,1.115825007104,38.96125000064
1e-09,25.08562503552,1.1173875072,38.96125000064
1.5000000000000002e-09,25.19500004224,1.115825007104,38.9675
2e-09,25.24187504512,1.114262507008,39.00499999616
2.5e-09,25.19500004224,1.115825007104,38.98624999808
3.0000000000000004e-09,25.10125003648,1.1173875072,38.95500000128
3.5000000000000003e-09,25.07000003456,1.115825007104,38.93000000384
4e-09,25.19500004224,1.115825007104,38.92375000448
4.500000000000001e-09,25.27312504704,1.1173875072,38.93000000384
5e-09,25.24187504512,1.1173875072,38.94250000256
5.5000000000000004e-09,25.1325000384,1.122075007488,38.93000000384
6.000000000000001e-09,25.0543750336,1.122075007488,38.91125000576
6.5e-09,25.08562503552,1.120512507392,38.91125000576
7.000000000000001e-09,25.2106250432,1.120512507392,38.95500000128
7.500000000000001e-09,25.27312504704,1.118950007296,38.99249999744
8e-09,25.19500004224,1.120512507392,38.99249999744
8.5e-09,25.08562503552,1.120512507392,38.95500000128
9.000000000000001e-09,25.07000003456,1.1173875072,38.91125000576
9.5e-09,25.16375004032,1.1173875072,38.917500005120004
1e-08,25.22625004416,1.1173875072,38.97374999936
1.0500000000000001e-08,25.19500004224,1.1173875072,38.98624999808
1.1000000000000001e-08,25.10125003648,1.118950007296,38.95500000128
1.15e-08,25.0543750336,1.118950007296,38.93000000384
1.2000000000000002e-08,25.1325000384,1.120512507392,38.94250000256
1.2500000000000001e-08,25.2106250432,1.120512507392,38.9987499968
1.3e-08,25.24187504512,1.118950007296,39.04874999168
1.35e-08,25.16375004032,1.1173875072,39.04874999168
1.4000000000000001e-08,25.08562503552,1.115825007104,39.0299999936
1.45e-08,25.08562503552,1.1127000069119999,39.01749999488
1.5000000000000002e-08,25.17937504128,1.1111375068159999,39.04874999168
1.55e-08,25.27312504704,1.114262507008,39.07374998912
1.6e-08,25.24187504512,1.115825007104,39.07374998912
1.6500000000000002e-08,25.11687503744,1.1173875072,39.0299999936
1.7e-08,25.02312503168,1.114262507008,38.98624999808
1.75e-08,25.07000003456,1.1173875072,38.97374999936
1.8000000000000002e-08,25.14812503936,1.122075007488,39.0299999936
1.85e-08,25.2106250432,1.120512507392,39.07374998912
1.9e-08,25.16375004032,1.118950007296,39.07374998912
1.9500000000000003e-08,25.08562503552,1.1173875072,39.03624999296
2e-08,25.08562503552,1.118950007296,39.011249995520004
2.05e-08,25.16375004032,1.120512507392,39.00499999616
2.1000000000000003e-08,25.24187504512,1.118950007296,39.02374999424
2.15e-08,25.24187504512,1.118950007296,39.01749999488
2.2000000000000002e-08,25.19500004224,1.120512507392,39.00499999616
2.2500000000000003e-08,25.14812503936,1.118950007296,38.97374999936
2.3e-08,25.16375004032,1.120512507392,38.9675
2.3500000000000002e-08,25.2106250432,1.123637507584,38.97374999936
2.4000000000000003e-08,25.22625004416,1.123637507584,38.9987499968
2.45e-08,25.16375004032,1.123637507584,39.01749999488
2.5000000000000002e-08,25.08562503552,1.120512507392,39.02374999424
2.55e-08,25.07000003456,1.122075007488,39.011249995520004
2.6e-08,25.11687503744,1.122075007488,39.0299999936
2.6500000000000002e-08,25.19500004224,1.118950007296,39.02374999424
2.7e-08,25.22625004416,1.120512507392,38.9987499968
2.75e-08,25.16375004032,1.122075007488,38.98624999808
2.8000000000000003e-08,25.11687503744,1.123637507584,38.97374999936
2.85e-08,25.1325000384,1.12520000768,38.9675
2.9e-08,25.16375004032,1.123637507584,38.9675
2.9500000000000003e-08,25.19500004224,1.12520000768,38.979999998720004
3.0000000000000004e-08,25.17937504128,1.12520000768,39.00499999616
3.05e-08,25.11687503744,1.12520000768,39.02374999424
3.1e-08,25.10125003648,1.123637507584,39.03624999296
3.1500000000000004e-08,25.10125003648,1.120512507392,39.0299999936
3.2e-08,25.1325000384,1.122075007488,39.02374999424
3.25e-08,25.1325000384,1.120512507392,39.011249995520004
3.3000000000000004e-08,25.1325000384,1.1173875072,39.011249995520004
3.35e-08,25.14812503936,1.118950007296,38.9987499968
3.4e-08,25.14812503936,1.122075007488,38.99249999744
3.4500000000000005e-08,25.16375004032,1.120512507392,38.95500000128
3.5e-08,25.14812503936,1.122075007488,38.9362500032
3.55e-08,25.14812503936,1.12520000768,38.95500000128
3.6000000000000005e-08,25.19500004224,1.126762507776,38.99249999744
3.65e-08,25.19500004224,1.128325007872,39.0299999936
3.7e-08,25.17937504128,1.12520000768,39.04249999232
3.7500000000000005e-08,25.16375004032,1.118950007296,39.04249999232
3.8e-08,25.14812503936,1.115825007104,39.06749998976
3.85e-08,25.16375004032,1.115825007104,39.0924999872
3.9000000000000005e-08,25.14812503936,1.118950007296,39.10499998592
3.95e-08,25.11687503744,1.120512507392,39.079999988480004
4e-08,25.0543750336,1.126762507776,39.02374999424
4.0500000000000005e-08,25.0543750336,1.129887507968,38.98624999808
4.1e-08,25.10125003648,1.12520000768,38.9675
4.15e-08,25.14812503936,1.122075007488,38.9675
4.2000000000000006e-08,25.1325000384,1.122075007488,38.9675
4.2500000000000003e-08,25.10125003648,1.120512507392,38.94250000256
4.3e-08,25.10125003648,1.120512507392,38.92375000448
4.3500000000000006e-08,25.1325000384,1.1173875072,38.948750001920004
4.4000000000000004e-08,25.22625004416,1.118950007296,38.99249999744
4.45e-08,25.2106250432,1.1173875072,38.9987499968
4.5000000000000006e-08,25.14812503936,1.115825007104,38.97374999936
4.5500000000000004e-08,25.10125003648,1.115825007104,38.92375000448
4.6e-08,25.14812503936,1.115825007104,38.92375000448
4.6500000000000006e-08,25.2106250432,1.1173875072,38.9362500032
4.7000000000000004e-08,25.19500004224,1.1173875072,38.9362500032
4.75e-08,25.16375004032,1.120512507392,38.9050000064
4.8000000000000006e-08,25.14812503936,1.120512507392,38.86750001024
4.8500000000000004e-08,25.19500004224,1.120512507392,38.8425000128
4.9e-08,25.25750004608,1.118950007296,38.88000000896
4.95e-08,25.27312504704,1.122075007488,38.917500005120004
5.0000000000000004e-08,25.19500004224,1.123637507584,38.9362500032
5.05e-08,25.1325000384,1.120512507392,38.91125000576
5.1e-08,25.11687503744,1.115825007104,38.89250000768
5.1500000000000005e-08,25.17937504128,1.115825007104,38.91125000576
5.2e-08,25.19500004224,1.120512507392,38.96125000064
5.25e-08,25.14812503936,1.123637507584,38.979999998720004
5.3000000000000005e-08,25.0543750336,1.123637507584,38.96125000064
5.35e-08,25.00750003072,1.120512507392,38.91125000576
5.4e-08,25.08562503552,1.120512507392,38.89875000704
5.4500000000000005e-08,25.22625004416,1.120512507392,38.92375000448
5.5e-08,25.25750004608,1.118950007296,38.96125000064
5.55e-08,25.2106250432,1.114262507008,38.95500000128
5.6000000000000005e-08,25.16375004032,1.1127000069119999,38.93000000384
5.65e-08,25.2106250432,1.115825007104,38.89250000768
5.7e-08,25.24187504512,1.118950007296,38.886250008320005
5.7500000000000005e-08,25.25750004608,1.120512507392,38.886250008320005
5.8e-08,25.2106250432,1.123637507584,38.89875000704
5.85e-08,25.14812503936,1.123637507584,38.886250008320005
5.9000000000000006e-08,25.16375004032,1.123637507584,38.848750012160004
5.9500000000000003e-08,25.16375004032,1.123637507584,38.79875001728
6.000000000000001e-08,25.17937504128,1.126762507776,38.755000021760004
6.05e-08,25.1325000384,1.126762507776,38.723750024960005
6.1e-08,25.11687503744,1.123637507584,38.7175000256
6.15e-08,25.1325000384,1.120512507392,38.69875002752
6.2e-08,25.19500004224,1.118950007296,38.6862500288
6.250000000000001e-08,25.2106250432,1.120512507392,38.66750003072
6.300000000000001e-08,25.16375004032,1.120512507392,38.6862500288
6.35e-08,25.11687503744,1.118950007296,38.7175000256
6.4e-08,25.14812503936,1.1173875072,38.77375001984
6.45e-08,25.22625004416,1.1173875072,38.80500001664
6.5e-08,25.22625004416,1.1173875072,38.786250018560004
6.55e-08,25.14812503936,1.118950007296,38.74250002304
6.600000000000001e-08,25.1325000384,1.118950007296,38.73625002368
6.65e-08,25.19500004224,1.1173875072,38.7487500224
6.7e-08,25.27312504704,1.118950007296,38.77375001984
6.75e-08,25.27312504704,1.115825007104,38.7487500224
6.8e-08,25.17937504128,1.114262507008,38.70500002688
6.85e-08,25.07000003456,1.115825007104,38.68000002944
6.900000000000001e-08,25.10125003648,1.115825007104,38.73000002432
6.950000000000001e-08,25.16375004032,1.118950007296,38.79250001792
7e-08,25.2106250432,1.120512507392,38.83000001408
7.05e-08,25.11687503744,1.122075007488,38.7800000192
7.1e-08,25.00750003072,1.122075007488,38.723750024960005
7.15e-08,25.02312503168,1.118950007296,38.69875002752
7.200000000000001e-08,25.14812503936,1.118950007296,38.723750024960005
7.250000000000001e-08,25.27312504704,1.122075007488,38.73000002432
7.3e-08,25.24187504512,1.118950007296,38.6862500288
7.35e-08,25.14812503936,1.1173875072,38.61750003584
7.4e-08,25.08562503552,1.118950007296,38.58625003904
7.45e-08,25.1325000384,1.118950007296,38.60500003712
7.500000000000001e-08,25.19500004224,1.1173875072,38.66750003072
7.550000000000001e-08,25.19500004224,1.114262507008,38.71125002624
7.6e-08,25.1325000384,1.115825007104,38.7175000256
7.65e-08,25.02312503168,1.118950007296,38.6862500288
7.7e-08,25.0543750336,1.120512507392,38.68000002944
7.75e-08,25.14812503936,1.122075007488,38.71125002624
7.800000000000001e-08,25.24187504512,1.122075007488,38.74250002304
7.850000000000001e-08,25.24187504512,1.122075007488,38.7175000256
7.9e-08,25.17937504128,1.122075007488,38.655000032000004
7.95e-08,25.14812503936,1.120512507392,38.59875003776
8e-08,25.14812503936,1.1173875072,38.58000003968
8.05e-08,25.2106250432,1.118950007296,38.59875003776
8.100000000000001e-08,25.22625004416,1.118950007296,38.623750035200004
8.150000000000001e-08,25.16375004032,1.120512507392,38.63625003392
8.2e-08,25.0543750336,1.122075007488,38.66125003136
8.25e-08,25.00750003072,1.122075007488,38.655000032000004
8.3e-08,25.0543750336,1.123637507584,38.68000002944
8.35e-08,25.10125003648,1.123637507584,38.71125002624
8.400000000000001e-08,25.17937504128,1.123637507584,38.74250002304
8.450000000000001e-08,25.1325000384,1.123637507584,38.723750024960005
8.500000000000001e-08,25.08562503552,1.122075007488,38.68000002944
8.55e-08,25.10125003648,1.122075007488,38.64875003264
8.6e-08,25.17937504128,1.123637507584,38.655000032000004
8.65e-08,25.24187504512,1.122075007488,38.6862500288
8.700000000000001e-08,25.22625004416,1.120512507392,38.7175000256
8.750000000000001e-08,25.19500004224,1.118950007296,38.723750024960005
8.800000000000001e-08,25.11687503744,1.120512507392,38.70500002688
8.85e-08,25.11687503744,1.123637507584,38.68000002944
8.9e-08,25.2106250432,1.120512507392,38.68000002944
8.95e-08,25.25750004608,1.118950007296,38.69875002752
9.000000000000001e-08,25.22625004416,1.120512507392,38.71125002624
9.050000000000001e-08,25.14812503936,1.120512507392,38.66125003136
9.100000000000001e-08,25.10125003648,1.120512507392,38.60500003712
9.15e-08,25.14812503936,1.118950007296,38.58000003968
9.2e-08,25.22625004416,1.120512507392,38.592500038400004
9.25e-08,25.25750004608,1.120512507392,38.623750035200004
9.300000000000001e-08,25.16375004032,1.122075007488,38.64875003264
9.350000000000001e-08,25.08562503552,1.123637507584,38.63000003456
9.400000000000001e-08,25.08562503552,1.123637507584,38.63000003456
9.45e-08,25.14812503936,1.122075007488,38.63625003392
9.5e-08,25.22625004416,1.122075007488,38.67375003008
9.55e-08,25.2106250432,1.120512507392,38.68000002944
9.600000000000001e-08,25.14812503936,1.122075007488,38.66125003136
9.650000000000001e-08,25.1325000384,1.122075007488,38.61750003584
9.700000000000001e-08,25.16375004032,1.120512507392,38.59875003776
9.75e-08,25.25750004608,1.1173875072,38.61125003648
9.8e-08,25.288750048,1.1173875072,38.66125003136
9.85e-08,25.22625004416,1.118950007296,38.6862500288
9.9e-08,25.14812503936,1.118950007296,38.67375003008
9.950000000000001e-08,25.14812503936,1.118950007296,38.66750003072
1.0000000000000001e-07,25.19500004224,1.118950007296,38.67375003008
1.005e-07,25.19500004224,1.122075007488,38.69250002816
1.01e-07,25.16375004032,1.123637507584,38.71125002624
1.015e-07,25.10125003648,1.123637507584,38.69250002816
1.02e-07,25.08562503552,1.120512507392,38.66125003136
1.0250000000000001e-07,25.1325000384,1.1173875072,38.64250003328
1.0300000000000001e-07,25.17937504128,1.122075007488,38.655000032000004
1.0350000000000001e-07,25.22625004416,1.120512507392,38.66750003072
1.04e-07,25.17937504128,1.122075007488,38.69875002752
1.045e-07,25.17937504128,1.12520000768,38.7175000256
1.05e-07,25.17937504128,1.12520000768,38.73625002368
1.0550000000000001e-07,25.22625004416,1.12520000768,38.755000021760004
1.0600000000000001e-07,25.24187504512,1.12520000768,38.79875001728
1.0650000000000001e-07,25.2106250432,1.123637507584,38.83000001408
1.07e-07,25.14812503936,1.123637507584,38.848750012160004
1.075e-07,25.08562503552,1.120512507392,38.8425000128
1.08e-07,25.08562503552,1.122075007488,38.817500015360004
1.0850000000000001e-07,25.11687503744,1.123637507584,38.7800000192
1.0900000000000001e-07,25.1325000384,1.120512507392,38.76750002048
1.0950000000000001e-07,25.11687503744,1.118950007296,38.76125002112
1.1e-07,25.11687503744,1.118950007296,38.77375001984
1.105e-07,25.11687503744,1.1173875072,38.7800000192
1.11e-07,25.14812503936,1.118950007296,38.80500001664
1.1150000000000001e-07,25.19500004224,1.118950007296,38.811250016
1.1200000000000001e-07,25.2106250432,1.120512507392,38.82375001472
1.1250000000000001e-07,25.2106250432,1.120512507392,38.80500001664
1.13e-07,25.19500004224,1.118950007296,38.80500001664
1.135e-07,25.19500004224,1.120512507392,38.786250018560004
1.14e-07,25.22625004416,1.12520000768,38.76750002048
1.1450000000000001e-07,25.2106250432,1.12520000768,38.73625002368
1.1500000000000001e-07,25.1325000384,1.12520000768,38.69250002816
1.1550000000000001e-07,25.0543750336,1.122075007488,38.6862500288
1.16e-07,25.03875003264,1.120512507392,38.71125002624
1.165e-07,25.0543750336,1.120512507392,38.7487500224
1.17e-07,25.14812503936,1.118950007296,38.79250001792
1.1750000000000001e-07,25.17937504128,1.1173875072,38.82375001472
1.1800000000000001e-07,25.17937504128,1.115825007104,38.85500001152
1.1850000000000001e-07,25.16375004032,1.115825007104,38.85500001152
1.1900000000000001e-07,25.17937504128,1.118950007296,38.86125001088
1.195e-07,25.24187504512,1.118950007296,38.8737500096
1.2000000000000002e-07,25.25750004608,1.1173875072,38.91125000576
1.205e-07,25.2106250432,1.118950007296,38.91125000576
1.21e-07,25.11687503744,1.118950007296,38.89250000768
1.215e-07,25.08562503552,1.122075007488,38.86125001088
1.22e-07,25.11687503744,1.12520000768,38.86750001024
1.2250000000000002e-07,25.14812503936,1.126762507776,38.89250000768
1.23e-07,25.14812503936,1.126762507776,38.917500005120004
1.2350000000000001e-07,25.10125003648,1.126762507776,38.9362500032
1.24e-07,25.08562503552,1.12520000768,38.93000000384
1.245e-07,25.11687503744,1.12520000768,38.9050000064
1.2500000000000002e-07,25.17937504128,1.12520000768,38.89875000704
1.255e-07,25.17937504128,1.123637507584,38.9050000064
1.2600000000000002e-07,25.14812503936,1.120512507392,38.93000000384
1.265e-07,25.11687503744,1.1173875072,38.917500005120004
1.27e-07,25.10125003648,1.118950007296,38.89250000768
1.275e-07,25.1325000384,1.1173875072,38.86125001088
1.28e-07,25.14812503936,1.1173875072,38.86750001024
1.2850000000000002e-07,25.14812503936,1.120512507392,38.886250008320005
1.29e-07,25.16375004032,1.120512507392,38.9050000064
1.2950000000000001e-07,25.2106250432,1.1173875072,38.886250008320005
1.3e-07,25.19500004224,1.118950007296,38.85500001152
1.305e-07,25.14812503936,1.115825007104,38.82375001472
1.31e-07,25.10125003648,1.114262507008,38.8425000128
1.315e-07,25.08562503552,1.115825007104,38.88000000896
1.3200000000000002e-07,25.14812503936,1.114262507008,38.9050000064
1.325e-07,25.16375004032,1.115825007104,38.89875000704
1.33e-07,25.11687503744,1.118950007296,38.886250008320005
1.335e-07,25.0543750336,1.118950007296,38.886250008320005
1.34e-07,25.03875003264,1.120512507392,38.92375000448
1.3450000000000002e-07,25.16375004032,1.118950007296,38.93000000384
1.35e-07,25.27312504704,1.120512507392,38.948750001920004
1.3550000000000002e-07,25.288750048,1.120512507392,38.917500005120004
1.36e-07,25.17937504128,1.118950007296,38.9050000064
1.365e-07,25.10125003648,1.1173875072,38.89250000768
1.37e-07,25.11687503744,1.115825007104,38.886250008320005
1.375e-07,25.2106250432,1.115825007104,38.89250000768
1.3800000000000002e-07,25.25750004608,1.1173875072,38.92375000448
1.385e-07,25.17937504128,1.115825007104,38.94250000256
1.3900000000000001e-07,25.07000003456,1.1111375068159999,38.9675
1.395e-07,25.00750003072,1.1127000069119999,38.9675
1.4e-07,25.11687503744,1.114262507008,38.97374999936
1.4050000000000002e-07,25.24187504512,1.114262507008,38.98624999808
1.41e-07,25.24187504512,1.1127000069119999,39.011249995520004
1.4150000000000002e-07,25.14812503936,1.114262507008,38.98624999808
1.42e-07,25.03875003264,1.114262507008,38.95500000128
1.425e-07,25.08562503552,1.1127000069119999,38.92375000448
1.43e-07,25.24187504512,1.1111375068159999,38.93000000384
1.435e-07,25.30437504896,1.1127000069119999,38.9362500032
1.4400000000000002e-07,25.2106250432,1.1173875072,38.948750001920004
1.445e-07,25.10125003648,1.122075007488,38.92375000448
1.4500000000000001e-07,25.0543750336,1.120512507392,38.9050000064
1.455e-07,25.14812503936,1.120512507392,38.92375000448
1.46e-07,25.27312504704,1.120512507392,38.98624999808
1.4650000000000002e-07,25.27312504704,1.122075007488,39.011249995520004
1.47e-07,25.16375004032,1.118950007296,38.98624999808
1.4750000000000002e-07,25.07000003456,1.115825007104,38.948750001920004
1.48e-07,25.11687503744,1.115825007104,38.93000000384
1.485e-07,25.2106250432,1.115825007104,38.948750001920004
1.49e-07,25.24187504512,1.115825007104,38.99249999744
1.495e-07,25.16375004032,1.118950007296,38.979999998720004
1.5000000000000002e-07,25.07000003456,1.118950007296,38.96125000064
1.505e-07,25.07000003456,1.118950007296,38.9362500032
1.5100000000000002e-07,25.17937504128,1.120512507392,38.97374999936
1.515e-07,25.27312504704,1.118950007296,39.04249999232
1.52e-07,25.24187504512,1.118950007296,39.079999988480004
1.5250000000000002e-07,25.16375004032,1.122075007488,39.0612499904
1.53e-07,25.08562503552,1.118950007296,39.03624999296
1.5350000000000002e-07,25.14812503936,1.115825007104,39.04249999232
1.54e-07,25.22625004416,1.115825007104,39.079999988480004
1.5450000000000001e-07,25.27312504704,1.115825007104,39.09874998656
1.55e-07,25.2106250432,1.1173875072,39.07374998912
1.555e-07,25.07000003456,1.1173875072,39.01749999488
1.5600000000000002e-07,25.0543750336,1.118950007296,38.99249999744
1.565e-07,25.11687503744,1.122075007488,39.00499999616
1.5700000000000002e-07,25.19500004224,1.123637507584,39.05499999104
1.575e-07,25.2106250432,1.123637507584,39.079999988480004
1.58e-07,25.14812503936,1.122075007488,39.07374998912
1.5850000000000002e-07,25.08562503552,1.118950007296,39.0299999936
1.59e-07,25.11687503744,1.120512507392,39.02374999424
1.5950000000000002e-07,25.22625004416,1.118950007296,39.03624999296
1.6e-07,25.25750004608,1.1173875072,39.04249999232
1.6050000000000001e-07,25.25750004608,1.118950007296,39.03624999296
1.61e-07,25.17937504128,1.1173875072,39.00499999616
1.615e-07,25.16375004032,1.120512507392,38.98624999808
1.6200000000000002e-07,25.2106250432,1.122075007488,38.99249999744
1.625e-07,25.24187504512,1.122075007488,38.9987499968
1.6300000000000002e-07,25.2106250432,1.118950007296,39.0299999936
1.635e-07,25.1325000384,1.1173875072,39.04874999168
1.64e-07,25.08562503552,1.1173875072,39.04874999168
1.645e-07,25.08562503552,1.1173875072,39.03624999296
1.65e-07,25.14812503936,1.115825007104,39.0299999936
1.6550000000000002e-07,25.19500004224,1.118950007296,39.0299999936
1.66e-07,25.19500004224,1.118950007296,39.02374999424
1.6650000000000002e-07,25.14812503936,1.118950007296,38.9987499968
1.67e-07,25.1325000384,1.122075007488,38.99249999744
1.675e-07,25.14812503936,1.122075007488,38.979999998720004
1.6800000000000002e-07,25.16375004032,1.123637507584,38.979999998720004
