Time (s),VIN,IIN,VOUT
0.0,18.05137503552,0.45850000883199993,12.87162498176
5e-10,18.06700003648,0.46006250892799994,12.777874976
1e-09,18.08262503744,0.46162500902399994,12.71537497216
1.5000000000000002e-09,18.16075004224,0.46162500902399994,12.68412497024
2e-09,18.19200004416,0.46318750911999995,12.668499969279999
2.5e-09,18.20762504512,0.46475000921599996,12.637249967359999
3.0000000000000004e-09,18.23887504704,0.46318750911999995,12.637249967359999
3.5000000000000003e-09,18.23887504704,0.46475000921599996,12.68412497024
4e-09,18.20762504512,0.46631250931199997,12.74662497408
4.500000000000001e-09,18.11387503936,0.469437509504,12.79349997696
5e-09,18.03575003456,0.472562509696,12.84037497984
5.5000000000000004e-09,18.0201250336,0.472562509696,12.8559999808
6.000000000000001e-09,18.03575003456,0.469437509504,12.91849998464
6.5e-09,18.05137503552,0.4710000096,12.94974998656
7.000000000000001e-09,18.06700003648,0.472562509696,12.88724998272
7.500000000000001e-09,18.16075004224,0.4710000096,12.76224997504
8e-09,18.19200004416,0.46631250931199997,12.68412497024
8.5e-09,18.19200004416,0.46162500902399994,12.6216249664
9.000000000000001e-09,18.20762504512,0.456937508736,12.6216249664
9.5e-09,18.19200004416,0.45537500863999997,12.5434999616
1e-08,18.16075004224,0.45850000883199993,12.43412495488
1.0500000000000001e-08,18.0982500384,0.46006250892799994,12.387249952
1.1000000000000001e-08,18.06700003648,0.46006250892799994,12.37162495104
1.15e-08,18.00450003264,0.46006250892799994,12.387249952
1.2000000000000002e-08,17.95762502976,0.46162500902399994,12.44974995584
1.2500000000000001e-08,17.91075002688,0.46318750911999995,12.55912496256
1.3e-08,17.91075002688,0.46162500902399994,12.6997499712
1.35e-08,17.97325003072,0.46162500902399994,12.76224997504
1.4000000000000001e-08,18.0201250336,0.46162500902399994,12.82474997888
1.45e-08,18.0201250336,0.46006250892799994,12.94974998656
1.5000000000000002e-08,18.0201250336,0.46006250892799994,13.0903749952
1.55e-08,18.08262503744,0.46006250892799994,13.15287499904
1.6e-08,18.12950004032,0.46162500902399994,13.05912499328
1.6500000000000002e-08,18.12950004032,0.46475000921599996,12.94974998656
1.7e-08,18.1763750432,0.467875009408,12.88724998272
1.75e-08,18.20762504512,0.469437509504,12.73099997312
1.8000000000000002e-08,18.27012504896,0.4710000096,12.57474996352
1.85e-08,18.31700005184,0.472562509696,12.44974995584
1.9e-08,18.31700005184,0.472562509696,12.387249952
1.9500000000000003e-08,18.28575004992,0.472562509696,12.37162495104
2e-08,18.23887504704,0.469437509504,12.37162495104
2.05e-08,18.1763750432,0.46631250931199997,12.40287495296
2.1000000000000003e-08,18.08262503744,0.46162500902399994,12.57474996352
2.15e-08,17.95762502976,0.46006250892799994,12.777874976
2.2000000000000002e-08,17.84825002304,0.45850000883199993,12.91849998464
2.2500000000000003e-08,17.7857500192,0.46006250892799994,12.98099998848
2.3e-08,17.7076250144,0.46006250892799994,13.02787499136
2.3500000000000002e-08,17.72325001536,0.46318750911999995,13.04349999232
2.4000000000000003e-08,17.77012501824,0.46318750911999995,12.98099998848
2.45e-08,17.92637502784,0.46475000921599996,12.8559999808
2.5000000000000002e-08,18.08262503744,0.46475000921599996,12.73099997312
2.55e-08,18.20762504512,0.46318750911999995,12.6216249664
2.6e-08,18.254500048,0.46006250892799994,12.51224995968
2.6500000000000002e-08,18.30137505088,0.46006250892799994,12.48099995776
2.7e-08,18.36387505472,0.45850000883199993,12.49662495872
2.75e-08,18.31700005184,0.456937508736,12.55912496256
2.8000000000000003e-08,18.22325004608,0.45850000883199993,12.6997499712
2.85e-08,18.12950004032,0.46162500902399994,12.79349997696
2.9e-08,18.08262503744,0.46318750911999995,12.87162498176
2.9500000000000003e-08,18.03575003456,0.46631250931199997,12.9341249856
3.0000000000000004e-08,17.98887503168,0.46631250931199997,12.99662498944
3.05e-08,18.03575003456,0.469437509504,13.02787499136
3.1e-08,18.11387503936,0.467875009408,12.98099998848
3.1500000000000004e-08,18.16075004224,0.467875009408,12.88724998272
3.2e-08,18.11387503936,0.46631250931199997,12.80912497792
3.25e-08,18.0982500384,0.46475000921599996,12.73099997312
3.3000000000000004e-08,18.12950004032,0.46006250892799994,12.73099997312
3.35e-08,18.1763750432,0.456937508736,12.71537497216
3.4e-08,18.12950004032,0.45850000883199993,12.71537497216
3.4500000000000005e-08,18.06700003648,0.46162500902399994,12.74662497408
3.5e-08,18.05137503552,0.46318750911999995,12.76224997504
3.55e-08,18.06700003648,0.46475000921599996,12.73099997312
3.6000000000000005e-08,18.00450003264,0.46631250931199997,12.71537497216
3.65e-08,17.98887503168,0.467875009408,12.73099997312
3.7e-08,18.06700003648,0.469437509504,12.73099997312
3.7500000000000005e-08,18.19200004416,0.469437509504,12.68412497024
3.8e-08,18.23887504704,0.467875009408,12.668499969279999
3.85e-08,18.23887504704,0.467875009408,12.668499969279999
3.9000000000000005e-08,18.16075004224,0.46318750911999995,12.6997499712
3.95e-08,18.0201250336,0.46162500902399994,12.71537497216
4e-08,17.91075002688,0.46006250892799994,12.668499969279999
4.0500000000000005e-08,17.95762502976,0.46318750911999995,12.637249967359999
4.1e-08,18.05137503552,0.46631250931199997,12.668499969279999
4.15e-08,18.11387503936,0.467875009408,12.652874968319999
4.2000000000000006e-08,18.14512504128,0.4710000096,12.59037496448
4.2500000000000003e-08,18.14512504128,0.474125009792,12.57474996352
4.3e-08,18.12950004032,0.472562509696,12.6216249664
4.3500000000000006e-08,18.06700003648,0.4710000096,12.668499969279999
4.4000000000000004e-08,18.08262503744,0.467875009408,12.68412497024
4.45e-08,18.12950004032,0.46631250931199997,12.652874968319999
4.5000000000000006e-08,18.16075004224,0.46475000921599996,12.71537497216
4.5500000000000004e-08,18.08262503744,0.46475000921599996,12.8559999808
4.6e-08,17.98887503168,0.46162500902399994,12.96537498752
4.6500000000000006e-08,17.9420000288,0.46162500902399994,12.94974998656
4.7000000000000004e-08,17.863875024,0.46318750911999995,12.88724998272
4.75e-08,17.863875024,0.46318750911999995,12.84037497984
4.8000000000000006e-08,18.0201250336,0.467875009408,12.68412497024
4.8500000000000004e-08,18.20762504512,0.474125009792,12.49662495872
4.9e-08,18.28575004992,0.47725000998399997,12.387249952
4.95e-08,18.254500048,0.48037501017599993,12.37162495104
5.0000000000000004e-08,18.19200004416,0.47725000998399997,12.37162495104
5.05e-08,18.12950004032,0.474125009792,12.40287495296
5.1e-08,18.06700003648,0.472562509696,12.4653749568
5.1500000000000005e-08,18.00450003264,0.469437509504,12.5434999616
5.2e-08,17.97325003072,0.4710000096,12.6997499712
5.25e-08,17.92637502784,0.474125009792,12.84037497984
5.3000000000000005e-08,17.83262502208,0.47725000998399997,12.98099998848
5.35e-08,17.7857500192,0.48037501017599993,13.02787499136
5.4e-08,17.817000021120002,0.47881251008,13.10599999616
5.4500000000000005e-08,17.92637502784,0.47568750988799996,13.04349999232
5.5e-08,18.03575003456,0.474125009792,12.8559999808
5.55e-08,18.16075004224,0.474125009792,12.6997499712
5.6000000000000005e-08,18.20762504512,0.4710000096,12.6216249664
5.65e-08,18.23887504704,0.469437509504,12.59037496448
5.7e-08,18.19200004416,0.467875009408,12.5434999616
5.7500000000000005e-08,18.16075004224,0.467875009408,12.4653749568
5.8e-08,18.12950004032,0.46631250931199997,12.48099995776
5.85e-08,18.06700003648,0.46631250931199997,12.57474996352
5.9000000000000006e-08,18.03575003456,0.46631250931199997,12.637249967359999
5.9500000000000003e-08,18.00450003264,0.472562509696,12.68412497024
6.000000000000001e-08,18.00450003264,0.47881251008,12.777874976
6.05e-08,17.98887503168,0.48350001036799994,12.88724998272
6.1e-08,18.00450003264,0.48818751065599997,12.9341249856
6.15e-08,17.98887503168,0.48818751065599997,12.8559999808
6.2e-08,17.98887503168,0.48350001036799994,12.777874976
6.250000000000001e-08,18.0201250336,0.47725000998399997,12.76224997504
6.300000000000001e-08,18.06700003648,0.474125009792,12.777874976
6.35e-08,18.12950004032,0.474125009792,12.74662497408
6.4e-08,18.11387503936,0.47568750988799996,12.68412497024
6.45e-08,18.0982500384,0.47568750988799996,12.68412497024
6.5e-08,18.06700003648,0.47725000998399997,12.71537497216
6.55e-08,18.06700003648,0.47725000998399997,12.668499969279999
6.600000000000001e-08,18.12950004032,0.47725000998399997,12.652874968319999
6.65e-08,18.16075004224,0.48037501017599993,12.68412497024
6.7e-08,18.19200004416,0.48037501017599993,12.76224997504
6.75e-08,18.14512504128,0.47881251008,12.73099997312
6.8e-08,18.0201250336,0.47725000998399997,12.668499969279999
6.85e-08,17.9420000288,0.474125009792,12.637249967359999
6.900000000000001e-08,17.89512502592,0.469437509504,12.73099997312
6.950000000000001e-08,17.87950002496,0.46318750911999995,12.79349997696
7e-08,17.92637502784,0.46318750911999995,12.84037497984
7.05e-08,17.97325003072,0.467875009408,12.82474997888
7.1e-08,17.98887503168,0.474125009792,12.79349997696
7.15e-08,18.03575003456,0.47725000998399997,12.79349997696
7.200000000000001e-08,18.08262503744,0.48037501017599993,12.76224997504
7.250000000000001e-08,18.16075004224,0.48193751027199994,12.71537497216
7.3e-08,18.27012504896,0.48506251046399995,12.73099997312
7.35e-08,18.3326250528,0.48662501055999996,12.6997499712
7.4e-08,18.31700005184,0.48662501055999996,12.652874968319999
7.45e-08,18.23887504704,0.48818751065599997,12.57474996352
7.500000000000001e-08,18.1763750432,0.48506251046399995,12.55912496256
7.550000000000001e-08,18.0982500384,0.48037501017599993,12.668499969279999
7.6e-08,18.03575003456,0.47568750988799996,12.84037497984
7.65e-08,17.98887503168,0.472562509696,12.9341249856
7.7e-08,17.98887503168,0.47881251008,12.9341249856
7.75e-08,18.00450003264,0.48037501017599993,12.8559999808
7.800000000000001e-08,18.00450003264,0.48037501017599993,12.76224997504
7.850000000000001e-08,18.0201250336,0.48193751027199994,12.68412497024
7.9e-08,18.0201250336,0.48193751027199994,12.637249967359999
7.95e-08,18.0982500384,0.48037501017599993,12.637249967359999
8e-08,18.12950004032,0.47725000998399997,12.57474996352
8.05e-08,18.0982500384,0.47568750988799996,12.49662495872
8.100000000000001e-08,18.06700003648,0.47568750988799996,12.43412495488
8.150000000000001e-08,18.06700003648,0.474125009792,12.44974995584
8.2e-08,18.0201250336,0.474125009792,12.55912496256
8.25e-08,17.95762502976,0.474125009792,12.71537497216
8.3e-08,17.97325003072,0.47725000998399997,12.80912497792
8.35e-08,18.00450003264,0.48037501017599993,12.80912497792
8.400000000000001e-08,18.03575003456,0.48350001036799994,12.79349997696
8.450000000000001e-08,18.03575003456,0.48193751027199994,12.777874976
8.500000000000001e-08,18.0982500384,0.48350001036799994,12.84037497984
8.55e-08,18.14512504128,0.48506251046399995,12.84037497984
8.6e-08,18.19200004416,0.48506251046399995,12.82474997888
8.65e-08,18.20762504512,0.48037501017599993,12.76224997504
8.700000000000001e-08,18.19200004416,0.47881251008,12.668499969279999
8.750000000000001e-08,18.20762504512,0.47725000998399997,12.55912496256
8.800000000000001e-08,18.19200004416,0.47725000998399997,12.49662495872
8.85e-08,18.14512504128,0.47881251008,12.51224995968
8.9e-08,18.0982500384,0.48350001036799994,12.6216249664
8.95e-08,18.06700003648,0.48350001036799994,12.637249967359999
9.000000000000001e-08,18.03575003456,0.48037501017599993,12.637249967359999
9.050000000000001e-08,17.95762502976,0.48506251046399995,12.668499969279999
9.100000000000001e-08,17.9420000288,0.48506251046399995,12.74662497408
9.15e-08,17.95762502976,0.48350001036799994,12.80912497792
9.2e-08,18.00450003264,0.48350001036799994,12.87162498176
9.25e-08,18.05137503552,0.48350001036799994,12.8559999808
9.300000000000001e-08,18.06700003648,0.48193751027199994,12.88724998272
9.350000000000001e-08,18.08262503744,0.47881251008,12.87162498176
9.400000000000001e-08,18.0982500384,0.47725000998399997,12.82474997888
9.45e-08,18.14512504128,0.47725000998399997,12.76224997504
9.5e-08,18.1763750432,0.47881251008,12.71537497216
9.55e-08,18.23887504704,0.48193751027199994,12.652874968319999
9.600000000000001e-08,18.20762504512,0.48350001036799994,12.5434999616
9.650000000000001e-08,18.16075004224,0.48037501017599993,12.4653749568
9.700000000000001e-08,18.0982500384,0.47881251008,12.49662495872
9.75e-08,18.0982500384,0.48037501017599993,12.55912496256
9.8e-08,18.12950004032,0.48037501017599993,12.6216249664
9.85e-08,18.12950004032,0.48037501017599993,12.668499969279999
9.9e-08,18.08262503744,0.48350001036799994,12.73099997312
9.950000000000001e-08,18.03575003456,0.48506251046399995,12.80912497792
1.0000000000000001e-07,17.97325003072,0.48193751027199994,12.90287498368
1.005e-07,17.98887503168,0.47725000998399997,12.94974998656
1.01e-07,18.06700003648,0.47881251008,12.96537498752
1.015e-07,18.19200004416,0.48037501017599993,12.94974998656
1.02e-07,18.20762504512,0.48193751027199994,12.90287498368
1.0250000000000001e-07,18.19200004416,0.48350001036799994,12.82474997888
1.0300000000000001e-07,18.12950004032,0.48350001036799994,12.76224997504
1.0350000000000001e-07,18.14512504128,0.48350001036799994,12.71537497216
1.04e-07,18.1763750432,0.48037501017599993,12.6216249664
1.045e-07,18.20762504512,0.47881251008,12.55912496256
1.05e-07,18.23887504704,0.47568750988799996,12.57474996352
1.0550000000000001e-07,18.16075004224,0.47568750988799996,12.6216249664
1.0600000000000001e-07,18.06700003648,0.47725000998399997,12.68412497024
1.0650000000000001e-07,17.98887503168,0.47725000998399997,12.79349997696
1.07e-07,18.0201250336,0.47568750988799996,12.87162498176
1.075e-07,18.06700003648,0.47725000998399997,12.88724998272
1.08e-07,18.08262503744,0.47725000998399997,12.8559999808
1.0850000000000001e-07,18.0982500384,0.47725000998399997,12.80912497792
1.0900000000000001e-07,18.0982500384,0.48037501017599993,12.80912497792
1.0950000000000001e-07,18.12950004032,0.48037501017599993,12.79349997696
1.1e-07,18.16075004224,0.48037501017599993,12.76224997504
1.105e-07,18.1763750432,0.48037501017599993,12.668499969279999
1.11e-07,18.14512504128,0.47881251008,12.6216249664
1.1150000000000001e-07,18.11387503936,0.47725000998399997,12.60599996544
1.1200000000000001e-07,18.06700003648,0.47725000998399997,12.57474996352
1.1250000000000001e-07,18.06700003648,0.47881251008,12.6216249664
1.13e-07,18.08262503744,0.47881251008,12.71537497216
1.135e-07,18.12950004032,0.47725000998399997,12.74662497408
1.14e-07,18.12950004032,0.47725000998399997,12.76224997504
1.1450000000000001e-07,18.12950004032,0.47725000998399997,12.82474997888
1.1500000000000001e-07,18.14512504128,0.47725000998399997,12.87162498176
1.1550000000000001e-07,18.11387503936,0.47725000998399997,12.90287498368
1.16e-07,18.14512504128,0.47568750988799996,12.88724998272
1.165e-07,18.19200004416,0.472562509696,12.8559999808
1.17e-07,18.20762504512,0.47568750988799996,12.80912497792
1.1750000000000001e-07,18.19200004416,0.47725000998399997,12.73099997312
1.1800000000000001e-07,18.14512504128,0.47568750988799996,12.60599996544
1.1850000000000001e-07,18.0982500384,0.47568750988799996,12.49662495872
1.1900000000000001e-07,18.05137503552,0.47881251008,12.4653749568
1.195e-07,18.06700003648,0.47725000998399997,12.49662495872
1.2000000000000002e-07,18.0982500384,0.47568750988799996,12.5434999616
1.205e-07,18.0982500384,0.47725000998399997,12.57474996352
1.21e-07,18.08262503744,0.48193751027199994,12.652874968319999
1.215e-07,18.08262503744,0.48037501017599993,12.6997499712
1.22e-07,18.11387503936,0.48037501017599993,12.76224997504
1.2250000000000002e-07,18.11387503936,0.48037501017599993,12.84037497984
1.23e-07,18.14512504128,0.47881251008,12.90287498368
1.2350000000000001e-07,18.0982500384,0.47725000998399997,12.91849998464
1.24e-07,18.08262503744,0.472562509696,12.84037497984
1.245e-07,18.0982500384,0.469437509504,12.71537497216
1.2500000000000002e-07,18.19200004416,0.467875009408,12.668499969279999
1.255e-07,18.254500048,0.4710000096,12.60599996544
1.2600000000000002e-07,18.28575004992,0.4710000096,12.57474996352
1.265e-07,18.30137505088,0.469437509504,12.55912496256
1.27e-07,18.22325004608,0.4710000096,12.5434999616
1.275e-07,18.16075004224,0.4710000096,12.57474996352
1.28e-07,18.12950004032,0.469437509504,12.59037496448
1.2850000000000002e-07,18.11387503936,0.4710000096,12.637249967359999
1.29e-07,17.98887503168,0.474125009792,12.76224997504
1.2950000000000001e-07,17.863875024,0.474125009792,12.8559999808
1.3e-07,17.75450001728,0.472562509696,12.91849998464
1.305e-07,17.7857500192,0.474125009792,12.94974998656
1.31e-07,17.87950002496,0.474125009792,12.90287498368
1.315e-07,17.91075002688,0.472562509696,12.84037497984
1.3200000000000002e-07,17.9420000288,0.4710000096,12.777874976
1.325e-07,18.03575003456,0.474125009792,12.71537497216
1.33e-07,18.19200004416,0.47568750988799996,12.73099997312
1.335e-07,18.31700005184,0.47568750988799996,12.68412497024
1.34e-07,18.39512505664,0.474125009792,12.652874968319999
1.3450000000000002e-07,18.42637505856,0.472562509696,12.55912496256
1.35e-07,18.39512505664,0.469437509504,12.51224995968
1.3550000000000002e-07,18.39512505664,0.467875009408,12.51224995968
1.36e-07,18.34825005376,0.467875009408,12.55912496256
1.365e-07,18.23887504704,0.469437509504,12.6216249664
1.37e-07,18.12950004032,0.469437509504,12.68412497024
1.375e-07,18.06700003648,0.467875009408,12.73099997312
1.3800000000000002e-07,18.05137503552,0.46631250931199997,12.82474997888
1.385e-07,18.03575003456,0.467875009408,12.94974998656
1.3900000000000001e-07,18.0201250336,0.4710000096,13.02787499136
1.395e-07,17.95762502976,0.469437509504,13.02787499136
1.4e-07,17.91075002688,0.469437509504,13.02787499136
1.4050000000000002e-07,17.91075002688,0.469437509504,13.07474999424
1.41e-07,17.97325003072,0.469437509504,13.07474999424
1.4150000000000002e-07,18.08262503744,0.467875009408,12.94974998656
1.42e-07,18.11387503936,0.46475000921599996,12.79349997696
1.425e-07,18.16075004224,0.46475000921599996,12.68412497024
1.43e-07,18.14512504128,0.46631250931199997,12.637249967359999
1.435e-07,18.19200004416,0.46475000921599996,12.6216249664
1.4400000000000002e-07,18.22325004608,0.46162500902399994,12.57474996352
1.445e-07,18.254500048,0.46162500902399994,12.57474996352
1.4500000000000001e-07,18.20762504512,0.46318750911999995,12.652874968319999
1.455e-07,18.16075004224,0.46475000921599996,12.6997499712
1.46e-07,18.14512504128,0.46318750911999995,12.74662497408
1.4650000000000002e-07,18.08262503744,0.46006250892799994,12.82474997888
1.47e-07,18.05137503552,0.46006250892799994,12.87162498176
1.4750000000000002e-07,18.05137503552,0.45850000883199993,12.87162498176
1.48e-07,18.06700003648,0.46006250892799994,12.79349997696
1.485e-07,18.0982500384,0.46318750911999995,12.6997499712
1.49e-07,18.12950004032,0.46318750911999995,12.6997499712
1.495e-07,18.1763750432,0.46162500902399994,12.68412497024
1.5000000000000002e-07,18.20762504512,0.46006250892799994,12.668499969279999
1.505e-07,18.27012504896,0.46006250892799994,12.652874968319999
1.5100000000000002e-07,18.254500048,0.46318750911999995,12.6997499712
1.515e-07,18.20762504512,0.46475000921599996,12.76224997504
1.52e-07,18.12950004032,0.46631250931199997,12.79349997696
1.5250000000000002e-07,18.05137503552,0.469437509504,12.82474997888
1.53e-07,18.03575003456,0.472562509696,12.88724998272
1.5350000000000002e-07,18.05137503552,0.474125009792,12.94974998656
1.54e-07,18.06700003648,0.4710000096,12.96537498752
1.5450000000000001e-07,18.0982500384,0.4710000096,12.91849998464
1.55e-07,18.16075004224,0.4710000096,12.79349997696
1.555e-07,18.19200004416,0.467875009408,12.6997499712
1.5600000000000002e-07,18.20762504512,0.46162500902399994,12.652874968319999
1.565e-07,18.20762504512,0.46006250892799994,12.59037496448
1.5700000000000002e-07,18.19200004416,0.45850000883199993,12.5434999616
1.575e-07,18.16075004224,0.46006250892799994,12.44974995584
1.58e-07,18.0982500384,0.456937508736,12.387249952
1.5850000000000002e-07,18.06700003648,0.45850000883199993,12.34037494912
1.59e-07,17.97325003072,0.46162500902399994,12.387249952
