Time (s),VIN,IIN,VOUT
0.0,18.55087503552,0.44151250643199996,13.25374995968
5e-10,18.53525003456,0.444637506624,13.19124995584
1e-09,18.55087503552,0.447762506816,13.128749952
1.5000000000000002e-09,18.58212503744,0.447762506816,13.08187494912
2e-09,18.66025004224,0.444637506624,13.08187494912
2.5e-09,18.66025004224,0.44620000672,13.06624994816
3.0000000000000004e-09,18.70712504512,0.44620000672,13.0506249472
3.5000000000000003e-09,18.73837504704,0.44620000672,13.06624994816
4e-09,18.769625048960002,0.44932500691199995,13.15999995392
4.500000000000001e-09,18.69150004416,0.44932500691199995,13.2068749568
5e-09,18.5977500384,0.45245000710399996,13.22249995776
5.5000000000000004e-09,18.55087503552,0.45245000710399996,13.26937496064
6.000000000000001e-09,18.53525003456,0.45401250719999997,13.31624996352
6.5e-09,18.55087503552,0.457137507392,13.33187496448
7.000000000000001e-09,18.58212503744,0.455575007296,13.2849999616
7.500000000000001e-09,18.62900004032,0.45401250719999997,13.17562495488
8e-09,18.64462504128,0.45401250719999997,13.11312495104
8.5e-09,18.6758750432,0.45245000710399996,13.0506249472
9.000000000000001e-09,18.72275004608,0.44932500691199995,13.019374945280001
9.5e-09,18.73837504704,0.444637506624,12.92562493952
1e-08,18.73837504704,0.44307500652799997,12.83187493376
1.0500000000000001e-08,18.66025004224,0.44151250643199996,12.76937492992
1.1000000000000001e-08,18.62900004032,0.439950006336,12.75374992896
1.15e-08,18.55087503552,0.44151250643199996,12.75374992896
1.2000000000000002e-08,18.50400003264,0.44620000672,12.83187493376
1.2500000000000001e-08,18.4415000288,0.447762506816,12.9724999424
1.3e-08,18.4415000288,0.44932500691199995,13.06624994816
1.35e-08,18.4415000288,0.44932500691199995,13.14437495296
1.4000000000000001e-08,18.47275003072,0.447762506816,13.22249995776
1.45e-08,18.5196250336,0.447762506816,13.34749996544
1.5000000000000002e-08,18.5196250336,0.44932500691199995,13.48812497408
1.55e-08,18.55087503552,0.45088750700799995,13.53499997696
1.6e-08,18.5977500384,0.45088750700799995,13.48812497408
1.6500000000000002e-08,18.61337503936,0.447762506816,13.378749967360001
1.7e-08,18.66025004224,0.44932500691199995,13.2849999616
1.75e-08,18.69150004416,0.45088750700799995,13.14437495296
1.8000000000000002e-08,18.754000048,0.45245000710399996,12.98812494336
1.85e-08,18.800875050880002,0.45401250719999997,12.87874993664
1.9e-08,18.847750053760002,0.455575007296,12.80062493184
1.9500000000000003e-08,18.832125052800002,0.460262507584,12.76937492992
2e-08,18.800875050880002,0.460262507584,12.76937492992
2.05e-08,18.754000048,0.457137507392,12.83187493376
2.1000000000000003e-08,18.70712504512,0.45245000710399996,12.9724999424
2.15e-08,18.61337503936,0.447762506816,13.15999995392
2.2000000000000002e-08,18.47275003072,0.44620000672,13.30062496256
2.2500000000000003e-08,18.363375024,0.447762506816,13.378749967360001
2.3e-08,18.285250019200003,0.447762506816,13.4412499712
2.3500000000000002e-08,18.238375016320003,0.44620000672,13.42562497024
2.4000000000000003e-08,18.191500013440002,0.44620000672,13.40999996928
2.45e-08,18.254000017280003,0.444637506624,13.2849999616
2.5000000000000002e-08,18.41025002688,0.444637506624,13.15999995392
2.55e-08,18.56650003648,0.444637506624,13.0506249472
2.6e-08,18.69150004416,0.444637506624,12.9724999424
2.6500000000000002e-08,18.754000048,0.44620000672,12.8943749376
2.7e-08,18.832125052800002,0.444637506624,12.90999993856
2.75e-08,18.847750053760002,0.44151250643199996,12.9724999424
2.8000000000000003e-08,18.800875050880002,0.44151250643199996,13.128749952
2.85e-08,18.73837504704,0.44307500652799997,13.2068749568
2.9e-08,18.66025004224,0.44620000672,13.26937496064
2.9500000000000003e-08,18.5977500384,0.45088750700799995,13.31624996352
3.0000000000000004e-08,18.5196250336,0.455575007296,13.394374968320001
3.05e-08,18.50400003264,0.457137507392,13.42562497024
3.1e-08,18.55087503552,0.45401250719999997,13.378749967360001
3.1500000000000004e-08,18.64462504128,0.45245000710399996,13.26937496064
3.2e-08,18.62900004032,0.45245000710399996,13.19124995584
3.25e-08,18.58212503744,0.45088750700799995,13.14437495296
3.3000000000000004e-08,18.58212503744,0.44932500691199995,13.15999995392
3.35e-08,18.66025004224,0.447762506816,13.14437495296
3.4e-08,18.6758750432,0.444637506624,13.14437495296
3.4500000000000005e-08,18.5977500384,0.44620000672,13.17562495488
3.5e-08,18.55087503552,0.444637506624,13.17562495488
3.55e-08,18.56650003648,0.444637506624,13.14437495296
3.6000000000000005e-08,18.55087503552,0.45088750700799995,13.15999995392
3.65e-08,18.48837503168,0.45245000710399996,13.14437495296
3.7e-08,18.47275003072,0.45401250719999997,13.128749952
3.7500000000000005e-08,18.58212503744,0.45245000710399996,13.128749952
3.8e-08,18.72275004608,0.45245000710399996,13.128749952
3.85e-08,18.754000048,0.45401250719999997,13.09749995008
3.9000000000000005e-08,18.72275004608,0.45245000710399996,13.11312495104
3.95e-08,18.62900004032,0.447762506816,13.11312495104
4e-08,18.5196250336,0.44620000672,13.128749952
4.0500000000000005e-08,18.45712502976,0.44620000672,13.11312495104
4.1e-08,18.48837503168,0.447762506816,13.09749995008
4.15e-08,18.56650003648,0.45245000710399996,13.03499994624
4.2000000000000006e-08,18.62900004032,0.455575007296,13.019374945280001
4.2500000000000003e-08,18.62900004032,0.46182500768,13.03499994624
4.3e-08,18.64462504128,0.46182500768,13.06624994816
4.3500000000000006e-08,18.58212503744,0.460262507584,13.11312495104
4.4000000000000004e-08,18.56650003648,0.458700007488,13.09749995008
4.45e-08,18.5977500384,0.455575007296,13.08187494912
4.5000000000000006e-08,18.6758750432,0.44932500691199995,13.19124995584
4.5500000000000004e-08,18.69150004416,0.447762506816,13.33187496448
4.6e-08,18.5977500384,0.45088750700799995,13.40999996928
4.6500000000000006e-08,18.50400003264,0.447762506816,13.378749967360001
4.7000000000000004e-08,18.39462502592,0.44307500652799997,13.34749996544
4.75e-08,18.37900002496,0.444637506624,13.30062496256
4.8000000000000006e-08,18.41025002688,0.447762506816,13.17562495488
4.8500000000000004e-08,18.56650003648,0.45401250719999997,12.95687494144
4.9e-08,18.72275004608,0.458700007488,12.86312493568
4.95e-08,18.769625048960002,0.46182500768,12.83187493376
5.0000000000000004e-08,18.73837504704,0.46495000787199997,12.83187493376
5.05e-08,18.6758750432,0.463387507776,12.83187493376
5.1e-08,18.6758750432,0.457137507392,12.87874993664
5.1500000000000005e-08,18.5977500384,0.45401250719999997,12.98812494336
5.2e-08,18.5196250336,0.45401250719999997,13.15999995392
5.25e-08,18.47275003072,0.455575007296,13.2849999616
5.3000000000000005e-08,18.4415000288,0.458700007488,13.363124966400001
5.35e-08,18.363375024,0.46182500768,13.48812497408
5.4e-08,18.285250019200003,0.46495000787199997,13.53499997696
5.4500000000000005e-08,18.300875020160003,0.466512507968,13.4412499712
5.5e-08,18.41025002688,0.463387507776,13.26937496064
5.55e-08,18.53525003456,0.460262507584,13.15999995392
5.6000000000000005e-08,18.62900004032,0.458700007488,13.128749952
5.65e-08,18.69150004416,0.455575007296,13.03499994624
5.7e-08,18.70712504512,0.455575007296,12.94124994048
5.7500000000000005e-08,18.70712504512,0.45401250719999997,12.8943749376
5.8e-08,18.6758750432,0.45088750700799995,12.94124994048
5.85e-08,18.61337503936,0.45245000710399996,13.019374945280001
5.9000000000000006e-08,18.56650003648,0.45245000710399996,13.0506249472
5.9500000000000003e-08,18.53525003456,0.45088750700799995,13.11312495104
6.000000000000001e-08,18.53525003456,0.458700007488,13.25374995968
6.05e-08,18.50400003264,0.46495000787199997,13.378749967360001
6.1e-08,18.5196250336,0.47120000825599995,13.34749996544
6.15e-08,18.53525003456,0.47120000825599995,13.25374995968
6.2e-08,18.50400003264,0.468075008064,13.22249995776
6.250000000000001e-08,18.5196250336,0.463387507776,13.22249995776
6.300000000000001e-08,18.5196250336,0.458700007488,13.19124995584
6.35e-08,18.5977500384,0.457137507392,13.14437495296
6.4e-08,18.64462504128,0.458700007488,13.14437495296
6.45e-08,18.62900004032,0.458700007488,13.15999995392
6.5e-08,18.58212503744,0.460262507584,13.15999995392
6.55e-08,18.58212503744,0.46182500768,13.11312495104
6.600000000000001e-08,18.61337503936,0.460262507584,13.09749995008
6.65e-08,18.62900004032,0.46182500768,13.14437495296
6.7e-08,18.66025004224,0.46182500768,13.19124995584
6.75e-08,18.6758750432,0.463387507776,13.15999995392
6.8e-08,18.62900004032,0.46182500768,13.11312495104
6.85e-08,18.5196250336,0.457137507392,13.09749995008
6.900000000000001e-08,18.42587502784,0.45245000710399996,13.15999995392
6.950000000000001e-08,18.41025002688,0.444637506624,13.23812495872
7e-08,18.42587502784,0.44307500652799997,13.25374995968
7.05e-08,18.47275003072,0.447762506816,13.2068749568
7.1e-08,18.45712502976,0.45245000710399996,13.2068749568
7.15e-08,18.47275003072,0.457137507392,13.19124995584
7.200000000000001e-08,18.53525003456,0.46182500768,13.19124995584
7.250000000000001e-08,18.61337503936,0.463387507776,13.15999995392
7.3e-08,18.70712504512,0.468075008064,13.17562495488
7.35e-08,18.769625048960002,0.47120000825599995,13.14437495296
7.4e-08,18.832125052800002,0.47120000825599995,13.06624994816
7.45e-08,18.785250049920002,0.47276250835199995,12.94124994048
7.500000000000001e-08,18.73837504704,0.46963750815999994,12.95687494144
7.550000000000001e-08,18.69150004416,0.466512507968,13.09749995008
7.6e-08,18.64462504128,0.46495000787199997,13.2849999616
7.65e-08,18.55087503552,0.460262507584,13.34749996544
7.7e-08,18.48837503168,0.460262507584,13.31624996352
7.75e-08,18.47275003072,0.46182500768,13.25374995968
7.800000000000001e-08,18.47275003072,0.466512507968,13.19124995584
7.850000000000001e-08,18.48837503168,0.466512507968,13.128749952
7.9e-08,18.50400003264,0.463387507776,13.0506249472
7.95e-08,18.55087503552,0.46182500768,13.019374945280001
8e-08,18.58212503744,0.460262507584,13.00374994432
8.05e-08,18.58212503744,0.46182500768,12.92562493952
8.100000000000001e-08,18.58212503744,0.46495000787199997,12.86312493568
8.150000000000001e-08,18.56650003648,0.463387507776,12.87874993664
8.2e-08,18.55087503552,0.46182500768,13.00374994432
8.25e-08,18.48837503168,0.460262507584,13.128749952
8.3e-08,18.47275003072,0.460262507584,13.19124995584
8.35e-08,18.45712502976,0.46182500768,13.17562495488
8.400000000000001e-08,18.5196250336,0.468075008064,13.2068749568
8.450000000000001e-08,18.5196250336,0.46963750815999994,13.2068749568
8.500000000000001e-08,18.55087503552,0.47120000825599995,13.25374995968
8.55e-08,18.61337503936,0.47120000825599995,13.26937496064
8.6e-08,18.64462504128,0.47120000825599995,13.23812495872
8.65e-08,18.66025004224,0.468075008064,13.14437495296
8.700000000000001e-08,18.6758750432,0.46495000787199997,13.06624994816
8.750000000000001e-08,18.69150004416,0.46182500768,12.95687494144
8.800000000000001e-08,18.6758750432,0.463387507776,12.92562493952
8.85e-08,18.6758750432,0.46495000787199997,12.94124994048
8.9e-08,18.64462504128,0.466512507968,13.00374994432
8.95e-08,18.58212503744,0.466512507968,13.00374994432
9.000000000000001e-08,18.56650003648,0.468075008064,13.019374945280001
9.050000000000001e-08,18.5196250336,0.46963750815999994,13.08187494912
9.100000000000001e-08,18.45712502976,0.468075008064,13.14437495296
9.15e-08,18.45712502976,0.468075008064,13.2068749568
9.2e-08,18.48837503168,0.468075008064,13.23812495872
9.25e-08,18.5196250336,0.466512507968,13.23812495872
9.300000000000001e-08,18.56650003648,0.46495000787199997,13.26937496064
9.350000000000001e-08,18.56650003648,0.463387507776,13.2849999616
9.400000000000001e-08,18.56650003648,0.460262507584,13.23812495872
9.45e-08,18.5977500384,0.46182500768,13.15999995392
9.5e-08,18.62900004032,0.46495000787199997,13.11312495104
9.55e-08,18.66025004224,0.46495000787199997,13.0506249472
9.600000000000001e-08,18.6758750432,0.463387507776,12.95687494144
9.650000000000001e-08,18.64462504128,0.46182500768,12.86312493568
9.700000000000001e-08,18.62900004032,0.46182500768,12.90999993856
9.75e-08,18.5977500384,0.460262507584,12.9724999424
9.8e-08,18.61337503936,0.463387507776,13.019374945280001
9.85e-08,18.61337503936,0.468075008064,13.06624994816
9.9e-08,18.5977500384,0.466512507968,13.11312495104
9.950000000000001e-08,18.55087503552,0.466512507968,13.2068749568
1.0000000000000001e-07,18.5196250336,0.468075008064,13.33187496448
1.005e-07,18.45712502976,0.466512507968,13.363124966400001
1.01e-07,18.48837503168,0.46495000787199997,13.378749967360001
1.015e-07,18.58212503744,0.46182500768,13.34749996544
1.02e-07,18.62900004032,0.46182500768,13.31624996352
1.0250000000000001e-07,18.66025004224,0.46182500768,13.22249995776
1.0300000000000001e-07,18.64462504128,0.466512507968,13.17562495488
1.0350000000000001e-07,18.64462504128,0.468075008064,13.128749952
1.04e-07,18.64462504128,0.46495000787199997,13.08187494912
1.045e-07,18.64462504128,0.463387507776,12.9724999424
1.05e-07,18.69150004416,0.46495000787199997,12.98812494336
1.0550000000000001e-07,18.70712504512,0.46495000787199997,13.03499994624
1.0600000000000001e-07,18.62900004032,0.46182500768,13.11312495104
1.0650000000000001e-07,18.53525003456,0.463387507776,13.19124995584
1.07e-07,18.53525003456,0.46182500768,13.23812495872
1.075e-07,18.5196250336,0.460262507584,13.23812495872
1.08e-07,18.53525003456,0.46182500768,13.23812495872
1.0850000000000001e-07,18.5977500384,0.460262507584,13.2068749568
1.0900000000000001e-07,18.5977500384,0.46182500768,13.2068749568
1.0950000000000001e-07,18.58212503744,0.46182500768,13.19124995584
1.1e-07,18.61337503936,0.463387507776,13.14437495296
1.105e-07,18.66025004224,0.466512507968,13.06624994816
1.11e-07,18.6758750432,0.46495000787199997,13.019374945280001
1.1150000000000001e-07,18.61337503936,0.460262507584,12.98812494336
1.1200000000000001e-07,18.58212503744,0.460262507584,13.00374994432
1.1250000000000001e-07,18.55087503552,0.460262507584,13.03499994624
1.13e-07,18.56650003648,0.463387507776,13.08187494912
1.135e-07,18.5977500384,0.460262507584,13.08187494912
1.14e-07,18.62900004032,0.460262507584,13.14437495296
1.1450000000000001e-07,18.61337503936,0.46182500768,13.2068749568
1.1500000000000001e-07,18.5977500384,0.460262507584,13.25374995968
1.1550000000000001e-07,18.61337503936,0.460262507584,13.30062496256
1.16e-07,18.64462504128,0.46182500768,13.31624996352
1.165e-07,18.69150004416,0.46182500768,13.26937496064
1.17e-07,18.72275004608,0.463387507776,13.2068749568
1.1750000000000001e-07,18.72275004608,0.46182500768,13.11312495104
1.1800000000000001e-07,18.66025004224,0.460262507584,13.00374994432
1.1850000000000001e-07,18.62900004032,0.457137507392,12.8943749376
1.1900000000000001e-07,18.5977500384,0.457137507392,12.86312493568
1.195e-07,18.5977500384,0.460262507584,12.8943749376
1.2000000000000002e-07,18.5977500384,0.463387507776,12.94124994048
1.205e-07,18.5977500384,0.463387507776,12.9724999424
1.21e-07,18.58212503744,0.46182500768,13.03499994624
1.215e-07,18.58212503744,0.460262507584,13.08187494912
1.22e-07,18.62900004032,0.46182500768,13.17562495488
1.2250000000000002e-07,18.64462504128,0.46495000787199997,13.25374995968
1.23e-07,18.66025004224,0.463387507776,13.30062496256
1.2350000000000001e-07,18.64462504128,0.460262507584,13.26937496064
1.24e-07,18.5977500384,0.458700007488,13.23812495872
1.245e-07,18.58212503744,0.457137507392,13.14437495296
1.2500000000000002e-07,18.62900004032,0.457137507392,13.06624994816
1.255e-07,18.69150004416,0.455575007296,13.019374945280001
1.2600000000000002e-07,18.73837504704,0.458700007488,12.98812494336
1.265e-07,18.769625048960002,0.457137507392,12.94124994048
1.27e-07,18.769625048960002,0.45401250719999997,12.94124994048
1.275e-07,18.72275004608,0.45401250719999997,12.95687494144
1.28e-07,18.66025004224,0.455575007296,13.03499994624
1.2850000000000002e-07,18.62900004032,0.455575007296,13.08187494912
1.29e-07,18.61337503936,0.455575007296,13.17562495488
1.2950000000000001e-07,18.5196250336,0.455575007296,13.25374995968
1.3e-07,18.39462502592,0.457137507392,13.31624996352
1.305e-07,18.269625018240003,0.458700007488,13.31624996352
1.31e-07,18.285250019200003,0.455575007296,13.26937496064
1.315e-07,18.363375024,0.457137507392,13.22249995776
1.3200000000000002e-07,18.42587502784,0.458700007488,13.2068749568
1.325e-07,18.45712502976,0.460262507584,13.128749952
1.33e-07,18.53525003456,0.458700007488,13.09749995008
1.335e-07,18.6758750432,0.458700007488,13.06624994816
1.34e-07,18.832125052800002,0.458700007488,13.03499994624
1.3450000000000002e-07,18.925875058560003,0.457137507392,12.95687494144
1.35e-07,18.941500059520003,0.455575007296,12.90999993856
1.3550000000000002e-07,18.910250057600003,0.455575007296,12.90999993856
1.36e-07,18.879000055680002,0.457137507392,12.98812494336
1.365e-07,18.847750053760002,0.457137507392,13.03499994624
1.37e-07,18.769625048960002,0.455575007296,13.08187494912
1.375e-07,18.6758750432,0.45401250719999997,13.128749952
1.3800000000000002e-07,18.61337503936,0.45401250719999997,13.22249995776
1.385e-07,18.58212503744,0.45401250719999997,13.33187496448
1.3900000000000001e-07,18.56650003648,0.45245000710399996,13.394374968320001
1.395e-07,18.5196250336,0.45245000710399996,13.42562497024
1.4e-07,18.45712502976,0.45401250719999997,13.45687497216
1.4050000000000002e-07,18.42587502784,0.45245000710399996,13.45687497216
1.41e-07,18.4415000288,0.45245000710399996,13.4412499712
1.4150000000000002e-07,18.50400003264,0.45401250719999997,13.363124966400001
1.42e-07,18.56650003648,0.45401250719999997,13.23812495872
1.425e-07,18.62900004032,0.44932500691199995,13.11312495104
1.43e-07,18.62900004032,0.44932500691199995,13.06624994816
1.435e-07,18.66025004224,0.447762506816,13.0506249472
1.4400000000000002e-07,18.70712504512,0.447762506816,13.03499994624
1.445e-07,18.754000048,0.44620000672,13.00374994432
1.4500000000000001e-07,18.785250049920002,0.444637506624,13.0506249472
1.455e-07,18.73837504704,0.44307500652799997,13.06624994816
1.46e-07,18.69150004416,0.44620000672,13.14437495296
1.4650000000000002e-07,18.62900004032,0.447762506816,13.2068749568
1.47e-07,18.62900004032,0.444637506624,13.26937496064
1.4750000000000002e-07,18.58212503744,0.44151250643199996,13.25374995968
1.48e-07,18.56650003648,0.44307500652799997,13.2068749568
1.485e-07,18.58212503744,0.44620000672,13.128749952
1.49e-07,18.61337503936,0.447762506816,13.09749995008
1.495e-07,18.6758750432,0.447762506816,13.11312495104
1.5000000000000002e-07,18.6758750432,0.44620000672,13.09749995008
1.505e-07,18.72275004608,0.447762506816,13.08187494912
1.5100000000000002e-07,18.754000048,0.44932500691199995,13.09749995008
1.515e-07,18.785250049920002,0.447762506816,13.15999995392
1.52e-07,18.72275004608,0.45088750700799995,13.22249995776
1.5250000000000002e-07,18.62900004032,0.44932500691199995,13.25374995968
1.53e-07,18.56650003648,0.45245000710399996,13.2849999616
1.5350000000000002e-07,18.53525003456,0.45401250719999997,13.31624996352
1.54e-07,18.58212503744,0.45401250719999997,13.34749996544
1.5450000000000001e-07,18.5977500384,0.457137507392,13.31624996352
1.55e-07,18.62900004032,0.455575007296,13.19124995584
1.555e-07,18.6758750432,0.45245000710399996,13.11312495104
1.5600000000000002e-07,18.70712504512,0.45245000710399996,13.09749995008
1.565e-07,18.72275004608,0.45088750700799995,13.0506249472
1.5700000000000002e-07,18.754000048,0.44620000672,12.95687494144
1.575e-07,18.72275004608,0.444637506624,12.86312493568
1.58e-07,18.69150004416,0.44307500652799997,12.80062493184
1.5850000000000002e-07,18.62900004032,0.444637506624,12.76937492992
1.59e-07,18.58212503744,0.44307500652799997,12.78499993088
1.5950000000000002e-07,18.5196250336,0.44307500652799997,12.86312493568
1.6e-07,18.45712502976,0.444637506624,13.00374994432
1.6050000000000001e-07,18.41025002688,0.44620000672,13.09749995008
1.61e-07,18.4415000288,0.44620000672,13.17562495488
1.615e-07,18.48837503168,0.444637506624,13.23812495872
1.6200000000000002e-07,18.5196250336,0.444637506624,13.378749967360001
1.625e-07,18.5196250336,0.44620000672,13.519374976
1.6300000000000002e-07,18.55087503552,0.44620000672,13.55062497792
