Time (s),VIN,IIN,VOUT
0.0,18.3963749952,1.2580375064320002,36.77125000192
5e-10,18.36512499328,1.2611625066240002,36.78687500288
1e-09,18.38074999424,1.264287506816,36.8181250048
1.5000000000000002e-09,18.34949999232,1.264287506816,36.84937500672
2e-09,18.3182499904,1.268975007104,36.8181250048
2.5e-09,18.271374987519998,1.268975007104,36.80250000384
3.0000000000000004e-09,18.271374987519998,1.267412507008,36.75562500096
3.5000000000000003e-09,18.255749986559998,1.264287506816,36.75562500096
4e-09,18.224499984639998,1.264287506816,36.77125000192
4.500000000000001e-09,18.240124985599998,1.265850006912,36.78687500288
5e-09,18.224499984639998,1.2705375072,36.74
5.5000000000000004e-09,18.271374987519998,1.267412507008,36.72437499904
6.000000000000001e-09,18.33387499136,1.264287506816,36.67749999616
6.5e-09,18.36512499328,1.2627250067200002,36.69312499712
7.000000000000001e-09,18.36512499328,1.2627250067200002,36.70874999808
7.500000000000001e-09,18.38074999424,1.2611625066240002,36.74
8e-09,18.36512499328,1.2596000065280002,36.80250000384
8.5e-09,18.34949999232,1.2564750063360002,36.83375000576
9.000000000000001e-09,18.36512499328,1.2580375064320002,36.8181250048
9.5e-09,18.36512499328,1.2611625066240002,36.8181250048
1e-08,18.33387499136,1.2627250067200002,36.80250000384
1.0500000000000001e-08,18.271374987519998,1.2627250067200002,36.80250000384
1.1000000000000001e-08,18.224499984639998,1.2627250067200002,36.78687500288
1.15e-08,18.193249982719998,1.2596000065280002,36.77125000192
1.2000000000000002e-08,18.208874983679998,1.2611625066240002,36.70874999808
1.2500000000000001e-08,18.271374987519998,1.2596000065280002,36.69312499712
1.3e-08,18.3182499904,1.2596000065280002,36.64624999424
1.35e-08,18.34949999232,1.2580375064320002,36.59937499136
1.4000000000000001e-08,18.38074999424,1.2580375064320002,36.5837499904
1.45e-08,18.41199999616,1.2596000065280002,36.63062499328
1.5000000000000002e-08,18.42762499712,1.2596000065280002,36.6618749952
1.55e-08,18.45887499904,1.2580375064320002,36.70874999808
1.6e-08,18.44324999808,1.2580375064320002,36.78687500288
1.6500000000000002e-08,18.3963749952,1.2611625066240002,36.84937500672
1.7e-08,18.33387499136,1.2627250067200002,36.86500000768
1.75e-08,18.255749986559998,1.2596000065280002,36.84937500672
1.8000000000000002e-08,18.224499984639998,1.2596000065280002,36.78687500288
1.85e-08,18.224499984639998,1.2611625066240002,36.77125000192
1.9e-08,18.240124985599998,1.2611625066240002,36.74
1.9500000000000003e-08,18.255749986559998,1.2627250067200002,36.74
2e-08,18.271374987519998,1.2611625066240002,36.69312499712
2.05e-08,18.34949999232,1.2627250067200002,36.67749999616
2.1000000000000003e-08,18.44324999808,1.2627250067200002,36.6618749952
2.15e-08,18.4745,1.2611625066240002,36.69312499712
2.2000000000000002e-08,18.45887499904,1.2596000065280002,36.72437499904
2.2500000000000003e-08,18.42762499712,1.2564750063360002,36.78687500288
2.3e-08,18.38074999424,1.2549125062400002,36.8181250048
2.3500000000000002e-08,18.38074999424,1.2564750063360002,36.8181250048
2.4000000000000003e-08,18.36512499328,1.2564750063360002,36.8181250048
2.45e-08,18.302624989439998,1.2596000065280002,36.83375000576
2.5000000000000002e-08,18.286999988479998,1.2580375064320002,36.77125000192
2.55e-08,18.3182499904,1.2580375064320002,36.69312499712
2.6e-08,18.36512499328,1.2564750063360002,36.59937499136
2.6500000000000002e-08,18.33387499136,1.2580375064320002,36.56812498944
2.7e-08,18.33387499136,1.2596000065280002,36.56812498944
2.75e-08,18.36512499328,1.2611625066240002,36.63062499328
2.8000000000000003e-08,18.38074999424,1.2611625066240002,36.67749999616
2.85e-08,18.41199999616,1.2596000065280002,36.77125000192
2.9e-08,18.36512499328,1.2580375064320002,36.83375000576
2.9500000000000003e-08,18.34949999232,1.2564750063360002,36.8962500096
3.0000000000000004e-08,18.286999988479998,1.2580375064320002,36.8962500096
3.05e-08,18.271374987519998,1.2596000065280002,36.91187501056
3.1e-08,18.3182499904,1.2596000065280002,36.8962500096
3.1500000000000004e-08,18.38074999424,1.2580375064320002,36.84937500672
3.2e-08,18.33387499136,1.2564750063360002,36.8181250048
3.25e-08,18.271374987519998,1.2564750063360002,36.80250000384
3.3000000000000004e-08,18.271374987519998,1.2611625066240002,36.74
3.35e-08,18.240124985599998,1.2611625066240002,36.69312499712
3.4e-08,18.271374987519998,1.2627250067200002,36.63062499328
3.4500000000000005e-08,18.36512499328,1.2611625066240002,36.63062499328
3.5e-08,18.42762499712,1.2580375064320002,36.64624999424
3.55e-08,18.44324999808,1.2596000065280002,36.69312499712
3.6000000000000005e-08,18.36512499328,1.2580375064320002,36.75562500096
3.65e-08,18.34949999232,1.2596000065280002,36.83375000576
3.7e-08,18.33387499136,1.2596000065280002,36.86500000768
3.7500000000000005e-08,18.34949999232,1.2596000065280002,36.88062500864
3.8e-08,18.34949999232,1.2596000065280002,36.88062500864
3.85e-08,18.3182499904,1.2611625066240002,36.91187501056
3.9000000000000005e-08,18.286999988479998,1.2611625066240002,36.92750001152
3.95e-08,18.271374987519998,1.2596000065280002,36.86500000768
4e-08,18.240124985599998,1.2611625066240002,36.83375000576
4.0500000000000005e-08,18.271374987519998,1.2596000065280002,36.80250000384
4.1e-08,18.302624989439998,1.2596000065280002,36.78687500288
4.15e-08,18.3182499904,1.2627250067200002,36.77125000192
4.2000000000000006e-08,18.33387499136,1.2627250067200002,36.75562500096
4.2500000000000003e-08,18.34949999232,1.264287506816,36.80250000384
4.3e-08,18.38074999424,1.2627250067200002,36.8181250048
4.3500000000000006e-08,18.38074999424,1.2627250067200002,36.84937500672
4.4000000000000004e-08,18.33387499136,1.2611625066240002,36.88062500864
4.45e-08,18.271374987519998,1.264287506816,36.92750001152
4.5000000000000006e-08,18.193249982719998,1.265850006912,36.95875001344
4.5500000000000004e-08,18.224499984639998,1.265850006912,36.94312501248
4.6e-08,18.33387499136,1.267412507008,36.83375000576
4.6500000000000006e-08,18.38074999424,1.272100007296,36.77125000192
4.7000000000000004e-08,18.36512499328,1.2705375072,36.72437499904
4.75e-08,18.271374987519998,1.267412507008,36.70874999808
4.8000000000000006e-08,18.130749978879997,1.2627250067200002,36.77125000192
4.8500000000000004e-08,18.11512497792,1.2611625066240002,36.83375000576
4.9e-08,18.224499984639998,1.2627250067200002,36.83375000576
4.95e-08,18.3963749952,1.267412507008,36.83375000576
5.0000000000000004e-08,18.42762499712,1.268975007104,36.84937500672
5.05e-08,18.302624989439998,1.265850006912,36.94312501248
5.1e-08,18.193249982719998,1.2627250067200002,36.99000001536
5.1500000000000005e-08,18.177624981759998,1.2611625066240002,37.00562501632
5.2e-08,18.271374987519998,1.2611625066240002,36.94312501248
5.25e-08,18.3963749952,1.264287506816,36.84937500672
5.3000000000000005e-08,18.41199999616,1.267412507008,36.84937500672
5.35e-08,18.34949999232,1.268975007104,36.86500000768
5.4e-08,18.224499984639998,1.2705375072,36.83375000576
5.4500000000000005e-08,18.130749978879997,1.272100007296,36.8181250048
5.5e-08,18.193249982719998,1.272100007296,36.74
5.55e-08,18.255749986559998,1.2705375072,36.70874999808
5.6000000000000005e-08,18.302624989439998,1.268975007104,36.75562500096
5.65e-08,18.286999988479998,1.268975007104,36.84937500672
5.7e-08,18.255749986559998,1.2705375072,36.91187501056
5.7500000000000005e-08,18.224499984639998,1.268975007104,36.8962500096
5.8e-08,18.271374987519998,1.2705375072,36.86500000768
5.85e-08,18.302624989439998,1.268975007104,36.8962500096
5.9000000000000006e-08,18.3182499904,1.267412507008,36.92750001152
5.9500000000000003e-08,18.271374987519998,1.268975007104,36.9743750144
6.000000000000001e-08,18.224499984639998,1.268975007104,36.9743750144
6.05e-08,18.208874983679998,1.2705375072,36.92750001152
6.1e-08,18.208874983679998,1.2705375072,36.88062500864
6.15e-08,18.255749986559998,1.2705375072,36.86500000768
6.2e-08,18.255749986559998,1.2705375072,36.84937500672
6.250000000000001e-08,18.271374987519998,1.272100007296,36.86500000768
6.300000000000001e-08,18.286999988479998,1.272100007296,36.8181250048
6.35e-08,18.33387499136,1.2705375072,36.78687500288
6.4e-08,18.3182499904,1.268975007104,36.8181250048
6.45e-08,18.286999988479998,1.2705375072,36.88062500864
6.5e-08,18.271374987519998,1.2705375072,36.92750001152
6.55e-08,18.208874983679998,1.272100007296,36.95875001344
6.600000000000001e-08,18.240124985599998,1.272100007296,36.92750001152
6.65e-08,18.255749986559998,1.268975007104,36.8962500096
6.7e-08,18.286999988479998,1.272100007296,36.83375000576
6.75e-08,18.255749986559998,1.273662507392,36.86500000768
6.8e-08,18.208874983679998,1.272100007296,36.88062500864
6.85e-08,18.161999980799997,1.2705375072,36.88062500864
6.900000000000001e-08,18.161999980799997,1.2705375072,36.83375000576
6.950000000000001e-08,18.255749986559998,1.268975007104,36.80250000384
7e-08,18.33387499136,1.267412507008,36.74
7.05e-08,18.33387499136,1.2705375072,36.83375000576
7.1e-08,18.271374987519998,1.268975007104,36.88062500864
7.15e-08,18.224499984639998,1.265850006912,36.91187501056
7.200000000000001e-08,18.193249982719998,1.264287506816,36.92750001152
7.250000000000001e-08,18.208874983679998,1.268975007104,36.92750001152
7.3e-08,18.255749986559998,1.272100007296,36.91187501056
7.35e-08,18.302624989439998,1.272100007296,36.92750001152
7.4e-08,18.255749986559998,1.275225007488,36.91187501056
7.45e-08,18.177624981759998,1.275225007488,36.91187501056
7.500000000000001e-08,18.161999980799997,1.276787507584,36.83375000576
7.550000000000001e-08,18.177624981759998,1.27835000768,36.83375000576
7.6e-08,18.240124985599998,1.276787507584,36.83375000576
7.65e-08,18.302624989439998,1.276787507584,36.84937500672
7.7e-08,18.286999988479998,1.27835000768,36.86500000768
7.75e-08,18.271374987519998,1.275225007488,36.83375000576
7.800000000000001e-08,18.286999988479998,1.273662507392,36.75562500096
7.850000000000001e-08,18.271374987519998,1.273662507392,36.77125000192
7.9e-08,18.271374987519998,1.272100007296,36.80250000384
7.95e-08,18.271374987519998,1.272100007296,36.84937500672
8e-08,18.208874983679998,1.2705375072,36.91187501056
8.05e-08,18.177624981759998,1.272100007296,36.94312501248
8.100000000000001e-08,18.208874983679998,1.275225007488,36.88062500864
8.150000000000001e-08,18.224499984639998,1.276787507584,36.83375000576
8.2e-08,18.240124985599998,1.27835000768,36.84937500672
8.25e-08,18.240124985599998,1.276787507584,36.91187501056
8.3e-08,18.240124985599998,1.273662507392,36.8962500096
8.35e-08,18.255749986559998,1.273662507392,36.8962500096
8.400000000000001e-08,18.286999988479998,1.273662507392,36.84937500672
8.450000000000001e-08,18.286999988479998,1.276787507584,36.84937500672
8.500000000000001e-08,18.224499984639998,1.27835000768,36.8962500096
8.55e-08,18.193249982719998,1.279912507776,36.91187501056
8.6e-08,18.146374979839997,1.276787507584,36.86500000768
8.65e-08,18.193249982719998,1.27835000768,36.84937500672
8.700000000000001e-08,18.240124985599998,1.27835000768,36.83375000576
8.750000000000001e-08,18.286999988479998,1.27835000768,36.8181250048
8.800000000000001e-08,18.286999988479998,1.27835000768,36.84937500672
8.85e-08,18.271374987519998,1.27835000768,36.8962500096
8.9e-08,18.302624989439998,1.279912507776,36.83375000576
8.95e-08,18.33387499136,1.279912507776,36.75562500096
9.000000000000001e-08,18.36512499328,1.281475007872,36.74
9.050000000000001e-08,18.33387499136,1.281475007872,36.80250000384
9.100000000000001e-08,18.286999988479998,1.279912507776,36.88062500864
9.15e-08,18.208874983679998,1.27835000768,36.95875001344
9.2e-08,18.177624981759998,1.27835000768,36.99000001536
9.25e-08,18.177624981759998,1.281475007872,36.94312501248
9.300000000000001e-08,18.177624981759998,1.283037507968,36.94312501248
9.350000000000001e-08,18.193249982719998,1.279912507776,36.9743750144
9.400000000000001e-08,18.177624981759998,1.281475007872,36.9743750144
9.45e-08,18.161999980799997,1.281475007872,36.99000001536
9.5e-08,18.177624981759998,1.281475007872,36.9743750144
9.55e-08,18.240124985599998,1.283037507968,36.91187501056
9.600000000000001e-08,18.302624989439998,1.281475007872,36.88062500864
9.650000000000001e-08,18.3182499904,1.279912507776,36.86500000768
9.700000000000001e-08,18.36512499328,1.279912507776,36.84937500672
9.75e-08,18.36512499328,1.27835000768,36.83375000576
9.8e-08,18.33387499136,1.276787507584,36.80250000384
9.85e-08,18.286999988479998,1.276787507584,36.83375000576
9.9e-08,18.3182499904,1.276787507584,36.83375000576
9.950000000000001e-08,18.33387499136,1.27835000768,36.88062500864
1.0000000000000001e-07,18.286999988479998,1.27835000768,36.92750001152
1.005e-07,18.240124985599998,1.27835000768,36.94312501248
1.01e-07,18.193249982719998,1.27835000768,36.94312501248
1.015e-07,18.177624981759998,1.276787507584,36.94312501248
1.02e-07,18.177624981759998,1.276787507584,36.91187501056
1.0250000000000001e-07,18.255749986559998,1.276787507584,36.92750001152
1.0300000000000001e-07,18.286999988479998,1.276787507584,36.92750001152
1.0350000000000001e-07,18.271374987519998,1.276787507584,36.91187501056
1.04e-07,18.271374987519998,1.275225007488,36.91187501056
1.045e-07,18.255749986559998,1.276787507584,36.91187501056
1.05e-07,18.255749986559998,1.27835000768,36.91187501056
1.0550000000000001e-07,18.271374987519998,1.27835000768,36.8962500096
1.0600000000000001e-07,18.271374987519998,1.276787507584,36.88062500864
1.0650000000000001e-07,18.255749986559998,1.276787507584,36.91187501056
1.07e-07,18.240124985599998,1.279912507776,36.86500000768
1.075e-07,18.224499984639998,1.279912507776,36.86500000768
1.08e-07,18.224499984639998,1.276787507584,36.83375000576
1.0850000000000001e-07,18.224499984639998,1.27835000768,36.8181250048
1.0900000000000001e-07,18.208874983679998,1.281475007872,36.80250000384
1.0950000000000001e-07,18.271374987519998,1.279912507776,36.77125000192
1.1e-07,18.3182499904,1.276787507584,36.74
1.105e-07,18.33387499136,1.27835000768,36.75562500096
1.11e-07,18.33387499136,1.279912507776,36.77125000192
1.1150000000000001e-07,18.286999988479998,1.279912507776,36.80250000384
1.1200000000000001e-07,18.271374987519998,1.275225007488,36.88062500864
1.1250000000000001e-07,18.286999988479998,1.276787507584,36.91187501056
1.13e-07,18.34949999232,1.276787507584,36.91187501056
1.135e-07,18.34949999232,1.275225007488,36.92750001152
1.14e-07,18.302624989439998,1.276787507584,36.9743750144
1.1450000000000001e-07,18.208874983679998,1.276787507584,37.03687501824
1.1500000000000001e-07,18.130749978879997,1.27835000768,36.99000001536
1.1550000000000001e-07,18.130749978879997,1.279912507776,36.91187501056
1.16e-07,18.177624981759998,1.27835000768,36.8181250048
1.165e-07,18.240124985599998,1.27835000768,36.78687500288
1.17e-07,18.255749986559998,1.279912507776,36.78687500288
1.1750000000000001e-07,18.286999988479998,1.279912507776,36.75562500096
1.1800000000000001e-07,18.33387499136,1.283037507968,36.72437499904
1.1850000000000001e-07,18.34949999232,1.283037507968,36.74
1.1900000000000001e-07,18.36512499328,1.279912507776,36.72437499904
1.195e-07,18.33387499136,1.279912507776,36.75562500096
1.2000000000000002e-07,18.302624989439998,1.27835000768,36.83375000576
1.205e-07,18.271374987519998,1.27835000768,36.91187501056
1.21e-07,18.286999988479998,1.27835000768,36.8962500096
1.215e-07,18.271374987519998,1.27835000768,36.84937500672
1.22e-07,18.271374987519998,1.27835000768,36.80250000384
1.2250000000000002e-07,18.224499984639998,1.276787507584,36.84937500672
1.23e-07,18.224499984639998,1.273662507392,36.83375000576
1.2350000000000001e-07,18.208874983679998,1.273662507392,36.84937500672
1.24e-07,18.255749986559998,1.275225007488,36.83375000576
1.245e-07,18.302624989439998,1.27835000768,36.84937500672
1.2500000000000002e-07,18.302624989439998,1.281475007872,36.86500000768
1.255e-07,18.302624989439998,1.276787507584,36.88062500864
1.2600000000000002e-07,18.302624989439998,1.272100007296,36.8962500096
1.265e-07,18.286999988479998,1.2705375072,36.91187501056
1.27e-07,18.3182499904,1.272100007296,36.86500000768
1.275e-07,18.36512499328,1.273662507392,36.8181250048
1.28e-07,18.3182499904,1.275225007488,36.83375000576
1.2850000000000002e-07,18.271374987519998,1.275225007488,36.86500000768
1.29e-07,18.255749986559998,1.275225007488,36.86500000768
1.2950000000000001e-07,18.271374987519998,1.276787507584,36.8181250048
1.3e-07,18.302624989439998,1.276787507584,36.75562500096
1.305e-07,18.3182499904,1.276787507584,36.74
1.31e-07,18.3182499904,1.27835000768,36.77125000192
1.315e-07,18.271374987519998,1.276787507584,36.83375000576
1.3200000000000002e-07,18.224499984639998,1.275225007488,36.84937500672
1.325e-07,18.255749986559998,1.272100007296,36.83375000576
1.33e-07,18.271374987519998,1.272100007296,36.84937500672
1.335e-07,18.33387499136,1.272100007296,36.86500000768
1.34e-07,18.34949999232,1.2705375072,36.88062500864
1.3450000000000002e-07,18.3182499904,1.268975007104,36.9743750144
1.35e-07,18.255749986559998,1.265850006912,36.9743750144
1.3550000000000002e-07,18.224499984639998,1.264287506816,36.94312501248
1.36e-07,18.224499984639998,1.265850006912,36.8962500096
1.365e-07,18.271374987519998,1.268975007104,36.84937500672
1.37e-07,18.3182499904,1.268975007104,36.83375000576
1.375e-07,18.34949999232,1.268975007104,36.8181250048
1.3800000000000002e-07,18.36512499328,1.268975007104,36.78687500288
1.385e-07,18.34949999232,1.268975007104,36.75562500096
1.3900000000000001e-07,18.36512499328,1.268975007104,36.72437499904
1.395e-07,18.38074999424,1.268975007104,36.74
1.4e-07,18.34949999232,1.267412507008,36.78687500288
1.4050000000000002e-07,18.36512499328,1.265850006912,36.83375000576
1.41e-07,18.3182499904,1.268975007104,36.86500000768
1.4150000000000002e-07,18.3182499904,1.268975007104,36.84937500672
1.42e-07,18.3182499904,1.272100007296,36.80250000384
1.425e-07,18.286999988479998,1.273662507392,36.83375000576
1.43e-07,18.240124985599998,1.268975007104,36.86500000768
1.435e-07,18.224499984639998,1.267412507008,36.84937500672
1.4400000000000002e-07,18.193249982719998,1.265850006912,36.84937500672
1.445e-07,18.208874983679998,1.268975007104,36.8181250048
1.4500000000000001e-07,18.240124985599998,1.2705375072,36.80250000384
1.455e-07,18.286999988479998,1.268975007104,36.80250000384
1.46e-07,18.33387499136,1.267412507008,36.75562500096
1.4650000000000002e-07,18.34949999232,1.265850006912,36.77125000192
1.47e-07,18.3963749952,1.264287506816,36.74
1.4750000000000002e-07,18.3963749952,1.2627250067200002,36.75562500096
1.48e-07,18.38074999424,1.2627250067200002,36.77125000192
1.485e-07,18.3963749952,1.265850006912,36.80250000384
1.49e-07,18.36512499328,1.268975007104,36.80250000384
1.495e-07,18.33387499136,1.268975007104,36.80250000384
1.5000000000000002e-07,18.3182499904,1.265850006912,36.75562500096
1.505e-07,18.302624989439998,1.268975007104,36.75562500096
1.5100000000000002e-07,18.271374987519998,1.268975007104,36.75562500096
1.515e-07,18.255749986559998,1.2705375072,36.77125000192
1.52e-07,18.240124985599998,1.268975007104,36.78687500288
1.5250000000000002e-07,18.240124985599998,1.268975007104,36.75562500096
1.53e-07,18.286999988479998,1.2705375072,36.70874999808
1.5350000000000002e-07,18.33387499136,1.268975007104,36.6618749952
1.54e-07,18.38074999424,1.267412507008,36.6618749952
1.5450000000000001e-07,18.38074999424,1.265850006912,36.70874999808
1.55e-07,18.38074999424,1.264287506816,36.74
1.555e-07,18.36512499328,1.2627250067200002,36.80250000384
1.5600000000000002e-07,18.34949999232,1.2611625066240002,36.80250000384
1.565e-07,18.38074999424,1.2627250067200002,36.8181250048
1.5700000000000002e-07,18.36512499328,1.264287506816,36.80250000384
1.575e-07,18.33387499136,1.268975007104,36.80250000384
1.58e-07,18.286999988479998,1.268975007104,36.78687500288
1.5850000000000002e-07,18.224499984639998,1.268975007104,36.80250000384
1.59e-07,18.193249982719998,1.265850006912,36.77125000192
1.5950000000000002e-07,18.224499984639998,1.264287506816,36.72437499904
1.6e-07,18.271374987519998,1.264287506816,36.69312499712
1.6050000000000001e-07,18.3182499904,1.264287506816,36.6618749952
