Time (s),VIN,IIN,VOUT
0.0,20.69850004416,0.47810000672,13.99737494912
5e-10,20.65162504128,0.476537506624,14.07549995392
1e-09,20.63600004032,0.476537506624,14.13799995776
1.5000000000000002e-09,20.6047500384,0.47810000672,14.1223749568
2e-09,20.57350003648,0.47810000672,14.07549995392
2.5e-09,20.55787503552,0.47966250681600003,14.044249952
3.0000000000000004e-09,20.57350003648,0.481225006912,14.044249952
3.5000000000000003e-09,20.65162504128,0.476537506624,14.02862495104
4e-09,20.69850004416,0.476537506624,13.98174994816
4.500000000000001e-09,20.74537504704,0.47810000672,13.9661249472
5e-09,20.74537504704,0.481225006912,14.02862495104
5.5000000000000004e-09,20.72975004608,0.4859125072,14.05987495296
6.000000000000001e-09,20.6828750432,0.4859125072,14.10674995584
6.5e-09,20.58912503744,0.484350007104,14.1223749568
7.000000000000001e-09,20.58912503744,0.487475007296,14.16924995968
7.500000000000001e-09,20.58912503744,0.49216250758400004,14.2004999616
8e-09,20.6047500384,0.489037507392,14.2004999616
8.5e-09,20.62037503936,0.489037507392,14.15362495872
9.000000000000001e-09,20.62037503936,0.49060000748800003,14.09112495488
9.5e-09,20.63600004032,0.49060000748800003,14.01299995008
1e-08,20.66725004224,0.489037507392,13.95049994624
1.0500000000000001e-08,20.6828750432,0.484350007104,13.91924994432
1.1000000000000001e-08,20.71412504512,0.482787507008,13.85674994048
1.15e-08,20.72975004608,0.47966250681600003,13.71612493184
1.2000000000000002e-08,20.66725004224,0.47810000672,13.653624928
1.2500000000000001e-08,20.58912503744,0.476537506624,13.653624928
1.3e-08,20.5266250336,0.47810000672,13.70049993088
1.35e-08,20.479750030719998,0.476537506624,13.74737493376
1.4000000000000001e-08,20.417250026879998,0.476537506624,13.84112493952
1.45e-08,20.401625025919998,0.476537506624,13.91924994432
1.5000000000000002e-08,20.448500028799998,0.47810000672,13.99737494912
1.55e-08,20.464125029759998,0.482787507008,14.1223749568
1.6e-08,20.49537503168,0.481225006912,14.24737496448
1.6500000000000002e-08,20.479750030719998,0.47966250681600003,14.37237497216
1.7e-08,20.5266250336,0.481225006912,14.45049997696
1.75e-08,20.55787503552,0.47966250681600003,14.40362497408
1.8000000000000002e-08,20.62037503936,0.47966250681600003,14.294249967359999
1.85e-08,20.66725004224,0.47966250681600003,14.21612496256
1.9e-08,20.71412504512,0.482787507008,14.10674995584
1.9500000000000003e-08,20.761000048,0.487475007296,13.9661249472
2e-08,20.79225004992,0.489037507392,13.8098749376
2.05e-08,20.8391250528,0.489037507392,13.71612493184
2.1000000000000003e-08,20.8391250528,0.49060000748800003,13.68487492992
2.15e-08,20.79225004992,0.49060000748800003,13.63799992704
2.2000000000000002e-08,20.761000048,0.489037507392,13.70049993088
2.2500000000000003e-08,20.69850004416,0.484350007104,13.82549993856
2.3e-08,20.6047500384,0.482787507008,13.99737494912
2.3500000000000002e-08,20.448500028799998,0.482787507008,14.15362495872
2.4000000000000003e-08,20.370375023999998,0.47966250681600003,14.21612496256
2.45e-08,20.323500021119997,0.47810000672,14.26299996544
2.5000000000000002e-08,20.27662501824,0.47966250681600003,14.32549996928
2.55e-08,20.22975001536,0.47810000672,14.294249967359999
2.6e-08,20.26100001728,0.474975006528,14.18487496064
2.6500000000000002e-08,20.370375023999998,0.474975006528,14.10674995584
2.7e-08,20.51100003264,0.47810000672,14.02862495104
2.75e-08,20.66725004224,0.47966250681600003,13.90362494336
2.8000000000000003e-08,20.761000048,0.47966250681600003,13.84112493952
2.85e-08,20.79225004992,0.47810000672,13.82549993856
2.9e-08,20.77662504896,0.47810000672,13.90362494336
2.9500000000000003e-08,20.761000048,0.476537506624,13.98174994816
3.0000000000000004e-08,20.761000048,0.47810000672,14.10674995584
3.05e-08,20.71412504512,0.47966250681600003,14.15362495872
3.1e-08,20.66725004224,0.481225006912,14.21612496256
3.1500000000000004e-08,20.57350003648,0.484350007104,14.26299996544
3.2e-08,20.58912503744,0.4859125072,14.2786249664
3.25e-08,20.62037503936,0.487475007296,14.24737496448
3.3000000000000004e-08,20.65162504128,0.489037507392,14.2004999616
3.35e-08,20.6047500384,0.4859125072,14.13799995776
3.4e-08,20.6047500384,0.481225006912,14.10674995584
3.4500000000000005e-08,20.65162504128,0.47966250681600003,14.10674995584
3.5e-08,20.66725004224,0.47966250681600003,14.09112495488
3.55e-08,20.63600004032,0.47810000672,14.07549995392
3.6000000000000005e-08,20.58912503744,0.47810000672,14.09112495488
3.65e-08,20.57350003648,0.47966250681600003,14.09112495488
3.7e-08,20.55787503552,0.482787507008,14.07549995392
3.7500000000000005e-08,20.5266250336,0.481225006912,14.02862495104
3.8e-08,20.5266250336,0.484350007104,14.01299995008
3.85e-08,20.58912503744,0.484350007104,13.98174994816
3.9000000000000005e-08,20.69850004416,0.487475007296,13.98174994816
3.95e-08,20.72975004608,0.489037507392,13.98174994816
4e-08,20.72975004608,0.4859125072,13.99737494912
4.0500000000000005e-08,20.69850004416,0.482787507008,14.01299995008
4.1e-08,20.63600004032,0.482787507008,13.99737494912
4.15e-08,20.58912503744,0.482787507008,13.95049994624
4.2000000000000006e-08,20.55787503552,0.481225006912,13.9661249472
4.2500000000000003e-08,20.57350003648,0.484350007104,13.9661249472
4.3e-08,20.6047500384,0.487475007296,13.9661249472
4.3500000000000006e-08,20.6047500384,0.487475007296,13.91924994432
4.4000000000000004e-08,20.6047500384,0.489037507392,13.8879999424
4.45e-08,20.58912503744,0.489037507392,13.87237494144
4.5000000000000006e-08,20.57350003648,0.487475007296,13.90362494336
4.5500000000000004e-08,20.62037503936,0.489037507392,13.91924994432
4.6e-08,20.71412504512,0.489037507392,14.01299995008
4.6500000000000006e-08,20.71412504512,0.4859125072,14.09112495488
4.7000000000000004e-08,20.65162504128,0.4859125072,14.16924995968
4.75e-08,20.5266250336,0.482787507008,14.23174996352
4.8000000000000006e-08,20.479750030719998,0.47810000672,14.24737496448
4.8500000000000004e-08,20.448500028799998,0.474975006528,14.21612496256
4.9e-08,20.49537503168,0.47810000672,14.13799995776
4.95e-08,20.55787503552,0.481225006912,13.98174994816
5.0000000000000004e-08,20.65162504128,0.489037507392,13.82549993856
5.05e-08,20.69850004416,0.49060000748800003,13.76299993472
5.1e-08,20.69850004416,0.49216250758400004,13.7317499328
5.1500000000000005e-08,20.71412504512,0.49372500768000005,13.66924992896
5.2e-08,20.74537504704,0.49372500768000005,13.653624928
5.25e-08,20.71412504512,0.49528750777600006,13.71612493184
5.3000000000000005e-08,20.62037503936,0.49372500768000005,13.8879999424
5.35e-08,20.54225003456,0.49372500768000005,13.99737494912
5.4e-08,20.479750030719998,0.49372500768000005,14.13799995776
5.4500000000000005e-08,20.448500028799998,0.49372500768000005,14.21612496256
5.5e-08,20.401625025919998,0.49372500768000005,14.309874968319999
5.55e-08,20.339125022079998,0.49528750777600006,14.32549996928
5.6000000000000005e-08,20.354750023039998,0.49528750777600006,14.23174996352
5.65e-08,20.448500028799998,0.49216250758400004,14.1223749568
5.7e-08,20.5266250336,0.49216250758400004,14.09112495488
5.7500000000000005e-08,20.58912503744,0.49060000748800003,13.99737494912
5.8e-08,20.66725004224,0.487475007296,13.8879999424
5.85e-08,20.69850004416,0.4859125072,13.82549993856
5.9000000000000006e-08,20.69850004416,0.484350007104,13.82549993856
5.9500000000000003e-08,20.66725004224,0.484350007104,13.82549993856
6.000000000000001e-08,20.62037503936,0.482787507008,13.87237494144
6.05e-08,20.62037503936,0.482787507008,13.93487494528
6.1e-08,20.6047500384,0.482787507008,14.05987495296
6.15e-08,20.58912503744,0.489037507392,14.15362495872
6.2e-08,20.55787503552,0.496850007872,14.18487496064
6.250000000000001e-08,20.54225003456,0.499975008064,14.15362495872
6.300000000000001e-08,20.54225003456,0.498412507968,14.1223749568
6.35e-08,20.5266250336,0.50153750816,14.1223749568
6.4e-08,20.5266250336,0.499975008064,14.13799995776
6.45e-08,20.57350003648,0.496850007872,14.09112495488
6.5e-08,20.63600004032,0.49528750777600006,14.05987495296
6.55e-08,20.62037503936,0.49372500768000005,14.05987495296
6.600000000000001e-08,20.62037503936,0.49372500768000005,14.07549995392
6.65e-08,20.62037503936,0.49060000748800003,14.07549995392
6.7e-08,20.63600004032,0.49372500768000005,14.044249952
6.75e-08,20.66725004224,0.49528750777600006,14.044249952
6.8e-08,20.6828750432,0.49528750777600006,14.05987495296
6.85e-08,20.69850004416,0.496850007872,14.044249952
6.900000000000001e-08,20.65162504128,0.498412507968,14.044249952
6.950000000000001e-08,20.58912503744,0.49528750777600006,13.99737494912
7e-08,20.5266250336,0.49060000748800003,14.044249952
7.05e-08,20.51100003264,0.484350007104,14.09112495488
7.1e-08,20.479750030719998,0.481225006912,14.1223749568
7.15e-08,20.417250026879998,0.4859125072,14.10674995584
7.200000000000001e-08,20.401625025919998,0.487475007296,14.07549995392
7.250000000000001e-08,20.432875027839998,0.487475007296,14.09112495488
7.3e-08,20.49537503168,0.49060000748800003,14.15362495872
7.35e-08,20.6047500384,0.49372500768000005,14.15362495872
7.4e-08,20.71412504512,0.499975008064,14.10674995584
7.45e-08,20.74537504704,0.50153750816,14.05987495296
7.500000000000001e-08,20.761000048,0.504662508352,14.01299995008
7.550000000000001e-08,20.79225004992,0.506225008448,13.91924994432
7.6e-08,20.82350005184,0.507787508544,13.90362494336
7.65e-08,20.8391250528,0.506225008448,13.99737494912
7.7e-08,20.74537504704,0.504662508352,14.13799995776
7.75e-08,20.63600004032,0.503100008256,14.16924995968
7.800000000000001e-08,20.55787503552,0.499975008064,14.18487496064
7.850000000000001e-08,20.54225003456,0.496850007872,14.15362495872
7.9e-08,20.54225003456,0.499975008064,14.15362495872
7.95e-08,20.51100003264,0.50153750816,14.13799995776
8e-08,20.51100003264,0.499975008064,14.07549995392
8.05e-08,20.51100003264,0.498412507968,13.9661249472
8.100000000000001e-08,20.55787503552,0.499975008064,13.91924994432
8.150000000000001e-08,20.58912503744,0.496850007872,13.87237494144
8.2e-08,20.62037503936,0.49372500768000005,13.82549993856
8.25e-08,20.62037503936,0.49060000748800003,13.79424993664
8.3e-08,20.58912503744,0.49372500768000005,13.87237494144
8.35e-08,20.55787503552,0.49372500768000005,13.90362494336
8.400000000000001e-08,20.51100003264,0.49372500768000005,13.9661249472
8.450000000000001e-08,20.5266250336,0.496850007872,13.9661249472
8.500000000000001e-08,20.51100003264,0.499975008064,14.044249952
8.55e-08,20.5266250336,0.499975008064,14.1223749568
8.6e-08,20.51100003264,0.499975008064,14.18487496064
8.65e-08,20.51100003264,0.498412507968,14.15362495872
8.700000000000001e-08,20.6047500384,0.50153750816,14.10674995584
8.750000000000001e-08,20.63600004032,0.50153750816,14.07549995392
8.800000000000001e-08,20.6828750432,0.503100008256,14.044249952
8.85e-08,20.6828750432,0.503100008256,13.9661249472
8.9e-08,20.6828750432,0.504662508352,13.93487494528
8.95e-08,20.66725004224,0.503100008256,13.8879999424
9.000000000000001e-08,20.66725004224,0.498412507968,13.84112493952
9.050000000000001e-08,20.66725004224,0.496850007872,13.87237494144
9.100000000000001e-08,20.63600004032,0.498412507968,13.91924994432
9.15e-08,20.57350003648,0.503100008256,13.9661249472
9.2e-08,20.51100003264,0.506225008448,14.02862495104
9.25e-08,20.479750030719998,0.506225008448,14.07549995392
9.300000000000001e-08,20.464125029759998,0.507787508544,14.07549995392
9.350000000000001e-08,20.479750030719998,0.503100008256,14.10674995584
9.400000000000001e-08,20.5266250336,0.499975008064,14.18487496064
9.45e-08,20.55787503552,0.49528750777600006,14.2004999616
9.5e-08,20.57350003648,0.49528750777600006,14.18487496064
9.55e-08,20.57350003648,0.496850007872,14.10674995584
9.600000000000001e-08,20.62037503936,0.496850007872,14.05987495296
9.650000000000001e-08,20.63600004032,0.49528750777600006,13.99737494912
9.700000000000001e-08,20.63600004032,0.496850007872,13.93487494528
9.75e-08,20.63600004032,0.499975008064,13.87237494144
9.8e-08,20.63600004032,0.499975008064,13.84112493952
9.85e-08,20.66725004224,0.499975008064,13.84112493952
9.9e-08,20.66725004224,0.503100008256,13.8879999424
9.950000000000001e-08,20.65162504128,0.503100008256,13.90362494336
1.0000000000000001e-07,20.62037503936,0.503100008256,13.95049994624
1.005e-07,20.55787503552,0.50153750816,14.05987495296
1.01e-07,20.49537503168,0.504662508352,14.18487496064
1.015e-07,20.51100003264,0.499975008064,14.2004999616
1.02e-07,20.5266250336,0.498412507968,14.23174996352
1.0250000000000001e-07,20.57350003648,0.496850007872,14.24737496448
1.0300000000000001e-07,20.65162504128,0.498412507968,14.2786249664
1.0350000000000001e-07,20.65162504128,0.50153750816,14.26299996544
1.04e-07,20.65162504128,0.503100008256,14.21612496256
1.045e-07,20.63600004032,0.50153750816,14.1223749568
1.05e-07,20.66725004224,0.499975008064,14.02862495104
1.0550000000000001e-07,20.71412504512,0.50153750816,13.93487494528
1.0600000000000001e-07,20.72975004608,0.50153750816,13.91924994432
1.0650000000000001e-07,20.69850004416,0.498412507968,13.98174994816
1.07e-07,20.66725004224,0.498412507968,14.044249952
1.075e-07,20.62037503936,0.498412507968,14.01299995008
1.08e-07,20.55787503552,0.498412507968,14.02862495104
1.0850000000000001e-07,20.57350003648,0.496850007872,14.07549995392
1.0900000000000001e-07,20.57350003648,0.49372500768000005,14.13799995776
1.0950000000000001e-07,20.54225003456,0.49528750777600006,14.15362495872
1.1e-07,20.55787503552,0.496850007872,14.18487496064
1.105e-07,20.58912503744,0.498412507968,14.15362495872
1.11e-07,20.6828750432,0.496850007872,14.07549995392
1.1150000000000001e-07,20.69850004416,0.49528750777600006,14.02862495104
1.1200000000000001e-07,20.6828750432,0.49528750777600006,13.99737494912
1.1250000000000001e-07,20.62037503936,0.496850007872,13.98174994816
1.13e-07,20.6047500384,0.496850007872,13.95049994624
1.135e-07,20.58912503744,0.49372500768000005,13.90362494336
1.14e-07,20.62037503936,0.49528750777600006,13.91924994432
1.1450000000000001e-07,20.63600004032,0.49528750777600006,13.98174994816
1.1500000000000001e-07,20.63600004032,0.496850007872,14.044249952
1.1550000000000001e-07,20.6047500384,0.49528750777600006,14.05987495296
1.16e-07,20.57350003648,0.49372500768000005,14.13799995776
1.165e-07,20.62037503936,0.49372500768000005,14.2004999616
1.17e-07,20.65162504128,0.49372500768000005,14.21612496256
1.1750000000000001e-07,20.6828750432,0.49372500768000005,14.2004999616
1.1800000000000001e-07,20.69850004416,0.49372500768000005,14.15362495872
1.1850000000000001e-07,20.69850004416,0.49216250758400004,14.07549995392
1.1900000000000001e-07,20.6828750432,0.49216250758400004,13.99737494912
1.195e-07,20.6828750432,0.49216250758400004,13.90362494336
1.2000000000000002e-07,20.69850004416,0.49060000748800003,13.82549993856
1.205e-07,20.65162504128,0.49216250758400004,13.8098749376
1.21e-07,20.62037503936,0.496850007872,13.84112493952
1.215e-07,20.57350003648,0.499975008064,13.82549993856
1.22e-07,20.58912503744,0.496850007872,13.87237494144
1.2250000000000002e-07,20.62037503936,0.496850007872,13.9661249472
1.23e-07,20.65162504128,0.499975008064,14.044249952
1.2350000000000001e-07,20.6828750432,0.499975008064,14.07549995392
1.24e-07,20.63600004032,0.499975008064,14.10674995584
1.245e-07,20.62037503936,0.496850007872,14.15362495872
1.2500000000000002e-07,20.62037503936,0.498412507968,14.18487496064
1.255e-07,20.62037503936,0.49528750777600006,14.09112495488
1.2600000000000002e-07,20.62037503936,0.49216250758400004,14.044249952
1.265e-07,20.65162504128,0.49060000748800003,13.9661249472
1.27e-07,20.71412504512,0.49060000748800003,13.91924994432
1.275e-07,20.74537504704,0.489037507392,13.8879999424
1.28e-07,20.80787505088,0.4859125072,13.85674994048
1.2850000000000002e-07,20.80787505088,0.4859125072,13.85674994048
1.29e-07,20.74537504704,0.489037507392,13.8879999424
1.2950000000000001e-07,20.65162504128,0.489037507392,13.93487494528
1.3e-07,20.63600004032,0.49060000748800003,14.01299995008
1.305e-07,20.6047500384,0.487475007296,14.10674995584
1.31e-07,20.5266250336,0.489037507392,14.2004999616
1.315e-07,20.401625025919998,0.489037507392,14.21612496256
1.3200000000000002e-07,20.2922500192,0.49060000748800003,14.21612496256
1.325e-07,20.2922500192,0.49372500768000005,14.16924995968
1.33e-07,20.323500021119997,0.49216250758400004,14.16924995968
1.335e-07,20.370375023999998,0.49060000748800003,14.1223749568
1.34e-07,20.432875027839998,0.49372500768000005,14.09112495488
1.3450000000000002e-07,20.55787503552,0.49216250758400004,14.02862495104
1.35e-07,20.72975004608,0.49372500768000005,13.98174994816
1.3550000000000002e-07,20.80787505088,0.49372500768000005,13.95049994624
1.36e-07,20.90162505664,0.49372500768000005,13.90362494336
1.365e-07,20.9172500576,0.49216250758400004,13.87237494144
1.37e-07,20.90162505664,0.49216250758400004,13.90362494336
1.375e-07,20.90162505664,0.489037507392,13.91924994432
1.3800000000000002e-07,20.85475005376,0.4859125072,13.93487494528
1.385e-07,20.80787505088,0.4859125072,13.98174994816
1.3900000000000001e-07,20.72975004608,0.4859125072,14.05987495296
1.395e-07,20.65162504128,0.4859125072,14.15362495872
1.4e-07,20.58912503744,0.484350007104,14.24737496448
1.4050000000000002e-07,20.55787503552,0.4859125072,14.2786249664
1.41e-07,20.49537503168,0.484350007104,14.32549996928
1.4150000000000002e-07,20.432875027839998,0.482787507008,14.34112497024
1.42e-07,20.417250026879998,0.4859125072,14.38799997312
1.425e-07,20.432875027839998,0.4859125072,14.38799997312
1.43e-07,20.49537503168,0.4859125072,14.309874968319999
1.435e-07,20.54225003456,0.484350007104,14.16924995968
1.4400000000000002e-07,20.58912503744,0.481225006912,14.05987495296
1.445e-07,20.62037503936,0.481225006912,13.99737494912
1.4500000000000001e-07,20.66725004224,0.484350007104,13.99737494912
1.455e-07,20.72975004608,0.482787507008,13.9661249472
1.46e-07,20.77662504896,0.481225006912,13.93487494528
1.4650000000000002e-07,20.77662504896,0.476537506624,13.93487494528
1.47e-07,20.761000048,0.474975006528,13.98174994816
1.4750000000000002e-07,20.69850004416,0.473412506432,14.01299995008
1.48e-07,20.63600004032,0.474975006528,14.07549995392
1.485e-07,20.63600004032,0.474975006528,14.13799995776
1.49e-07,20.6047500384,0.47966250681600003,14.16924995968
1.495e-07,20.55787503552,0.47810000672,14.07549995392
1.5000000000000002e-07,20.54225003456,0.47810000672,14.044249952
1.505e-07,20.57350003648,0.481225006912,14.01299995008
1.5100000000000002e-07,20.66725004224,0.482787507008,14.044249952
1.515e-07,20.6828750432,0.481225006912,14.02862495104
1.52e-07,20.74537504704,0.482787507008,14.01299995008
1.5250000000000002e-07,20.77662504896,0.47966250681600003,14.02862495104
1.53e-07,20.74537504704,0.484350007104,14.07549995392
1.5350000000000002e-07,20.6828750432,0.4859125072,14.1223749568
1.54e-07,20.62037503936,0.489037507392,14.15362495872
1.5450000000000001e-07,20.62037503936,0.49060000748800003,14.2004999616
1.55e-07,20.62037503936,0.49216250758400004,14.23174996352
1.555e-07,20.63600004032,0.49060000748800003,14.23174996352
1.5600000000000002e-07,20.63600004032,0.49216250758400004,14.18487496064
1.565e-07,20.65162504128,0.49216250758400004,14.09112495488
1.5700000000000002e-07,20.63600004032,0.49060000748800003,14.044249952
1.575e-07,20.66725004224,0.4859125072,13.98174994816
1.58e-07,20.71412504512,0.482787507008,13.93487494528
1.5850000000000002e-07,20.74537504704,0.47966250681600003,13.85674994048
1.59e-07,20.74537504704,0.47810000672,13.76299993472
1.5950000000000002e-07,20.66725004224,0.47810000672,13.68487492992
1.6e-07,20.6047500384,0.47810000672,13.66924992896
1.6050000000000001e-07,20.54225003456,0.47810000672,13.70049993088
1.61e-07,20.5266250336,0.47810000672,13.79424993664
1.615e-07,20.448500028799998,0.476537506624,13.85674994048
1.6200000000000002e-07,20.448500028799998,0.47810000672,13.93487494528
1.625e-07,20.448500028799998,0.47810000672,14.02862495104
1.6300000000000002e-07,20.479750030719998,0.481225006912,14.13799995776
1.635e-07,20.51100003264,0.482787507008,14.2786249664
1.64e-07,20.51100003264,0.481225006912,14.38799997312
