Time (s),VIN,IIN,VOUT
0.0,21.25187504704,0.482537506432,14.293374951039999
5e-10,21.20500004416,0.47941250624,14.355874954879999
1e-09,21.1893750432,0.480975006336,14.40274995776
1.5000000000000002e-09,21.17375004224,0.484100006528,14.44962496064
2e-09,21.111250038399998,0.484100006528,14.44962496064
2.5e-09,21.064375035519998,0.485662506624,14.37149995584
3.0000000000000004e-09,21.080000036479998,0.485662506624,14.324624952959999
3.5000000000000003e-09,21.111250038399998,0.485662506624,14.324624952959999
4e-09,21.1893750432,0.485662506624,14.293374951039999
4.500000000000001e-09,21.23625004608,0.48722500672,14.277749950079999
5e-09,21.267500048,0.48878750681600003,14.293374951039999
5.5000000000000004e-09,21.28312504896,0.48878750681600003,14.340249953919999
6.000000000000001e-09,21.267500048,0.49035000691200004,14.37149995584
6.5e-09,21.22062504512,0.49035000691200004,14.41837495872
7.000000000000001e-09,21.158125041279998,0.493475007104,14.44962496064
7.500000000000001e-09,21.142500040319998,0.4950375072,14.51212496448
8e-09,21.126875039359998,0.496600007296,14.51212496448
8.5e-09,21.158125041279998,0.496600007296,14.49649996352
9.000000000000001e-09,21.158125041279998,0.496600007296,14.44962496064
9.5e-09,21.142500040319998,0.4950375072,14.40274995776
1e-08,21.142500040319998,0.49035000691200004,14.308999951999999
1.0500000000000001e-08,21.1893750432,0.48878750681600003,14.246499948159999
1.1000000000000001e-08,21.22062504512,0.48878750681600003,14.19962494528
1.15e-08,21.25187504704,0.482537506432,14.18399994432
1.2000000000000002e-08,21.23625004608,0.47785000614400003,14.10587493952
1.2500000000000001e-08,21.1893750432,0.47941250624,14.04337493568
1.3e-08,21.142500040319998,0.480975006336,14.01212493376
1.35e-08,21.095625037439998,0.47941250624,14.04337493568
1.4000000000000001e-08,21.033125033599998,0.484100006528,14.0746249376
1.45e-08,21.001875031679997,0.484100006528,14.1527499424
1.5000000000000002e-08,20.955000028799997,0.48722500672,14.19962494528
1.55e-08,20.955000028799997,0.48878750681600003,14.277749950079999
1.6e-08,20.955000028799997,0.48878750681600003,14.355874954879999
1.6500000000000002e-08,21.001875031679997,0.485662506624,14.48087496256
1.7e-08,21.017500032639997,0.485662506624,14.590249969279999
1.75e-08,21.033125033599998,0.48722500672,14.668374974079999
1.8000000000000002e-08,21.064375035519998,0.48722500672,14.668374974079999
1.85e-08,21.126875039359998,0.49035000691200004,14.637124972159999
1.9e-08,21.1893750432,0.48878750681600003,14.5433749664
1.9500000000000003e-08,21.22062504512,0.49035000691200004,14.4652499616
2e-08,21.28312504896,0.4950375072,14.340249953919999
2.05e-08,21.33000005184,0.496600007296,14.19962494528
2.1000000000000003e-08,21.36125005376,0.496600007296,14.09024993856
2.15e-08,21.36125005376,0.498162507392,14.01212493376
2.2000000000000002e-08,21.36125005376,0.493475007104,13.949624929919999
2.2500000000000003e-08,21.29875004992,0.49191250700800004,13.980874931839999
2.3e-08,21.22062504512,0.48878750681600003,14.0746249376
2.3500000000000002e-08,21.126875039359998,0.48878750681600003,14.262124949119999
2.4000000000000003e-08,21.001875031679997,0.48722500672,14.3871249568
2.45e-08,20.908125025919997,0.482537506432,14.51212496448
2.5000000000000002e-08,20.845625022079997,0.47941250624,14.574624968319998
2.55e-08,20.81437502016,0.47941250624,14.637124972159999
2.6e-08,20.73625001536,0.47941250624,14.605874970239999
2.6500000000000002e-08,20.73625001536,0.480975006336,14.5433749664
2.7e-08,20.861250023039997,0.485662506624,14.44962496064
2.75e-08,21.033125033599998,0.484100006528,14.37149995584
2.8000000000000003e-08,21.17375004224,0.480975006336,14.246499948159999
2.85e-08,21.267500048,0.47941250624,14.1527499424
2.9e-08,21.28312504896,0.47941250624,14.10587493952
2.9500000000000003e-08,21.29875004992,0.482537506432,14.16837494336
3.0000000000000004e-08,21.31437505088,0.484100006528,14.2308749472
3.05e-08,21.29875004992,0.484100006528,14.340249953919999
3.1e-08,21.267500048,0.48722500672,14.4652499616
3.1500000000000004e-08,21.1893750432,0.48878750681600003,14.574624968319998
3.2e-08,21.126875039359998,0.493475007104,14.621499971199999
3.25e-08,21.095625037439998,0.493475007104,14.637124972159999
3.3000000000000004e-08,21.142500040319998,0.4950375072,14.605874970239999
3.35e-08,21.1893750432,0.493475007104,14.5433749664
3.4e-08,21.126875039359998,0.49035000691200004,14.4652499616
3.4500000000000005e-08,21.111250038399998,0.48722500672,14.43399995968
3.5e-08,21.142500040319998,0.485662506624,14.3871249568
3.55e-08,21.20500004416,0.484100006528,14.355874954879999
3.6000000000000005e-08,21.17375004224,0.485662506624,14.324624952959999
3.65e-08,21.111250038399998,0.48722500672,14.340249953919999
3.7e-08,21.080000036479998,0.48878750681600003,14.355874954879999
3.7500000000000005e-08,21.064375035519998,0.49035000691200004,14.37149995584
3.8e-08,21.064375035519998,0.4950375072,14.340249953919999
3.85e-08,21.080000036479998,0.496600007296,14.324624952959999
3.9000000000000005e-08,21.142500040319998,0.496600007296,14.340249953919999
3.95e-08,21.1893750432,0.4950375072,14.355874954879999
4e-08,21.23625004608,0.493475007104,14.37149995584
4.0500000000000005e-08,21.23625004608,0.48878750681600003,14.355874954879999
4.1e-08,21.20500004416,0.485662506624,14.324624952959999
4.15e-08,21.17375004224,0.485662506624,14.277749950079999
4.2000000000000006e-08,21.126875039359998,0.48722500672,14.246499948159999
4.2500000000000003e-08,21.095625037439998,0.48722500672,14.246499948159999
4.3e-08,21.080000036479998,0.49191250700800004,14.2308749472
4.3500000000000006e-08,21.111250038399998,0.493475007104,14.246499948159999
4.4000000000000004e-08,21.095625037439998,0.496600007296,14.21524994624
4.45e-08,21.095625037439998,0.49972500748800003,14.19962494528
4.5000000000000006e-08,21.095625037439998,0.49972500748800003,14.21524994624
4.5500000000000004e-08,21.095625037439998,0.49972500748800003,14.262124949119999
4.6e-08,21.158125041279998,0.496600007296,14.293374951039999
4.6500000000000006e-08,21.20500004416,0.493475007104,14.37149995584
4.7000000000000004e-08,21.22062504512,0.49191250700800004,14.43399995968
4.75e-08,21.142500040319998,0.48878750681600003,14.51212496448
4.8000000000000006e-08,21.064375035519998,0.48722500672,14.49649996352
4.8500000000000004e-08,21.017500032639997,0.484100006528,14.52774996544
4.9e-08,20.970625029759997,0.484100006528,14.49649996352
4.95e-08,21.017500032639997,0.48878750681600003,14.40274995776
5.0000000000000004e-08,21.080000036479998,0.493475007104,14.277749950079999
5.05e-08,21.17375004224,0.4950375072,14.13712494144
5.1e-08,21.1893750432,0.49972500748800003,14.09024993856
5.1500000000000005e-08,21.1893750432,0.50285000768,14.05899993664
5.2e-08,21.20500004416,0.50285000768,14.01212493376
5.25e-08,21.23625004608,0.496600007296,13.996499932799999
5.3000000000000005e-08,21.22062504512,0.496600007296,14.09024993856
5.35e-08,21.142500040319998,0.498162507392,14.2308749472
5.4e-08,21.064375035519998,0.49972500748800003,14.308999951999999
5.4500000000000005e-08,21.001875031679997,0.498162507392,14.40274995776
5.5e-08,20.955000028799997,0.49972500748800003,14.51212496448
5.55e-08,20.908125025919997,0.50285000768,14.590249969279999
5.6000000000000005e-08,20.861250023039997,0.504412507776,14.590249969279999
5.65e-08,20.876875023999997,0.501287507584,14.52774996544
5.7e-08,20.939375027839997,0.501287507584,14.4652499616
5.7500000000000005e-08,21.033125033599998,0.49972500748800003,14.40274995776
5.8e-08,21.111250038399998,0.496600007296,14.324624952959999
5.85e-08,21.1893750432,0.4950375072,14.2308749472
5.9000000000000006e-08,21.20500004416,0.493475007104,14.1527499424
5.9500000000000003e-08,21.20500004416,0.49035000691200004,14.16837494336
6.000000000000001e-08,21.1893750432,0.49035000691200004,14.16837494336
6.05e-08,21.17375004224,0.48878750681600003,14.18399994432
6.1e-08,21.158125041279998,0.493475007104,14.246499948159999
6.15e-08,21.126875039359998,0.496600007296,14.340249953919999
6.2e-08,21.111250038399998,0.501287507584,14.41837495872
6.250000000000001e-08,21.095625037439998,0.505975007872,14.44962496064
6.300000000000001e-08,21.048750034559998,0.505975007872,14.43399995968
6.35e-08,21.033125033599998,0.504412507776,14.43399995968
6.4e-08,21.033125033599998,0.50285000768,14.41837495872
6.45e-08,21.033125033599998,0.504412507776,14.43399995968
6.5e-08,21.080000036479998,0.505975007872,14.40274995776
6.55e-08,21.126875039359998,0.505975007872,14.3871249568
6.600000000000001e-08,21.111250038399998,0.504412507776,14.3871249568
6.65e-08,21.126875039359998,0.49972500748800003,14.355874954879999
6.7e-08,21.142500040319998,0.49972500748800003,14.324624952959999
6.75e-08,21.17375004224,0.501287507584,14.340249953919999
6.8e-08,21.158125041279998,0.50285000768,14.324624952959999
6.85e-08,21.20500004416,0.50285000768,14.340249953919999
6.900000000000001e-08,21.1893750432,0.50285000768,14.340249953919999
6.950000000000001e-08,21.17375004224,0.49972500748800003,14.340249953919999
7e-08,21.126875039359998,0.4950375072,14.340249953919999
7.05e-08,21.048750034559998,0.49035000691200004,14.37149995584
7.1e-08,20.986250030719997,0.48878750681600003,14.40274995776
7.15e-08,20.939375027839997,0.48722500672,14.44962496064
7.200000000000001e-08,20.908125025919997,0.493475007104,14.41837495872
7.250000000000001e-08,20.892500024959997,0.49035000691200004,14.41837495872
7.3e-08,20.939375027839997,0.496600007296,14.41837495872
7.35e-08,21.033125033599998,0.501287507584,14.41837495872
7.4e-08,21.111250038399998,0.50285000768,14.41837495872
7.45e-08,21.1893750432,0.50285000768,14.3871249568
7.500000000000001e-08,21.25187504704,0.509100008064,14.324624952959999
7.550000000000001e-08,21.28312504896,0.51066250816,14.277749950079999
7.6e-08,21.29875004992,0.51066250816,14.21524994624
7.65e-08,21.31437505088,0.509100008064,14.19962494528
7.7e-08,21.31437505088,0.507537507968,14.277749950079999
7.75e-08,21.23625004608,0.504412507776,14.37149995584
7.800000000000001e-08,21.158125041279998,0.50285000768,14.41837495872
7.850000000000001e-08,21.064375035519998,0.50285000768,14.4652499616
7.9e-08,21.033125033599998,0.504412507776,14.4652499616
7.95e-08,21.017500032639997,0.505975007872,14.48087496256
8e-08,21.017500032639997,0.507537507968,14.3871249568
8.05e-08,21.033125033599998,0.50285000768,14.340249953919999
8.100000000000001e-08,21.048750034559998,0.504412507776,14.246499948159999
8.150000000000001e-08,21.064375035519998,0.504412507776,14.18399994432
8.2e-08,21.064375035519998,0.50285000768,14.12149994048
8.25e-08,21.095625037439998,0.501287507584,14.10587493952
8.3e-08,21.095625037439998,0.501287507584,14.10587493952
8.35e-08,21.111250038399998,0.49972500748800003,14.18399994432
8.400000000000001e-08,21.064375035519998,0.498162507392,14.2308749472
8.450000000000001e-08,21.017500032639997,0.49972500748800003,14.246499948159999
8.500000000000001e-08,21.033125033599998,0.50285000768,14.293374951039999
8.55e-08,21.033125033599998,0.505975007872,14.37149995584
8.6e-08,21.064375035519998,0.507537507968,14.41837495872
8.65e-08,21.048750034559998,0.507537507968,14.43399995968
8.700000000000001e-08,21.064375035519998,0.507537507968,14.43399995968
8.750000000000001e-08,21.095625037439998,0.507537507968,14.41837495872
8.800000000000001e-08,21.142500040319998,0.51066250816,14.37149995584
8.85e-08,21.17375004224,0.507537507968,14.340249953919999
8.9e-08,21.20500004416,0.505975007872,14.246499948159999
8.95e-08,21.22062504512,0.505975007872,14.18399994432
9.000000000000001e-08,21.1893750432,0.50285000768,14.16837494336
9.050000000000001e-08,21.20500004416,0.501287507584,14.18399994432
9.100000000000001e-08,21.22062504512,0.504412507776,14.18399994432
9.15e-08,21.1893750432,0.507537507968,14.262124949119999
9.2e-08,21.126875039359998,0.509100008064,14.277749950079999
9.25e-08,21.080000036479998,0.51066250816,14.324624952959999
9.300000000000001e-08,21.017500032639997,0.512225008256,14.3871249568
9.350000000000001e-08,21.017500032639997,0.507537507968,14.41837495872
9.400000000000001e-08,21.048750034559998,0.50285000768,14.41837495872
9.45e-08,21.064375035519998,0.501287507584,14.43399995968
9.5e-08,21.048750034559998,0.501287507584,14.44962496064
9.55e-08,21.080000036479998,0.501287507584,14.4652499616
9.600000000000001e-08,21.111250038399998,0.504412507776,14.40274995776
9.650000000000001e-08,21.126875039359998,0.50285000768,14.355874954879999
9.700000000000001e-08,21.158125041279998,0.50285000768,14.262124949119999
9.75e-08,21.1893750432,0.50285000768,14.21524994624
9.8e-08,21.1893750432,0.50285000768,14.18399994432
9.85e-08,21.20500004416,0.501287507584,14.16837494336
9.9e-08,21.20500004416,0.507537507968,14.16837494336
9.950000000000001e-08,21.20500004416,0.507537507968,14.19962494528
1.0000000000000001e-07,21.17375004224,0.505975007872,14.19962494528
1.005e-07,21.126875039359998,0.504412507776,14.277749950079999
1.01e-07,21.080000036479998,0.504412507776,14.37149995584
1.015e-07,21.048750034559998,0.504412507776,14.44962496064
1.02e-07,21.048750034559998,0.504412507776,14.4652499616
1.0250000000000001e-07,21.064375035519998,0.50285000768,14.48087496256
1.0300000000000001e-07,21.111250038399998,0.504412507776,14.49649996352
1.0350000000000001e-07,21.142500040319998,0.504412507776,14.558999967359998
1.04e-07,21.142500040319998,0.504412507776,14.5433749664
1.045e-07,21.142500040319998,0.504412507776,14.51212496448
1.05e-07,21.158125041279998,0.507537507968,14.40274995776
1.0550000000000001e-07,21.23625004608,0.505975007872,14.308999951999999
1.0600000000000001e-07,21.23625004608,0.504412507776,14.21524994624
1.0650000000000001e-07,21.23625004608,0.501287507584,14.2308749472
1.07e-07,21.22062504512,0.504412507776,14.277749950079999
1.075e-07,21.1893750432,0.50285000768,14.340249953919999
1.08e-07,21.126875039359998,0.504412507776,14.308999951999999
1.0850000000000001e-07,21.095625037439998,0.50285000768,14.308999951999999
1.0900000000000001e-07,21.095625037439998,0.50285000768,14.37149995584
1.0950000000000001e-07,21.064375035519998,0.504412507776,14.43399995968
1.1e-07,21.048750034559998,0.50285000768,14.4652499616
1.105e-07,21.064375035519998,0.50285000768,14.4652499616
1.11e-07,21.126875039359998,0.50285000768,14.41837495872
1.1150000000000001e-07,21.1893750432,0.504412507776,14.3871249568
1.1200000000000001e-07,21.17375004224,0.504412507776,14.340249953919999
1.1250000000000001e-07,21.158125041279998,0.50285000768,14.324624952959999
1.13e-07,21.142500040319998,0.501287507584,14.262124949119999
1.135e-07,21.142500040319998,0.501287507584,14.21524994624
1.14e-07,21.111250038399998,0.498162507392,14.18399994432
1.1450000000000001e-07,21.142500040319998,0.496600007296,14.19962494528
1.1500000000000001e-07,21.158125041279998,0.501287507584,14.2308749472
1.1550000000000001e-07,21.17375004224,0.501287507584,14.324624952959999
1.16e-07,21.095625037439998,0.498162507392,14.355874954879999
1.165e-07,21.080000036479998,0.4950375072,14.40274995776
1.17e-07,21.111250038399998,0.496600007296,14.4652499616
1.1750000000000001e-07,21.17375004224,0.498162507392,14.51212496448
1.1800000000000001e-07,21.1893750432,0.49972500748800003,14.49649996352
1.1850000000000001e-07,21.20500004416,0.49972500748800003,14.4652499616
1.1900000000000001e-07,21.1893750432,0.498162507392,14.3871249568
1.195e-07,21.17375004224,0.49972500748800003,14.324624952959999
1.2000000000000002e-07,21.1893750432,0.501287507584,14.21524994624
1.205e-07,21.1893750432,0.498162507392,14.16837494336
1.21e-07,21.158125041279998,0.49972500748800003,14.12149994048
1.215e-07,21.111250038399998,0.50285000768,14.12149994048
1.22e-07,21.080000036479998,0.50285000768,14.12149994048
1.2250000000000002e-07,21.095625037439998,0.50285000768,14.16837494336
1.23e-07,21.126875039359998,0.505975007872,14.246499948159999
1.2350000000000001e-07,21.158125041279998,0.505975007872,14.324624952959999
1.24e-07,21.158125041279998,0.504412507776,14.37149995584
1.245e-07,21.142500040319998,0.50285000768,14.40274995776
1.2500000000000002e-07,21.126875039359998,0.501287507584,14.44962496064
1.255e-07,21.111250038399998,0.498162507392,14.43399995968
1.2600000000000002e-07,21.126875039359998,0.496600007296,14.355874954879999
1.265e-07,21.158125041279998,0.496600007296,14.324624952959999
1.27e-07,21.17375004224,0.493475007104,14.277749950079999
1.275e-07,21.20500004416,0.49191250700800004,14.262124949119999
1.28e-07,21.25187504704,0.493475007104,14.16837494336
1.2850000000000002e-07,21.29875004992,0.493475007104,14.1527499424
1.29e-07,21.29875004992,0.493475007104,14.13712494144
1.2950000000000001e-07,21.267500048,0.493475007104,14.1527499424
1.3e-07,21.17375004224,0.493475007104,14.21524994624
1.305e-07,21.158125041279998,0.49035000691200004,14.277749950079999
1.31e-07,21.126875039359998,0.493475007104,14.3871249568
1.315e-07,21.048750034559998,0.4950375072,14.49649996352
1.3200000000000002e-07,20.908125025919997,0.496600007296,14.51212496448
1.325e-07,20.81437502016,0.498162507392,14.49649996352
1.33e-07,20.7987500192,0.498162507392,14.48087496256
1.335e-07,20.83000002112,0.498162507392,14.43399995968
1.34e-07,20.892500024959997,0.498162507392,14.3871249568
1.3450000000000002e-07,20.939375027839997,0.496600007296,14.324624952959999
1.35e-07,21.064375035519998,0.496600007296,14.293374951039999
1.3550000000000002e-07,21.1893750432,0.496600007296,14.293374951039999
1.36e-07,21.31437505088,0.496600007296,14.21524994624
1.365e-07,21.39250005568,0.49191250700800004,14.16837494336
1.37e-07,21.40812505664,0.49191250700800004,14.1527499424
1.375e-07,21.43937505856,0.493475007104,14.1527499424
1.3800000000000002e-07,21.40812505664,0.49191250700800004,14.18399994432
1.385e-07,21.40812505664,0.49035000691200004,14.19962494528
1.3900000000000001e-07,21.31437505088,0.49191250700800004,14.246499948159999
1.395e-07,21.23625004608,0.48878750681600003,14.340249953919999
1.4e-07,21.158125041279998,0.49191250700800004,14.44962496064
1.4050000000000002e-07,21.111250038399998,0.49035000691200004,14.5433749664
1.41e-07,21.080000036479998,0.49035000691200004,14.590249969279999
1.4150000000000002e-07,21.017500032639997,0.49035000691200004,14.605874970239999
1.42e-07,20.970625029759997,0.49035000691200004,14.590249969279999
1.425e-07,20.923750026879997,0.493475007104,14.637124972159999
1.43e-07,20.939375027839997,0.49191250700800004,14.637124972159999
1.435e-07,21.001875031679997,0.49191250700800004,14.590249969279999
1.4400000000000002e-07,21.033125033599998,0.49035000691200004,14.44962496064
1.445e-07,21.064375035519998,0.49035000691200004,14.355874954879999
1.4500000000000001e-07,21.111250038399998,0.48722500672,14.308999951999999
1.455e-07,21.1893750432,0.48878750681600003,14.293374951039999
1.46e-07,21.22062504512,0.485662506624,14.277749950079999
1.4650000000000002e-07,21.28312504896,0.484100006528,14.262124949119999
1.47e-07,21.28312504896,0.484100006528,14.246499948159999
1.4750000000000002e-07,21.28312504896,0.482537506432,14.293374951039999
1.48e-07,21.20500004416,0.47941250624,14.324624952959999
1.485e-07,21.1893750432,0.47785000614400003,14.3871249568
1.49e-07,21.158125041279998,0.47941250624,14.44962496064
1.495e-07,21.111250038399998,0.47941250624,14.43399995968
1.5000000000000002e-07,21.080000036479998,0.482537506432,14.355874954879999
1.505e-07,21.064375035519998,0.484100006528,14.308999951999999
1.5100000000000002e-07,21.095625037439998,0.484100006528,14.293374951039999
1.515e-07,21.158125041279998,0.485662506624,14.324624952959999
1.52e-07,21.20500004416,0.48722500672,14.262124949119999
1.5250000000000002e-07,21.25187504704,0.48878750681600003,14.308999951999999
1.53e-07,21.28312504896,0.48878750681600003,14.308999951999999
1.5350000000000002e-07,21.29875004992,0.48878750681600003,14.37149995584
1.54e-07,21.1893750432,0.49035000691200004,14.40274995776
1.5450000000000001e-07,21.158125041279998,0.49191250700800004,14.44962496064
1.55e-07,21.142500040319998,0.4950375072,14.48087496256
1.555e-07,21.142500040319998,0.4950375072,14.51212496448
