Time (s),VIN,IIN,VOUT,IOUT,"[""CRTL_A"", ""IN_A"", ""CRTL_B"", ""IN_B"", ""nEN"", ""GATE_1"", ""GATE_2""]"
0.0,20.91250002496,1.3386625070079998,39.70975000384,0.625174992896,8960
5e-10,20.91250002496,1.3402250071039998,39.70975000384,0.626737492992,8960
1e-09,20.92812502592,1.3417875071999998,39.66287500096,0.629862493184,8960
1.5000000000000002e-09,20.95937502784,1.3386625070079998,39.60037499712,0.63142499328,8960
2e-09,21.00625003072,1.3371000069119998,39.58474999616,0.629862493184,8704
2.5e-09,21.00625003072,1.3339750067199998,39.58474999616,0.628299993088,8704
3.0000000000000004e-09,21.03750003264,1.3339750067199998,39.60037499712,0.628299993088,8704
3.5000000000000003e-09,21.06875003456,1.3371000069119998,39.55349999424,0.626737492992,8704
4e-09,21.10000003648,1.3417875071999998,39.52224999232,0.626737492992,8192
4.500000000000001e-09,21.08437503552,1.3433500072959998,39.52224999232,0.628299993088,8192
5e-09,21.0531250336,1.3417875071999998,39.55349999424,0.63142499328,8192
5.5000000000000004e-09,21.03750003264,1.3402250071039998,39.60037499712,0.629862493184,8192
6.000000000000001e-09,21.03750003264,1.3371000069119998,39.60037499712,0.632987493376,8192
6.5e-09,21.08437503552,1.3371000069119998,39.5691249952,0.63142499328,8192
7.000000000000001e-09,21.10000003648,1.3402250071039998,39.60037499712,0.632987493376,8192
7.500000000000001e-09,21.1312500384,1.3386625070079998,39.61599999808,0.632987493376,8192
8e-09,21.1312500384,1.3371000069119998,39.66287500096,0.632987493376,8192
8.5e-09,21.06875003456,1.3355375068159998,39.66287500096,0.632987493376,8192
9.000000000000001e-09,21.02187503168,1.3371000069119998,39.64725,0.634549993472,8192
9.5e-09,20.99062502976,1.3386625070079998,39.60037499712,0.629862493184,8192
1e-08,20.99062502976,1.3355375068159998,39.55349999424,0.626737492992,8192
1.0500000000000001e-08,21.02187503168,1.3355375068159998,39.55349999424,0.625174992896,8192
1.1000000000000001e-08,21.11562503744,1.3355375068159998,39.55349999424,0.625174992896,8192
1.15e-08,21.17812504128,1.3371000069119998,39.50662499136,0.628299993088,8192
1.2000000000000002e-08,21.22500004416,1.3371000069119998,39.50662499136,0.629862493184,8192
1.2500000000000001e-08,21.22500004416,1.3371000069119998,39.52224999232,0.629862493184,8192
1.3e-08,21.19375004224,1.3339750067199998,39.53787499328,0.63142499328,8192
1.35e-08,21.17812504128,1.3386625070079998,39.5691249952,0.628299993088,8192
1.4000000000000001e-08,21.16250004032,1.3371000069119998,39.63162499904,0.628299993088,8192
1.45e-08,21.16250004032,1.3355375068159998,39.63162499904,0.629862493184,8192
1.5000000000000002e-08,21.17812504128,1.3371000069119998,39.66287500096,0.628299993088,8192
1.55e-08,21.19375004224,1.3355375068159998,39.63162499904,0.629862493184,8192
1.6e-08,21.16250004032,1.3355375068159998,39.63162499904,0.628299993088,8192
1.6500000000000002e-08,21.08437503552,1.3386625070079998,39.63162499904,0.628299993088,8192
1.7e-08,21.06875003456,1.3402250071039998,39.60037499712,0.629862493184,8192
1.75e-08,21.06875003456,1.3371000069119998,39.53787499328,0.628299993088,8192
1.8000000000000002e-08,21.10000003648,1.3371000069119998,39.50662499136,0.629862493184,8192
1.85e-08,21.14687503936,1.3371000069119998,39.4909999904,0.629862493184,8192
1.9e-08,21.19375004224,1.3371000069119998,39.50662499136,0.626737492992,8192
1.9500000000000003e-08,21.17812504128,1.3371000069119998,39.4909999904,0.628299993088,8192
2e-08,21.1312500384,1.3371000069119998,39.47537498944,0.626737492992,8192
2.05e-08,21.11562503744,1.3355375068159998,39.47537498944,0.625174992896,8192
2.1000000000000003e-08,21.1312500384,1.3324125066239998,39.52224999232,0.625174992896,8192
2.15e-08,21.17812504128,1.3355375068159998,39.55349999424,0.628299993088,8192
2.2000000000000002e-08,21.22500004416,1.3324125066239998,39.58474999616,0.63142499328,8192
2.2500000000000003e-08,21.25625004608,1.3339750067199998,39.60037499712,0.628299993088,8192
2.3e-08,21.2093750432,1.3371000069119998,39.63162499904,0.625174992896,8192
2.3500000000000002e-08,21.19375004224,1.3386625070079998,39.63162499904,0.626737492992,8192
2.4000000000000003e-08,21.11562503744,1.3371000069119998,39.61599999808,0.628299993088,8192
2.45e-08,21.08437503552,1.3386625070079998,39.58474999616,0.628299993088,8192
2.5000000000000002e-08,21.08437503552,1.3371000069119998,39.52224999232,0.628299993088,0
2.55e-08,21.10000003648,1.3355375068159998,39.44412498752,0.629862493184,0
2.6e-08,21.14687503936,1.3339750067199998,39.4128749856,0.63142499328,0
2.6500000000000002e-08,21.19375004224,1.3339750067199998,39.4128749856,0.63142499328,0
2.7e-08,21.25625004608,1.3339750067199998,39.47537498944,0.628299993088,0
2.75e-08,21.287500048000002,1.3355375068159998,39.50662499136,0.629862493184,1024
2.8000000000000003e-08,21.27187504704,1.3371000069119998,39.55349999424,0.626737492992,1024
2.85e-08,21.24062504512,1.3355375068159998,39.58474999616,0.626737492992,1024
2.9e-08,21.17812504128,1.3324125066239998,39.64725,0.626737492992,1024
2.9500000000000003e-08,21.1312500384,1.3355375068159998,39.69412500288,0.629862493184,3072
3.0000000000000004e-08,21.11562503744,1.3355375068159998,39.67850000192,0.628299993088,3072
3.05e-08,21.16250004032,1.3339750067199998,39.63162499904,0.628299993088,3072
3.1e-08,21.2093750432,1.3355375068159998,39.58474999616,0.625174992896,3072
3.1500000000000004e-08,21.27187504704,1.330850006528,39.50662499136,0.628299993088,3072
3.2e-08,21.287500048000002,1.330850006528,39.45974998848,0.628299993088,3072
3.25e-08,21.287500048000002,1.3339750067199998,39.44412498752,0.629862493184,3072
3.3000000000000004e-08,21.287500048000002,1.3355375068159998,39.44412498752,0.629862493184,3072
3.35e-08,21.287500048000002,1.3324125066239998,39.44412498752,0.625174992896,3072
3.4e-08,21.27187504704,1.329287506432,39.47537498944,0.622049992704,3072
3.4500000000000005e-08,21.27187504704,1.327725006336,39.50662499136,0.6236124928,3072
3.5e-08,21.25625004608,1.329287506432,39.55349999424,0.6236124928,3072
3.55e-08,21.2093750432,1.3339750067199998,39.58474999616,0.6236124928,3072
3.6000000000000005e-08,21.17812504128,1.3402250071039998,39.64725,0.622049992704,3072
3.65e-08,21.16250004032,1.3386625070079998,39.64725,0.625174992896,3072
3.7e-08,21.16250004032,1.3371000069119998,39.64725,0.628299993088,3072
3.7500000000000005e-08,21.19375004224,1.3339750067199998,39.63162499904,0.628299993088,3072
3.8e-08,21.17812504128,1.3339750067199998,39.58474999616,0.629862493184,3072
3.85e-08,21.16250004032,1.3339750067199998,39.53787499328,0.629862493184,3072
3.9000000000000005e-08,21.17812504128,1.3371000069119998,39.52224999232,0.626737492992,3072
3.95e-08,21.2093750432,1.3355375068159998,39.4909999904,0.626737492992,3072
4e-08,21.27187504704,1.330850006528,39.47537498944,0.628299993088,3072
4.0500000000000005e-08,21.350000051840002,1.3324125066239998,39.44412498752,0.626737492992,3072
4.1e-08,21.350000051840002,1.3386625070079998,39.42849998656,0.626737492992,3072
4.15e-08,21.350000051840002,1.3386625070079998,39.4128749856,0.625174992896,3072
4.2000000000000006e-08,21.365625052800002,1.3417875071999998,39.47537498944,0.626737492992,3072
4.2500000000000003e-08,21.350000051840002,1.3371000069119998,39.53787499328,0.628299993088,3072
4.3e-08,21.365625052800002,1.3355375068159998,39.63162499904,0.63142499328,3072
4.3500000000000006e-08,21.412500055680002,1.3355375068159998,39.63162499904,0.632987493376,3072
4.4000000000000004e-08,21.334375050880002,1.3371000069119998,39.61599999808,0.632987493376,3072
4.45e-08,21.25625004608,1.3386625070079998,39.58474999616,0.63142499328,3072
4.5000000000000006e-08,21.16250004032,1.3371000069119998,39.5691249952,0.629862493184,3072
4.5500000000000004e-08,21.16250004032,1.3355375068159998,39.55349999424,0.628299993088,3072
4.6e-08,21.27187504704,1.3324125066239998,39.4909999904,0.632987493376,3072
4.6500000000000006e-08,21.428125056640003,1.3324125066239998,39.42849998656,0.63142499328,3072
4.7000000000000004e-08,21.506250061440003,1.3339750067199998,39.39724998464,0.632987493376,3072
4.75e-08,21.475000059520003,1.3339750067199998,39.36599998272,0.632987493376,3072
4.8000000000000006e-08,21.412500055680002,1.330850006528,39.4128749856,0.628299993088,3072
4.8500000000000004e-08,21.318750049920002,1.3324125066239998,39.52224999232,0.628299993088,3072
4.9e-08,21.318750049920002,1.3371000069119998,39.5691249952,0.629862493184,3072
4.95e-08,21.334375050880002,1.3386625070079998,39.53787499328,0.628299993088,3072
5.0000000000000004e-08,21.334375050880002,1.3339750067199998,39.55349999424,0.628299993088,3072
5.05e-08,21.318750049920002,1.3339750067199998,39.5691249952,0.628299993088,3072
5.1e-08,21.25625004608,1.330850006528,39.63162499904,0.628299993088,3072
5.1500000000000005e-08,21.24062504512,1.327725006336,39.63162499904,0.628299993088,3072
5.2e-08,21.318750049920002,1.330850006528,39.60037499712,0.626737492992,19456
5.25e-08,21.412500055680002,1.3355375068159998,39.52224999232,0.628299993088,19456
5.3000000000000005e-08,21.412500055680002,1.3371000069119998,39.47537498944,0.626737492992,19456
5.35e-08,21.428125056640003,1.3386625070079998,39.44412498752,0.626737492992,19456
5.4e-08,21.381250053760002,1.3339750067199998,39.42849998656,0.629862493184,19456
5.4500000000000005e-08,21.350000051840002,1.3324125066239998,39.38162498368,0.629862493184,19456
5.5e-08,21.365625052800002,1.330850006528,39.38162498368,0.63142499328,19456
5.55e-08,21.381250053760002,1.3339750067199998,39.38162498368,0.632987493376,19456
5.6000000000000005e-08,21.396875054720002,1.3355375068159998,39.4128749856,0.629862493184,19456
5.65e-08,21.396875054720002,1.3386625070079998,39.53787499328,0.628299993088,19456
5.7e-08,21.396875054720002,1.3417875071999998,39.60037499712,0.629862493184,19456
5.7500000000000005e-08,21.365625052800002,1.3402250071039998,39.58474999616,0.629862493184,19456
5.8e-08,21.318750049920002,1.3355375068159998,39.5691249952,0.63142499328,19456
5.85e-08,21.24062504512,1.3339750067199998,39.50662499136,0.632987493376,19456
5.9000000000000006e-08,21.19375004224,1.3324125066239998,39.52224999232,0.628299993088,19456
5.9500000000000003e-08,21.22500004416,1.330850006528,39.50662499136,0.626737492992,19456
6.000000000000001e-08,21.303125048960002,1.3339750067199998,39.4909999904,0.626737492992,19456
6.05e-08,21.412500055680002,1.3324125066239998,39.4128749856,0.626737492992,19456
6.1e-08,21.412500055680002,1.3339750067199998,39.35037498176,0.626737492992,19456
6.15e-08,21.412500055680002,1.3371000069119998,39.3347499808,0.628299993088,19456
6.2e-08,21.334375050880002,1.3371000069119998,39.35037498176,0.632987493376,19456
6.250000000000001e-08,21.287500048000002,1.3386625070079998,39.42849998656,0.629862493184,19456
6.300000000000001e-08,21.287500048000002,1.3386625070079998,39.50662499136,0.629862493184,19456
6.35e-08,21.318750049920002,1.3402250071039998,39.50662499136,0.63142499328,19456
6.4e-08,21.303125048960002,1.3386625070079998,39.50662499136,0.632987493376,19456
6.45e-08,21.27187504704,1.3355375068159998,39.53787499328,0.63142499328,19456
6.5e-08,21.24062504512,1.3371000069119998,39.58474999616,0.63142499328,19456
6.55e-08,21.19375004224,1.3386625070079998,39.5691249952,0.626737492992,19456
6.600000000000001e-08,21.17812504128,1.3371000069119998,39.53787499328,0.628299993088,19456
6.65e-08,21.22500004416,1.3355375068159998,39.44412498752,0.63142499328,19456
6.7e-08,21.318750049920002,1.3355375068159998,39.39724998464,0.632987493376,19456
6.75e-08,21.412500055680002,1.3339750067199998,39.36599998272,0.634549993472,19456
6.8e-08,21.443750057600003,1.3339750067199998,39.39724998464,0.629862493184,19456
6.85e-08,21.443750057600003,1.3324125066239998,39.42849998656,0.628299993088,19456
6.900000000000001e-08,21.381250053760002,1.3339750067199998,39.4128749856,0.629862493184,19456
6.950000000000001e-08,21.303125048960002,1.3355375068159998,39.4128749856,0.634549993472,19456
7e-08,21.27187504704,1.3371000069119998,39.44412498752,0.634549993472,19456
7.05e-08,21.27187504704,1.3355375068159998,39.52224999232,0.629862493184,19456
7.1e-08,21.25625004608,1.3355375068159998,39.61599999808,0.625174992896,19456
7.15e-08,21.24062504512,1.330850006528,39.60037499712,0.625174992896,19456
7.200000000000001e-08,21.17812504128,1.329287506432,39.5691249952,0.629862493184,19456
7.250000000000001e-08,21.1312500384,1.330850006528,39.53787499328,0.634549993472,19456
7.3e-08,21.11562503744,1.330850006528,39.53787499328,0.632987493376,19456
7.35e-08,21.16250004032,1.330850006528,39.52224999232,0.628299993088,19456
7.4e-08,21.24062504512,1.3324125066239998,39.53787499328,0.626737492992,19456
7.45e-08,21.318750049920002,1.3355375068159998,39.47537498944,0.628299993088,19456
7.500000000000001e-08,21.303125048960002,1.3355375068159998,39.44412498752,0.629862493184,19456
7.550000000000001e-08,21.25625004608,1.3386625070079998,39.38162498368,0.632987493376,19456
7.6e-08,21.22500004416,1.3371000069119998,39.42849998656,0.636112493568,18432
7.65e-08,21.24062504512,1.3339750067199998,39.45974998848,0.63142499328,18432
7.7e-08,21.287500048000002,1.3324125066239998,39.52224999232,0.634549993472,16384
7.75e-08,21.350000051840002,1.3355375068159998,39.55349999424,0.634549993472,16384
7.800000000000001e-08,21.318750049920002,1.3371000069119998,39.55349999424,0.63923749376,16384
7.850000000000001e-08,21.24062504512,1.3386625070079998,39.58474999616,0.6407999938560001,16384
7.9e-08,21.16250004032,1.3386625070079998,39.61599999808,0.63923749376,16384
7.95e-08,21.11562503744,1.3355375068159998,39.61599999808,0.63923749376,16384
8e-08,21.10000003648,1.3355375068159998,39.58474999616,0.63923749376,16384
8.05e-08,21.14687503936,1.3386625070079998,39.53787499328,0.63923749376,16384
8.100000000000001e-08,21.17812504128,1.3386625070079998,39.4909999904,0.63923749376,16384
8.150000000000001e-08,21.17812504128,1.3355375068159998,39.45974998848,0.637674993664,16384
8.2e-08,21.14687503936,1.3339750067199998,39.47537498944,0.636112493568,16384
8.25e-08,21.10000003648,1.3324125066239998,39.47537498944,0.634549993472,16384
8.3e-08,21.10000003648,1.3324125066239998,39.50662499136,0.632987493376,16384
8.35e-08,21.1312500384,1.3324125066239998,39.50662499136,0.636112493568,16384
8.400000000000001e-08,21.2093750432,1.3339750067199998,39.55349999424,0.634549993472,16384
8.450000000000001e-08,21.303125048960002,1.3339750067199998,39.5691249952,0.636112493568,16384
8.500000000000001e-08,21.334375050880002,1.3339750067199998,39.61599999808,0.636112493568,16384
8.55e-08,21.303125048960002,1.3371000069119998,39.63162499904,0.637674993664,16384
8.6e-08,21.22500004416,1.3402250071039998,39.63162499904,0.63923749376,16384
8.65e-08,21.1312500384,1.3386625070079998,39.60037499712,0.63923749376,16384
8.700000000000001e-08,21.03750003264,1.3386625070079998,39.60037499712,0.63923749376,16384
8.750000000000001e-08,20.99062502976,1.3355375068159998,39.5691249952,0.637674993664,16384
8.800000000000001e-08,21.03750003264,1.3355375068159998,39.55349999424,0.634549993472,16384
8.85e-08,21.03750003264,1.3371000069119998,39.55349999424,0.636112493568,16384
8.9e-08,21.02187503168,1.3355375068159998,39.53787499328,0.636112493568,16384
8.95e-08,21.00625003072,1.3355375068159998,39.52224999232,0.636112493568,16384
9.000000000000001e-08,21.02187503168,1.3371000069119998,39.52224999232,0.634549993472,16384
9.050000000000001e-08,21.0531250336,1.3355375068159998,39.55349999424,0.634549993472,16384
9.100000000000001e-08,21.16250004032,1.3355375068159998,39.61599999808,0.636112493568,16384
9.15e-08,21.22500004416,1.3386625070079998,39.63162499904,0.637674993664,16384
9.2e-08,21.2093750432,1.3402250071039998,39.64725,0.637674993664,16384
9.25e-08,21.16250004032,1.3386625070079998,39.64725,0.637674993664,16384
9.300000000000001e-08,21.10000003648,1.3371000069119998,39.61599999808,0.637674993664,16384
9.350000000000001e-08,21.06875003456,1.3355375068159998,39.63162499904,0.637674993664,16384
9.400000000000001e-08,21.02187503168,1.3339750067199998,39.60037499712,0.637674993664,16384
9.45e-08,21.06875003456,1.3339750067199998,39.55349999424,0.636112493568,16384
9.5e-08,21.06875003456,1.3355375068159998,39.55349999424,0.634549993472,16384
9.55e-08,21.0531250336,1.3355375068159998,39.53787499328,0.637674993664,16384
9.600000000000001e-08,21.06875003456,1.3355375068159998,39.53787499328,0.63923749376,16384
9.650000000000001e-08,21.06875003456,1.3355375068159998,39.5691249952,0.63923749376,16384
9.700000000000001e-08,21.08437503552,1.3386625070079998,39.61599999808,0.6407999938560001,0
9.75e-08,21.10000003648,1.3371000069119998,39.63162499904,0.63923749376,0
9.8e-08,21.11562503744,1.3386625070079998,39.67850000192,0.6407999938560001,0
9.85e-08,21.08437503552,1.3371000069119998,39.66287500096,0.6423624939520001,0
9.9e-08,21.0531250336,1.3371000069119998,39.69412500288,0.63923749376,0
9.950000000000001e-08,20.9750000288,1.3402250071039998,39.66287500096,0.63923749376,0
1.0000000000000001e-07,20.94375002688,1.3433500072959998,39.64725,0.63923749376,0
1.005e-07,20.92812502592,1.3402250071039998,39.58474999616,0.637674993664,0
1.01e-07,20.92812502592,1.3355375068159998,39.53787499328,0.637674993664,0
1.015e-07,20.95937502784,1.3339750067199998,39.52224999232,0.636112493568,256
1.02e-07,21.00625003072,1.3324125066239998,39.53787499328,0.636112493568,256
1.0250000000000001e-07,21.0531250336,1.3324125066239998,39.55349999424,0.637674993664,256
1.0300000000000001e-07,21.03750003264,1.3339750067199998,39.5691249952,0.637674993664,256
1.0350000000000001e-07,21.02187503168,1.3339750067199998,39.58474999616,0.637674993664,768
1.04e-07,21.03750003264,1.3355375068159998,39.58474999616,0.637674993664,768
1.045e-07,21.0531250336,1.3355375068159998,39.61599999808,0.636112493568,768
1.05e-07,21.10000003648,1.3339750067199998,39.66287500096,0.632987493376,768
1.0550000000000001e-07,21.10000003648,1.3324125066239998,39.67850000192,0.629862493184,768
1.0600000000000001e-07,21.10000003648,1.3355375068159998,39.67850000192,0.629862493184,768
1.0650000000000001e-07,21.03750003264,1.3355375068159998,39.63162499904,0.63142499328,768
1.07e-07,20.95937502784,1.3355375068159998,39.61599999808,0.63142499328,768
1.075e-07,20.94375002688,1.3355375068159998,39.61599999808,0.63142499328,768
1.08e-07,20.95937502784,1.3355375068159998,39.60037499712,0.632987493376,768
1.0850000000000001e-07,20.95937502784,1.3324125066239998,39.5691249952,0.63142499328,768
1.0900000000000001e-07,20.94375002688,1.330850006528,39.53787499328,0.634549993472,768
1.0950000000000001e-07,20.95937502784,1.3324125066239998,39.50662499136,0.634549993472,768
1.1e-07,20.92812502592,1.3324125066239998,39.53787499328,0.636112493568,768
1.105e-07,20.92812502592,1.3324125066239998,39.5691249952,0.632987493376,768
1.11e-07,20.94375002688,1.3355375068159998,39.63162499904,0.632987493376,768
1.1150000000000001e-07,20.95937502784,1.3355375068159998,39.63162499904,0.63142499328,768
1.1200000000000001e-07,20.92812502592,1.3355375068159998,39.64725,0.629862493184,768
1.1250000000000001e-07,20.86562502208,1.3371000069119998,39.67850000192,0.628299993088,768
1.13e-07,20.850000021120003,1.3386625070079998,39.66287500096,0.63142499328,768
1.135e-07,20.818750019200003,1.3355375068159998,39.63162499904,0.63142499328,768
1.14e-07,20.88125002304,1.3339750067199998,39.64725,0.629862493184,768
1.1450000000000001e-07,20.95937502784,1.3339750067199998,39.5691249952,0.629862493184,768
1.1500000000000001e-07,20.9750000288,1.3355375068159998,39.55349999424,0.63142499328,768
1.1550000000000001e-07,20.9750000288,1.3339750067199998,39.4909999904,0.636112493568,768
1.16e-07,20.91250002496,1.3339750067199998,39.47537498944,0.637674993664,768
1.165e-07,20.850000021120003,1.3324125066239998,39.47537498944,0.637674993664,768
1.17e-07,20.834375020160003,1.3339750067199998,39.52224999232,0.634549993472,768
1.1750000000000001e-07,20.896875024,1.3386625070079998,39.55349999424,0.632987493376,768
1.1800000000000001e-07,20.95937502784,1.3371000069119998,39.60037499712,0.637674993664,768
