Time (s),VIN,IIN,VOUT
0.0,20.7381249856,1.449612506816,41.85124999808
5e-10,20.69124998272,1.449612506816,41.89812500096
1e-09,20.7381249856,1.451175006912,41.92937500288
1.5000000000000002e-09,20.78499998848,1.451175006912,41.9606250048
2e-09,20.80062498944,1.451175006912,41.8825
2.5e-09,20.8162499904,1.449612506816,41.85124999808
3.0000000000000004e-09,20.83187499136,1.44805000672,41.85124999808
3.5000000000000003e-09,20.78499998848,1.449612506816,41.91375000192
4e-09,20.8162499904,1.44805000672,41.94500000384
4.500000000000001e-09,20.83187499136,1.44805000672,41.91375000192
5e-09,20.83187499136,1.451175006912,41.8825
5.5000000000000004e-09,20.84749999232,1.449612506816,41.92937500288
6.000000000000001e-09,20.83187499136,1.449612506816,41.94500000384
6.5e-09,20.8162499904,1.452737507008,41.94500000384
7.000000000000001e-09,20.78499998848,1.452737507008,41.9606250048
7.500000000000001e-09,20.72249998464,1.44805000672,41.92937500288
8e-09,20.72249998464,1.446487506624,41.86687499904
8.5e-09,20.75374998656,1.446487506624,41.85124999808
9.000000000000001e-09,20.80062498944,1.449612506816,41.85124999808
9.5e-09,20.87874999424,1.452737507008,41.86687499904
1e-08,20.86312499328,1.454300007104,41.85124999808
1.0500000000000001e-08,20.80062498944,1.44805000672,41.83562499712
1.1000000000000001e-08,20.83187499136,1.4433625064320001,41.8043749952
1.15e-08,20.84749999232,1.4449250065280002,41.81999999616
1.2000000000000002e-08,20.86312499328,1.4433625064320001,41.86687499904
1.2500000000000001e-08,20.87874999424,1.4449250065280002,41.8825
1.3e-08,20.84749999232,1.449612506816,41.89812500096
1.35e-08,20.80062498944,1.449612506816,41.92937500288
1.4000000000000001e-08,20.8162499904,1.452737507008,41.89812500096
1.45e-08,20.84749999232,1.451175006912,41.85124999808
1.5000000000000002e-08,20.8162499904,1.449612506816,41.86687499904
1.55e-08,20.8162499904,1.446487506624,41.86687499904
1.6e-08,20.78499998848,1.4433625064320001,41.83562499712
1.6500000000000002e-08,20.80062498944,1.4449250065280002,41.81999999616
1.7e-08,20.8162499904,1.451175006912,41.83562499712
1.75e-08,20.87874999424,1.449612506816,41.8825
1.8000000000000002e-08,20.83187499136,1.449612506816,41.8825
1.85e-08,20.80062498944,1.446487506624,41.91375000192
1.9e-08,20.84749999232,1.446487506624,41.89812500096
1.9500000000000003e-08,20.86312499328,1.44805000672,41.89812500096
2e-08,20.86312499328,1.44805000672,41.89812500096
2.05e-08,20.86312499328,1.449612506816,41.92937500288
2.1000000000000003e-08,20.84749999232,1.449612506816,41.94500000384
2.15e-08,20.83187499136,1.449612506816,41.97625000576
2.2000000000000002e-08,20.86312499328,1.451175006912,41.91375000192
2.2500000000000003e-08,20.8943749952,1.449612506816,41.83562499712
2.3e-08,20.87874999424,1.44805000672,41.8043749952
2.3500000000000002e-08,20.8943749952,1.4449250065280002,41.78874999424
2.4000000000000003e-08,20.84749999232,1.4449250065280002,41.78874999424
2.45e-08,20.86312499328,1.44805000672,41.78874999424
2.5000000000000002e-08,20.8943749952,1.449612506816,41.78874999424
2.55e-08,20.92562499712,1.446487506624,41.83562499712
2.6e-08,20.86312499328,1.4449250065280002,41.86687499904
2.6500000000000002e-08,20.75374998656,1.4433625064320001,41.92937500288
2.7e-08,20.72249998464,1.446487506624,41.97625000576
2.75e-08,20.80062498944,1.451175006912,42.02312500864
2.8000000000000003e-08,20.84749999232,1.451175006912,41.99187500672
2.85e-08,20.83187499136,1.44805000672,41.99187500672
2.9e-08,20.80062498944,1.446487506624,42.00750000768
2.9500000000000003e-08,20.75374998656,1.446487506624,42.00750000768
3.0000000000000004e-08,20.75374998656,1.449612506816,41.9606250048
3.05e-08,20.84749999232,1.452737507008,41.8825
3.1e-08,20.98812500096,1.452737507008,41.81999999616
3.1500000000000004e-08,20.98812500096,1.446487506624,41.8043749952
3.2e-08,20.84749999232,1.4433625064320001,41.81999999616
3.25e-08,20.78499998848,1.4433625064320001,41.8825
3.3000000000000004e-08,20.7381249856,1.44805000672,41.89812500096
3.35e-08,20.75374998656,1.44805000672,41.94500000384
3.4e-08,20.80062498944,1.446487506624,41.91375000192
3.4500000000000005e-08,20.8162499904,1.446487506624,41.9606250048
3.5e-08,20.8162499904,1.44805000672,41.99187500672
3.55e-08,20.76937498752,1.449612506816,41.99187500672
3.6000000000000005e-08,20.75374998656,1.446487506624,41.97625000576
3.65e-08,20.76937498752,1.4433625064320001,41.9606250048
3.7e-08,20.84749999232,1.446487506624,41.92937500288
3.7500000000000005e-08,20.84749999232,1.449612506816,41.94500000384
3.8e-08,20.83187499136,1.451175006912,41.91375000192
3.85e-08,20.84749999232,1.449612506816,41.91375000192
3.9000000000000005e-08,20.84749999232,1.451175006912,41.94500000384
3.95e-08,20.86312499328,1.449612506816,41.97625000576
4e-08,20.86312499328,1.446487506624,41.97625000576
4.0500000000000005e-08,20.86312499328,1.44805000672,41.97625000576
4.1e-08,20.78499998848,1.452737507008,41.97625000576
4.15e-08,20.7381249856,1.451175006912,42.05437501056
4.2000000000000006e-08,20.75374998656,1.451175006912,42.05437501056
4.2500000000000003e-08,20.80062498944,1.454300007104,42.0387500096
4.3e-08,20.84749999232,1.457425007296,41.97625000576
4.3500000000000006e-08,20.83187499136,1.458987507392,41.92937500288
4.4000000000000004e-08,20.75374998656,1.452737507008,41.89812500096
4.45e-08,20.6599999808,1.4449250065280002,41.91375000192
4.5000000000000006e-08,20.70687498368,1.449612506816,41.94500000384
4.5500000000000004e-08,20.83187499136,1.449612506816,41.97625000576
4.6e-08,20.90999999616,1.452737507008,41.91375000192
4.6500000000000006e-08,20.90999999616,1.451175006912,41.86687499904
4.7000000000000004e-08,20.78499998848,1.449612506816,41.92937500288
4.75e-08,20.628749978880002,1.446487506624,42.0387500096
4.8000000000000006e-08,20.597499976960002,1.4449250065280002,42.1168750144
4.8500000000000004e-08,20.7381249856,1.44805000672,42.1168750144
4.9e-08,20.8943749952,1.449612506816,42.02312500864
4.95e-08,20.90999999616,1.451175006912,42.00750000768
5.0000000000000004e-08,20.78499998848,1.452737507008,41.99187500672
5.05e-08,20.6599999808,1.451175006912,42.02312500864
5.1e-08,20.70687498368,1.452737507008,42.02312500864
5.1500000000000005e-08,20.83187499136,1.454300007104,41.92937500288
5.2e-08,20.8943749952,1.451175006912,41.85124999808
5.25e-08,20.86312499328,1.44805000672,41.81999999616
5.3000000000000005e-08,20.78499998848,1.452737507008,41.92937500288
5.35e-08,20.7381249856,1.4558625072,42.07000001152
5.4e-08,20.75374998656,1.457425007296,42.07000001152
5.4500000000000005e-08,20.76937498752,1.4558625072,42.00750000768
5.5e-08,20.7381249856,1.454300007104,41.99187500672
5.55e-08,20.70687498368,1.451175006912,42.05437501056
5.6000000000000005e-08,20.70687498368,1.454300007104,42.13250001536
5.65e-08,20.75374998656,1.4558625072,42.16375001728
5.7e-08,20.78499998848,1.457425007296,42.07000001152
5.7500000000000005e-08,20.75374998656,1.4558625072,42.00750000768
5.8e-08,20.70687498368,1.454300007104,41.92937500288
5.85e-08,20.70687498368,1.4558625072,41.99187500672
5.9000000000000006e-08,20.76937498752,1.4558625072,42.02312500864
5.9500000000000003e-08,20.86312499328,1.4558625072,42.02312500864
6.000000000000001e-08,20.86312499328,1.454300007104,41.9606250048
6.05e-08,20.76937498752,1.4558625072,41.94500000384
6.1e-08,20.72249998464,1.457425007296,41.99187500672
6.15e-08,20.72249998464,1.457425007296,42.10125001344
6.2e-08,20.76937498752,1.458987507392,42.14812501632
6.250000000000001e-08,20.8162499904,1.457425007296,42.07000001152
6.300000000000001e-08,20.78499998848,1.460550007488,42.00750000768
6.35e-08,20.70687498368,1.457425007296,42.00750000768
6.4e-08,20.64437497984,1.4558625072,42.05437501056
6.45e-08,20.64437497984,1.458987507392,42.10125001344
6.5e-08,20.69124998272,1.458987507392,42.07000001152
6.55e-08,20.7381249856,1.457425007296,42.00750000768
6.600000000000001e-08,20.75374998656,1.458987507392,41.91375000192
6.65e-08,20.75374998656,1.460550007488,41.92937500288
6.7e-08,20.76937498752,1.46367500768,41.9606250048
6.75e-08,20.76937498752,1.462112507584,42.02312500864
6.8e-08,20.75374998656,1.458987507392,42.0387500096
6.85e-08,20.69124998272,1.4558625072,42.02312500864
6.900000000000001e-08,20.72249998464,1.457425007296,42.00750000768
6.950000000000001e-08,20.76937498752,1.458987507392,42.05437501056
7e-08,20.80062498944,1.460550007488,42.07000001152
7.05e-08,20.7381249856,1.457425007296,42.07000001152
7.1e-08,20.64437497984,1.457425007296,42.07000001152
7.15e-08,20.628749978880002,1.460550007488,42.0387500096
7.200000000000001e-08,20.628749978880002,1.460550007488,42.00750000768
7.250000000000001e-08,20.67562498176,1.462112507584,41.99187500672
7.3e-08,20.7381249856,1.458987507392,42.00750000768
7.35e-08,20.76937498752,1.458987507392,42.05437501056
7.4e-08,20.7381249856,1.462112507584,42.05437501056
7.45e-08,20.72249998464,1.460550007488,42.02312500864
7.500000000000001e-08,20.75374998656,1.46367500768,41.9606250048
7.550000000000001e-08,20.7381249856,1.465237507776,41.99187500672
7.6e-08,20.75374998656,1.462112507584,42.05437501056
7.65e-08,20.72249998464,1.458987507392,42.10125001344
7.7e-08,20.72249998464,1.462112507584,42.07000001152
7.75e-08,20.75374998656,1.46367500768,42.0387500096
7.800000000000001e-08,20.75374998656,1.466800007872,41.9606250048
7.850000000000001e-08,20.70687498368,1.462112507584,41.92937500288
7.9e-08,20.69124998272,1.462112507584,41.97625000576
7.95e-08,20.70687498368,1.46367500768,41.99187500672
8e-08,20.70687498368,1.466800007872,41.9606250048
8.05e-08,20.76937498752,1.466800007872,41.94500000384
8.100000000000001e-08,20.7381249856,1.466800007872,41.9606250048
8.150000000000001e-08,20.69124998272,1.46367500768,42.08562501248
8.2e-08,20.69124998272,1.465237507776,42.13250001536
8.25e-08,20.72249998464,1.466800007872,42.13250001536
8.3e-08,20.76937498752,1.466800007872,42.0387500096
8.35e-08,20.76937498752,1.465237507776,41.9606250048
8.400000000000001e-08,20.7381249856,1.46367500768,42.00750000768
8.450000000000001e-08,20.6599999808,1.462112507584,42.07000001152
8.500000000000001e-08,20.67562498176,1.468362507968,42.08562501248
8.55e-08,20.72249998464,1.469925008064,42.05437501056
8.6e-08,20.8162499904,1.469925008064,41.92937500288
8.65e-08,20.8162499904,1.465237507776,41.86687499904
8.700000000000001e-08,20.78499998848,1.46367500768,41.92937500288
8.750000000000001e-08,20.78499998848,1.468362507968,42.00750000768
8.800000000000001e-08,20.78499998848,1.466800007872,42.00750000768
8.85e-08,20.80062498944,1.468362507968,41.99187500672
8.9e-08,20.78499998848,1.466800007872,41.9606250048
8.95e-08,20.7381249856,1.462112507584,42.05437501056
9.000000000000001e-08,20.69124998272,1.462112507584,42.14812501632
9.050000000000001e-08,20.69124998272,1.465237507776,42.17937501824
9.100000000000001e-08,20.69124998272,1.469925008064,42.1168750144
9.15e-08,20.64437497984,1.473050008256,42.0387500096
9.2e-08,20.64437497984,1.468362507968,42.05437501056
9.25e-08,20.64437497984,1.462112507584,42.08562501248
9.300000000000001e-08,20.69124998272,1.466800007872,42.08562501248
9.350000000000001e-08,20.78499998848,1.469925008064,42.07000001152
9.400000000000001e-08,20.83187499136,1.468362507968,41.97625000576
9.45e-08,20.8162499904,1.465237507776,41.94500000384
9.5e-08,20.78499998848,1.46367500768,41.99187500672
9.55e-08,20.80062498944,1.462112507584,42.07000001152
9.600000000000001e-08,20.8162499904,1.46367500768,42.08562501248
9.650000000000001e-08,20.83187499136,1.465237507776,42.05437501056
9.700000000000001e-08,20.76937498752,1.466800007872,42.05437501056
9.75e-08,20.69124998272,1.465237507776,42.10125001344
9.8e-08,20.628749978880002,1.466800007872,42.13250001536
9.85e-08,20.67562498176,1.468362507968,42.10125001344
9.9e-08,20.76937498752,1.469925008064,42.0387500096
9.950000000000001e-08,20.78499998848,1.469925008064,41.94500000384
1.0000000000000001e-07,20.75374998656,1.465237507776,41.94500000384
1.005e-07,20.7381249856,1.46367500768,41.97625000576
1.01e-07,20.75374998656,1.46367500768,42.02312500864
1.015e-07,20.78499998848,1.46367500768,42.08562501248
1.02e-07,20.8162499904,1.462112507584,42.08562501248
1.0250000000000001e-07,20.8162499904,1.460550007488,42.05437501056
1.0300000000000001e-07,20.78499998848,1.462112507584,42.08562501248
1.0350000000000001e-07,20.7381249856,1.46367500768,42.1168750144
1.04e-07,20.70687498368,1.46367500768,42.1168750144
1.045e-07,20.67562498176,1.466800007872,42.07000001152
1.05e-07,20.628749978880002,1.46367500768,42.02312500864
1.0550000000000001e-07,20.613124977920002,1.465237507776,42.02312500864
1.0600000000000001e-07,20.67562498176,1.468362507968,41.97625000576
1.0650000000000001e-07,20.75374998656,1.469925008064,41.94500000384
1.07e-07,20.80062498944,1.468362507968,41.89812500096
1.075e-07,20.75374998656,1.465237507776,41.86687499904
1.08e-07,20.7381249856,1.458987507392,41.89812500096
1.0850000000000001e-07,20.72249998464,1.457425007296,41.92937500288
1.0900000000000001e-07,20.78499998848,1.462112507584,41.9606250048
1.0950000000000001e-07,20.87874999424,1.466800007872,42.00750000768
1.1e-07,20.86312499328,1.468362507968,42.0387500096
1.105e-07,20.80062498944,1.465237507776,42.07000001152
1.11e-07,20.7381249856,1.46367500768,42.1168750144
1.1150000000000001e-07,20.69124998272,1.46367500768,42.1168750144
1.1200000000000001e-07,20.70687498368,1.46367500768,42.07000001152
1.1250000000000001e-07,20.78499998848,1.46367500768,42.0387500096
1.13e-07,20.75374998656,1.465237507776,42.00750000768
1.135e-07,20.72249998464,1.465237507776,42.00750000768
1.14e-07,20.72249998464,1.468362507968,41.97625000576
1.1450000000000001e-07,20.75374998656,1.469925008064,41.97625000576
1.1500000000000001e-07,20.80062498944,1.468362507968,41.94500000384
1.1550000000000001e-07,20.80062498944,1.468362507968,41.92937500288
1.16e-07,20.76937498752,1.46367500768,41.94500000384
1.165e-07,20.7381249856,1.46367500768,41.97625000576
1.17e-07,20.78499998848,1.466800007872,42.00750000768
1.1750000000000001e-07,20.83187499136,1.466800007872,42.02312500864
1.1800000000000001e-07,20.83187499136,1.468362507968,42.02312500864
1.1850000000000001e-07,20.76937498752,1.466800007872,41.99187500672
1.1900000000000001e-07,20.70687498368,1.469925008064,41.99187500672
1.195e-07,20.69124998272,1.468362507968,41.97625000576
1.2000000000000002e-07,20.67562498176,1.465237507776,41.92937500288
1.205e-07,20.76937498752,1.46367500768,41.92937500288
1.21e-07,20.78499998848,1.462112507584,41.91375000192
1.215e-07,20.76937498752,1.462112507584,41.94500000384
1.22e-07,20.78499998848,1.46367500768,41.92937500288
1.2250000000000002e-07,20.78499998848,1.46367500768,41.9606250048
1.23e-07,20.83187499136,1.462112507584,41.99187500672
1.2350000000000001e-07,20.8162499904,1.46367500768,42.0387500096
1.24e-07,20.8162499904,1.46367500768,42.05437501056
1.245e-07,20.80062498944,1.466800007872,42.05437501056
1.2500000000000002e-07,20.78499998848,1.469925008064,42.07000001152
1.255e-07,20.76937498752,1.466800007872,42.07000001152
1.2600000000000002e-07,20.75374998656,1.462112507584,42.0387500096
1.265e-07,20.7381249856,1.460550007488,41.99187500672
1.27e-07,20.76937498752,1.46367500768,41.94500000384
1.275e-07,20.80062498944,1.466800007872,41.89812500096
1.28e-07,20.75374998656,1.466800007872,41.86687499904
1.2850000000000002e-07,20.76937498752,1.465237507776,41.91375000192
1.29e-07,20.78499998848,1.462112507584,41.97625000576
1.2950000000000001e-07,20.8162499904,1.458987507392,42.02312500864
1.3e-07,20.83187499136,1.462112507584,41.9606250048
1.305e-07,20.83187499136,1.460550007488,41.99187500672
1.31e-07,20.8162499904,1.460550007488,42.02312500864
1.315e-07,20.72249998464,1.458987507392,42.08562501248
1.3200000000000002e-07,20.69124998272,1.458987507392,42.1168750144
1.325e-07,20.72249998464,1.462112507584,42.07000001152
1.33e-07,20.75374998656,1.46367500768,41.97625000576
1.335e-07,20.78499998848,1.460550007488,41.9606250048
1.34e-07,20.78499998848,1.4558625072,41.97625000576
1.3450000000000002e-07,20.78499998848,1.454300007104,41.99187500672
1.35e-07,20.80062498944,1.457425007296,41.99187500672
1.3550000000000002e-07,20.86312499328,1.460550007488,41.94500000384
1.36e-07,20.87874999424,1.460550007488,41.8825
1.365e-07,20.87874999424,1.457425007296,41.91375000192
1.37e-07,20.86312499328,1.4558625072,41.97625000576
1.375e-07,20.84749999232,1.457425007296,42.08562501248
1.3800000000000002e-07,20.86312499328,1.462112507584,42.05437501056
1.385e-07,20.84749999232,1.460550007488,42.00750000768
1.3900000000000001e-07,20.83187499136,1.457425007296,41.99187500672
1.395e-07,20.7381249856,1.454300007104,42.02312500864
1.4e-07,20.70687498368,1.454300007104,42.0387500096
1.4050000000000002e-07,20.7381249856,1.457425007296,42.02312500864
1.41e-07,20.80062498944,1.462112507584,41.9606250048
1.4150000000000002e-07,20.80062498944,1.460550007488,41.91375000192
1.42e-07,20.76937498752,1.457425007296,41.8825
1.425e-07,20.7381249856,1.452737507008,41.92937500288
1.43e-07,20.78499998848,1.454300007104,41.99187500672
1.435e-07,20.86312499328,1.4558625072,41.97625000576
1.4400000000000002e-07,20.86312499328,1.454300007104,41.91375000192
1.445e-07,20.84749999232,1.454300007104,41.89812500096
1.4500000000000001e-07,20.8162499904,1.452737507008,41.9606250048
1.455e-07,20.8162499904,1.452737507008,42.07000001152
1.46e-07,20.8162499904,1.451175006912,42.0387500096
1.4650000000000002e-07,20.86312499328,1.451175006912,41.97625000576
1.47e-07,20.87874999424,1.449612506816,41.86687499904
1.4750000000000002e-07,20.75374998656,1.449612506816,41.85124999808
1.48e-07,20.72249998464,1.451175006912,41.89812500096
1.485e-07,20.75374998656,1.451175006912,41.94500000384
1.49e-07,20.8162499904,1.452737507008,41.92937500288
1.495e-07,20.80062498944,1.451175006912,41.89812500096
1.5000000000000002e-07,20.83187499136,1.452737507008,41.83562499712
1.505e-07,20.83187499136,1.452737507008,41.85124999808
1.5100000000000002e-07,20.80062498944,1.452737507008,41.91375000192
1.515e-07,20.84749999232,1.451175006912,41.92937500288
1.52e-07,20.83187499136,1.449612506816,41.91375000192
1.5250000000000002e-07,20.84749999232,1.449612506816,41.8825
1.53e-07,20.83187499136,1.449612506816,41.89812500096
1.5350000000000002e-07,20.83187499136,1.452737507008,41.9606250048
1.54e-07,20.8162499904,1.4558625072,41.94500000384
1.5450000000000001e-07,20.78499998848,1.452737507008,41.9606250048
1.55e-07,20.75374998656,1.451175006912,41.89812500096
1.555e-07,20.70687498368,1.451175006912,41.86687499904
1.5600000000000002e-07,20.7381249856,1.452737507008,41.85124999808
1.565e-07,20.8162499904,1.452737507008,41.86687499904
1.5700000000000002e-07,20.86312499328,1.452737507008,41.85124999808
1.575e-07,20.86312499328,1.452737507008,41.85124999808
1.58e-07,20.83187499136,1.449612506816,41.83562499712
1.5850000000000002e-07,20.83187499136,1.44805000672,41.81999999616
1.59e-07,20.84749999232,1.449612506816,41.83562499712
1.5950000000000002e-07,20.87874999424,1.449612506816,41.86687499904
1.6e-07,20.86312499328,1.446487506624,41.8825
1.6050000000000001e-07,20.84749999232,1.446487506624,41.8825
1.61e-07,20.80062498944,1.44805000672,41.8825
1.615e-07,20.83187499136,1.449612506816,41.89812500096
1.6200000000000002e-07,20.86312499328,1.451175006912,41.86687499904
1.625e-07,20.84749999232,1.449612506816,41.86687499904
1.6300000000000002e-07,20.83187499136,1.446487506624,41.83562499712
1.635e-07,20.8162499904,1.4449250065280002,41.85124999808
1.64e-07,20.83187499136,1.4433625064320001,41.83562499712
1.645e-07,20.84749999232,1.446487506624,41.81999999616
1.65e-07,20.87874999424,1.449612506816,41.83562499712
1.6550000000000002e-07,20.86312499328,1.446487506624,41.8825
1.66e-07,20.83187499136,1.4433625064320001,41.91375000192
1.6650000000000002e-07,20.86312499328,1.4433625064320001,41.91375000192
1.67e-07,20.86312499328,1.446487506624,41.91375000192
1.675e-07,20.87874999424,1.449612506816,41.92937500288
1.6800000000000002e-07,20.87874999424,1.4449250065280002,41.92937500288
1.685e-07,20.87874999424,1.4402375062400001,41.9606250048
1.6900000000000002e-07,20.84749999232,1.4433625064320001,41.92937500288
