Time (s),VIN,IIN,VOUT
0.0,21.315249990399998,1.490900007104,42.87224999616
5e-10,21.205874983679998,1.490900007104,42.95037500096
1e-09,21.237124985599998,1.494025007296,42.96600000192
1.5000000000000002e-09,21.330874991359998,1.4924625072,42.91912499904
2e-09,21.330874991359998,1.489337507008,42.8566249952
2.5e-09,21.330874991359998,1.487775006912,42.87224999616
3.0000000000000004e-09,21.34649999232,1.487775006912,42.90349999808
3.5000000000000003e-09,21.330874991359998,1.489337507008,42.98162500288
4e-09,21.330874991359998,1.487775006912,42.95037500096
4.500000000000001e-09,21.34649999232,1.48465000672,42.90349999808
5e-09,21.34649999232,1.486212506816,42.90349999808
5.5000000000000004e-09,21.299624989439998,1.489337507008,42.93475
6.000000000000001e-09,21.330874991359998,1.490900007104,42.95037500096
6.5e-09,21.330874991359998,1.490900007104,42.93475
7.000000000000001e-09,21.330874991359998,1.490900007104,42.90349999808
7.500000000000001e-09,21.268374987519998,1.487775006912,42.87224999616
8e-09,21.221499984639998,1.489337507008,42.8566249952
8.5e-09,21.237124985599998,1.4924625072,42.87224999616
9.000000000000001e-09,21.299624989439998,1.494025007296,42.87224999616
9.5e-09,21.3933749952,1.494025007296,42.8566249952
1e-08,21.3933749952,1.487775006912,42.82537499328
1.0500000000000001e-08,21.34649999232,1.483087506624,42.82537499328
1.1000000000000001e-08,21.315249990399998,1.48465000672,42.82537499328
1.15e-08,21.315249990399998,1.486212506816,42.88787499712
1.2000000000000002e-08,21.330874991359998,1.48465000672,42.90349999808
1.2500000000000001e-08,21.36212499328,1.4815250065280001,42.90349999808
1.3e-08,21.34649999232,1.48465000672,42.90349999808
1.35e-08,21.283999988479998,1.486212506816,42.91912499904
1.4000000000000001e-08,21.299624989439998,1.487775006912,42.87224999616
1.45e-08,21.330874991359998,1.487775006912,42.8566249952
1.5000000000000002e-08,21.36212499328,1.486212506816,42.84099999424
1.55e-08,21.330874991359998,1.486212506816,42.8566249952
1.6e-08,21.330874991359998,1.487775006912,42.82537499328
1.6500000000000002e-08,21.315249990399998,1.487775006912,42.84099999424
1.7e-08,21.315249990399998,1.487775006912,42.87224999616
1.75e-08,21.37774999424,1.486212506816,42.90349999808
1.8000000000000002e-08,21.36212499328,1.483087506624,42.91912499904
1.85e-08,21.315249990399998,1.483087506624,42.90349999808
1.9e-08,21.283999988479998,1.487775006912,42.91912499904
1.9500000000000003e-08,21.315249990399998,1.486212506816,42.93475
2e-08,21.330874991359998,1.48465000672,42.93475
2.05e-08,21.34649999232,1.483087506624,42.95037500096
2.1000000000000003e-08,21.36212499328,1.48465000672,42.95037500096
2.15e-08,21.34649999232,1.486212506816,42.91912499904
2.2000000000000002e-08,21.34649999232,1.483087506624,42.8566249952
2.2500000000000003e-08,21.37774999424,1.4799625064320001,42.80974999232
2.3e-08,21.3933749952,1.4815250065280001,42.79412499136
2.3500000000000002e-08,21.37774999424,1.483087506624,42.82537499328
2.4000000000000003e-08,21.37774999424,1.483087506624,42.84099999424
2.45e-08,21.34649999232,1.483087506624,42.84099999424
2.5000000000000002e-08,21.36212499328,1.48465000672,42.84099999424
2.55e-08,21.42462499712,1.48465000672,42.88787499712
2.6e-08,21.40899999616,1.48465000672,42.91912499904
2.6500000000000002e-08,21.283999988479998,1.483087506624,42.99725000384
2.7e-08,21.190249982719997,1.486212506816,42.99725000384
2.75e-08,21.252749986559998,1.486212506816,43.02850000576
2.8000000000000003e-08,21.34649999232,1.486212506816,42.98162500288
2.85e-08,21.3933749952,1.486212506816,42.99725000384
2.9e-08,21.36212499328,1.48465000672,43.0128750048
2.9500000000000003e-08,21.315249990399998,1.486212506816,42.98162500288
3.0000000000000004e-08,21.283999988479998,1.486212506816,42.88787499712
3.05e-08,21.299624989439998,1.48465000672,42.82537499328
3.1e-08,21.42462499712,1.4815250065280001,42.79412499136
3.1500000000000004e-08,21.48712500096,1.47683750624,42.8566249952
3.2e-08,21.3933749952,1.47683750624,42.90349999808
3.25e-08,21.299624989439998,1.4799625064320001,42.95037500096
3.3000000000000004e-08,21.268374987519998,1.486212506816,42.95037500096
3.35e-08,21.252749986559998,1.48465000672,42.95037500096
3.4e-08,21.252749986559998,1.4815250065280001,42.96600000192
3.4500000000000005e-08,21.283999988479998,1.4815250065280001,42.98162500288
3.5e-08,21.283999988479998,1.487775006912,42.98162500288
3.55e-08,21.299624989439998,1.489337507008,42.96600000192
3.6000000000000005e-08,21.268374987519998,1.487775006912,42.93475
3.65e-08,21.283999988479998,1.483087506624,42.93475
3.7e-08,21.330874991359998,1.483087506624,42.93475
3.7500000000000005e-08,21.34649999232,1.483087506624,42.91912499904
3.8e-08,21.36212499328,1.486212506816,42.90349999808
3.85e-08,21.330874991359998,1.486212506816,42.93475
3.9000000000000005e-08,21.34649999232,1.483087506624,42.96600000192
3.95e-08,21.34649999232,1.483087506624,43.0128750048
4e-08,21.34649999232,1.486212506816,42.98162500288
4.0500000000000005e-08,21.36212499328,1.490900007104,42.99725000384
4.1e-08,21.315249990399998,1.4924625072,43.02850000576
4.15e-08,21.283999988479998,1.490900007104,43.04412500672
4.2000000000000006e-08,21.190249982719997,1.487775006912,43.02850000576
4.2500000000000003e-08,21.237124985599998,1.489337507008,43.0128750048
4.3e-08,21.299624989439998,1.495587507392,42.93475
4.3500000000000006e-08,21.34649999232,1.494025007296,42.90349999808
4.4000000000000004e-08,21.299624989439998,1.486212506816,42.90349999808
4.45e-08,21.190249982719997,1.4815250065280001,42.93475
4.5000000000000006e-08,21.127749978879997,1.48465000672,43.0128750048
4.5500000000000004e-08,21.237124985599998,1.489337507008,43.0128750048
4.6e-08,21.3933749952,1.490900007104,42.91912499904
4.6500000000000006e-08,21.42462499712,1.487775006912,42.90349999808
4.7000000000000004e-08,21.36212499328,1.48465000672,42.95037500096
4.75e-08,21.174624981759997,1.483087506624,43.0910000096
4.8000000000000006e-08,21.06524997504,1.48465000672,43.13787501248
4.8500000000000004e-08,21.143374979839997,1.486212506816,43.0910000096
4.9e-08,21.315249990399998,1.494025007296,42.98162500288
4.95e-08,21.42462499712,1.4924625072,42.95037500096
5.0000000000000004e-08,21.37774999424,1.487775006912,42.98162500288
5.05e-08,21.237124985599998,1.48465000672,43.0128750048
5.1e-08,21.174624981759997,1.487775006912,42.96600000192
5.1500000000000005e-08,21.252749986559998,1.487775006912,42.90349999808
5.2e-08,21.34649999232,1.48465000672,42.84099999424
5.25e-08,21.36212499328,1.48465000672,42.88787499712
5.3000000000000005e-08,21.283999988479998,1.487775006912,43.0128750048
5.35e-08,21.237124985599998,1.494025007296,43.12225001152
5.4e-08,21.237124985599998,1.494025007296,43.07537500864
5.4500000000000005e-08,21.237124985599998,1.4924625072,42.99725000384
5.5e-08,21.252749986559998,1.489337507008,42.98162500288
5.55e-08,21.205874983679998,1.487775006912,43.07537500864
5.6000000000000005e-08,21.174624981759997,1.490900007104,43.10662501056
5.65e-08,21.221499984639998,1.494025007296,43.10662501056
5.7e-08,21.283999988479998,1.494025007296,42.99725000384
5.7500000000000005e-08,21.315249990399998,1.4924625072,42.91912499904
5.8e-08,21.252749986559998,1.487775006912,42.93475
5.85e-08,21.190249982719997,1.487775006912,42.98162500288
5.9000000000000006e-08,21.205874983679998,1.4924625072,43.0128750048
5.9500000000000003e-08,21.315249990399998,1.490900007104,43.02850000576
6.000000000000001e-08,21.36212499328,1.487775006912,42.98162500288
6.05e-08,21.330874991359998,1.486212506816,42.96600000192
6.1e-08,21.237124985599998,1.489337507008,43.07537500864
6.15e-08,21.190249982719997,1.490900007104,43.13787501248
6.2e-08,21.221499984639998,1.4924625072,43.10662501056
6.250000000000001e-08,21.283999988479998,1.4924625072,43.0128750048
6.300000000000001e-08,21.299624989439998,1.4924625072,42.96600000192
6.35e-08,21.237124985599998,1.4924625072,43.0128750048
6.4e-08,21.158999980799997,1.494025007296,43.0910000096
6.45e-08,21.158999980799997,1.494025007296,43.13787501248
6.5e-08,21.205874983679998,1.494025007296,43.07537500864
6.55e-08,21.252749986559998,1.4924625072,42.98162500288
6.600000000000001e-08,21.252749986559998,1.495587507392,42.93475
6.65e-08,21.283999988479998,1.497150007488,42.96600000192
6.7e-08,21.283999988479998,1.498712507584,42.99725000384
6.75e-08,21.283999988479998,1.497150007488,43.05975000768
6.8e-08,21.252749986559998,1.4924625072,43.04412500672
6.85e-08,21.190249982719997,1.490900007104,43.02850000576
6.900000000000001e-08,21.158999980799997,1.4924625072,43.04412500672
6.950000000000001e-08,21.221499984639998,1.495587507392,43.0910000096
7e-08,21.283999988479998,1.495587507392,43.07537500864
7.05e-08,21.268374987519998,1.495587507392,43.05975000768
7.1e-08,21.190249982719997,1.495587507392,43.04412500672
7.15e-08,21.127749978879997,1.495587507392,43.04412500672
7.200000000000001e-08,21.127749978879997,1.498712507584,42.99725000384
7.250000000000001e-08,21.143374979839997,1.498712507584,43.02850000576
7.3e-08,21.221499984639998,1.497150007488,43.05975000768
7.35e-08,21.268374987519998,1.494025007296,43.07537500864
7.4e-08,21.205874983679998,1.494025007296,43.05975000768
7.45e-08,21.190249982719997,1.497150007488,43.0128750048
7.500000000000001e-08,21.205874983679998,1.498712507584,42.98162500288
7.550000000000001e-08,21.237124985599998,1.497150007488,43.04412500672
7.6e-08,21.237124985599998,1.494025007296,43.10662501056
7.65e-08,21.205874983679998,1.495587507392,43.12225001152
7.7e-08,21.205874983679998,1.501837507776,43.07537500864
7.75e-08,21.221499984639998,1.506525008064,42.99725000384
7.800000000000001e-08,21.252749986559998,1.503400007872,42.93475
7.850000000000001e-08,21.205874983679998,1.498712507584,42.95037500096
7.9e-08,21.174624981759997,1.498712507584,42.99725000384
7.95e-08,21.143374979839997,1.501837507776,43.02850000576
8e-08,21.190249982719997,1.504962507968,42.98162500288
8.05e-08,21.221499984639998,1.504962507968,42.98162500288
8.100000000000001e-08,21.237124985599998,1.50027500768,43.0128750048
8.150000000000001e-08,21.221499984639998,1.498712507584,43.10662501056
8.2e-08,21.158999980799997,1.498712507584,43.18475001536
8.25e-08,21.174624981759997,1.501837507776,43.12225001152
8.3e-08,21.205874983679998,1.503400007872,43.0128750048
8.35e-08,21.252749986559998,1.497150007488,43.02850000576
8.400000000000001e-08,21.237124985599998,1.494025007296,43.07537500864
8.450000000000001e-08,21.174624981759997,1.497150007488,43.10662501056
8.500000000000001e-08,21.143374979839997,1.503400007872,43.0910000096
8.55e-08,21.190249982719997,1.506525008064,43.0128750048
8.6e-08,21.268374987519998,1.503400007872,42.90349999808
8.65e-08,21.283999988479998,1.503400007872,42.91912499904
8.700000000000001e-08,21.283999988479998,1.50027500768,42.99725000384
8.750000000000001e-08,21.252749986559998,1.501837507776,43.07537500864
8.800000000000001e-08,21.268374987519998,1.504962507968,43.02850000576
8.85e-08,21.268374987519998,1.503400007872,43.0128750048
8.9e-08,21.268374987519998,1.50027500768,43.04412500672
8.95e-08,21.237124985599998,1.503400007872,43.13787501248
9.000000000000001e-08,21.205874983679998,1.506525008064,43.20037501632
9.050000000000001e-08,21.205874983679998,1.509650008256,43.15350001344
9.100000000000001e-08,21.205874983679998,1.511212508352,43.04412500672
9.15e-08,21.158999980799997,1.50808750816,43.04412500672
9.2e-08,21.127749978879997,1.504962507968,43.07537500864
9.25e-08,21.143374979839997,1.506525008064,43.10662501056
9.300000000000001e-08,21.174624981759997,1.509650008256,43.12225001152
9.350000000000001e-08,21.237124985599998,1.511212508352,43.05975000768
9.400000000000001e-08,21.315249990399998,1.50808750816,42.98162500288
9.45e-08,21.283999988479998,1.501837507776,43.0128750048
9.5e-08,21.252749986559998,1.50027500768,43.0910000096
9.55e-08,21.237124985599998,1.501837507776,43.15350001344
9.600000000000001e-08,21.283999988479998,1.504962507968,43.10662501056
9.650000000000001e-08,21.299624989439998,1.506525008064,43.0910000096
9.700000000000001e-08,21.268374987519998,1.503400007872,43.10662501056
9.75e-08,21.221499984639998,1.503400007872,43.13787501248
9.8e-08,21.127749978879997,1.503400007872,43.15350001344
9.85e-08,21.143374979839997,1.503400007872,43.10662501056
9.9e-08,21.237124985599998,1.503400007872,42.98162500288
9.950000000000001e-08,21.299624989439998,1.501837507776,42.96600000192
1.0000000000000001e-07,21.283999988479998,1.50027500768,42.98162500288
1.005e-07,21.237124985599998,1.501837507776,43.02850000576
1.01e-07,21.252749986559998,1.503400007872,43.10662501056
1.015e-07,21.268374987519998,1.503400007872,43.12225001152
1.02e-07,21.299624989439998,1.501837507776,43.10662501056
1.0250000000000001e-07,21.283999988479998,1.501837507776,43.10662501056
1.0300000000000001e-07,21.268374987519998,1.504962507968,43.15350001344
1.0350000000000001e-07,21.221499984639998,1.506525008064,43.18475001536
1.04e-07,21.190249982719997,1.506525008064,43.10662501056
1.045e-07,21.174624981759997,1.503400007872,43.05975000768
1.05e-07,21.143374979839997,1.501837507776,43.02850000576
1.0550000000000001e-07,21.127749978879997,1.503400007872,43.0128750048
1.0600000000000001e-07,21.143374979839997,1.504962507968,42.98162500288
1.0650000000000001e-07,21.237124985599998,1.50808750816,42.93475
1.07e-07,21.315249990399998,1.506525008064,42.88787499712
1.075e-07,21.299624989439998,1.501837507776,42.90349999808
1.08e-07,21.268374987519998,1.497150007488,42.93475
1.0850000000000001e-07,21.221499984639998,1.497150007488,42.99725000384
1.0900000000000001e-07,21.252749986559998,1.504962507968,43.0128750048
1.0950000000000001e-07,21.315249990399998,1.506525008064,43.04412500672
1.1e-07,21.34649999232,1.503400007872,43.05975000768
1.105e-07,21.283999988479998,1.50027500768,43.0910000096
1.11e-07,21.221499984639998,1.50027500768,43.0910000096
1.1150000000000001e-07,21.174624981759997,1.50027500768,43.0910000096
1.1200000000000001e-07,21.190249982719997,1.501837507776,43.02850000576
1.1250000000000001e-07,21.252749986559998,1.503400007872,43.0128750048
1.13e-07,21.268374987519998,1.503400007872,42.98162500288
1.135e-07,21.252749986559998,1.504962507968,42.98162500288
1.14e-07,21.221499984639998,1.506525008064,42.99725000384
1.1450000000000001e-07,21.237124985599998,1.504962507968,42.99725000384
1.1500000000000001e-07,21.252749986559998,1.504962507968,42.96600000192
1.1550000000000001e-07,21.283999988479998,1.501837507776,42.99725000384
1.16e-07,21.268374987519998,1.50027500768,43.0128750048
1.165e-07,21.237124985599998,1.501837507776,43.02850000576
1.17e-07,21.237124985599998,1.504962507968,43.05975000768
1.1750000000000001e-07,21.299624989439998,1.506525008064,43.05975000768
1.1800000000000001e-07,21.34649999232,1.504962507968,43.02850000576
1.1850000000000001e-07,21.283999988479998,1.503400007872,43.0128750048
1.1900000000000001e-07,21.221499984639998,1.501837507776,42.96600000192
1.195e-07,21.205874983679998,1.503400007872,42.95037500096
1.2000000000000002e-07,21.190249982719997,1.503400007872,42.91912499904
1.205e-07,21.237124985599998,1.498712507584,42.93475
1.21e-07,21.299624989439998,1.50027500768,42.93475
1.215e-07,21.299624989439998,1.501837507776,42.95037500096
1.22e-07,21.252749986559998,1.501837507776,42.98162500288
1.2250000000000002e-07,21.268374987519998,1.50027500768,42.99725000384
1.23e-07,21.268374987519998,1.497150007488,43.02850000576
1.2350000000000001e-07,21.299624989439998,1.494025007296,43.0910000096
1.24e-07,21.299624989439998,1.498712507584,43.0910000096
1.245e-07,21.283999988479998,1.50027500768,43.07537500864
1.2500000000000002e-07,21.268374987519998,1.501837507776,43.07537500864
1.255e-07,21.252749986559998,1.501837507776,43.05975000768
1.2600000000000002e-07,21.237124985599998,1.498712507584,43.0128750048
1.265e-07,21.221499984639998,1.501837507776,42.99725000384
1.27e-07,21.268374987519998,1.504962507968,42.91912499904
1.275e-07,21.283999988479998,1.504962507968,42.88787499712
1.28e-07,21.268374987519998,1.504962507968,42.90349999808
1.2850000000000002e-07,21.237124985599998,1.50027500768,43.0128750048
1.29e-07,21.252749986559998,1.498712507584,43.05975000768
1.2950000000000001e-07,21.283999988479998,1.50027500768,43.04412500672
1.3e-07,21.299624989439998,1.501837507776,42.99725000384
1.305e-07,21.34649999232,1.498712507584,42.98162500288
1.31e-07,21.315249990399998,1.497150007488,43.05975000768
1.315e-07,21.237124985599998,1.494025007296,43.13787501248
1.3200000000000002e-07,21.174624981759997,1.495587507392,43.12225001152
1.325e-07,21.205874983679998,1.497150007488,43.0128750048
1.33e-07,21.237124985599998,1.497150007488,42.96600000192
1.335e-07,21.252749986559998,1.497150007488,42.96600000192
1.34e-07,21.283999988479998,1.495587507392,42.98162500288
1.3450000000000002e-07,21.237124985599998,1.494025007296,43.02850000576
1.35e-07,21.268374987519998,1.497150007488,42.98162500288
1.3550000000000002e-07,21.315249990399998,1.498712507584,42.93475
1.36e-07,21.330874991359998,1.497150007488,42.91912499904
1.365e-07,21.330874991359998,1.4924625072,42.99725000384
1.37e-07,21.315249990399998,1.4924625072,43.0910000096
1.375e-07,21.34649999232,1.498712507584,43.10662501056
1.3800000000000002e-07,21.330874991359998,1.50027500768,43.05975000768
1.385e-07,21.330874991359998,1.495587507392,43.0128750048
1.3900000000000001e-07,21.315249990399998,1.4924625072,42.98162500288
1.395e-07,21.237124985599998,1.4924625072,43.04412500672
1.4e-07,21.174624981759997,1.494025007296,43.02850000576
1.4050000000000002e-07,21.205874983679998,1.495587507392,42.96600000192
1.41e-07,21.268374987519998,1.498712507584,42.91912499904
1.4150000000000002e-07,21.283999988479998,1.497150007488,42.90349999808
1.42e-07,21.283999988479998,1.4924625072,42.91912499904
1.425e-07,21.221499984639998,1.489337507008,42.98162500288
1.43e-07,21.237124985599998,1.489337507008,42.99725000384
1.435e-07,21.299624989439998,1.489337507008,42.98162500288
1.4400000000000002e-07,21.36212499328,1.490900007104,42.91912499904
1.445e-07,21.315249990399998,1.487775006912,42.96600000192
1.4500000000000001e-07,21.283999988479998,1.487775006912,43.04412500672
1.455e-07,21.283999988479998,1.4924625072,43.07537500864
1.46e-07,21.268374987519998,1.494025007296,43.0128750048
1.4650000000000002e-07,21.315249990399998,1.494025007296,42.90349999808
1.47e-07,21.34649999232,1.490900007104,42.82537499328
1.4750000000000002e-07,21.283999988479998,1.487775006912,42.88787499712
1.48e-07,21.190249982719997,1.489337507008,42.96600000192
1.485e-07,21.221499984639998,1.490900007104,42.96600000192
1.49e-07,21.283999988479998,1.4924625072,42.91912499904
1.495e-07,21.315249990399998,1.489337507008,42.8566249952
1.5000000000000002e-07,21.315249990399998,1.487775006912,42.87224999616
1.505e-07,21.299624989439998,1.487775006912,42.90349999808
1.5100000000000002e-07,21.315249990399998,1.486212506816,42.95037500096
1.515e-07,21.299624989439998,1.487775006912,42.95037500096
1.52e-07,21.315249990399998,1.489337507008,42.90349999808
1.5250000000000002e-07,21.299624989439998,1.487775006912,42.90349999808
1.53e-07,21.299624989439998,1.489337507008,42.93475
1.5350000000000002e-07,21.315249990399998,1.4924625072,42.95037500096
1.54e-07,21.299624989439998,1.490900007104,42.93475
1.5450000000000001e-07,21.299624989439998,1.490900007104,42.90349999808
1.55e-07,21.268374987519998,1.489337507008,42.84099999424
1.555e-07,21.221499984639998,1.487775006912,42.84099999424
1.5600000000000002e-07,21.221499984639998,1.487775006912,42.84099999424
1.565e-07,21.283999988479998,1.486212506816,42.84099999424
1.5700000000000002e-07,21.36212499328,1.48465000672,42.8566249952
1.575e-07,21.36212499328,1.483087506624,42.84099999424
1.58e-07,21.36212499328,1.4815250065280001,42.80974999232
1.5850000000000002e-07,21.299624989439998,1.483087506624,42.82537499328
1.59e-07,21.315249990399998,1.483087506624,42.87224999616
1.5950000000000002e-07,21.34649999232,1.483087506624,42.90349999808
1.6e-07,21.37774999424,1.483087506624,42.88787499712
1.6050000000000001e-07,21.36212499328,1.4815250065280001,42.90349999808
