Time (s),VIN,IIN,VOUT,IOUT,"[""CRTL_A"", ""IN_A"", ""CRTL_B"", ""IN_B"", ""nEN"", ""GATE_1"", ""GATE_2""]"
0.0,23.91225002496,1.5412500071039998,45.41962499328,0.723424993088,8960
5e-10,23.91225002496,1.5412500071039998,45.35712498944,0.723424993088,8960
1e-09,23.94350002688,1.5396875070079998,45.35712498944,0.723424993088,8960
1.5000000000000002e-09,23.99037502976,1.5396875070079998,45.35712498944,0.721862492992,8960
2e-09,24.03725003264,1.5381250069119998,45.43524999424,0.724987493184,8960
2.5e-09,24.08412503552,1.5381250069119998,45.4508749952,0.723424993088,8704
3.0000000000000004e-09,24.0528750336,1.5412500071039998,45.4508749952,0.721862492992,8704
3.5000000000000003e-09,24.03725003264,1.5412500071039998,45.43524999424,0.721862492992,8192
4e-09,23.99037502976,1.5381250069119998,45.43524999424,0.723424993088,8192
4.500000000000001e-09,24.00600003072,1.5396875070079998,45.43524999424,0.72654999328,8192
5e-09,24.02162503168,1.5412500071039998,45.49774999808,0.72654999328,8192
5.5000000000000004e-09,24.09975003648,1.5412500071039998,45.48212499712,0.728112493376,8192
6.000000000000001e-09,24.14662503936,1.5365625068159998,45.43524999424,0.728112493376,8192
6.5e-09,24.1310000384,1.5381250069119998,45.3727499904,0.724987493184,8192
7.000000000000001e-09,24.09975003648,1.5381250069119998,45.38837499136,0.721862492992,8192
7.500000000000001e-09,24.08412503552,1.5381250069119998,45.40399999232,0.721862492992,8192
8e-09,24.06850003456,1.5396875070079998,45.41962499328,0.721862492992,8192
8.5e-09,24.02162503168,1.5396875070079998,45.38837499136,0.721862492992,8192
9.000000000000001e-09,23.99037502976,1.5396875070079998,45.3727499904,0.721862492992,8192
9.5e-09,23.99037502976,1.5365625068159998,45.3727499904,0.720299992896,8192
1e-08,24.03725003264,1.5350000067199998,45.40399999232,0.721862492992,8192
1.0500000000000001e-08,24.1310000384,1.5350000067199998,45.43524999424,0.721862492992,8192
1.1000000000000001e-08,24.19350004224,1.5381250069119998,45.43524999424,0.721862492992,8192
1.15e-08,24.24037504512,1.5381250069119998,45.40399999232,0.721862492992,8192
1.2000000000000002e-08,24.24037504512,1.5365625068159998,45.38837499136,0.721862492992,8192
1.2500000000000001e-08,24.19350004224,1.5350000067199998,45.41962499328,0.723424993088,8192
1.3e-08,24.17787504128,1.531875006528,45.46649999616,0.721862492992,8192
1.35e-08,24.17787504128,1.5334375066239998,45.46649999616,0.7187374928,8192
1.4000000000000001e-08,24.2091250432,1.5350000067199998,45.43524999424,0.7171749927040001,8192
1.45e-08,24.17787504128,1.5381250069119998,45.3727499904,0.7187374928,8192
1.5000000000000002e-08,24.16225004032,1.5381250069119998,45.35712498944,0.7187374928,8192
1.55e-08,24.16225004032,1.5381250069119998,45.3727499904,0.7187374928,8192
1.6e-08,24.16225004032,1.5412500071039998,45.38837499136,0.721862492992,8192
1.6500000000000002e-08,24.14662503936,1.5412500071039998,45.38837499136,0.721862492992,8192
1.7e-08,24.1310000384,1.5412500071039998,45.38837499136,0.721862492992,8192
1.75e-08,24.09975003648,1.5412500071039998,45.35712498944,0.7187374928,8192
1.8000000000000002e-08,24.08412503552,1.5365625068159998,45.38837499136,0.7187374928,8192
1.85e-08,24.09975003648,1.5365625068159998,45.41962499328,0.721862492992,8192
1.9e-08,24.1310000384,1.5396875070079998,45.43524999424,0.723424993088,8192
1.9500000000000003e-08,24.17787504128,1.5381250069119998,45.38837499136,0.723424993088,8192
2e-08,24.2091250432,1.5365625068159998,45.34149998848,0.720299992896,8192
2.05e-08,24.17787504128,1.5381250069119998,45.31024998656,0.7187374928,8192
2.1000000000000003e-08,24.16225004032,1.5396875070079998,45.34149998848,0.721862492992,8192
2.15e-08,24.19350004224,1.5412500071039998,45.35712498944,0.720299992896,8192
2.2000000000000002e-08,24.25600004608,1.5396875070079998,45.35712498944,0.723424993088,8192
2.2500000000000003e-08,24.27162504704,1.5396875070079998,45.35712498944,0.721862492992,8192
2.3e-08,24.24037504512,1.5428125071999998,45.34149998848,0.7187374928,8192
2.3500000000000002e-08,24.19350004224,1.5428125071999998,45.32587498752,0.720299992896,8192
2.4000000000000003e-08,24.1310000384,1.5428125071999998,45.35712498944,0.7187374928,8192
2.45e-08,24.11537503744,1.5412500071039998,45.3727499904,0.720299992896,0
2.5000000000000002e-08,24.14662503936,1.5381250069119998,45.35712498944,0.721862492992,0
2.55e-08,24.2091250432,1.5365625068159998,45.32587498752,0.724987493184,0
2.6e-08,24.22475004416,1.5365625068159998,45.34149998848,0.724987493184,0
2.6500000000000002e-08,24.25600004608,1.5381250069119998,45.3727499904,0.723424993088,0
2.7e-08,24.22475004416,1.5396875070079998,45.40399999232,0.720299992896,1024
2.75e-08,24.2091250432,1.5396875070079998,45.38837499136,0.721862492992,1024
2.8000000000000003e-08,24.17787504128,1.5381250069119998,45.3727499904,0.7187374928,1024
2.85e-08,24.16225004032,1.5381250069119998,45.34149998848,0.7187374928,1024
2.9e-08,24.1310000384,1.5350000067199998,45.35712498944,0.720299992896,3072
2.9500000000000003e-08,24.17787504128,1.5350000067199998,45.35712498944,0.721862492992,3072
3.0000000000000004e-08,24.22475004416,1.5350000067199998,45.3727499904,0.720299992896,3072
3.05e-08,24.25600004608,1.5365625068159998,45.35712498944,0.723424993088,3072
3.1e-08,24.30287504896,1.5381250069119998,45.34149998848,0.723424993088,3072
3.1500000000000004e-08,24.31850004992,1.5381250069119998,45.31024998656,0.721862492992,3072
3.2e-08,24.287250048,1.5396875070079998,45.31024998656,0.7187374928,3072
3.25e-08,24.27162504704,1.5381250069119998,45.35712498944,0.7187374928,3072
3.3000000000000004e-08,24.25600004608,1.5350000067199998,45.41962499328,0.720299992896,3072
3.35e-08,24.22475004416,1.5350000067199998,45.38837499136,0.720299992896,3072
3.4e-08,24.24037504512,1.5334375066239998,45.3727499904,0.723424993088,3072
3.4500000000000005e-08,24.27162504704,1.5350000067199998,45.32587498752,0.723424993088,3072
3.5e-08,24.24037504512,1.5381250069119998,45.34149998848,0.721862492992,3072
3.55e-08,24.24037504512,1.5365625068159998,45.3727499904,0.721862492992,3072
3.6000000000000005e-08,24.2091250432,1.5365625068159998,45.35712498944,0.720299992896,3072
3.65e-08,24.17787504128,1.5365625068159998,45.34149998848,0.7187374928,3072
3.7e-08,24.2091250432,1.5334375066239998,45.35712498944,0.7187374928,3072
3.7500000000000005e-08,24.25600004608,1.5350000067199998,45.32587498752,0.721862492992,3072
3.8e-08,24.25600004608,1.5365625068159998,45.32587498752,0.720299992896,3072
3.85e-08,24.24037504512,1.5381250069119998,45.2946249856,0.7187374928,3072
3.9000000000000005e-08,24.24037504512,1.5365625068159998,45.31024998656,0.7187374928,3072
3.95e-08,24.22475004416,1.5365625068159998,45.2946249856,0.7187374928,3072
4e-08,24.27162504704,1.5365625068159998,45.32587498752,0.720299992896,3072
4.0500000000000005e-08,24.3653750528,1.5350000067199998,45.32587498752,0.720299992896,3072
4.1e-08,24.39662505472,1.5365625068159998,45.35712498944,0.721862492992,3072
4.15e-08,24.34975005184,1.5412500071039998,45.32587498752,0.721862492992,3072
4.2000000000000006e-08,24.31850004992,1.5396875070079998,45.32587498752,0.720299992896,3072
4.2500000000000003e-08,24.27162504704,1.5381250069119998,45.35712498944,0.721862492992,3072
4.3e-08,24.25600004608,1.5396875070079998,45.35712498944,0.724987493184,3072
4.3500000000000006e-08,24.34975005184,1.5396875070079998,45.34149998848,0.724987493184,3072
4.4000000000000004e-08,24.3653750528,1.5381250069119998,45.2946249856,0.724987493184,3072
4.45e-08,24.3653750528,1.5381250069119998,45.24774998272,0.724987493184,3072
4.5000000000000006e-08,24.33412505088,1.5365625068159998,45.27899998464,0.723424993088,3072
4.5500000000000004e-08,24.30287504896,1.5381250069119998,45.32587498752,0.720299992896,3072
4.6e-08,24.3653750528,1.5396875070079998,45.34149998848,0.720299992896,3072
4.6500000000000006e-08,24.45912505856,1.5396875070079998,45.34149998848,0.723424993088,3072
4.7000000000000004e-08,24.521625062400002,1.5381250069119998,45.31024998656,0.723424993088,3072
4.75e-08,24.49037506048,1.5334375066239998,45.2946249856,0.720299992896,3072
4.8000000000000006e-08,24.38100005376,1.531875006528,45.32587498752,0.720299992896,3072
4.8500000000000004e-08,24.287250048,1.5350000067199998,45.38837499136,0.7187374928,3072
4.9e-08,24.30287504896,1.5396875070079998,45.41962499328,0.720299992896,3072
4.95e-08,24.33412505088,1.5443750072959999,45.35712498944,0.724987493184,3072
5.0000000000000004e-08,24.38100005376,1.5396875070079998,45.31024998656,0.72654999328,3072
5.05e-08,24.39662505472,1.5350000067199998,45.31024998656,0.723424993088,3072
5.1e-08,24.33412505088,1.5334375066239998,45.34149998848,0.720299992896,3072
5.1500000000000005e-08,24.31850004992,1.5365625068159998,45.32587498752,0.721862492992,19456
5.2e-08,24.33412505088,1.5443750072959999,45.31024998656,0.721862492992,19456
5.25e-08,24.38100005376,1.5459375073919999,45.2946249856,0.7187374928,19456
5.3000000000000005e-08,24.41225005568,1.5428125071999998,45.31024998656,0.7156124926080001,19456
5.35e-08,24.42787505664,1.5396875070079998,45.31024998656,0.7187374928,19456
5.4e-08,24.42787505664,1.5365625068159998,45.31024998656,0.720299992896,19456
5.4500000000000005e-08,24.41225005568,1.5396875070079998,45.34149998848,0.723424993088,19456
5.5e-08,24.42787505664,1.5381250069119998,45.2946249856,0.724987493184,19456
5.55e-08,24.38100005376,1.5381250069119998,45.26337498368,0.724987493184,19456
5.6000000000000005e-08,24.34975005184,1.5396875070079998,45.27899998464,0.721862492992,19456
5.65e-08,24.34975005184,1.5412500071039998,45.31024998656,0.7187374928,19456
5.7e-08,24.39662505472,1.5428125071999998,45.35712498944,0.720299992896,19456
5.7500000000000005e-08,24.4435000576,1.5428125071999998,45.34149998848,0.724987493184,19456
5.8e-08,24.39662505472,1.5396875070079998,45.24774998272,0.72654999328,19456
5.85e-08,24.33412505088,1.5365625068159998,45.20087497984,0.72654999328,19456
5.9000000000000006e-08,24.25600004608,1.5381250069119998,45.20087497984,0.723424993088,19456
5.9500000000000003e-08,24.287250048,1.5412500071039998,45.23212498176,0.721862492992,19456
6.000000000000001e-08,24.38100005376,1.5428125071999998,45.27899998464,0.723424993088,19456
6.05e-08,24.4435000576,1.5443750072959999,45.27899998464,0.72654999328,19456
6.1e-08,24.42787505664,1.5396875070079998,45.27899998464,0.729674993472,19456
6.15e-08,24.3653750528,1.5350000067199998,45.24774998272,0.729674993472,19456
6.2e-08,24.30287504896,1.5350000067199998,45.2946249856,0.724987493184,19456
6.250000000000001e-08,24.25600004608,1.5396875070079998,45.35712498944,0.724987493184,19456
6.300000000000001e-08,24.27162504704,1.5396875070079998,45.3727499904,0.723424993088,19456
6.35e-08,24.287250048,1.5396875070079998,45.31024998656,0.724987493184,19456
6.4e-08,24.30287504896,1.5350000067199998,45.26337498368,0.721862492992,19456
6.45e-08,24.34975005184,1.5334375066239998,45.24774998272,0.7187374928,19456
6.5e-08,24.41225005568,1.5350000067199998,45.31024998656,0.720299992896,19456
6.55e-08,24.41225005568,1.5381250069119998,45.2946249856,0.721862492992,19456
6.600000000000001e-08,24.3653750528,1.5396875070079998,45.24774998272,0.72654999328,19456
6.65e-08,24.34975005184,1.5350000067199998,45.18524997888,0.729674993472,19456
6.7e-08,24.33412505088,1.5350000067199998,45.20087497984,0.72654999328,19456
6.75e-08,24.42787505664,1.5350000067199998,45.26337498368,0.723424993088,19456
6.8e-08,24.45912505856,1.5381250069119998,45.34149998848,0.721862492992,19456
6.85e-08,24.47475005952,1.5412500071039998,45.34149998848,0.723424993088,19456
6.900000000000001e-08,24.39662505472,1.5381250069119998,45.31024998656,0.724987493184,19456
6.950000000000001e-08,24.24037504512,1.5365625068159998,45.27899998464,0.723424993088,19456
7e-08,24.14662503936,1.5350000067199998,45.2946249856,0.7187374928,19456
7.05e-08,24.1310000384,1.5365625068159998,45.3727499904,0.720299992896,19456
7.1e-08,24.2091250432,1.5365625068159998,45.38837499136,0.721862492992,19456
7.15e-08,24.25600004608,1.5365625068159998,45.32587498752,0.724987493184,19456
7.200000000000001e-08,24.24037504512,1.5334375066239998,45.24774998272,0.724987493184,19456
7.250000000000001e-08,24.19350004224,1.530312506432,45.2164999808,0.723424993088,19456
7.3e-08,24.2091250432,1.5334375066239998,45.27899998464,0.721862492992,19456
7.35e-08,24.287250048,1.5365625068159998,45.31024998656,0.721862492992,19456
7.4e-08,24.38100005376,1.5396875070079998,45.31024998656,0.723424993088,19456
7.45e-08,24.4435000576,1.5412500071039998,45.26337498368,0.723424993088,19456
7.500000000000001e-08,24.38100005376,1.5365625068159998,45.27899998464,0.724987493184,19456
7.550000000000001e-08,24.27162504704,1.5334375066239998,45.32587498752,0.724987493184,18432
7.6e-08,24.17787504128,1.531875006528,45.38837499136,0.721862492992,18432
7.65e-08,24.19350004224,1.5365625068159998,45.40399999232,0.724987493184,18432
7.7e-08,24.24037504512,1.5396875070079998,45.3727499904,0.728112493376,18432
7.75e-08,24.25600004608,1.5428125071999998,45.31024998656,0.731237493568,16384
7.800000000000001e-08,24.2091250432,1.5381250069119998,45.2946249856,0.7343624937600001,16384
7.850000000000001e-08,24.1310000384,1.5381250069119998,45.34149998848,0.737487493952,16384
7.9e-08,24.09975003648,1.5396875070079998,45.3727499904,0.7359249938560001,16384
7.95e-08,24.11537503744,1.5381250069119998,45.31024998656,0.7359249938560001,16384
8e-08,24.1310000384,1.5350000067199998,45.2164999808,0.7327999936640001,16384
8.05e-08,24.19350004224,1.5350000067199998,45.2164999808,0.728112493376,16384
8.100000000000001e-08,24.24037504512,1.5381250069119998,45.2946249856,0.731237493568,16384
8.150000000000001e-08,24.25600004608,1.5396875070079998,45.35712498944,0.731237493568,16384
8.2e-08,24.25600004608,1.5365625068159998,45.38837499136,0.731237493568,16384
8.25e-08,24.25600004608,1.5350000067199998,45.35712498944,0.731237493568,16384
8.3e-08,24.16225004032,1.5365625068159998,45.34149998848,0.729674993472,16384
8.35e-08,24.11537503744,1.5365625068159998,45.35712498944,0.729674993472,16384
8.400000000000001e-08,24.11537503744,1.5381250069119998,45.43524999424,0.729674993472,16384
8.450000000000001e-08,24.19350004224,1.5443750072959999,45.4508749952,0.729674993472,16384
8.500000000000001e-08,24.22475004416,1.5459375073919999,45.43524999424,0.7343624937600001,16384
8.55e-08,24.24037504512,1.5428125071999998,45.3727499904,0.7359249938560001,16384
8.6e-08,24.14662503936,1.5381250069119998,45.32587498752,0.7343624937600001,16384
8.65e-08,24.02162503168,1.5381250069119998,45.34149998848,0.731237493568,16384
8.700000000000001e-08,23.9747500288,1.5396875070079998,45.35712498944,0.72654999328,16384
8.750000000000001e-08,24.00600003072,1.5412500071039998,45.3727499904,0.729674993472,16384
8.800000000000001e-08,24.11537503744,1.5396875070079998,45.38837499136,0.731237493568,16384
8.85e-08,24.16225004032,1.5365625068159998,45.35712498944,0.728112493376,16384
8.9e-08,24.16225004032,1.5365625068159998,45.41962499328,0.729674993472,16384
8.95e-08,24.11537503744,1.5381250069119998,45.46649999616,0.729674993472,16384
9.000000000000001e-08,24.06850003456,1.5381250069119998,45.49774999808,0.731237493568,16384
9.050000000000001e-08,24.09975003648,1.5412500071039998,45.46649999616,0.731237493568,16384
9.100000000000001e-08,24.09975003648,1.5428125071999998,45.4508749952,0.731237493568,16384
9.15e-08,24.11537503744,1.5396875070079998,45.41962499328,0.7327999936640001,16384
9.2e-08,24.11537503744,1.5381250069119998,45.38837499136,0.7327999936640001,16384
9.25e-08,24.1310000384,1.5412500071039998,45.38837499136,0.731237493568,16384
9.300000000000001e-08,24.11537503744,1.5396875070079998,45.38837499136,0.7327999936640001,16384
9.350000000000001e-08,24.09975003648,1.5396875070079998,45.35712498944,0.731237493568,16384
9.400000000000001e-08,24.06850003456,1.5365625068159998,45.32587498752,0.729674993472,16384
9.45e-08,24.03725003264,1.5365625068159998,45.34149998848,0.729674993472,16384
9.5e-08,24.03725003264,1.5381250069119998,45.40399999232,0.729674993472,16384
9.55e-08,24.06850003456,1.5381250069119998,45.43524999424,0.729674993472,16384
9.600000000000001e-08,24.11537503744,1.5412500071039998,45.46649999616,0.729674993472,16384
9.650000000000001e-08,24.09975003648,1.5396875070079998,45.48212499712,0.729674993472,16384
9.700000000000001e-08,24.06850003456,1.5381250069119998,45.51337499904,0.7327999936640001,16384
9.75e-08,24.03725003264,1.5396875070079998,45.49774999808,0.7343624937600001,0
9.8e-08,24.0528750336,1.5412500071039998,45.49774999808,0.7343624937600001,0
9.85e-08,24.08412503552,1.5396875070079998,45.43524999424,0.7359249938560001,0
9.9e-08,24.0528750336,1.5381250069119998,45.38837499136,0.737487493952,0
9.950000000000001e-08,23.99037502976,1.5350000067199998,45.34149998848,0.737487493952,0
1.0000000000000001e-07,23.896625024,1.5350000067199998,45.34149998848,0.7343624937600001,0
1.005e-07,23.896625024,1.5396875070079998,45.32587498752,0.737487493952,0
1.01e-07,23.95912502784,1.5396875070079998,45.35712498944,0.7359249938560001,256
1.015e-07,24.0528750336,1.5381250069119998,45.3727499904,0.7343624937600001,256
1.02e-07,24.08412503552,1.5365625068159998,45.40399999232,0.7327999936640001,256
1.0250000000000001e-07,24.06850003456,1.5365625068159998,45.4508749952,0.7327999936640001,256
1.0300000000000001e-07,24.03725003264,1.5365625068159998,45.49774999808,0.731237493568,768
1.0350000000000001e-07,24.02162503168,1.5412500071039998,45.48212499712,0.7327999936640001,768
1.04e-07,24.0528750336,1.5428125071999998,45.49774999808,0.7343624937600001,768
1.045e-07,24.0528750336,1.5396875070079998,45.48212499712,0.7327999936640001,768
1.05e-07,24.0528750336,1.5365625068159998,45.48212499712,0.7327999936640001,768
1.0550000000000001e-07,24.02162503168,1.5381250069119998,45.43524999424,0.7327999936640001,768
1.0600000000000001e-07,24.00600003072,1.5381250069119998,45.41962499328,0.731237493568,768
1.0650000000000001e-07,24.02162503168,1.5350000067199998,45.3727499904,0.731237493568,768
1.07e-07,23.99037502976,1.5381250069119998,45.35712498944,0.729674993472,768
1.075e-07,23.99037502976,1.5365625068159998,45.32587498752,0.72654999328,768
1.08e-07,23.99037502976,1.5381250069119998,45.35712498944,0.724987493184,768
1.0850000000000001e-07,23.99037502976,1.5381250069119998,45.38837499136,0.724987493184,768
1.0900000000000001e-07,23.9747500288,1.5381250069119998,45.43524999424,0.724987493184,768
1.0950000000000001e-07,24.00600003072,1.5396875070079998,45.46649999616,0.72654999328,768
1.1e-07,23.99037502976,1.5412500071039998,45.46649999616,0.728112493376,768
1.105e-07,23.94350002688,1.5428125071999998,45.48212499712,0.729674993472,768
1.11e-07,23.896625024,1.5428125071999998,45.49774999808,0.72654999328,768
1.1150000000000001e-07,23.86537502208,1.5412500071039998,45.49774999808,0.72654999328,768
1.1200000000000001e-07,23.818500019200002,1.5412500071039998,45.46649999616,0.724987493184,768
1.1250000000000001e-07,23.818500019200002,1.5412500071039998,45.40399999232,0.728112493376,768
1.13e-07,23.78725001728,1.5381250069119998,45.3727499904,0.729674993472,768
1.135e-07,23.78725001728,1.5365625068159998,45.31024998656,0.72654999328,768
1.14e-07,23.834125020160002,1.5365625068159998,45.32587498752,0.728112493376,768
1.1450000000000001e-07,23.92787502592,1.5365625068159998,45.34149998848,0.7343624937600001,768
1.1500000000000001e-07,23.95912502784,1.5412500071039998,45.34149998848,0.7359249938560001,768
1.1550000000000001e-07,23.9747500288,1.5412500071039998,45.35712498944,0.7343624937600001,768
1.16e-07,23.94350002688,1.5396875070079998,45.38837499136,0.7327999936640001,768
1.165e-07,23.896625024,1.5428125071999998,45.41962499328,0.731237493568,768
1.17e-07,23.849750021120002,1.5428125071999998,45.49774999808,0.729674993472,768
1.1750000000000001e-07,23.896625024,1.5428125071999998,45.51337499904,0.729674993472,768
1.1800000000000001e-07,23.92787502592,1.5412500071039998,45.49774999808,0.731237493568,768
1.1850000000000001e-07,23.95912502784,1.5381250069119998,45.48212499712,0.731237493568,768
