Time (s),VIN,IIN,VOUT
0.0,25.707999986559997,1.796012507008,51.86600000576
5e-10,25.754874989439998,1.7991375072,51.83475000384
1e-09,25.801749992319998,1.7991375072,51.74099999808
1.5000000000000002e-09,25.832999994239998,1.797575007104,51.74099999808
2e-09,25.739249988479997,1.796012507008,51.75662499904
2.5e-09,25.739249988479997,1.796012507008,51.77225
3.0000000000000004e-09,25.801749992319998,1.7991375072,51.70974999616
3.5000000000000003e-09,25.848624995199998,1.800700007296,51.6941249952
4e-09,25.832999994239998,1.7991375072,51.6941249952
4.500000000000001e-09,25.786124991359998,1.794450006912,51.74099999808
5e-09,25.739249988479997,1.792887506816,51.81912500288
5.5000000000000004e-09,25.754874989439998,1.794450006912,51.80350000192
6.000000000000001e-09,25.848624995199998,1.7991375072,51.74099999808
6.5e-09,25.817374993279998,1.800700007296,51.70974999616
7.000000000000001e-09,25.723624987519997,1.802262507392,51.72537499712
7.500000000000001e-09,25.645499982719997,1.7991375072,51.80350000192
8e-09,25.676749984639997,1.796012507008,51.78787500096
8.5e-09,25.754874989439998,1.797575007104,51.72537499712
9.000000000000001e-09,25.832999994239998,1.7991375072,51.63162499136
9.5e-09,25.817374993279998,1.7991375072,51.6159999904
1e-08,25.723624987519997,1.796012507008,51.66287499328
1.0500000000000001e-08,25.707999986559997,1.794450006912,51.6941249952
1.1000000000000001e-08,25.786124991359998,1.794450006912,51.66287499328
1.15e-08,25.91112499904,1.797575007104,51.6159999904
1.2000000000000002e-08,25.91112499904,1.792887506816,51.6159999904
1.2500000000000001e-08,25.848624995199998,1.7897625066240002,51.6941249952
1.3e-08,25.770499990399998,1.7913250067200002,51.78787500096
1.35e-08,25.770499990399998,1.794450006912,51.78787500096
1.4000000000000001e-08,25.817374993279998,1.797575007104,51.72537499712
1.45e-08,25.817374993279998,1.7991375072,51.67849999424
1.5000000000000002e-08,25.739249988479997,1.796012507008,51.6941249952
1.55e-08,25.661124983679997,1.792887506816,51.78787500096
1.6e-08,25.676749984639997,1.794450006912,51.78787500096
1.6500000000000002e-08,25.786124991359998,1.800700007296,51.72537499712
1.7e-08,25.848624995199998,1.7991375072,51.63162499136
1.75e-08,25.864249996159998,1.792887506816,51.6159999904
1.8000000000000002e-08,25.786124991359998,1.7913250067200002,51.67849999424
1.85e-08,25.770499990399998,1.792887506816,51.70974999616
1.9e-08,25.848624995199998,1.794450006912,51.70974999616
1.9500000000000003e-08,25.94237500096,1.797575007104,51.6941249952
2e-08,25.89549999808,1.792887506816,51.70974999616
2.05e-08,25.817374993279998,1.7897625066240002,51.77225
2.1000000000000003e-08,25.770499990399998,1.7882000065280002,51.81912500288
2.15e-08,25.801749992319998,1.792887506816,51.78787500096
2.2000000000000002e-08,25.879874997119998,1.796012507008,51.67849999424
2.2500000000000003e-08,25.864249996159998,1.794450006912,51.63162499136
2.3e-08,25.786124991359998,1.7913250067200002,51.63162499136
2.3500000000000002e-08,25.707999986559997,1.792887506816,51.70974999616
2.4000000000000003e-08,25.754874989439998,1.797575007104,51.70974999616
2.45e-08,25.848624995199998,1.800700007296,51.70974999616
2.5000000000000002e-08,25.92675,1.7991375072,51.70974999616
2.55e-08,25.89549999808,1.792887506816,51.74099999808
2.6e-08,25.754874989439998,1.7913250067200002,51.80350000192
2.6500000000000002e-08,25.661124983679997,1.7913250067200002,51.83475000384
2.7e-08,25.723624987519997,1.794450006912,51.81912500288
2.75e-08,25.92675,1.796012507008,51.81912500288
2.8000000000000003e-08,25.97362500288,1.7913250067200002,51.80350000192
2.85e-08,25.879874997119998,1.7866375064320001,51.81912500288
2.9e-08,25.770499990399998,1.7882000065280002,51.83475000384
2.9500000000000003e-08,25.723624987519997,1.792887506816,51.81912500288
3.0000000000000004e-08,25.770499990399998,1.797575007104,51.74099999808
3.05e-08,25.817374993279998,1.797575007104,51.6941249952
3.1e-08,25.89549999808,1.792887506816,51.6941249952
3.1500000000000004e-08,25.817374993279998,1.7897625066240002,51.75662499904
3.2e-08,25.754874989439998,1.794450006912,51.75662499904
3.25e-08,25.754874989439998,1.794450006912,51.77225
3.3000000000000004e-08,25.770499990399998,1.792887506816,51.77225
3.35e-08,25.770499990399998,1.7913250067200002,51.77225
3.4e-08,25.692374985599997,1.792887506816,51.80350000192
3.4500000000000005e-08,25.707999986559997,1.794450006912,51.81912500288
3.5e-08,25.754874989439998,1.7991375072,51.83475000384
3.55e-08,25.786124991359998,1.796012507008,51.86600000576
3.6000000000000005e-08,25.754874989439998,1.7913250067200002,51.86600000576
3.65e-08,25.707999986559997,1.7882000065280002,51.83475000384
3.7e-08,25.739249988479997,1.7897625066240002,51.80350000192
3.7500000000000005e-08,25.801749992319998,1.797575007104,51.78787500096
3.8e-08,25.864249996159998,1.803825007488,51.72537499712
3.85e-08,25.864249996159998,1.7991375072,51.78787500096
3.9000000000000005e-08,25.864249996159998,1.7913250067200002,51.81912500288
3.95e-08,25.817374993279998,1.794450006912,51.80350000192
4e-08,25.848624995199998,1.800700007296,51.75662499904
4.0500000000000005e-08,25.864249996159998,1.802262507392,51.80350000192
4.1e-08,25.770499990399998,1.800700007296,51.88162500672
4.15e-08,25.645499982719997,1.796012507008,51.95975001152
4.2000000000000006e-08,25.614249980799997,1.796012507008,51.97537501248
4.2500000000000003e-08,25.692374985599997,1.7991375072,51.88162500672
4.3e-08,25.786124991359998,1.805387507584,51.77225
4.3500000000000006e-08,25.817374993279998,1.805387507584,51.81912500288
4.4000000000000004e-08,25.661124983679997,1.794450006912,51.88162500672
4.45e-08,25.55174997696,1.7897625066240002,51.94412501056
4.5000000000000006e-08,25.582999978879997,1.7897625066240002,51.89725000768
4.5500000000000004e-08,25.770499990399998,1.7991375072,51.75662499904
4.6e-08,25.91112499904,1.80695000768,51.67849999424
4.6500000000000006e-08,25.848624995199998,1.800700007296,51.75662499904
4.7000000000000004e-08,25.692374985599997,1.796012507008,51.86600000576
4.75e-08,25.598624979839997,1.796012507008,51.94412501056
4.8000000000000006e-08,25.645499982719997,1.800700007296,51.81912500288
4.8500000000000004e-08,25.786124991359998,1.805387507584,51.75662499904
4.9e-08,25.864249996159998,1.800700007296,51.77225
4.95e-08,25.817374993279998,1.794450006912,51.89725000768
5.0000000000000004e-08,25.661124983679997,1.796012507008,51.95975001152
5.05e-08,25.629874981759997,1.802262507392,51.89725000768
5.1e-08,25.645499982719997,1.805387507584,51.77225
5.1500000000000005e-08,25.707999986559997,1.803825007488,51.75662499904
5.2e-08,25.676749984639997,1.796012507008,51.86600000576
5.25e-08,25.645499982719997,1.792887506816,51.97537501248
5.3000000000000005e-08,25.692374985599997,1.797575007104,51.99100001344
5.35e-08,25.754874989439998,1.805387507584,51.86600000576
5.4e-08,25.786124991359998,1.808512507776,51.77225
5.4500000000000005e-08,25.692374985599997,1.802262507392,51.83475000384
5.5e-08,25.645499982719997,1.796012507008,51.95975001152
5.55e-08,25.645499982719997,1.797575007104,52.02225001536
5.6000000000000005e-08,25.770499990399998,1.803825007488,51.88162500672
5.65e-08,25.848624995199998,1.80695000768,51.78787500096
5.7e-08,25.754874989439998,1.802262507392,51.78787500096
5.7500000000000005e-08,25.614249980799997,1.7991375072,51.89725000768
5.8e-08,25.536124976,1.802262507392,51.95975001152
5.85e-08,25.629874981759997,1.805387507584,51.88162500672
5.9000000000000006e-08,25.739249988479997,1.808512507776,51.74099999808
5.9500000000000003e-08,25.786124991359998,1.808512507776,51.78787500096
6.000000000000001e-08,25.676749984639997,1.7991375072,51.91287500864
6.05e-08,25.582999978879997,1.796012507008,52.0066250144
6.1e-08,25.629874981759997,1.803825007488,52.0066250144
6.15e-08,25.739249988479997,1.808512507776,51.91287500864
6.2e-08,25.786124991359998,1.808512507776,51.8503750048
6.250000000000001e-08,25.692374985599997,1.802262507392,51.9285000096
6.300000000000001e-08,25.614249980799997,1.800700007296,52.03787501632
6.35e-08,25.598624979839997,1.800700007296,52.0847500192
6.4e-08,25.723624987519997,1.80695000768,51.97537501248
6.45e-08,25.770499990399998,1.808512507776,51.8503750048
6.5e-08,25.707999986559997,1.803825007488,51.80350000192
6.55e-08,25.614249980799997,1.803825007488,51.8503750048
6.600000000000001e-08,25.614249980799997,1.80695000768,51.86600000576
6.65e-08,25.739249988479997,1.813200008064,51.80350000192
6.7e-08,25.801749992319998,1.811637507968,51.77225
6.75e-08,25.754874989439998,1.811637507968,51.83475000384
6.8e-08,25.614249980799997,1.805387507584,51.9285000096
6.85e-08,25.56737497792,1.803825007488,51.99100001344
6.900000000000001e-08,25.661124983679997,1.808512507776,51.97537501248
6.950000000000001e-08,25.786124991359998,1.816325008256,51.89725000768
7e-08,25.801749992319998,1.813200008064,51.86600000576
7.05e-08,25.614249980799997,1.805387507584,51.94412501056
7.1e-08,25.50487497408,1.805387507584,52.0066250144
7.15e-08,25.55174997696,1.810075007872,51.99100001344
7.200000000000001e-08,25.692374985599997,1.813200008064,51.88162500672
7.250000000000001e-08,25.770499990399998,1.81476250816,51.8503750048
7.3e-08,25.723624987519997,1.813200008064,51.89725000768
7.35e-08,25.645499982719997,1.80695000768,51.94412501056
7.4e-08,25.598624979839997,1.808512507776,51.94412501056
7.45e-08,25.676749984639997,1.810075007872,51.86600000576
7.500000000000001e-08,25.723624987519997,1.808512507776,51.83475000384
7.550000000000001e-08,25.661124983679997,1.80695000768,51.9285000096
7.6e-08,25.55174997696,1.805387507584,51.99100001344
7.65e-08,25.56737497792,1.810075007872,51.95975001152
7.7e-08,25.661124983679997,1.813200008064,51.88162500672
7.75e-08,25.754874989439998,1.817887508352,51.80350000192
7.800000000000001e-08,25.754874989439998,1.81476250816,51.81912500288
7.850000000000001e-08,25.645499982719997,1.810075007872,51.91287500864
7.9e-08,25.598624979839997,1.80695000768,51.95975001152
7.95e-08,25.661124983679997,1.813200008064,51.9285000096
8e-08,25.770499990399998,1.817887508352,51.83475000384
8.05e-08,25.786124991359998,1.817887508352,51.86600000576
8.100000000000001e-08,25.661124983679997,1.811637507968,51.94412501056
8.150000000000001e-08,25.52049997504,1.811637507968,51.95975001152
8.2e-08,25.50487497408,1.81476250816,51.9285000096
8.25e-08,25.645499982719997,1.819450008448,51.8503750048
8.3e-08,25.723624987519997,1.817887508352,51.83475000384
8.35e-08,25.723624987519997,1.813200008064,51.9285000096
8.400000000000001e-08,25.629874981759997,1.808512507776,52.0066250144
8.450000000000001e-08,25.598624979839997,1.811637507968,51.99100001344
8.500000000000001e-08,25.676749984639997,1.819450008448,51.89725000768
8.55e-08,25.786124991359998,1.8241375087360001,51.8503750048
8.6e-08,25.786124991359998,1.821012508544,51.88162500672
8.65e-08,25.645499982719997,1.811637507968,51.97537501248
8.700000000000001e-08,25.582999978879997,1.813200008064,51.97537501248
8.750000000000001e-08,25.614249980799997,1.821012508544,51.91287500864
8.800000000000001e-08,25.692374985599997,1.8241375087360001,51.81912500288
8.85e-08,25.723624987519997,1.819450008448,51.8503750048
8.9e-08,25.661124983679997,1.813200008064,51.89725000768
8.95e-08,25.614249980799997,1.810075007872,51.91287500864
9.000000000000001e-08,25.661124983679997,1.817887508352,51.89725000768
9.050000000000001e-08,25.770499990399998,1.819450008448,51.86600000576
9.100000000000001e-08,25.801749992319998,1.816325008256,51.89725000768
9.15e-08,25.661124983679997,1.81476250816,52.0066250144
9.2e-08,25.55174997696,1.813200008064,52.06912501824
9.25e-08,25.582999978879997,1.816325008256,52.0066250144
9.300000000000001e-08,25.661124983679997,1.821012508544,51.95975001152
9.350000000000001e-08,25.692374985599997,1.82257500864,51.94412501056
9.400000000000001e-08,25.661124983679997,1.819450008448,51.95975001152
9.45e-08,25.55174997696,1.816325008256,52.02225001536
9.5e-08,25.52049997504,1.819450008448,52.02225001536
9.55e-08,25.645499982719997,1.8241375087360001,51.94412501056
9.600000000000001e-08,25.770499990399998,1.8257000088320001,51.8503750048
9.650000000000001e-08,25.817374993279998,1.82257500864,51.86600000576
9.700000000000001e-08,25.754874989439998,1.817887508352,51.91287500864
9.75e-08,25.723624987519997,1.816325008256,51.9285000096
9.8e-08,25.707999986559997,1.819450008448,51.9285000096
9.85e-08,25.770499990399998,1.819450008448,51.88162500672
9.9e-08,25.801749992319998,1.816325008256,51.89725000768
9.950000000000001e-08,25.770499990399998,1.81476250816,51.97537501248
1.0000000000000001e-07,25.661124983679997,1.81476250816,52.03787501632
1.005e-07,25.645499982719997,1.819450008448,52.0066250144
1.01e-07,25.692374985599997,1.82257500864,51.95975001152
1.015e-07,25.676749984639997,1.82257500864,51.94412501056
1.02e-07,25.645499982719997,1.817887508352,51.94412501056
1.0250000000000001e-07,25.614249980799997,1.811637507968,51.94412501056
1.0300000000000001e-07,25.661124983679997,1.811637507968,51.9285000096
1.0350000000000001e-07,25.676749984639997,1.817887508352,51.89725000768
1.04e-07,25.707999986559997,1.821012508544,51.81912500288
1.045e-07,25.692374985599997,1.81476250816,51.88162500672
1.05e-07,25.629874981759997,1.810075007872,51.9285000096
1.0550000000000001e-07,25.661124983679997,1.813200008064,51.91287500864
1.0600000000000001e-07,25.707999986559997,1.817887508352,51.8503750048
1.0650000000000001e-07,25.786124991359998,1.816325008256,51.81912500288
1.07e-07,25.786124991359998,1.81476250816,51.8503750048
1.075e-07,25.661124983679997,1.810075007872,51.94412501056
1.08e-07,25.56737497792,1.810075007872,51.94412501056
1.0850000000000001e-07,25.629874981759997,1.816325008256,51.8503750048
1.0900000000000001e-07,25.754874989439998,1.821012508544,51.77225
1.0950000000000001e-07,25.832999994239998,1.819450008448,51.75662499904
1.1e-07,25.786124991359998,1.81476250816,51.81912500288
1.105e-07,25.661124983679997,1.810075007872,51.89725000768
1.11e-07,25.614249980799997,1.808512507776,51.88162500672
1.1150000000000001e-07,25.661124983679997,1.811637507968,51.83475000384
1.1200000000000001e-07,25.739249988479997,1.81476250816,51.80350000192
1.1250000000000001e-07,25.770499990399998,1.813200008064,51.86600000576
1.13e-07,25.707999986559997,1.810075007872,51.94412501056
1.135e-07,25.645499982719997,1.813200008064,51.97537501248
1.14e-07,25.661124983679997,1.819450008448,51.94412501056
1.1450000000000001e-07,25.739249988479997,1.819450008448,51.88162500672
1.1500000000000001e-07,25.801749992319998,1.816325008256,51.88162500672
1.1550000000000001e-07,25.739249988479997,1.813200008064,51.91287500864
1.16e-07,25.645499982719997,1.813200008064,51.9285000096
1.165e-07,25.661124983679997,1.816325008256,51.86600000576
1.17e-07,25.770499990399998,1.817887508352,51.80350000192
1.1750000000000001e-07,25.879874997119998,1.821012508544,51.75662499904
1.1800000000000001e-07,25.848624995199998,1.817887508352,51.74099999808
1.1850000000000001e-07,25.692374985599997,1.813200008064,51.78787500096
1.1900000000000001e-07,25.629874981759997,1.813200008064,51.80350000192
1.195e-07,25.645499982719997,1.81476250816,51.81912500288
1.2000000000000002e-07,25.723624987519997,1.813200008064,51.81912500288
1.205e-07,25.754874989439998,1.81476250816,51.86600000576
1.21e-07,25.723624987519997,1.816325008256,51.89725000768
1.215e-07,25.676749984639997,1.81476250816,51.91287500864
1.22e-07,25.629874981759997,1.817887508352,51.91287500864
1.2250000000000002e-07,25.692374985599997,1.813200008064,51.88162500672
1.23e-07,25.770499990399998,1.810075007872,51.83475000384
1.2350000000000001e-07,25.786124991359998,1.80695000768,51.81912500288
1.24e-07,25.723624987519997,1.808512507776,51.81912500288
1.245e-07,25.739249988479997,1.813200008064,51.83475000384
1.2500000000000002e-07,25.801749992319998,1.81476250816,51.88162500672
1.255e-07,25.817374993279998,1.811637507968,51.86600000576
1.2600000000000002e-07,25.817374993279998,1.808512507776,51.83475000384
1.265e-07,25.754874989439998,1.80695000768,51.83475000384
1.27e-07,25.739249988479997,1.810075007872,51.8503750048
1.275e-07,25.707999986559997,1.813200008064,51.94412501056
1.28e-07,25.723624987519997,1.813200008064,51.9285000096
1.2850000000000002e-07,25.692374985599997,1.811637507968,51.91287500864
1.29e-07,25.676749984639997,1.80695000768,51.83475000384
1.2950000000000001e-07,25.707999986559997,1.808512507776,51.80350000192
1.3e-07,25.754874989439998,1.810075007872,51.81912500288
1.305e-07,25.801749992319998,1.808512507776,51.86600000576
1.31e-07,25.786124991359998,1.80695000768,51.86600000576
1.315e-07,25.723624987519997,1.805387507584,51.8503750048
1.3200000000000002e-07,25.676749984639997,1.80695000768,51.81912500288
1.325e-07,25.723624987519997,1.808512507776,51.83475000384
1.33e-07,25.770499990399998,1.803825007488,51.91287500864
1.335e-07,25.786124991359998,1.802262507392,51.94412501056
1.34e-07,25.770499990399998,1.800700007296,51.91287500864
1.3450000000000002e-07,25.723624987519997,1.802262507392,51.86600000576
1.35e-07,25.739249988479997,1.805387507584,51.83475000384
1.3550000000000002e-07,25.739249988479997,1.805387507584,51.86600000576
1.36e-07,25.770499990399998,1.805387507584,51.88162500672
1.365e-07,25.786124991359998,1.805387507584,51.88162500672
1.37e-07,25.786124991359998,1.80695000768,51.81912500288
1.375e-07,25.817374993279998,1.808512507776,51.77225
1.3800000000000002e-07,25.817374993279998,1.80695000768,51.78787500096
1.385e-07,25.770499990399998,1.802262507392,51.8503750048
1.3900000000000001e-07,25.707999986559997,1.7991375072,51.86600000576
1.395e-07,25.723624987519997,1.803825007488,51.8503750048
1.4e-07,25.739249988479997,1.80695000768,51.81912500288
1.4050000000000002e-07,25.786124991359998,1.808512507776,51.81912500288
1.41e-07,25.770499990399998,1.803825007488,51.8503750048
1.4150000000000002e-07,25.723624987519997,1.7991375072,51.89725000768
1.42e-07,25.692374985599997,1.7991375072,51.8503750048
1.425e-07,25.676749984639997,1.802262507392,51.78787500096
1.43e-07,25.707999986559997,1.805387507584,51.72537499712
1.435e-07,25.739249988479997,1.802262507392,51.74099999808
1.4400000000000002e-07,25.739249988479997,1.800700007296,51.75662499904
1.445e-07,25.723624987519997,1.800700007296,51.81912500288
1.4500000000000001e-07,25.754874989439998,1.800700007296,51.78787500096
1.455e-07,25.832999994239998,1.803825007488,51.75662499904
1.46e-07,25.817374993279998,1.803825007488,51.72537499712
1.4650000000000002e-07,25.770499990399998,1.797575007104,51.75662499904
1.47e-07,25.692374985599997,1.792887506816,51.81912500288
1.4750000000000002e-07,25.692374985599997,1.796012507008,51.86600000576
1.48e-07,25.723624987519997,1.7991375072,51.81912500288
1.485e-07,25.786124991359998,1.800700007296,51.72537499712
1.49e-07,25.801749992319998,1.797575007104,51.72537499712
1.495e-07,25.739249988479997,1.794450006912,51.74099999808
1.5000000000000002e-07,25.754874989439998,1.796012507008,51.74099999808
1.505e-07,25.801749992319998,1.797575007104,51.6941249952
1.5100000000000002e-07,25.832999994239998,1.7991375072,51.66287499328
1.515e-07,25.817374993279998,1.800700007296,51.67849999424
1.52e-07,25.770499990399998,1.796012507008,51.72537499712
1.5250000000000002e-07,25.723624987519997,1.792887506816,51.80350000192
1.53e-07,25.786124991359998,1.796012507008,51.80350000192
1.5350000000000002e-07,25.864249996159998,1.797575007104,51.72537499712
1.54e-07,25.817374993279998,1.797575007104,51.6941249952
1.5450000000000001e-07,25.739249988479997,1.794450006912,51.70974999616
1.55e-07,25.661124983679997,1.7913250067200002,51.75662499904
1.555e-07,25.692374985599997,1.796012507008,51.78787500096
1.5600000000000002e-07,25.786124991359998,1.7991375072,51.70974999616
1.565e-07,25.848624995199998,1.7991375072,51.6159999904
1.5700000000000002e-07,25.832999994239998,1.796012507008,51.6159999904
1.575e-07,25.739249988479997,1.796012507008,51.6941249952
1.58e-07,25.723624987519997,1.794450006912,51.70974999616
1.5850000000000002e-07,25.801749992319998,1.794450006912,51.64724999232
