Time (s),VIN,IIN,VOUT
0.0,26.168749984639998,1.811750005952,52.8068750048
5e-10,26.21562498752,1.814875006144,52.74437500096
1e-09,26.27812499136,1.81643750624,52.66624999616
1.5000000000000002e-09,26.2624999904,1.814875006144,52.68187499712
2e-09,26.21562498752,1.814875006144,52.68187499712
2.5e-09,26.24687498944,1.814875006144,52.68187499712
3.0000000000000004e-09,26.30937499328,1.819562506432,52.6506249952
3.5000000000000003e-09,26.32499999424,1.818000006336,52.58812499136
4e-09,26.29374999232,1.813312506048,52.6506249952
4.500000000000001e-09,26.21562498752,1.80862500576,52.74437500096
5e-09,26.184374985599998,1.80862500576,52.77562500288
5.5000000000000004e-09,26.27812499136,1.814875006144,52.76000000192
6.000000000000001e-09,26.32499999424,1.818000006336,52.69749999808
6.5e-09,26.23124998848,1.81643750624,52.68187499712
7.000000000000001e-09,26.137499982719998,1.813312506048,52.69749999808
7.500000000000001e-09,26.090624979839998,1.810187505856,52.74437500096
8e-09,26.168749984639998,1.813312506048,52.69749999808
8.5e-09,26.2624999904,1.818000006336,52.61937499328
9.000000000000001e-09,26.32499999424,1.81643750624,52.52562498752
9.5e-09,26.2624999904,1.811750005952,52.55687498944
1e-08,26.184374985599998,1.80862500576,52.63499999424
1.0500000000000001e-08,26.23124998848,1.810187505856,52.6506249952
1.1000000000000001e-08,26.30937499328,1.811750005952,52.58812499136
1.15e-08,26.40312499904,1.811750005952,52.55687498944
1.2000000000000002e-08,26.37187499712,1.805500005568,52.60374999232
1.2500000000000001e-08,26.27812499136,1.805500005568,52.72875
1.3e-08,26.21562498752,1.803937505472,52.76000000192
1.35e-08,26.2624999904,1.811750005952,52.69749999808
1.4000000000000001e-08,26.30937499328,1.814875006144,52.63499999424
1.45e-08,26.24687498944,1.81643750624,52.6506249952
1.5000000000000002e-08,26.153124983679998,1.80862500576,52.68187499712
1.55e-08,26.121874981759998,1.803937505472,52.72875
1.6e-08,26.21562498752,1.807062505664,52.71312499904
1.6500000000000002e-08,26.32499999424,1.811750005952,52.63499999424
1.7e-08,26.37187499712,1.813312506048,52.55687498944
1.75e-08,26.32499999424,1.80862500576,52.58812499136
1.8000000000000002e-08,26.24687498944,1.805500005568,52.6506249952
1.85e-08,26.29374999232,1.810187505856,52.68187499712
1.9e-08,26.38749999808,1.814875006144,52.6506249952
1.9500000000000003e-08,26.45000000192,1.813312506048,52.6506249952
2e-08,26.3406249952,1.80862500576,52.69749999808
2.05e-08,26.24687498944,1.803937505472,52.79125000384
2.1000000000000003e-08,26.21562498752,1.803937505472,52.77562500288
2.15e-08,26.30937499328,1.810187505856,52.69749999808
2.2000000000000002e-08,26.35624999616,1.813312506048,52.61937499328
2.2500000000000003e-08,26.30937499328,1.811750005952,52.58812499136
2.3e-08,26.21562498752,1.807062505664,52.60374999232
2.3500000000000002e-08,26.168749984639998,1.807062505664,52.6506249952
2.4000000000000003e-08,26.27812499136,1.810187505856,52.63499999424
2.45e-08,26.35624999616,1.813312506048,52.6506249952
2.5000000000000002e-08,26.38749999808,1.811750005952,52.66624999616
2.55e-08,26.3406249952,1.80862500576,52.74437500096
2.6e-08,26.199999986559998,1.802375005376,52.79125000384
2.6500000000000002e-08,26.153124983679998,1.803937505472,52.8068750048
2.7e-08,26.27812499136,1.810187505856,52.77562500288
2.75e-08,26.43437500096,1.810187505856,52.76000000192
2.8000000000000003e-08,26.43437500096,1.805500005568,52.76000000192
2.85e-08,26.30937499328,1.803937505472,52.82250000576
2.9e-08,26.23124998848,1.80862500576,52.79125000384
2.9500000000000003e-08,26.24687498944,1.813312506048,52.71312499904
3.0000000000000004e-08,26.27812499136,1.813312506048,52.66624999616
3.05e-08,26.32499999424,1.810187505856,52.6506249952
3.1e-08,26.32499999424,1.807062505664,52.66624999616
3.1500000000000004e-08,26.27812499136,1.803937505472,52.71312499904
3.2e-08,26.24687498944,1.807062505664,52.69749999808
3.25e-08,26.24687498944,1.80862500576,52.74437500096
3.3000000000000004e-08,26.24687498944,1.807062505664,52.72875
3.35e-08,26.184374985599998,1.803937505472,52.76000000192
3.4e-08,26.153124983679998,1.803937505472,52.77562500288
3.4500000000000005e-08,26.199999986559998,1.80862500576,52.77562500288
3.5e-08,26.24687498944,1.813312506048,52.77562500288
3.55e-08,26.2624999904,1.80862500576,52.8068750048
3.6000000000000005e-08,26.199999986559998,1.802375005376,52.8068750048
3.65e-08,26.168749984639998,1.805500005568,52.8068750048
3.7e-08,26.21562498752,1.811750005952,52.71312499904
3.7500000000000005e-08,26.32499999424,1.821125006528,52.66624999616
3.8e-08,26.3406249952,1.818000006336,52.66624999616
3.85e-08,26.32499999424,1.80862500576,52.74437500096
3.9000000000000005e-08,26.32499999424,1.807062505664,52.77562500288
3.95e-08,26.30937499328,1.80862500576,52.72875
4e-08,26.35624999616,1.813312506048,52.69749999808
4.0500000000000005e-08,26.32499999424,1.813312506048,52.77562500288
4.1e-08,26.184374985599998,1.80862500576,52.8850000096
4.15e-08,26.04374997696,1.80862500576,52.94750001344
4.2000000000000006e-08,26.07499997888,1.811750005952,52.90062501056
4.2500000000000003e-08,26.199999986559998,1.819562506432,52.77562500288
4.3e-08,26.27812499136,1.8242500067199998,52.72875
4.3500000000000006e-08,26.24687498944,1.819562506432,52.77562500288
4.4000000000000004e-08,26.090624979839998,1.810187505856,52.85375000768
4.45e-08,25.98124997312,1.810187505856,52.8850000096
4.5000000000000006e-08,26.106249980799998,1.814875006144,52.79125000384
4.5500000000000004e-08,26.3406249952,1.821125006528,52.6506249952
4.6e-08,26.40312499904,1.818000006336,52.6506249952
4.6500000000000006e-08,26.27812499136,1.811750005952,52.77562500288
4.7000000000000004e-08,26.106249980799998,1.80862500576,52.90062501056
4.75e-08,26.05937497792,1.810187505856,52.8850000096
4.8000000000000006e-08,26.184374985599998,1.81643750624,52.74437500096
4.8500000000000004e-08,26.30937499328,1.81643750624,52.69749999808
4.9e-08,26.32499999424,1.810187505856,52.76000000192
4.95e-08,26.21562498752,1.807062505664,52.90062501056
5.0000000000000004e-08,26.106249980799998,1.810187505856,52.90062501056
5.05e-08,26.106249980799998,1.819562506432,52.77562500288
5.1e-08,26.168749984639998,1.821125006528,52.69749999808
5.1500000000000005e-08,26.184374985599998,1.811750005952,52.71312499904
5.2e-08,26.137499982719998,1.805500005568,52.85375000768
5.25e-08,26.121874981759998,1.807062505664,52.9631250144
5.3000000000000005e-08,26.21562498752,1.814875006144,52.90062501056
5.35e-08,26.30937499328,1.8226875066239998,52.76000000192
5.4e-08,26.2624999904,1.818000006336,52.76000000192
5.4500000000000005e-08,26.137499982719998,1.810187505856,52.90062501056
5.5e-08,26.090624979839998,1.80862500576,52.99437501632
5.55e-08,26.153124983679998,1.814875006144,52.9631250144
5.6000000000000005e-08,26.32499999424,1.8242500067199998,52.79125000384
5.65e-08,26.32499999424,1.8258125068159998,52.72875
5.7e-08,26.184374985599998,1.819562506432,52.79125000384
5.7500000000000005e-08,26.04374997696,1.81643750624,52.91625001152
5.8e-08,26.04374997696,1.81643750624,52.90062501056
5.85e-08,26.184374985599998,1.821125006528,52.77562500288
5.9000000000000006e-08,26.2624999904,1.8226875066239998,52.68187499712
5.9500000000000003e-08,26.21562498752,1.814875006144,52.74437500096
6.000000000000001e-08,26.121874981759998,1.807062505664,52.90062501056
6.05e-08,26.090624979839998,1.811750005952,53.01000001728
6.1e-08,26.184374985599998,1.819562506432,52.93187501248
6.15e-08,26.27812499136,1.8273750069119998,52.83812500672
6.2e-08,26.24687498944,1.8226875066239998,52.85375000768
6.250000000000001e-08,26.121874981759998,1.813312506048,52.99437501632
6.300000000000001e-08,26.07499997888,1.813312506048,53.05687502016
6.35e-08,26.137499982719998,1.821125006528,52.97875001536
6.4e-08,26.24687498944,1.8289375070079998,52.82250000576
6.45e-08,26.21562498752,1.8258125068159998,52.76000000192
6.5e-08,26.121874981759998,1.819562506432,52.77562500288
6.55e-08,26.05937497792,1.81643750624,52.85375000768
6.600000000000001e-08,26.137499982719998,1.819562506432,52.79125000384
6.65e-08,26.27812499136,1.8273750069119998,52.69749999808
6.7e-08,26.27812499136,1.8273750069119998,52.71312499904
6.75e-08,26.184374985599998,1.819562506432,52.83812500672
6.8e-08,26.05937497792,1.814875006144,52.94750001344
6.85e-08,26.05937497792,1.821125006528,52.9631250144
6.900000000000001e-08,26.199999986559998,1.8258125068159998,52.8850000096
6.950000000000001e-08,26.32499999424,1.8289375070079998,52.8068750048
7e-08,26.23124998848,1.8226875066239998,52.85375000768
7.05e-08,26.04374997696,1.81643750624,52.9631250144
7.1e-08,25.96562497216,1.819562506432,52.94750001344
7.15e-08,26.090624979839998,1.8242500067199998,52.86937500864
7.200000000000001e-08,26.2624999904,1.8289375070079998,52.77562500288
7.250000000000001e-08,26.24687498944,1.8242500067199998,52.8068750048
7.3e-08,26.168749984639998,1.821125006528,52.86937500864
7.35e-08,26.106249980799998,1.8226875066239998,52.91625001152
7.4e-08,26.121874981759998,1.8258125068159998,52.85375000768
7.45e-08,26.21562498752,1.8305000071039998,52.77562500288
7.500000000000001e-08,26.199999986559998,1.8305000071039998,52.8068750048
7.550000000000001e-08,26.106249980799998,1.8226875066239998,52.91625001152
7.6e-08,26.028124976,1.819562506432,52.9631250144
7.65e-08,26.07499997888,1.8273750069119998,52.90062501056
7.7e-08,26.21562498752,1.8336250072959999,52.74437500096
7.75e-08,26.29374999232,1.8336250072959999,52.71312499904
7.800000000000001e-08,26.21562498752,1.8258125068159998,52.8068750048
7.850000000000001e-08,26.07499997888,1.821125006528,52.91625001152
7.9e-08,26.106249980799998,1.8242500067199998,52.90062501056
7.95e-08,26.23124998848,1.8305000071039998,52.79125000384
8e-08,26.32499999424,1.8351875073919999,52.72875
8.05e-08,26.23124998848,1.8305000071039998,52.82250000576
8.100000000000001e-08,26.05937497792,1.8273750069119998,52.90062501056
8.150000000000001e-08,25.9499999712,1.8289375070079998,52.93187501248
8.2e-08,26.04374997696,1.8367500074879999,52.85375000768
8.25e-08,26.21562498752,1.8367500074879999,52.77562500288
8.3e-08,26.24687498944,1.8320625071999999,52.8068750048
8.35e-08,26.168749984639998,1.8242500067199998,52.91625001152
8.400000000000001e-08,26.090624979839998,1.8242500067199998,52.9631250144
8.450000000000001e-08,26.121874981759998,1.8320625071999999,52.90062501056
8.500000000000001e-08,26.23124998848,1.8367500074879999,52.79125000384
8.55e-08,26.30937499328,1.8336250072959999,52.77562500288
8.6e-08,26.21562498752,1.8273750069119998,52.86937500864
8.65e-08,26.07499997888,1.8242500067199998,52.9631250144
8.700000000000001e-08,26.07499997888,1.8289375070079998,52.90062501056
8.750000000000001e-08,26.168749984639998,1.8367500074879999,52.79125000384
8.800000000000001e-08,26.24687498944,1.8383125075839999,52.72875
8.85e-08,26.199999986559998,1.8305000071039998,52.8068750048
8.9e-08,26.121874981759998,1.8273750069119998,52.86937500864
8.95e-08,26.121874981759998,1.8320625071999999,52.86937500864
9.000000000000001e-08,26.23124998848,1.8351875073919999,52.83812500672
9.050000000000001e-08,26.32499999424,1.8367500074879999,52.82250000576
9.100000000000001e-08,26.24687498944,1.8305000071039998,52.90062501056
9.15e-08,26.106249980799998,1.8258125068159998,52.99437501632
9.2e-08,26.04374997696,1.8289375070079998,52.99437501632
9.25e-08,26.121874981759998,1.8383125075839999,52.94750001344
9.300000000000001e-08,26.21562498752,1.844562507968,52.8850000096
9.350000000000001e-08,26.199999986559998,1.841437507776,52.86937500864
9.400000000000001e-08,26.106249980799998,1.8320625071999999,52.9631250144
9.45e-08,25.99687497408,1.8320625071999999,53.01000001728
9.5e-08,26.05937497792,1.83987500768,52.93187501248
9.55e-08,26.21562498752,1.844562507968,52.8068750048
9.600000000000001e-08,26.32499999424,1.83987500768,52.76000000192
9.650000000000001e-08,26.29374999232,1.8320625071999999,52.83812500672
9.700000000000001e-08,26.21562498752,1.8273750069119998,52.90062501056
9.75e-08,26.199999986559998,1.8289375070079998,52.90062501056
9.8e-08,26.24687498944,1.8336250072959999,52.85375000768
9.85e-08,26.29374999232,1.8367500074879999,52.82250000576
9.9e-08,26.29374999232,1.8320625071999999,52.90062501056
9.950000000000001e-08,26.184374985599998,1.8289375070079998,52.94750001344
1.0000000000000001e-07,26.121874981759998,1.8320625071999999,52.9631250144
1.005e-07,26.121874981759998,1.8383125075839999,52.93187501248
1.01e-07,26.168749984639998,1.8367500074879999,52.86937500864
1.015e-07,26.153124983679998,1.8305000071039998,52.86937500864
1.02e-07,26.106249980799998,1.8258125068159998,52.91625001152
1.0250000000000001e-07,26.106249980799998,1.8273750069119998,52.93187501248
1.0300000000000001e-07,26.168749984639998,1.8351875073919999,52.86937500864
1.0350000000000001e-07,26.199999986559998,1.8351875073919999,52.8068750048
1.04e-07,26.23124998848,1.8351875073919999,52.79125000384
1.045e-07,26.168749984639998,1.8289375070079998,52.8850000096
1.05e-07,26.090624979839998,1.8273750069119998,52.90062501056
1.0550000000000001e-07,26.137499982719998,1.8320625071999999,52.86937500864
1.0600000000000001e-07,26.23124998848,1.8351875073919999,52.79125000384
1.0650000000000001e-07,26.27812499136,1.8383125075839999,52.77562500288
1.07e-07,26.199999986559998,1.8351875073919999,52.83812500672
1.075e-07,26.106249980799998,1.8305000071039998,52.91625001152
1.08e-07,26.090624979839998,1.8305000071039998,52.85375000768
1.0850000000000001e-07,26.184374985599998,1.8367500074879999,52.76000000192
1.0900000000000001e-07,26.29374999232,1.8367500074879999,52.66624999616
1.0950000000000001e-07,26.32499999424,1.8320625071999999,52.71312499904
1.1e-07,26.23124998848,1.8289375070079998,52.83812500672
1.105e-07,26.121874981759998,1.8305000071039998,52.90062501056
1.11e-07,26.106249980799998,1.8351875073919999,52.8068750048
1.1150000000000001e-07,26.168749984639998,1.8336250072959999,52.76000000192
1.1200000000000001e-07,26.23124998848,1.8320625071999999,52.77562500288
1.1250000000000001e-07,26.21562498752,1.8289375070079998,52.8850000096
1.13e-07,26.168749984639998,1.8258125068159998,52.93187501248
1.135e-07,26.137499982719998,1.8305000071039998,52.91625001152
1.14e-07,26.199999986559998,1.8351875073919999,52.85375000768
1.1450000000000001e-07,26.27812499136,1.8383125075839999,52.8068750048
1.1500000000000001e-07,26.2624999904,1.8351875073919999,52.83812500672
1.1550000000000001e-07,26.199999986559998,1.8320625071999999,52.85375000768
1.16e-07,26.137499982719998,1.8320625071999999,52.82250000576
1.165e-07,26.199999986559998,1.8351875073919999,52.79125000384
1.17e-07,26.30937499328,1.8383125075839999,52.72875
1.1750000000000001e-07,26.3406249952,1.8351875073919999,52.69749999808
1.1800000000000001e-07,26.2624999904,1.8289375070079998,52.74437500096
1.1850000000000001e-07,26.153124983679998,1.8289375070079998,52.77562500288
1.1900000000000001e-07,26.137499982719998,1.8351875073919999,52.76000000192
1.195e-07,26.168749984639998,1.8351875073919999,52.79125000384
1.2000000000000002e-07,26.23124998848,1.8320625071999999,52.8068750048
1.205e-07,26.21562498752,1.8289375070079998,52.86937500864
1.21e-07,26.153124983679998,1.8320625071999999,52.86937500864
1.215e-07,26.137499982719998,1.8351875073919999,52.86937500864
1.22e-07,26.168749984639998,1.8351875073919999,52.85375000768
1.2250000000000002e-07,26.21562498752,1.8320625071999999,52.82250000576
1.23e-07,26.2624999904,1.8273750069119998,52.8068750048
1.2350000000000001e-07,26.24687498944,1.8258125068159998,52.77562500288
1.24e-07,26.199999986559998,1.8289375070079998,52.74437500096
1.245e-07,26.24687498944,1.8320625071999999,52.82250000576
1.2500000000000002e-07,26.29374999232,1.8305000071039998,52.83812500672
1.255e-07,26.27812499136,1.8273750069119998,52.83812500672
1.2600000000000002e-07,26.23124998848,1.8242500067199998,52.82250000576
1.265e-07,26.199999986559998,1.8242500067199998,52.8068750048
1.27e-07,26.21562498752,1.8305000071039998,52.82250000576
1.275e-07,26.21562498752,1.8305000071039998,52.86937500864
1.28e-07,26.199999986559998,1.8305000071039998,52.86937500864
1.2850000000000002e-07,26.137499982719998,1.8289375070079998,52.85375000768
1.29e-07,26.137499982719998,1.8273750069119998,52.76000000192
1.2950000000000001e-07,26.199999986559998,1.8305000071039998,52.72875
1.3e-07,26.27812499136,1.8289375070079998,52.74437500096
1.305e-07,26.29374999232,1.8226875066239998,52.8068750048
1.31e-07,26.23124998848,1.8226875066239998,52.83812500672
1.315e-07,26.184374985599998,1.8226875066239998,52.79125000384
1.3200000000000002e-07,26.184374985599998,1.8226875066239998,52.76000000192
1.325e-07,26.2624999904,1.8258125068159998,52.83812500672
1.33e-07,26.27812499136,1.8258125068159998,52.90062501056
1.335e-07,26.2624999904,1.821125006528,52.90062501056
1.34e-07,26.23124998848,1.821125006528,52.83812500672
1.3450000000000002e-07,26.21562498752,1.8242500067199998,52.79125000384
1.35e-07,26.2624999904,1.8258125068159998,52.77562500288
1.3550000000000002e-07,26.2624999904,1.821125006528,52.8068750048
1.36e-07,26.2624999904,1.81643750624,52.82250000576
1.365e-07,26.24687498944,1.818000006336,52.82250000576
1.37e-07,26.27812499136,1.8226875066239998,52.74437500096
1.375e-07,26.32499999424,1.8258125068159998,52.72875
1.3800000000000002e-07,26.32499999424,1.8226875066239998,52.76000000192
1.385e-07,26.27812499136,1.818000006336,52.83812500672
1.3900000000000001e-07,26.199999986559998,1.814875006144,52.85375000768
1.395e-07,26.184374985599998,1.81643750624,52.8068750048
1.4e-07,26.24687498944,1.819562506432,52.76000000192
1.4050000000000002e-07,26.27812499136,1.8226875066239998,52.8068750048
1.41e-07,26.23124998848,1.818000006336,52.83812500672
1.4150000000000002e-07,26.199999986559998,1.81643750624,52.83812500672
1.42e-07,26.168749984639998,1.818000006336,52.79125000384
1.425e-07,26.184374985599998,1.821125006528,52.72875
1.43e-07,26.24687498944,1.821125006528,52.66624999616
1.435e-07,26.2624999904,1.818000006336,52.69749999808
1.4400000000000002e-07,26.23124998848,1.81643750624,52.72875
1.445e-07,26.184374985599998,1.819562506432,52.77562500288
1.4500000000000001e-07,26.2624999904,1.8226875066239998,52.72875
1.455e-07,26.32499999424,1.821125006528,52.69749999808
1.46e-07,26.29374999232,1.814875006144,52.66624999616
1.4650000000000002e-07,26.21562498752,1.80862500576,52.74437500096
1.47e-07,26.168749984639998,1.810187505856,52.82250000576
1.4750000000000002e-07,26.168749984639998,1.813312506048,52.79125000384
1.48e-07,26.23124998848,1.81643750624,52.69749999808
1.485e-07,26.30937499328,1.818000006336,52.66624999616
1.49e-07,26.2624999904,1.810187505856,52.66624999616
1.495e-07,26.21562498752,1.810187505856,52.6506249952
1.5000000000000002e-07,26.24687498944,1.811750005952,52.66624999616
1.505e-07,26.29374999232,1.813312506048,52.63499999424
1.5100000000000002e-07,26.35624999616,1.818000006336,52.60374999232
1.515e-07,26.29374999232,1.813312506048,52.6506249952
1.52e-07,26.21562498752,1.810187505856,52.72875
1.5250000000000002e-07,26.184374985599998,1.810187505856,52.79125000384
1.53e-07,26.27812499136,1.814875006144,52.74437500096
1.5350000000000002e-07,26.3406249952,1.814875006144,52.68187499712
1.54e-07,26.2624999904,1.811750005952,52.66624999616
1.5450000000000001e-07,26.168749984639998,1.810187505856,52.71312499904
1.55e-07,26.106249980799998,1.80862500576,52.76000000192
1.555e-07,26.184374985599998,1.811750005952,52.71312499904
1.5600000000000002e-07,26.30937499328,1.81643750624,52.58812499136
1.565e-07,26.35624999616,1.814875006144,52.54124998848
1.5700000000000002e-07,26.27812499136,1.810187505856,52.5724999904
1.575e-07,26.199999986559998,1.810187505856,52.63499999424
1.58e-07,26.21562498752,1.810187505856,52.6506249952
1.5850000000000002e-07,26.3406249952,1.813312506048,52.58812499136
1.59e-07,26.43437500096,1.814875006144,52.55687498944
1.5950000000000002e-07,26.40312499904,1.80862500576,52.60374999232
1.6e-07,26.29374999232,1.805500005568,52.72875
1.6050000000000001e-07,26.23124998848,1.80862500576,52.79125000384
1.61e-07,26.29374999232,1.811750005952,52.71312499904
