Time (s),VIN,IIN,VOUT
0.0,27.1598749856,1.878625005952,54.71025000192
5e-10,27.2379999904,1.878625005952,54.61649999616
1e-09,27.28487499328,1.877062505856,54.5227499904
1.5000000000000002e-09,27.2379999904,1.87550000576,54.56962499328
2e-09,27.20674998848,1.87550000576,54.6008749952
2.5e-09,27.28487499328,1.878625005952,54.56962499328
3.0000000000000004e-09,27.34737499712,1.878625005952,54.53837499136
3.5000000000000003e-09,27.34737499712,1.877062505856,54.55399999232
4e-09,27.25362499136,1.877062505856,54.66337499904
4.500000000000001e-09,27.1598749856,1.87550000576,54.72587500288
5e-09,27.19112498752,1.881750006144,54.74150000384
5.5000000000000004e-09,27.26924999232,1.884875006336,54.66337499904
6.000000000000001e-09,27.30049999424,1.881750006144,54.61649999616
6.5e-09,27.19112498752,1.877062505856,54.63212499712
7.000000000000001e-09,27.081749980799998,1.870812505472,54.679
7.500000000000001e-09,27.066124979839998,1.873937505664,54.64774999808
8e-09,27.20674998848,1.881750006144,54.58524999424
8.5e-09,27.3161249952,1.880187506048,54.46024998656
9.000000000000001e-09,27.3161249952,1.87550000576,54.42899998464
9.5e-09,27.2379999904,1.873937505664,54.50712498944
1e-08,27.20674998848,1.872375005568,54.6008749952
1.0500000000000001e-08,27.28487499328,1.873937505664,54.55399999232
1.1000000000000001e-08,27.37862499904,1.873937505664,54.50712498944
1.15e-08,27.39425,1.869250005376,54.53837499136
1.2000000000000002e-08,27.30049999424,1.864562505088,54.64774999808
1.2500000000000001e-08,27.20674998848,1.866125005184,54.69462500096
1.3e-08,27.19112498752,1.872375005568,54.71025000192
1.35e-08,27.22237498944,1.877062505856,54.61649999616
1.4000000000000001e-08,27.25362499136,1.877062505856,54.56962499328
1.45e-08,27.17549998656,1.873937505664,54.6008749952
1.5000000000000002e-08,27.066124979839998,1.870812505472,54.64774999808
1.55e-08,27.112999982719998,1.870812505472,54.63212499712
1.6e-08,27.28487499328,1.873937505664,54.58524999424
1.6500000000000002e-08,27.37862499904,1.877062505856,54.49149998848
1.7e-08,27.37862499904,1.872375005568,54.47587498752
1.75e-08,27.3161249952,1.86768750528,54.56962499328
1.8000000000000002e-08,27.25362499136,1.870812505472,54.66337499904
1.85e-08,27.33174999616,1.87550000576,54.63212499712
1.9e-08,27.44112500288,1.87550000576,54.61649999616
1.9500000000000003e-08,27.40987500096,1.870812505472,54.63212499712
2e-08,27.2379999904,1.86768750528,54.72587500288
2.05e-08,27.14424998464,1.869250005376,54.72587500288
2.1000000000000003e-08,27.20674998848,1.873937505664,54.66337499904
2.15e-08,27.30049999424,1.878625005952,54.53837499136
2.2000000000000002e-08,27.34737499712,1.878625005952,54.47587498752
2.2500000000000003e-08,27.2379999904,1.87550000576,54.49149998848
2.3e-08,27.1598749856,1.872375005568,54.53837499136
2.3500000000000002e-08,27.19112498752,1.87550000576,54.55399999232
2.4000000000000003e-08,27.3161249952,1.880187506048,54.55399999232
2.45e-08,27.39425,1.87550000576,54.56962499328
2.5000000000000002e-08,27.36299999808,1.870812505472,54.64774999808
2.55e-08,27.26924999232,1.866125005184,54.74150000384
2.6e-08,27.128624983679998,1.86768750528,54.78837500672
2.6500000000000002e-08,27.14424998464,1.873937505664,54.74150000384
2.7e-08,27.28487499328,1.87550000576,54.69462500096
2.75e-08,27.39425,1.873937505664,54.69462500096
2.8000000000000003e-08,27.30049999424,1.86768750528,54.71025000192
2.85e-08,27.22237498944,1.869250005376,54.71025000192
2.9e-08,27.20674998848,1.878625005952,54.66337499904
2.9500000000000003e-08,27.22237498944,1.880187506048,54.58524999424
3.0000000000000004e-08,27.28487499328,1.87550000576,54.53837499136
3.05e-08,27.26924999232,1.869250005376,54.56962499328
3.1e-08,27.28487499328,1.86768750528,54.6008749952
3.1500000000000004e-08,27.26924999232,1.872375005568,54.61649999616
3.2e-08,27.26924999232,1.877062505856,54.679
3.25e-08,27.25362499136,1.87550000576,54.71025000192
3.3000000000000004e-08,27.19112498752,1.86768750528,54.74150000384
3.35e-08,27.097374981759998,1.866125005184,54.7571250048
3.4e-08,27.066124979839998,1.86768750528,54.7571250048
3.4500000000000005e-08,27.1598749856,1.873937505664,54.71025000192
3.5e-08,27.20674998848,1.877062505856,54.72587500288
3.55e-08,27.19112498752,1.872375005568,54.72587500288
3.6000000000000005e-08,27.128624983679998,1.866125005184,54.71025000192
3.65e-08,27.14424998464,1.869250005376,54.64774999808
3.7e-08,27.28487499328,1.880187506048,54.56962499328
3.7500000000000005e-08,27.39425,1.884875006336,54.53837499136
3.8e-08,27.36299999808,1.877062505856,54.58524999424
3.85e-08,27.28487499328,1.86768750528,54.679
3.9000000000000005e-08,27.26924999232,1.863000004992,54.72587500288
3.95e-08,27.33174999616,1.872375005568,54.679
4e-08,27.37862499904,1.881750006144,54.69462500096
4.0500000000000005e-08,27.3161249952,1.880187506048,54.7571250048
4.1e-08,27.081749980799998,1.872375005568,54.86650001152
4.15e-08,26.97237497408,1.870812505472,54.92900001536
4.2000000000000006e-08,27.050499978879998,1.877062505856,54.81962500864
4.2500000000000003e-08,27.22237498944,1.886437506432,54.64774999808
4.3e-08,27.30049999424,1.884875006336,54.61649999616
4.3500000000000006e-08,27.17549998656,1.877062505856,54.69462500096
4.4000000000000004e-08,27.003624976,1.86768750528,54.78837500672
4.45e-08,26.98799997504,1.869250005376,54.74150000384
4.5000000000000006e-08,27.22237498944,1.878625005952,54.64774999808
4.5500000000000004e-08,27.42550000192,1.880187506048,54.53837499136
4.6e-08,27.40987500096,1.877062505856,54.6008749952
4.6500000000000006e-08,27.20674998848,1.869250005376,54.78837500672
4.7000000000000004e-08,27.081749980799998,1.86768750528,54.89775001344
4.75e-08,27.097374981759998,1.877062505856,54.80400000768
4.8000000000000006e-08,27.22237498944,1.884875006336,54.69462500096
4.8500000000000004e-08,27.26924999232,1.877062505856,54.66337499904
4.9e-08,27.22237498944,1.872375005568,54.77275000576
4.95e-08,27.112999982719998,1.872375005568,54.8352500096
5.0000000000000004e-08,27.097374981759998,1.881750006144,54.7571250048
5.05e-08,27.14424998464,1.884875006336,54.61649999616
5.1e-08,27.1598749856,1.880187506048,54.58524999424
5.1500000000000005e-08,27.112999982719998,1.870812505472,54.679
5.2e-08,27.081749980799998,1.864562505088,54.86650001152
5.25e-08,27.128624983679998,1.870812505472,54.88212501248
5.3000000000000005e-08,27.28487499328,1.886437506432,54.77275000576
5.35e-08,27.3161249952,1.886437506432,54.69462500096
5.4e-08,27.22237498944,1.878625005952,54.7571250048
5.4500000000000005e-08,27.050499978879998,1.872375005568,54.9133750144
5.5e-08,27.050499978879998,1.873937505664,54.96025001728
5.55e-08,27.20674998848,1.881750006144,54.81962500864
5.6000000000000005e-08,27.33174999616,1.888000006528,54.679
5.65e-08,27.26924999232,1.886437506432,54.63212499712
5.7e-08,27.081749980799998,1.881750006144,54.74150000384
5.7500000000000005e-08,26.97237497408,1.880187506048,54.8352500096
5.8e-08,27.066124979839998,1.88331250624,54.7571250048
5.85e-08,27.2379999904,1.886437506432,54.61649999616
5.9000000000000006e-08,27.26924999232,1.881750006144,54.58524999424
5.9500000000000003e-08,27.1598749856,1.87550000576,54.74150000384
6.000000000000001e-08,27.066124979839998,1.870812505472,54.94462501632
6.05e-08,27.097374981759998,1.87550000576,54.94462501632
6.1e-08,27.2379999904,1.884875006336,54.85087501056
6.15e-08,27.2379999904,1.88331250624,54.78837500672
6.2e-08,27.1598749856,1.87550000576,54.85087501056
6.250000000000001e-08,27.03487497792,1.872375005568,54.975875018240004
6.300000000000001e-08,27.050499978879998,1.87550000576,54.94462501632
6.35e-08,27.17549998656,1.881750006144,54.81962500864
6.4e-08,27.26924999232,1.886437506432,54.71025000192
6.45e-08,27.1598749856,1.881750006144,54.71025000192
6.5e-08,27.01924997696,1.880187506048,54.7571250048
6.55e-08,27.03487497792,1.88331250624,54.7571250048
6.600000000000001e-08,27.20674998848,1.8911250067199998,54.679
6.65e-08,27.3161249952,1.8942500069119999,54.61649999616
6.7e-08,27.2379999904,1.886437506432,54.71025000192
6.75e-08,27.050499978879998,1.87550000576,54.88212501248
6.8e-08,26.97237497408,1.87550000576,54.975875018240004
6.85e-08,27.066124979839998,1.884875006336,54.88212501248
6.900000000000001e-08,27.2379999904,1.8926875068159998,54.78837500672
6.950000000000001e-08,27.2379999904,1.8895625066239998,54.77275000576
7e-08,27.112999982719998,1.881750006144,54.85087501056
7.05e-08,26.94112497216,1.877062505856,54.92900001536
7.1e-08,26.98799997504,1.88331250624,54.8352500096
7.15e-08,27.17549998656,1.8911250067199998,54.679
7.200000000000001e-08,27.25362499136,1.8895625066239998,54.679
7.250000000000001e-08,27.19112498752,1.88331250624,54.74150000384
7.3e-08,27.097374981759998,1.880187506048,54.85087501056
7.35e-08,27.050499978879998,1.881750006144,54.86650001152
7.4e-08,27.128624983679998,1.8926875068159998,54.77275000576
7.45e-08,27.19112498752,1.8926875068159998,54.72587500288
7.500000000000001e-08,27.112999982719998,1.884875006336,54.8352500096
7.550000000000001e-08,26.97237497408,1.878625005952,54.9133750144
7.6e-08,26.97237497408,1.881750006144,54.92900001536
7.65e-08,27.097374981759998,1.8911250067199998,54.7571250048
7.7e-08,27.2379999904,1.8973750071039999,54.679
7.75e-08,27.22237498944,1.8926875068159998,54.69462500096
7.800000000000001e-08,27.112999982719998,1.884875006336,54.8352500096
7.850000000000001e-08,27.01924997696,1.88331250624,54.86650001152
7.9e-08,27.128624983679998,1.8895625066239998,54.7571250048
7.95e-08,27.30049999424,1.8958125070079999,54.63212499712
8e-08,27.30049999424,1.8942500069119999,54.679
8.05e-08,27.128624983679998,1.886437506432,54.80400000768
8.100000000000001e-08,26.9254999712,1.88331250624,54.88212501248
8.150000000000001e-08,26.9254999712,1.8895625066239998,54.88212501248
8.2e-08,27.081749980799998,1.8958125070079999,54.78837500672
8.25e-08,27.22237498944,1.8926875068159998,54.72587500288
8.3e-08,27.1598749856,1.88331250624,54.80400000768
8.35e-08,27.066124979839998,1.881750006144,54.9133750144
8.400000000000001e-08,27.03487497792,1.888000006528,54.89775001344
8.450000000000001e-08,27.128624983679998,1.8973750071039999,54.77275000576
8.500000000000001e-08,27.25362499136,1.9005000072959999,54.71025000192
8.55e-08,27.22237498944,1.8926875068159998,54.77275000576
8.6e-08,27.097374981759998,1.886437506432,54.86650001152
8.65e-08,27.003624976,1.886437506432,54.88212501248
8.700000000000001e-08,27.112999982719998,1.8942500069119999,54.7571250048
8.750000000000001e-08,27.20674998848,1.902062507392,54.64774999808
8.800000000000001e-08,27.2379999904,1.8958125070079999,54.69462500096
8.85e-08,27.128624983679998,1.888000006528,54.80400000768
8.9e-08,27.066124979839998,1.8895625066239998,54.85087501056
8.95e-08,27.14424998464,1.8973750071039999,54.81962500864
9.000000000000001e-08,27.26924999232,1.903625007488,54.7571250048
9.050000000000001e-08,27.28487499328,1.9005000072959999,54.77275000576
9.100000000000001e-08,27.128624983679998,1.8895625066239998,54.88212501248
9.15e-08,26.98799997504,1.888000006528,54.96025001728
9.2e-08,26.98799997504,1.8942500069119999,54.94462501632
9.25e-08,27.112999982719998,1.9005000072959999,54.80400000768
9.300000000000001e-08,27.19112498752,1.9005000072959999,54.78837500672
9.350000000000001e-08,27.097374981759998,1.8942500069119999,54.85087501056
9.400000000000001e-08,26.95674997312,1.8895625066239998,54.9133750144
9.45e-08,26.9254999712,1.8958125070079999,54.89775001344
9.5e-08,27.097374981759998,1.9005000072959999,54.77275000576
9.55e-08,27.26924999232,1.9005000072959999,54.679
9.600000000000001e-08,27.3161249952,1.8973750071039999,54.74150000384
9.650000000000001e-08,27.20674998848,1.8926875068159998,54.81962500864
9.700000000000001e-08,27.1598749856,1.8942500069119999,54.86650001152
9.75e-08,27.19112498752,1.8958125070079999,54.8352500096
9.8e-08,27.25362499136,1.8973750071039999,54.78837500672
9.85e-08,27.26924999232,1.8926875068159998,54.78837500672
9.9e-08,27.17549998656,1.884875006336,54.86650001152
9.950000000000001e-08,27.112999982719998,1.886437506432,54.9133750144
1.0000000000000001e-07,27.097374981759998,1.8973750071039999,54.88212501248
1.005e-07,27.1598749856,1.902062507392,54.78837500672
1.01e-07,27.1598749856,1.8989375071999999,54.78837500672
1.015e-07,27.081749980799998,1.8926875068159998,54.81962500864
1.02e-07,27.03487497792,1.8895625066239998,54.85087501056
1.0250000000000001e-07,27.081749980799998,1.8973750071039999,54.85087501056
1.0300000000000001e-07,27.19112498752,1.9005000072959999,54.77275000576
1.0350000000000001e-07,27.22237498944,1.8973750071039999,54.74150000384
1.04e-07,27.17549998656,1.8942500069119999,54.80400000768
1.045e-07,27.097374981759998,1.8911250067199998,54.86650001152
1.05e-07,27.081749980799998,1.8942500069119999,54.85087501056
1.0550000000000001e-07,27.17549998656,1.8973750071039999,54.78837500672
1.0600000000000001e-07,27.25362499136,1.9005000072959999,54.72587500288
1.0650000000000001e-07,27.25362499136,1.8989375071999999,54.72587500288
1.07e-07,27.14424998464,1.8942500069119999,54.80400000768
1.075e-07,27.050499978879998,1.8926875068159998,54.81962500864
1.08e-07,27.097374981759998,1.8958125070079999,54.74150000384
1.0850000000000001e-07,27.20674998848,1.9005000072959999,54.63212499712
1.0900000000000001e-07,27.28487499328,1.8973750071039999,54.61649999616
1.0950000000000001e-07,27.22237498944,1.8895625066239998,54.71025000192
1.1e-07,27.128624983679998,1.886437506432,54.81962500864
1.105e-07,27.066124979839998,1.8911250067199998,54.8352500096
1.11e-07,27.112999982719998,1.8926875068159998,54.74150000384
1.1150000000000001e-07,27.17549998656,1.8942500069119999,54.71025000192
1.1200000000000001e-07,27.19112498752,1.8911250067199998,54.80400000768
1.1250000000000001e-07,27.128624983679998,1.886437506432,54.88212501248
1.13e-07,27.097374981759998,1.8895625066239998,54.86650001152
1.135e-07,27.14424998464,1.8942500069119999,54.81962500864
1.14e-07,27.22237498944,1.8973750071039999,54.7571250048
1.1450000000000001e-07,27.28487499328,1.8942500069119999,54.7571250048
1.1500000000000001e-07,27.2379999904,1.8895625066239998,54.80400000768
1.1550000000000001e-07,27.17549998656,1.8911250067199998,54.78837500672
1.16e-07,27.14424998464,1.8942500069119999,54.74150000384
1.165e-07,27.22237498944,1.8958125070079999,54.679
1.17e-07,27.3161249952,1.8942500069119999,54.679
1.1750000000000001e-07,27.25362499136,1.8911250067199998,54.72587500288
1.1800000000000001e-07,27.1598749856,1.8895625066239998,54.7571250048
1.1850000000000001e-07,27.081749980799998,1.8942500069119999,54.72587500288
1.1900000000000001e-07,27.128624983679998,1.8942500069119999,54.71025000192
1.195e-07,27.19112498752,1.8911250067199998,54.74150000384
1.2000000000000002e-07,27.20674998848,1.8895625066239998,54.80400000768
1.205e-07,27.1598749856,1.8926875068159998,54.78837500672
1.21e-07,27.14424998464,1.8942500069119999,54.77275000576
1.215e-07,27.17549998656,1.8942500069119999,54.7571250048
1.22e-07,27.19112498752,1.8926875068159998,54.7571250048
1.2250000000000002e-07,27.25362499136,1.888000006528,54.7571250048
1.23e-07,27.22237498944,1.884875006336,54.7571250048
1.2350000000000001e-07,27.19112498752,1.88331250624,54.69462500096
1.24e-07,27.19112498752,1.8926875068159998,54.72587500288
1.245e-07,27.25362499136,1.8942500069119999,54.7571250048
1.2500000000000002e-07,27.25362499136,1.8911250067199998,54.85087501056
1.255e-07,27.22237498944,1.888000006528,54.81962500864
1.2600000000000002e-07,27.22237498944,1.8895625066239998,54.77275000576
1.265e-07,27.20674998848,1.8958125070079999,54.74150000384
1.27e-07,27.2379999904,1.8973750071039999,54.7571250048
1.275e-07,27.20674998848,1.8942500069119999,54.80400000768
1.28e-07,27.14424998464,1.8895625066239998,54.80400000768
1.2850000000000002e-07,27.128624983679998,1.888000006528,54.74150000384
1.29e-07,27.17549998656,1.8895625066239998,54.66337499904
1.2950000000000001e-07,27.26924999232,1.8895625066239998,54.679
1.3e-07,27.30049999424,1.888000006528,54.72587500288
1.305e-07,27.26924999232,1.884875006336,54.80400000768
1.31e-07,27.1598749856,1.88331250624,54.78837500672
1.315e-07,27.128624983679998,1.884875006336,54.74150000384
1.3200000000000002e-07,27.17549998656,1.888000006528,54.7571250048
1.325e-07,27.2379999904,1.886437506432,54.80400000768
1.33e-07,27.25362499136,1.881750006144,54.85087501056
1.335e-07,27.22237498944,1.880187506048,54.81962500864
1.34e-07,27.22237498944,1.880187506048,54.7571250048
1.3450000000000002e-07,27.22237498944,1.886437506432,54.71025000192
1.35e-07,27.28487499328,1.88331250624,54.71025000192
1.3550000000000002e-07,27.28487499328,1.877062505856,54.7571250048
1.36e-07,27.26924999232,1.878625005952,54.78837500672
1.365e-07,27.25362499136,1.881750006144,54.72587500288
1.37e-07,27.30049999424,1.886437506432,54.69462500096
1.375e-07,27.33174999616,1.886437506432,54.72587500288
1.3800000000000002e-07,27.28487499328,1.881750006144,54.78837500672
1.385e-07,27.20674998848,1.878625005952,54.81962500864
1.3900000000000001e-07,27.14424998464,1.878625005952,54.81962500864
1.395e-07,27.20674998848,1.881750006144,54.7571250048
1.4e-07,27.26924999232,1.884875006336,54.74150000384
1.4050000000000002e-07,27.28487499328,1.881750006144,54.72587500288
1.41e-07,27.22237498944,1.878625005952,54.77275000576
1.4150000000000002e-07,27.14424998464,1.877062505856,54.74150000384
1.42e-07,27.17549998656,1.880187506048,54.66337499904
1.425e-07,27.22237498944,1.884875006336,54.6008749952
1.43e-07,27.28487499328,1.878625005952,54.58524999424
1.435e-07,27.28487499328,1.87550000576,54.61649999616
1.4400000000000002e-07,27.22237498944,1.877062505856,54.72587500288
1.445e-07,27.19112498752,1.880187506048,54.72587500288
1.4500000000000001e-07,27.28487499328,1.886437506432,54.69462500096
1.455e-07,27.3161249952,1.884875006336,54.679
1.46e-07,27.25362499136,1.878625005952,54.69462500096
1.4650000000000002e-07,27.17549998656,1.872375005568,54.74150000384
1.47e-07,27.1598749856,1.873937505664,54.7571250048
1.4750000000000002e-07,27.19112498752,1.877062505856,54.69462500096
1.48e-07,27.2379999904,1.878625005952,54.61649999616
1.485e-07,27.30049999424,1.877062505856,54.55399999232
1.49e-07,27.2379999904,1.873937505664,54.58524999424
1.495e-07,27.22237498944,1.870812505472,54.6008749952
1.5000000000000002e-07,27.30049999424,1.873937505664,54.56962499328
1.505e-07,27.36299999808,1.87550000576,54.53837499136
1.5100000000000002e-07,27.34737499712,1.873937505664,54.56962499328
1.515e-07,27.26924999232,1.870812505472,54.64774999808
1.52e-07,27.17549998656,1.869250005376,54.7571250048
1.5250000000000002e-07,27.19112498752,1.873937505664,54.7571250048
1.53e-07,27.30049999424,1.878625005952,54.679
1.5350000000000002e-07,27.3161249952,1.880187506048,54.61649999616
1.54e-07,27.20674998848,1.87550000576,54.66337499904
1.5450000000000001e-07,27.097374981759998,1.872375005568,54.679
1.55e-07,27.112999982719998,1.870812505472,54.66337499904
1.555e-07,27.2379999904,1.877062505856,54.55399999232
1.5600000000000002e-07,27.34737499712,1.881750006144,54.47587498752
1.565e-07,27.34737499712,1.880187506048,54.4446249856
1.5700000000000002e-07,27.26924999232,1.873937505664,54.50712498944
1.575e-07,27.20674998848,1.87550000576,54.56962499328
1.58e-07,27.30049999424,1.87550000576,54.55399999232
1.5850000000000002e-07,27.39425,1.877062505856,54.5227499904
1.59e-07,27.42550000192,1.873937505664,54.53837499136
1.5950000000000002e-07,27.34737499712,1.870812505472,54.63212499712
1.6e-07,27.22237498944,1.866125005184,54.72587500288
1.6050000000000001e-07,27.19112498752,1.86768750528,54.71025000192
1.61e-07,27.2379999904,1.873937505664,54.61649999616
1.615e-07,27.25362499136,1.87550000576,54.58524999424
1.6200000000000002e-07,27.17549998656,1.872375005568,54.6008749952
1.625e-07,27.097374981759998,1.870812505472,54.63212499712
1.6300000000000002e-07,27.112999982719998,1.872375005568,54.63212499712
1.635e-07,27.28487499328,1.87550000576,54.55399999232
1.64e-07,27.39425,1.877062505856,54.49149998848
1.645e-07,27.39425,1.873937505664,54.49149998848
1.65e-07,27.3161249952,1.869250005376,54.58524999424
