Time (s),V_PRI,V_SEC,V_IN,V_OUT
0.0,-20.624908799999957,-233.9999808,24.7255000096,35.70712500544
5e-10,-20.624908799999957,-265.24998272,24.74425000768,35.71025000512
1e-09,-20.624908799999957,-249.62498176000003,24.7567500064,35.72275000384
1.5000000000000002e-09,-4.999907840000105,-249.62498176000003,24.76925000512,35.73525000256
2e-09,-4.999907840000105,-249.62498176000003,24.76300000576,35.7446250016
2.5e-09,10.625093119999974,-233.9999808,24.7567500064,35.75400000064
3.0000000000000004e-09,10.625093119999974,-249.62498176000003,24.7567500064,35.75400000064
3.5000000000000003e-09,-4.999907840000105,-265.24998272,24.73175000896,35.76025
4e-09,10.625093119999974,-233.9999808,24.7255000096,35.75712500032
4.500000000000001e-09,10.625093119999974,-265.24998272,24.71925001024,35.75712500032
5e-09,26.250094080000054,-265.24998272,24.713000010880002,35.73525000256
5.5000000000000004e-09,26.250094080000054,-265.24998272,24.70050001216,35.7133750048
6.000000000000001e-09,26.250094080000054,-280.87498368,24.68800001344,35.69150000704
6.5e-09,26.250094080000054,-265.24998272,24.68175001408,35.67587500864
7.000000000000001e-09,41.875095039999906,-265.24998272,24.68800001344,35.66962500928
7.500000000000001e-09,10.625093119999974,-265.24998272,24.68800001344,35.67275000896
8e-09,41.875095039999906,-265.24998272,24.6942500128,35.682125008
8.5e-09,41.875095039999906,-265.24998272,24.6942500128,35.70087500608
9.000000000000001e-09,26.250094080000054,-265.24998272,24.67550001472,35.72275000384
9.5e-09,41.875095039999906,-265.24998272,24.66925001536,35.74775000128
1e-08,57.500095999999985,-265.24998272,24.64425001792,35.763374999679996
1.0500000000000001e-08,73.12509695999984,-249.62498176000003,24.63800001856,35.76962499904
1.1000000000000001e-08,57.500095999999985,-249.62498176000003,24.65050001728,35.7758749984
1.15e-08,41.875095039999906,-265.24998272,24.63800001856,35.77274999872
1.2000000000000002e-08,57.500095999999985,-233.9999808,24.63800001856,35.76962499904
1.2500000000000001e-08,73.12509695999984,-249.62498176000003,24.64425001792,35.76649999936
1.3e-08,88.75009791999992,-265.24998272,24.64425001792,35.74775000128
1.35e-08,73.12509695999984,-265.24998272,24.65050001728,35.74150000192
1.4000000000000001e-08,57.500095999999985,-249.62498176000003,24.663000016,35.73525000256
1.45e-08,73.12509695999984,-249.62498176000003,24.65675001664,35.73212500288
1.5000000000000002e-08,73.12509695999984,-233.9999808,24.663000016,35.74150000192
1.55e-08,57.500095999999985,-218.37497984000004,24.65050001728,35.75087500096
1.6e-08,88.75009791999992,-218.37497984000004,24.663000016,35.76649999936
1.6500000000000002e-08,73.12509695999984,-233.9999808,24.66925001536,35.778999998079996
1.7e-08,73.12509695999984,-233.9999808,24.66925001536,35.794624996479996
1.75e-08,88.75009791999992,-218.37497984000004,24.68175001408,35.79774999616
1.8000000000000002e-08,88.75009791999992,-218.37497984000004,24.66925001536,35.794624996479996
1.85e-08,88.75009791999992,-202.74997888000001,24.68800001344,35.7914999968
1.9e-08,88.75009791999992,-187.12497792,24.70675001152,35.78212499776
1.9500000000000003e-08,88.75009791999992,-202.74997888000001,24.71925001024,35.77274999872
2e-08,104.37509888,-171.49997696000003,24.7255000096,35.76025
2.05e-08,104.37509888,-187.12497792,24.713000010880002,35.75087500096
2.1000000000000003e-08,120.00009983999985,-202.74997888000001,24.713000010880002,35.73837500224
2.15e-08,88.75009791999992,-202.74997888000001,24.70050001216,35.7290000032
2.2000000000000002e-08,88.75009791999992,-187.12497792,24.6942500128,35.71650000448
2.2500000000000003e-08,104.37509888,-187.12497792,24.67550001472,35.7133750048
2.3e-08,104.37509888,-171.49997696000003,24.68175001408,35.71650000448
2.3500000000000002e-08,88.75009791999992,-171.49997696000003,24.67550001472,35.72275000384
2.4000000000000003e-08,120.00009983999985,-155.874976,24.68800001344,35.7290000032
2.45e-08,120.00009983999985,-171.49997696000003,24.70050001216,35.7290000032
2.5000000000000002e-08,104.37509888,-187.12497792,24.70675001152,35.73525000256
2.55e-08,104.37509888,-140.24997504000004,24.7255000096,35.7290000032
2.6e-08,120.00009983999985,-155.874976,24.71925001024,35.71962500416
2.6500000000000002e-08,120.00009983999985,-140.24997504000004,24.73800000832,35.7133750048
2.7e-08,120.00009983999985,-124.62497408000002,24.76300000576,35.70087500608
2.75e-08,104.37509888,-140.24997504000004,24.76300000576,35.69150000704
2.8000000000000003e-08,104.37509888,-108.99997311999999,24.76300000576,35.68525000768
2.85e-08,120.00009983999985,-124.62497408000002,24.74425000768,35.682125008
2.9e-08,151.25010176,-155.874976,24.74425000768,35.67275000896
2.9500000000000003e-08,120.00009983999985,-155.874976,24.73800000832,35.67587500864
3.0000000000000004e-08,135.62510079999993,-140.24997504000004,24.73800000832,35.67587500864
3.05e-08,135.62510079999993,-140.24997504000004,24.74425000768,35.68525000768
3.1e-08,135.62510079999993,-124.62497408000002,24.73800000832,35.70087500608
3.1500000000000004e-08,120.00009983999985,-124.62497408000002,24.71925001024,35.72275000384
3.2e-08,151.25010176,-124.62497408000002,24.713000010880002,35.74150000192
3.25e-08,135.62510079999993,-124.62497408000002,24.713000010880002,35.75087500096
3.3000000000000004e-08,135.62510079999993,-140.24997504000004,24.70675001152,35.76025
3.35e-08,135.62510079999993,-108.99997311999999,24.70675001152,35.76025
3.4e-08,151.25010176,-108.99997311999999,24.68800001344,35.76025
3.4500000000000005e-08,151.25010176,-93.37497216000003,24.68800001344,35.76962499904
3.5e-08,135.62510079999993,-93.37497216000003,24.6942500128,35.763374999679996
3.55e-08,135.62510079999993,-108.99997311999999,24.67550001472,35.75087500096
3.6000000000000005e-08,166.87510271999986,-77.7499712,24.66925001536,35.73212500288
3.65e-08,151.25010176,-93.37497216000003,24.65675001664,35.71650000448
3.7e-08,166.87510271999986,-93.37497216000003,24.65050001728,35.70400000576
3.7500000000000005e-08,151.25010176,-93.37497216000003,24.64425001792,35.70400000576
3.8e-08,166.87510271999986,-77.7499712,24.64425001792,35.70712500544
3.85e-08,182.50010367999994,-62.12497024000004,24.63800001856,35.70712500544
3.9000000000000005e-08,166.87510271999986,-62.12497024000004,24.64425001792,35.71025000512
3.95e-08,151.25010176,-62.12497024000004,24.65050001728,35.70712500544
4e-08,182.50010367999994,-46.499969280000016,24.67550001472,35.71025000512
4.0500000000000005e-08,166.87510271999986,-46.499969280000016,24.70050001216,35.71650000448
4.1e-08,166.87510271999986,-62.12497024000004,24.70675001152,35.73212500288
4.15e-08,182.50010367999994,-46.499969280000016,24.71925001024,35.73525000256
4.2000000000000006e-08,198.12510464000002,-30.874968319999994,24.70675001152,35.73525000256
4.2500000000000003e-08,182.50010367999994,-15.249967360000028,24.70675001152,35.73525000256
4.3e-08,182.50010367999994,-15.249967360000028,24.70050001216,35.73212500288
4.3500000000000006e-08,166.87510271999986,-30.874968319999994,24.67550001472,35.72587500352
4.4000000000000004e-08,182.50010367999994,0.3750335999999379,24.63800001856,35.71650000448
4.45e-08,166.87510271999986,-15.249967360000028,24.6005000224,35.71025000512
4.5000000000000006e-08,198.12510464000002,-30.874968319999994,24.58175002432,35.69150000704
4.5500000000000004e-08,166.87510271999986,-15.249967360000028,24.56300002624,35.68837500736
4.6e-08,182.50010367999994,-15.249967360000028,24.55675002688,35.68525000768
4.6500000000000006e-08,166.87510271999986,16.000034560000017,24.56300002624,35.682125008
4.7000000000000004e-08,151.25010176,16.000034560000017,24.56300002624,35.682125008
4.75e-08,166.87510271999986,16.000034560000017,24.550500027520002,35.682125008
4.8000000000000006e-08,166.87510271999986,16.000034560000017,24.56300002624,35.68837500736
4.8500000000000004e-08,166.87510271999986,16.000034560000017,24.58175002432,35.6977500064
4.9e-08,151.25010176,16.000034560000017,24.59425002304,35.71650000448
4.95e-08,151.25010176,16.000034560000017,24.6005000224,35.73212500288
5.0000000000000004e-08,182.50010367999994,31.625035519999983,24.56300002624,35.7446250016
5.05e-08,151.25010176,47.25003647999995,24.550500027520002,35.75087500096
5.1e-08,166.87510271999986,31.625035519999983,24.54425002816,35.7446250016
5.1500000000000005e-08,151.25010176,47.25003647999995,24.54425002816,35.74150000192
5.2e-08,166.87510271999986,62.87503744000003,24.55675002688,35.74150000192
5.25e-08,151.25010176,47.25003647999995,24.56300002624,35.73525000256
5.3000000000000005e-08,182.50010367999994,31.625035519999983,24.58175002432,35.72275000384
5.35e-08,135.62510079999993,31.625035519999983,24.58175002432,35.71025000512
5.4e-08,135.62510079999993,47.25003647999995,24.59425002304,35.70087500608
5.4500000000000005e-08,151.25010176,62.87503744000003,24.59425002304,35.69150000704
5.5e-08,135.62510079999993,62.87503744000003,24.6005000224,35.68837500736
5.55e-08,120.00009983999985,78.5000384,24.58175002432,35.69462500672
5.6000000000000005e-08,151.25010176,78.5000384,24.57550002496,35.6977500064
5.65e-08,135.62510079999993,78.5000384,24.5692500256,35.70087500608
5.7e-08,120.00009983999985,78.5000384,24.55675002688,35.71025000512
5.7500000000000005e-08,135.62510079999993,109.75004031999993,24.55675002688,35.72275000384
5.8e-08,151.25010176,78.5000384,24.5380000288,35.73525000256
5.85e-08,135.62510079999993,109.75004031999993,24.53175002944,35.75400000064
5.9000000000000006e-08,120.00009983999985,125.37504128,24.54425002816,35.75087500096
5.9500000000000003e-08,104.37509888,109.75004031999993,24.5380000288,35.75087500096
6.000000000000001e-08,120.00009983999985,141.00004223999997,24.54425002816,35.7446250016
6.05e-08,120.00009983999985,125.37504128,24.5380000288,35.73525000256
6.1e-08,120.00009983999985,109.75004031999993,24.55675002688,35.71962500416
6.15e-08,104.37509888,109.75004031999993,24.55675002688,35.7133750048
6.2e-08,88.75009791999992,125.37504128,24.56300002624,35.70087500608
6.250000000000001e-08,104.37509888,141.00004223999997,24.56300002624,35.69150000704
6.300000000000001e-08,88.75009791999992,141.00004223999997,24.5692500256,35.682125008
6.35e-08,88.75009791999992,141.00004223999997,24.56300002624,35.67275000896
6.4e-08,88.75009791999992,141.00004223999997,24.57550002496,35.66962500928
6.45e-08,73.12509695999984,141.00004223999997,24.6005000224,35.6665000096
6.5e-08,57.500095999999985,141.00004223999997,24.60675002176,35.67587500864
6.55e-08,57.500095999999985,156.62504319999994,24.62550001984,35.682125008
6.600000000000001e-08,88.75009791999992,156.62504319999994,24.62550001984,35.69150000704
6.65e-08,73.12509695999984,156.62504319999994,24.631750019200002,35.70087500608
6.7e-08,73.12509695999984,172.25004416000002,24.65050001728,35.70087500608
6.75e-08,57.500095999999985,156.62504319999994,24.65050001728,35.6977500064
6.8e-08,57.500095999999985,187.87504511999998,24.64425001792,35.70087500608
6.85e-08,41.875095039999906,156.62504319999994,24.64425001792,35.70087500608
6.900000000000001e-08,57.500095999999985,156.62504319999994,24.65050001728,35.70087500608
6.950000000000001e-08,41.875095039999906,156.62504319999994,24.63800001856,35.6977500064
7e-08,41.875095039999906,172.25004416000002,24.631750019200002,35.69150000704
7.05e-08,41.875095039999906,187.87504511999998,24.6005000224,35.68837500736
7.1e-08,26.250094080000054,172.25004416000002,24.58175002432,35.68837500736
7.15e-08,26.250094080000054,156.62504319999994,24.56300002624,35.68837500736
7.200000000000001e-08,26.250094080000054,172.25004416000002,24.5692500256,35.69150000704
7.250000000000001e-08,10.625093119999974,187.87504511999998,24.57550002496,35.70087500608
7.3e-08,10.625093119999974,172.25004416000002,24.58175002432,35.71650000448
7.35e-08,10.625093119999974,203.50004607999995,24.59425002304,35.73212500288
7.4e-08,26.250094080000054,172.25004416000002,24.58800002368,35.74775000128
7.45e-08,10.625093119999974,187.87504511999998,24.6005000224,35.763374999679996
7.500000000000001e-08,10.625093119999974,203.50004607999995,24.61925002048,35.76025
7.550000000000001e-08,-4.999907840000105,187.87504511999998,24.61925002048,35.75712500032
7.6e-08,10.625093119999974,219.12504704000003,24.62550001984,35.75400000064
7.65e-08,-4.999907840000105,187.87504511999998,24.60675002176,35.7446250016
7.7e-08,10.625093119999974,172.25004416000002,24.6005000224,35.72587500352
7.75e-08,-20.624908799999957,187.87504511999998,24.58800002368,35.71650000448
7.800000000000001e-08,-4.999907840000105,219.12504704000003,24.58175002432,35.70400000576
7.850000000000001e-08,-4.999907840000105,203.50004607999995,24.57550002496,35.69150000704
7.9e-08,-20.624908799999957,203.50004607999995,24.58175002432,35.68837500736
7.95e-08,-36.24990976000004,187.87504511999998,24.55675002688,35.68525000768
8e-08,-20.624908799999957,219.12504704000003,24.57550002496,35.68837500736
8.05e-08,-36.24990976000004,219.12504704000003,24.58800002368,35.69462500672
8.100000000000001e-08,-36.24990976000004,219.12504704000003,24.6005000224,35.7133750048
8.150000000000001e-08,-36.24990976000004,203.50004607999995,24.61300002112,35.72587500352
8.2e-08,-20.624908799999957,203.50004607999995,24.59425002304,35.74150000192
8.25e-08,-51.874910720000116,219.12504704000003,24.58800002368,35.75712500032
8.3e-08,-36.24990976000004,219.12504704000003,24.58800002368,35.75400000064
8.35e-08,-51.874910720000116,203.50004607999995,24.56300002624,35.74775000128
8.400000000000001e-08,-51.874910720000116,234.750048,24.5380000288,35.74150000192
8.450000000000001e-08,-51.874910720000116,203.50004607999995,24.51925003072,35.73212500288
8.500000000000001e-08,-36.24990976000004,187.87504511999998,24.51300003136,35.71962500416
8.55e-08,-67.49991167999997,172.25004416000002,24.51925003072,35.71962500416
8.6e-08,-67.49991167999997,203.50004607999995,24.51925003072,35.7133750048
8.65e-08,-67.49991167999997,203.50004607999995,24.52550003008,35.71962500416
8.700000000000001e-08,-67.49991167999997,187.87504511999998,24.5380000288,35.7290000032
8.750000000000001e-08,-98.74991360000013,187.87504511999998,24.5380000288,35.73837500224
8.800000000000001e-08,-67.49991167999997,203.50004607999995,24.56300002624,35.75400000064
8.85e-08,-98.74991360000013,187.87504511999998,24.58175002432,35.763374999679996
8.9e-08,-98.74991360000013,172.25004416000002,24.59425002304,35.78212499776
8.95e-08,-67.49991167999997,172.25004416000002,24.6005000224,35.794624996479996
9.000000000000001e-08,-67.49991167999997,172.25004416000002,24.58175002432,35.8071249952
9.050000000000001e-08,-98.74991360000013,172.25004416000002,24.58175002432,35.81649999424
9.100000000000001e-08,-83.12491264000005,172.25004416000002,24.58800002368,35.8071249952
9.15e-08,-98.74991360000013,156.62504319999994,24.58800002368,35.78837499712
9.2e-08,-98.74991360000013,172.25004416000002,24.59425002304,35.76962499904
9.25e-08,-98.74991360000013,141.00004223999997,24.58800002368,35.75400000064
9.300000000000001e-08,-83.12491264000005,141.00004223999997,24.58800002368,35.7290000032
9.350000000000001e-08,-98.74991360000013,125.37504128,24.58800002368,35.71650000448
9.400000000000001e-08,-98.74991360000013,141.00004223999997,24.58800002368,35.70712500544
9.45e-08,-114.37491455999998,141.00004223999997,24.58800002368,35.70712500544
9.5e-08,-114.37491455999998,125.37504128,24.58175002432,35.7133750048
9.55e-08,-129.99991552000006,141.00004223999997,24.5692500256,35.72275000384
9.600000000000001e-08,-98.74991360000013,141.00004223999997,24.56300002624,35.73212500288
9.650000000000001e-08,-114.37491455999998,109.75004031999993,24.55675002688,35.74150000192
9.700000000000001e-08,-129.99991552000006,109.75004031999993,24.55675002688,35.75400000064
9.75e-08,-114.37491455999998,125.37504128,24.56300002624,35.75712500032
9.8e-08,-114.37491455999998,109.75004031999993,24.550500027520002,35.75712500032
9.85e-08,-114.37491455999998,109.75004031999993,24.5692500256,35.75712500032
9.9e-08,-114.37491455999998,125.37504128,24.6005000224,35.7446250016
9.950000000000001e-08,-145.62491648000014,109.75004031999993,24.61300002112,35.73212500288
1.0000000000000001e-07,-129.99991552000006,125.37504128,24.63800001856,35.71650000448
1.005e-07,-129.99991552000006,94.12503935999996,24.64425001792,35.70400000576
1.01e-07,-114.37491455999998,78.5000384,24.663000016,35.69462500672
1.015e-07,-145.62491648000014,94.12503935999996,24.66925001536,35.682125008
1.02e-07,-145.62491648000014,78.5000384,24.68175001408,35.67587500864
1.0250000000000001e-07,-129.99991552000006,94.12503935999996,24.68175001408,35.663375009919996
1.0300000000000001e-07,-145.62491648000014,94.12503935999996,24.68175001408,35.663375009919996
1.0350000000000001e-07,-161.24991744,94.12503935999996,24.663000016,35.663375009919996
1.04e-07,-129.99991552000006,78.5000384,24.65675001664,35.67900000832
1.045e-07,-145.62491648000014,78.5000384,24.65050001728,35.68837500736
1.05e-07,-161.24991744,78.5000384,24.64425001792,35.70712500544
1.0550000000000001e-07,-145.62491648000014,78.5000384,24.65050001728,35.71650000448
1.0600000000000001e-07,-145.62491648000014,78.5000384,24.64425001792,35.73525000256
1.0650000000000001e-07,-161.24991744,94.12503935999996,24.65675001664,35.75712500032
1.07e-07,-161.24991744,78.5000384,24.663000016,35.76962499904
1.075e-07,-176.87491840000007,62.87503744000003,24.65675001664,35.78524999744
1.08e-07,-176.87491840000007,78.5000384,24.64425001792,35.7914999968
1.0850000000000001e-07,-176.87491840000007,62.87503744000003,24.64425001792,35.7914999968
1.0900000000000001e-07,-161.24991744,47.25003647999995,24.65050001728,35.778999998079996
1.0950000000000001e-07,-176.87491840000007,31.625035519999983,24.631750019200002,35.76962499904
1.1e-07,-176.87491840000007,47.25003647999995,24.61300002112,35.75712500032
1.105e-07,-176.87491840000007,31.625035519999983,24.59425002304,35.73837500224
1.11e-07,-176.87491840000007,31.625035519999983,24.58175002432,35.71650000448
1.1150000000000001e-07,-192.49991936000015,31.625035519999983,24.5692500256,35.6977500064
1.1200000000000001e-07,-176.87491840000007,31.625035519999983,24.6005000224,35.682125008
1.1250000000000001e-07,-176.87491840000007,0.3750335999999379,24.631750019200002,35.67587500864
1.13e-07,-208.12492032,0.3750335999999379,24.65050001728,35.682125008
1.135e-07,-192.49991936000015,16.000034560000017,24.66925001536,35.68837500736
1.14e-07,-192.49991936000015,16.000034560000017,24.663000016,35.6977500064
1.1450000000000001e-07,-176.87491840000007,16.000034560000017,24.68175001408,35.71962500416
1.1500000000000001e-07,-192.49991936000015,0.3750335999999379,24.71925001024,35.73525000256
1.1550000000000001e-07,-192.49991936000015,-15.249967360000028,24.73175000896,35.7446250016
1.16e-07,-192.49991936000015,0.3750335999999379,24.73175000896,35.75400000064
1.165e-07,-192.49991936000015,-15.249967360000028,24.713000010880002,35.763374999679996
1.17e-07,-176.87491840000007,-46.499969280000016,24.70050001216,35.74775000128
1.1750000000000001e-07,-192.49991936000015,-46.499969280000016,24.68800001344,35.73837500224
1.1800000000000001e-07,-192.49991936000015,-30.874968319999994,24.68800001344,35.72275000384
1.1850000000000001e-07,-176.87491840000007,-30.874968319999994,24.68800001344,35.70400000576
1.1900000000000001e-07,-176.87491840000007,-46.499969280000016,24.68800001344,35.68837500736
1.195e-07,-208.12492032,-46.499969280000016,24.67550001472,35.67587500864
1.2000000000000002e-07,-176.87491840000007,-46.499969280000016,24.67550001472,35.66962500928
1.205e-07,-192.49991936000015,-46.499969280000016,24.70050001216,35.66025001024
1.21e-07,-208.12492032,-77.7499712,24.70675001152,35.66025001024
1.215e-07,-192.49991936000015,-46.499969280000016,24.71925001024,35.66962500928
1.22e-07,-176.87491840000007,-62.12497024000004,24.70050001216,35.67900000832
1.2250000000000002e-07,-176.87491840000007,-46.499969280000016,24.6942500128,35.70400000576
1.23e-07,-176.87491840000007,-62.12497024000004,24.6942500128,35.72275000384
1.2350000000000001e-07,-192.49991936000015,-77.7499712,24.68175001408,35.73525000256
