Time (s),V_PRI,V_SEC,V_IN,V_OUT
0.0,-34.74990976000004,-233.9999808,24.748874974080003,45.5036249984
5e-10,-34.74990976000004,-249.62498176000003,24.764499975040003,45.51299999744
1e-09,-34.74990976000004,-249.62498176000003,24.764499975040003,45.50674999808
1.5000000000000002e-09,-3.4999078400001054,-233.9999808,24.811374977920003,45.49424999936
2e-09,-34.74990976000004,-249.62498176000003,24.795749976960003,45.46925000192
2.5e-09,-34.74990976000004,-249.62498176000003,24.826999978880004,45.45362500352
3.0000000000000004e-09,-19.124908799999957,-265.24998272,24.826999978880004,45.43175000576
3.5000000000000003e-09,12.125093119999974,-249.62498176000003,24.84262497984,45.42237500672
4e-09,-3.4999078400001054,-265.24998272,24.8582499808,45.41925000704
4.500000000000001e-09,-3.4999078400001054,-265.24998272,24.8582499808,45.42237500672
5e-09,-3.4999078400001054,-265.24998272,24.811374977920003,45.42862500608
5.5000000000000004e-09,-3.4999078400001054,-233.9999808,24.795749976960003,45.44737500416
6.000000000000001e-09,27.750094080000054,-265.24998272,24.764499975040003,45.4723750016
6.5e-09,27.750094080000054,-280.87498368,24.764499975040003,45.48175000064
7.000000000000001e-09,12.125093119999974,-280.87498368,24.748874974080003,45.488
7.500000000000001e-09,27.750094080000054,-265.24998272,24.748874974080003,45.49424999936
8e-09,27.750094080000054,-265.24998272,24.748874974080003,45.488
8.5e-09,27.750094080000054,-265.24998272,24.733249973120003,45.48175000064
9.000000000000001e-09,27.750094080000054,-265.24998272,24.733249973120003,45.4723750016
9.5e-09,43.375095039999906,-249.62498176000003,24.764499975040003,45.4567500032
1e-08,43.375095039999906,-265.24998272,24.748874974080003,45.44425000448
1.0500000000000001e-08,27.750094080000054,-265.24998272,24.733249973120003,45.44425000448
1.1000000000000001e-08,59.000095999999985,-249.62498176000003,24.733249973120003,45.44737500416
1.15e-08,59.000095999999985,-249.62498176000003,24.717624972160003,45.46300000256
1.2000000000000002e-08,59.000095999999985,-233.9999808,24.733249973120003,45.47862500096
1.2500000000000001e-08,59.000095999999985,-233.9999808,24.717624972160003,45.48487500032
1.3e-08,59.000095999999985,-249.62498176000003,24.686374970240003,45.49424999936
1.35e-08,74.62509695999984,-218.37497984000004,24.686374970240003,45.50674999808
1.4000000000000001e-08,74.62509695999984,-233.9999808,24.717624972160003,45.522374996479996
1.45e-08,90.25009791999992,-233.9999808,24.717624972160003,45.52862499584
1.5000000000000002e-08,74.62509695999984,-249.62498176000003,24.733249973120003,45.537999994879996
1.55e-08,59.000095999999985,-233.9999808,24.748874974080003,45.54737499392
1.6e-08,105.87509888,-218.37497984000004,24.764499975040003,45.54112499456
1.6500000000000002e-08,90.25009791999992,-202.74997888000001,24.780124976000003,45.53174999552
1.7e-08,74.62509695999984,-218.37497984000004,24.780124976000003,45.51612499712
1.75e-08,105.87509888,-202.74997888000001,24.811374977920003,45.49112499968
1.8000000000000002e-08,90.25009791999992,-187.12497792,24.780124976000003,45.4723750016
1.85e-08,90.25009791999992,-202.74997888000001,24.795749976960003,45.46925000192
1.9e-08,90.25009791999992,-187.12497792,24.795749976960003,45.46612500224
1.9500000000000003e-08,90.25009791999992,-187.12497792,24.780124976000003,45.4723750016
2e-08,121.50009983999985,-171.49997696000003,24.811374977920003,45.48487500032
2.05e-08,105.87509888,-171.49997696000003,24.795749976960003,45.48487500032
2.1000000000000003e-08,105.87509888,-187.12497792,24.780124976000003,45.49112499968
2.15e-08,105.87509888,-140.24997504000004,24.780124976000003,45.488
2.2000000000000002e-08,121.50009983999985,-155.874976,24.780124976000003,45.49737499904
2.2500000000000003e-08,137.12510079999993,-171.49997696000003,24.795749976960003,45.488
2.3e-08,121.50009983999985,-171.49997696000003,24.811374977920003,45.49112499968
2.3500000000000002e-08,137.12510079999993,-155.874976,24.811374977920003,45.49112499968
2.4000000000000003e-08,137.12510079999993,-140.24997504000004,24.811374977920003,45.47862500096
2.45e-08,121.50009983999985,-140.24997504000004,24.795749976960003,45.46612500224
2.5000000000000002e-08,121.50009983999985,-155.874976,24.795749976960003,45.44737500416
2.55e-08,152.75010176,-140.24997504000004,24.795749976960003,45.42862500608
2.6e-08,137.12510079999993,-140.24997504000004,24.780124976000003,45.40050000896
2.6500000000000002e-08,137.12510079999993,-140.24997504000004,24.795749976960003,45.38487501056
2.7e-08,137.12510079999993,-124.62497408000002,24.811374977920003,45.36925001216
2.75e-08,152.75010176,-140.24997504000004,24.811374977920003,45.375500011519996
2.8000000000000003e-08,152.75010176,-124.62497408000002,24.84262497984,45.391125009919996
2.85e-08,137.12510079999993,-124.62497408000002,24.8582499808,45.409875008
2.9e-08,152.75010176,-140.24997504000004,24.826999978880004,45.43175000576
2.9500000000000003e-08,152.75010176,-108.99997311999999,24.84262497984,45.45362500352
3.0000000000000004e-08,152.75010176,-124.62497408000002,24.826999978880004,45.48487500032
3.05e-08,184.00010367999994,-124.62497408000002,24.8582499808,45.50049999872
3.1e-08,152.75010176,-140.24997504000004,24.84262497984,45.5192499968
3.1500000000000004e-08,168.37510271999986,-108.99997311999999,24.826999978880004,45.52549999616
3.2e-08,184.00010367999994,-108.99997311999999,24.811374977920003,45.51612499712
3.25e-08,168.37510271999986,-124.62497408000002,24.780124976000003,45.49737499904
3.3000000000000004e-08,152.75010176,-124.62497408000002,24.764499975040003,45.48175000064
3.35e-08,199.62510464000002,-108.99997311999999,24.780124976000003,45.47550000128
3.4e-08,184.00010367999994,-108.99997311999999,24.733249973120003,45.46612500224
3.4500000000000005e-08,184.00010367999994,-108.99997311999999,24.701999971200003,45.46300000256
3.5e-08,184.00010367999994,-93.37497216000003,24.717624972160003,45.44737500416
3.55e-08,199.62510464000002,-93.37497216000003,24.670749969280003,45.43487500544
3.6000000000000005e-08,215.25010559999987,-77.7499712,24.717624972160003,45.43175000576
3.65e-08,184.00010367999994,-77.7499712,24.733249973120003,45.4255000064
3.7e-08,184.00010367999994,-93.37497216000003,24.733249973120003,45.43487500544
3.7500000000000005e-08,199.62510464000002,-46.499969280000016,24.748874974080003,45.4567500032
3.8e-08,215.25010559999987,-62.12497024000004,24.748874974080003,45.47862500096
3.85e-08,230.87510655999995,-77.7499712,24.748874974080003,45.48487500032
3.9000000000000005e-08,199.62510464000002,-77.7499712,24.733249973120003,45.49424999936
3.95e-08,215.25010559999987,-62.12497024000004,24.733249973120003,45.49737499904
4e-08,215.25010559999987,-46.499969280000016,24.733249973120003,45.49112499968
4.0500000000000005e-08,215.25010559999987,-46.499969280000016,24.748874974080003,45.47862500096
4.1e-08,215.25010559999987,-30.874968319999994,24.733249973120003,45.46300000256
4.15e-08,230.87510655999995,-30.874968319999994,24.764499975040003,45.44425000448
4.2000000000000006e-08,215.25010559999987,-30.874968319999994,24.748874974080003,45.43175000576
4.2500000000000003e-08,215.25010559999987,-30.874968319999994,24.748874974080003,45.42862500608
4.3e-08,215.25010559999987,-15.249967360000028,24.764499975040003,45.41925000704
4.3500000000000006e-08,246.50010752000003,-15.249967360000028,24.748874974080003,45.42237500672
4.4000000000000004e-08,230.87510655999995,0.3750335999999379,24.748874974080003,45.41925000704
4.45e-08,215.25010559999987,0.3750335999999379,24.701999971200003,45.41925000704
4.5000000000000006e-08,215.25010559999987,-15.249967360000028,24.655124968320003,45.42237500672
4.5500000000000004e-08,230.87510655999995,16.000034560000017,24.655124968320003,45.43175000576
4.6e-08,215.25010559999987,16.000034560000017,24.639499967360003,45.44425000448
4.6500000000000006e-08,230.87510655999995,-15.249967360000028,24.608249965440002,45.44737500416
4.7000000000000004e-08,215.25010559999987,0.3750335999999379,24.608249965440002,45.4567500032
4.75e-08,215.25010559999987,16.000034560000017,24.592624964480002,45.46925000192
4.8000000000000006e-08,230.87510655999995,16.000034560000017,24.592624964480002,45.47862500096
4.8500000000000004e-08,215.25010559999987,31.625035519999983,24.623874966400003,45.48487500032
4.9e-08,199.62510464000002,16.000034560000017,24.623874966400003,45.488
4.95e-08,215.25010559999987,31.625035519999983,24.655124968320003,45.48175000064
5.0000000000000004e-08,199.62510464000002,31.625035519999983,24.639499967360003,45.45987500288
5.05e-08,199.62510464000002,31.625035519999983,24.639499967360003,45.4411250048
5.1e-08,199.62510464000002,31.625035519999983,24.639499967360003,45.42237500672
5.1500000000000005e-08,215.25010559999987,31.625035519999983,24.623874966400003,45.41300000768
5.2e-08,199.62510464000002,47.25003647999995,24.639499967360003,45.41925000704
5.25e-08,199.62510464000002,47.25003647999995,24.639499967360003,45.41925000704
5.3000000000000005e-08,184.00010367999994,47.25003647999995,24.623874966400003,45.42862500608
5.35e-08,184.00010367999994,78.5000384,24.623874966400003,45.44425000448
5.4e-08,168.37510271999986,47.25003647999995,24.608249965440002,45.46612500224
5.4500000000000005e-08,184.00010367999994,47.25003647999995,24.608249965440002,45.47550000128
5.5e-08,168.37510271999986,47.25003647999995,24.608249965440002,45.48487500032
5.55e-08,168.37510271999986,78.5000384,24.592624964480002,45.49112499968
5.6000000000000005e-08,184.00010367999994,78.5000384,24.592624964480002,45.488
5.65e-08,168.37510271999986,78.5000384,24.592624964480002,45.48487500032
5.7e-08,152.75010176,94.12503935999996,24.576999963520002,45.48487500032
5.7500000000000005e-08,168.37510271999986,94.12503935999996,24.592624964480002,45.48487500032
5.8e-08,152.75010176,94.12503935999996,24.576999963520002,45.4723750016
5.85e-08,152.75010176,109.75004031999993,24.561374962560002,45.46612500224
5.9000000000000006e-08,152.75010176,109.75004031999993,24.561374962560002,45.45050000384
5.9500000000000003e-08,168.37510271999986,109.75004031999993,24.561374962560002,45.43175000576
6.000000000000001e-08,152.75010176,109.75004031999993,24.576999963520002,45.42237500672
6.05e-08,137.12510079999993,141.00004223999997,24.623874966400003,45.41612500736
6.1e-08,105.87509888,125.37504128,24.608249965440002,45.41612500736
6.15e-08,121.50009983999985,156.62504319999994,24.639499967360003,45.4255000064
6.2e-08,121.50009983999985,125.37504128,24.639499967360003,45.44737500416
6.250000000000001e-08,137.12510079999993,109.75004031999993,24.655124968320003,45.45987500288
6.300000000000001e-08,121.50009983999985,125.37504128,24.655124968320003,45.46925000192
6.35e-08,121.50009983999985,156.62504319999994,24.655124968320003,45.46612500224
6.4e-08,121.50009983999985,156.62504319999994,24.670749969280003,45.45987500288
6.45e-08,105.87509888,141.00004223999997,24.686374970240003,45.45362500352
6.5e-08,90.25009791999992,141.00004223999997,24.717624972160003,45.44425000448
6.55e-08,105.87509888,156.62504319999994,24.748874974080003,45.43175000576
6.600000000000001e-08,90.25009791999992,141.00004223999997,24.701999971200003,45.41300000768
6.65e-08,74.62509695999984,156.62504319999994,24.717624972160003,45.40050000896
6.7e-08,90.25009791999992,172.25004416000002,24.717624972160003,45.38487501056
6.75e-08,90.25009791999992,141.00004223999997,24.686374970240003,45.38487501056
6.8e-08,90.25009791999992,172.25004416000002,24.701999971200003,45.3942500096
6.85e-08,74.62509695999984,187.87504511999998,24.701999971200003,45.39737500928
6.900000000000001e-08,59.000095999999985,156.62504319999994,24.670749969280003,45.40675000832
6.950000000000001e-08,74.62509695999984,172.25004416000002,24.670749969280003,45.41925000704
7e-08,59.000095999999985,156.62504319999994,24.655124968320003,45.44425000448
7.05e-08,74.62509695999984,156.62504319999994,24.639499967360003,45.46300000256
7.1e-08,43.375095039999906,156.62504319999994,24.670749969280003,45.48175000064
7.15e-08,59.000095999999985,172.25004416000002,24.686374970240003,45.49737499904
7.200000000000001e-08,43.375095039999906,187.87504511999998,24.701999971200003,45.50987499776
7.250000000000001e-08,43.375095039999906,172.25004416000002,24.748874974080003,45.5192499968
7.3e-08,12.125093119999974,172.25004416000002,24.733249973120003,45.522374996479996
7.35e-08,43.375095039999906,187.87504511999998,24.748874974080003,45.51299999744
7.4e-08,12.125093119999974,187.87504511999998,24.717624972160003,45.48487500032
7.45e-08,12.125093119999974,187.87504511999998,24.701999971200003,45.46925000192
7.500000000000001e-08,12.125093119999974,203.50004607999995,24.670749969280003,45.43800000512
7.550000000000001e-08,27.750094080000054,172.25004416000002,24.655124968320003,45.42237500672
7.6e-08,12.125093119999974,203.50004607999995,24.670749969280003,45.42237500672
7.65e-08,-3.4999078400001054,203.50004607999995,24.670749969280003,45.41925000704
7.7e-08,-3.4999078400001054,187.87504511999998,24.670749969280003,45.4255000064
7.75e-08,12.125093119999974,234.750048,24.686374970240003,45.44737500416
7.800000000000001e-08,-3.4999078400001054,203.50004607999995,24.701999971200003,45.46925000192
7.850000000000001e-08,-3.4999078400001054,203.50004607999995,24.733249973120003,45.47862500096
7.9e-08,-19.124908799999957,187.87504511999998,24.733249973120003,45.488
7.95e-08,-19.124908799999957,203.50004607999995,24.717624972160003,45.488
8e-08,-19.124908799999957,203.50004607999995,24.701999971200003,45.47862500096
8.05e-08,-19.124908799999957,203.50004607999995,24.670749969280003,45.46612500224
8.100000000000001e-08,-50.374910720000116,203.50004607999995,24.655124968320003,45.45050000384
8.150000000000001e-08,-19.124908799999957,203.50004607999995,24.670749969280003,45.43800000512
8.2e-08,-34.74990976000004,203.50004607999995,24.623874966400003,45.42237500672
8.25e-08,-50.374910720000116,219.12504704000003,24.608249965440002,45.41925000704
8.3e-08,-50.374910720000116,203.50004607999995,24.608249965440002,45.41612500736
8.35e-08,-50.374910720000116,203.50004607999995,24.608249965440002,45.42862500608
8.400000000000001e-08,-50.374910720000116,219.12504704000003,24.639499967360003,45.4567500032
8.450000000000001e-08,-50.374910720000116,203.50004607999995,24.639499967360003,45.4723750016
8.500000000000001e-08,-65.99991167999997,187.87504511999998,24.623874966400003,45.49112499968
8.55e-08,-65.99991167999997,219.12504704000003,24.655124968320003,45.5036249984
8.6e-08,-65.99991167999997,187.87504511999998,24.655124968320003,45.51612499712
8.65e-08,-50.374910720000116,172.25004416000002,24.639499967360003,45.51612499712
8.700000000000001e-08,-65.99991167999997,156.62504319999994,24.623874966400003,45.51612499712
8.750000000000001e-08,-81.62491264000005,172.25004416000002,24.623874966400003,45.50674999808
8.800000000000001e-08,-81.62491264000005,172.25004416000002,24.608249965440002,45.49424999936
8.85e-08,-81.62491264000005,172.25004416000002,24.623874966400003,45.488
8.9e-08,-97.24991360000013,156.62504319999994,24.623874966400003,45.488
8.95e-08,-65.99991167999997,156.62504319999994,24.639499967360003,45.49737499904
9.000000000000001e-08,-97.24991360000013,156.62504319999994,24.623874966400003,45.49737499904
9.050000000000001e-08,-112.87491455999998,156.62504319999994,24.623874966400003,45.5036249984
9.100000000000001e-08,-97.24991360000013,156.62504319999994,24.639499967360003,45.50049999872
9.15e-08,-97.24991360000013,172.25004416000002,24.623874966400003,45.50049999872
9.2e-08,-97.24991360000013,156.62504319999994,24.655124968320003,45.50049999872
9.25e-08,-112.87491455999998,156.62504319999994,24.639499967360003,45.49737499904
9.300000000000001e-08,-112.87491455999998,141.00004223999997,24.608249965440002,45.49737499904
9.350000000000001e-08,-112.87491455999998,156.62504319999994,24.592624964480002,45.49112499968
9.400000000000001e-08,-112.87491455999998,125.37504128,24.592624964480002,45.49737499904
9.45e-08,-97.24991360000013,109.75004031999993,24.576999963520002,45.49112499968
9.5e-08,-128.49991552000006,94.12503935999996,24.576999963520002,45.49112499968
9.55e-08,-128.49991552000006,125.37504128,24.576999963520002,45.49424999936
9.600000000000001e-08,-128.49991552000006,109.75004031999993,24.592624964480002,45.47862500096
9.650000000000001e-08,-144.12491648000014,109.75004031999993,24.608249965440002,45.47550000128
9.700000000000001e-08,-159.74991744,109.75004031999993,24.608249965440002,45.46925000192
9.75e-08,-128.49991552000006,109.75004031999993,24.655124968320003,45.46612500224
9.8e-08,-144.12491648000014,94.12503935999996,24.655124968320003,45.45362500352
9.85e-08,-159.74991744,78.5000384,24.655124968320003,45.44737500416
9.9e-08,-144.12491648000014,94.12503935999996,24.655124968320003,45.43175000576
9.950000000000001e-08,-144.12491648000014,94.12503935999996,24.655124968320003,45.4255000064
1.0000000000000001e-07,-159.74991744,78.5000384,24.686374970240003,45.4255000064
1.005e-07,-159.74991744,78.5000384,24.670749969280003,45.41925000704
1.01e-07,-175.37491840000007,78.5000384,24.670749969280003,45.41925000704
1.015e-07,-159.74991744,94.12503935999996,24.686374970240003,45.41925000704
1.02e-07,-175.37491840000007,78.5000384,24.701999971200003,45.4255000064
1.0250000000000001e-07,-159.74991744,78.5000384,24.733249973120003,45.4255000064
1.0300000000000001e-07,-175.37491840000007,47.25003647999995,24.748874974080003,45.43487500544
1.0350000000000001e-07,-175.37491840000007,78.5000384,24.748874974080003,45.44425000448
1.04e-07,-175.37491840000007,78.5000384,24.748874974080003,45.45050000384
1.045e-07,-175.37491840000007,62.87503744000003,24.733249973120003,45.4567500032
1.05e-07,-190.99991936000015,62.87503744000003,24.717624972160003,45.46612500224
1.0550000000000001e-07,-175.37491840000007,62.87503744000003,24.733249973120003,45.47550000128
1.0600000000000001e-07,-190.99991936000015,62.87503744000003,24.686374970240003,45.48175000064
1.0650000000000001e-07,-206.62492032,62.87503744000003,24.670749969280003,45.49737499904
1.07e-07,-190.99991936000015,62.87503744000003,24.670749969280003,45.50674999808
1.075e-07,-190.99991936000015,62.87503744000003,24.655124968320003,45.50987499776
1.08e-07,-206.62492032,62.87503744000003,24.686374970240003,45.50987499776
1.0850000000000001e-07,-222.24992128000008,47.25003647999995,24.701999971200003,45.49737499904
1.0900000000000001e-07,-222.24992128000008,47.25003647999995,24.686374970240003,45.48175000064
1.0950000000000001e-07,-237.87492223999993,62.87503744000003,24.701999971200003,45.46300000256
1.1e-07,-206.62492032,47.25003647999995,24.701999971200003,45.4567500032
1.105e-07,-206.62492032,0.3750335999999379,24.701999971200003,45.44737500416
1.11e-07,-222.24992128000008,16.000034560000017,24.701999971200003,45.45362500352
1.1150000000000001e-07,-237.87492223999993,31.625035519999983,24.733249973120003,45.45987500288
1.1200000000000001e-07,-222.24992128000008,31.625035519999983,24.748874974080003,45.46925000192
1.1250000000000001e-07,-237.87492223999993,0.3750335999999379,24.764499975040003,45.47550000128
1.13e-07,-237.87492223999993,0.3750335999999379,24.748874974080003,45.47862500096
1.135e-07,-222.24992128000008,0.3750335999999379,24.780124976000003,45.48487500032
1.14e-07,-237.87492223999993,-15.249967360000028,24.764499975040003,45.47550000128
1.1450000000000001e-07,-237.87492223999993,0.3750335999999379,24.795749976960003,45.47550000128
1.1500000000000001e-07,-237.87492223999993,-15.249967360000028,24.811374977920003,45.46300000256
1.1550000000000001e-07,-222.24992128000008,-15.249967360000028,24.811374977920003,45.44737500416
1.16e-07,-237.87492223999993,-15.249967360000028,24.84262497984,45.43175000576
1.165e-07,-237.87492223999993,-15.249967360000028,24.826999978880004,45.41300000768
1.17e-07,-237.87492223999993,-30.874968319999994,24.795749976960003,45.40050000896
1.1750000000000001e-07,-237.87492223999993,0.3750335999999379,24.795749976960003,45.40050000896
1.1800000000000001e-07,-237.87492223999993,-30.874968319999994,24.795749976960003,45.41612500736
