Time (s),V_PRI,V_SEC,V_IN,V_OUT
0.0,-36.24990976000004,-233.9999808,24.789624976000002,46.691249997439996
5e-10,-36.24990976000004,-233.9999808,24.773999975040002,46.69437499712
1e-09,-36.24990976000004,-249.62498176000003,24.773999975040002,46.691249997439996
1.5000000000000002e-09,-36.24990976000004,-233.9999808,24.789624976000002,46.67249999936
2e-09,-20.624908799999957,-249.62498176000003,24.820874977920003,46.653750001279995
2.5e-09,-4.999907840000105,-280.87498368,24.820874977920003,46.62562500416
3.0000000000000004e-09,-20.624908799999957,-265.24998272,24.83649997888,46.61625000512
3.5000000000000003e-09,-4.999907840000105,-265.24998272,24.85212497984,46.606875006079996
4e-09,10.625093119999974,-265.24998272,24.85212497984,46.60062500672
4.500000000000001e-09,-4.999907840000105,-280.87498368,24.820874977920003,46.60062500672
5e-09,-20.624908799999957,-265.24998272,24.805249976960003,46.61000000576
5.5000000000000004e-09,10.625093119999974,-265.24998272,24.789624976000002,46.62875000384
6.000000000000001e-09,-4.999907840000105,-265.24998272,24.758374974080002,46.64437500224
6.5e-09,10.625093119999974,-265.24998272,24.742749973120002,46.66000000064
7.000000000000001e-09,10.625093119999974,-265.24998272,24.727124972160002,46.669374999679995
7.500000000000001e-09,26.250094080000054,-265.24998272,24.727124972160002,46.66625
8e-09,41.875095039999906,-249.62498176000003,24.758374974080002,46.669374999679995
8.5e-09,26.250094080000054,-249.62498176000003,24.758374974080002,46.66000000064
9.000000000000001e-09,26.250094080000054,-265.24998272,24.727124972160002,46.64750000192
9.5e-09,41.875095039999906,-233.9999808,24.742749973120002,46.6350000032
1e-08,41.875095039999906,-265.24998272,24.742749973120002,46.62875000384
1.0500000000000001e-08,57.500095999999985,-265.24998272,24.742749973120002,46.6193750048
1.1000000000000001e-08,41.875095039999906,-265.24998272,24.727124972160002,46.63187500352
1.15e-08,57.500095999999985,-265.24998272,24.711499971200002,46.64750000192
1.2000000000000002e-08,73.12509695999984,-249.62498176000003,24.695874970240002,46.65687500096
1.2500000000000001e-08,57.500095999999985,-249.62498176000003,24.680249969280002,46.66312500032
1.3e-08,41.875095039999906,-233.9999808,24.695874970240002,46.669374999679995
1.35e-08,73.12509695999984,-218.37497984000004,24.695874970240002,46.6818749984
1.4000000000000001e-08,73.12509695999984,-233.9999808,24.695874970240002,46.691249997439996
1.45e-08,73.12509695999984,-233.9999808,24.695874970240002,46.7131249952
1.5000000000000002e-08,73.12509695999984,-233.9999808,24.727124972160002,46.716249994879995
1.55e-08,88.75009791999992,-218.37497984000004,24.727124972160002,46.71937499456
1.6e-08,88.75009791999992,-218.37497984000004,24.773999975040002,46.722499994239996
1.6500000000000002e-08,88.75009791999992,-202.74997888000001,24.789624976000002,46.716249994879995
1.7e-08,73.12509695999984,-218.37497984000004,24.773999975040002,46.700624996479995
1.75e-08,88.75009791999992,-187.12497792,24.789624976000002,46.67874999872
1.8000000000000002e-08,88.75009791999992,-202.74997888000001,24.789624976000002,46.66312500032
1.85e-08,120.00009983999985,-202.74997888000001,24.805249976960003,46.64437500224
1.9e-08,120.00009983999985,-202.74997888000001,24.789624976000002,46.64750000192
1.9500000000000003e-08,104.37509888,-187.12497792,24.789624976000002,46.66000000064
2e-08,120.00009983999985,-187.12497792,24.789624976000002,46.66625
2.05e-08,104.37509888,-171.49997696000003,24.789624976000002,46.66625
2.1000000000000003e-08,104.37509888,-171.49997696000003,24.773999975040002,46.669374999679995
2.15e-08,120.00009983999985,-155.874976,24.805249976960003,46.67249999936
2.2000000000000002e-08,104.37509888,-155.874976,24.773999975040002,46.66625
2.2500000000000003e-08,104.37509888,-155.874976,24.773999975040002,46.67249999936
2.3e-08,120.00009983999985,-140.24997504000004,24.789624976000002,46.67249999936
2.3500000000000002e-08,151.25010176,-155.874976,24.789624976000002,46.66312500032
2.4000000000000003e-08,120.00009983999985,-155.874976,24.789624976000002,46.66000000064
2.45e-08,120.00009983999985,-140.24997504000004,24.805249976960003,46.64437500224
2.5000000000000002e-08,120.00009983999985,-155.874976,24.773999975040002,46.62562500416
2.55e-08,135.62510079999993,-124.62497408000002,24.773999975040002,46.6037500064
2.6e-08,135.62510079999993,-140.24997504000004,24.773999975040002,46.58187500864
2.6500000000000002e-08,166.87510271999986,-155.874976,24.789624976000002,46.5568750112
2.7e-08,135.62510079999993,-155.874976,24.805249976960003,46.553750011519995
2.75e-08,166.87510271999986,-124.62497408000002,24.820874977920003,46.5568750112
2.8000000000000003e-08,151.25010176,-124.62497408000002,24.805249976960003,46.569375009919995
2.85e-08,151.25010176,-140.24997504000004,24.820874977920003,46.591250007679996
2.9e-08,135.62510079999993,-124.62497408000002,24.820874977920003,46.61000000576
2.9500000000000003e-08,166.87510271999986,-124.62497408000002,24.85212497984,46.6350000032
3.0000000000000004e-08,151.25010176,-124.62497408000002,24.85212497984,46.653750001279995
3.05e-08,151.25010176,-124.62497408000002,24.83649997888,46.684999998079995
3.1e-08,166.87510271999986,-108.99997311999999,24.820874977920003,46.6974999968
3.1500000000000004e-08,182.50010367999994,-108.99997311999999,24.789624976000002,46.6974999968
3.2e-08,182.50010367999994,-108.99997311999999,24.820874977920003,46.691249997439996
3.25e-08,182.50010367999994,-93.37497216000003,24.789624976000002,46.67562499904
3.3000000000000004e-08,182.50010367999994,-108.99997311999999,24.758374974080002,46.66312500032
3.35e-08,182.50010367999994,-93.37497216000003,24.758374974080002,46.6506250016
3.4e-08,182.50010367999994,-93.37497216000003,24.727124972160002,46.64437500224
3.4500000000000005e-08,213.75010559999987,-108.99997311999999,24.711499971200002,46.6350000032
3.5e-08,198.12510464000002,-108.99997311999999,24.695874970240002,46.63187500352
3.55e-08,198.12510464000002,-93.37497216000003,24.680249969280002,46.6193750048
3.6000000000000005e-08,213.75010559999987,-93.37497216000003,24.695874970240002,46.61000000576
3.65e-08,213.75010559999987,-77.7499712,24.695874970240002,46.61000000576
3.7e-08,182.50010367999994,-77.7499712,24.727124972160002,46.622500004479996
3.7500000000000005e-08,213.75010559999987,-77.7499712,24.758374974080002,46.6350000032
3.8e-08,213.75010559999987,-77.7499712,24.742749973120002,46.65687500096
3.85e-08,213.75010559999987,-77.7499712,24.727124972160002,46.669374999679995
3.9000000000000005e-08,213.75010559999987,-62.12497024000004,24.727124972160002,46.67249999936
3.95e-08,245.00010752000003,-46.499969280000016,24.711499971200002,46.669374999679995
4e-08,213.75010559999987,-46.499969280000016,24.742749973120002,46.669374999679995
4.0500000000000005e-08,229.37510655999995,-30.874968319999994,24.742749973120002,46.65687500096
4.1e-08,213.75010559999987,-46.499969280000016,24.727124972160002,46.64125000256
4.15e-08,229.37510655999995,-15.249967360000028,24.742749973120002,46.62875000384
4.2000000000000006e-08,245.00010752000003,-30.874968319999994,24.727124972160002,46.61312500544
4.2500000000000003e-08,245.00010752000003,-30.874968319999994,24.758374974080002,46.60062500672
4.3e-08,213.75010559999987,-30.874968319999994,24.742749973120002,46.60062500672
4.3500000000000006e-08,229.37510655999995,-15.249967360000028,24.742749973120002,46.60062500672
4.4000000000000004e-08,229.37510655999995,-15.249967360000028,24.727124972160002,46.60062500672
4.45e-08,213.75010559999987,0.3750335999999379,24.680249969280002,46.59750000704
4.5000000000000006e-08,213.75010559999987,0.3750335999999379,24.664624968320002,46.6037500064
4.5500000000000004e-08,229.37510655999995,0.3750335999999379,24.664624968320002,46.61000000576
4.6e-08,213.75010559999987,0.3750335999999379,24.6333749664,46.6193750048
4.6500000000000006e-08,198.12510464000002,0.3750335999999379,24.61774996544,46.63187500352
4.7000000000000004e-08,213.75010559999987,16.000034560000017,24.60212496448,46.638125002879995
4.75e-08,245.00010752000003,16.000034560000017,24.60212496448,46.64437500224
4.8000000000000006e-08,229.37510655999995,31.625035519999983,24.6333749664,46.66000000064
4.8500000000000004e-08,213.75010559999987,31.625035519999983,24.64899996736,46.66312500032
4.9e-08,213.75010559999987,16.000034560000017,24.64899996736,46.669374999679995
4.95e-08,213.75010559999987,31.625035519999983,24.664624968320002,46.66000000064
5.0000000000000004e-08,213.75010559999987,31.625035519999983,24.664624968320002,46.64125000256
5.05e-08,213.75010559999987,16.000034560000017,24.664624968320002,46.61312500544
5.1e-08,198.12510464000002,16.000034560000017,24.64899996736,46.60062500672
5.1500000000000005e-08,213.75010559999987,31.625035519999983,24.64899996736,46.59750000704
5.2e-08,213.75010559999987,31.625035519999983,24.6333749664,46.59750000704
5.25e-08,198.12510464000002,47.25003647999995,24.6333749664,46.60062500672
5.3000000000000005e-08,198.12510464000002,62.87503744000003,24.6333749664,46.61000000576
5.35e-08,198.12510464000002,47.25003647999995,24.6333749664,46.62875000384
5.4e-08,182.50010367999994,47.25003647999995,24.61774996544,46.64437500224
5.4500000000000005e-08,182.50010367999994,47.25003647999995,24.61774996544,46.66000000064
5.5e-08,182.50010367999994,78.5000384,24.60212496448,46.66625
5.55e-08,182.50010367999994,78.5000384,24.58649996352,46.66312500032
5.6000000000000005e-08,182.50010367999994,94.12503935999996,24.60212496448,46.669374999679995
5.65e-08,166.87510271999986,94.12503935999996,24.60212496448,46.66625
5.7e-08,166.87510271999986,78.5000384,24.57087496256,46.66312500032
5.7500000000000005e-08,166.87510271999986,109.75004031999993,24.57087496256,46.66000000064
5.8e-08,151.25010176,94.12503935999996,24.57087496256,46.653750001279995
5.85e-08,182.50010367999994,94.12503935999996,24.57087496256,46.638125002879995
5.9000000000000006e-08,151.25010176,94.12503935999996,24.57087496256,46.62562500416
5.9500000000000003e-08,166.87510271999986,109.75004031999993,24.57087496256,46.61312500544
6.000000000000001e-08,166.87510271999986,125.37504128,24.58649996352,46.6037500064
6.05e-08,135.62510079999993,109.75004031999993,24.60212496448,46.59437500736
6.1e-08,135.62510079999993,109.75004031999993,24.61774996544,46.59750000704
6.15e-08,135.62510079999993,125.37504128,24.664624968320002,46.61000000576
6.2e-08,120.00009983999985,125.37504128,24.64899996736,46.62562500416
6.250000000000001e-08,120.00009983999985,125.37504128,24.6333749664,46.64125000256
6.300000000000001e-08,120.00009983999985,141.00004223999997,24.664624968320002,46.64437500224
6.35e-08,135.62510079999993,141.00004223999997,24.64899996736,46.64125000256
6.4e-08,120.00009983999985,156.62504319999994,24.695874970240002,46.638125002879995
6.45e-08,104.37509888,172.25004416000002,24.695874970240002,46.63187500352
6.5e-08,104.37509888,141.00004223999997,24.680249969280002,46.6193750048
6.55e-08,88.75009791999992,172.25004416000002,24.695874970240002,46.606875006079996
6.600000000000001e-08,104.37509888,156.62504319999994,24.711499971200002,46.591250007679996
6.65e-08,104.37509888,125.37504128,24.711499971200002,46.569375009919995
6.7e-08,88.75009791999992,125.37504128,24.695874970240002,46.56312501056
6.75e-08,88.75009791999992,141.00004223999997,24.680249969280002,46.56625001024
6.8e-08,73.12509695999984,172.25004416000002,24.664624968320002,46.569375009919995
6.85e-08,73.12509695999984,172.25004416000002,24.664624968320002,46.57875000896
6.900000000000001e-08,57.500095999999985,156.62504319999994,24.664624968320002,46.588125008
6.950000000000001e-08,57.500095999999985,172.25004416000002,24.695874970240002,46.606875006079996
7e-08,57.500095999999985,172.25004416000002,24.64899996736,46.622500004479996
7.05e-08,41.875095039999906,172.25004416000002,24.64899996736,46.6506250016
7.1e-08,57.500095999999985,187.87504511999998,24.695874970240002,46.66312500032
7.15e-08,57.500095999999985,172.25004416000002,24.680249969280002,46.67249999936
7.200000000000001e-08,57.500095999999985,187.87504511999998,24.742749973120002,46.691249997439996
7.250000000000001e-08,41.875095039999906,203.50004607999995,24.758374974080002,46.700624996479995
7.3e-08,26.250094080000054,172.25004416000002,24.727124972160002,46.700624996479995
7.35e-08,26.250094080000054,219.12504704000003,24.727124972160002,46.69437499712
7.4e-08,26.250094080000054,187.87504511999998,24.711499971200002,46.67562499904
7.45e-08,26.250094080000054,172.25004416000002,24.695874970240002,46.64437500224
7.500000000000001e-08,10.625093119999974,172.25004416000002,24.664624968320002,46.622500004479996
7.550000000000001e-08,26.250094080000054,203.50004607999995,24.664624968320002,46.606875006079996
7.6e-08,10.625093119999974,187.87504511999998,24.64899996736,46.6037500064
7.65e-08,10.625093119999974,203.50004607999995,24.664624968320002,46.6037500064
7.7e-08,-4.999907840000105,203.50004607999995,24.664624968320002,46.61312500544
7.75e-08,-4.999907840000105,203.50004607999995,24.695874970240002,46.63187500352
7.800000000000001e-08,-4.999907840000105,219.12504704000003,24.711499971200002,46.64750000192
7.850000000000001e-08,-20.624908799999957,219.12504704000003,24.695874970240002,46.66625
7.9e-08,-20.624908799999957,203.50004607999995,24.727124972160002,46.669374999679995
7.95e-08,-4.999907840000105,219.12504704000003,24.695874970240002,46.66312500032
8e-08,-4.999907840000105,219.12504704000003,24.727124972160002,46.65687500096
8.05e-08,-20.624908799999957,234.750048,24.695874970240002,46.64125000256
8.100000000000001e-08,-20.624908799999957,203.50004607999995,24.64899996736,46.62562500416
8.150000000000001e-08,-36.24990976000004,234.750048,24.6333749664,46.61000000576
8.2e-08,-36.24990976000004,203.50004607999995,24.61774996544,46.60062500672
8.25e-08,-20.624908799999957,187.87504511999998,24.61774996544,46.588125008
8.3e-08,-36.24990976000004,187.87504511999998,24.61774996544,46.60062500672
8.35e-08,-36.24990976000004,203.50004607999995,24.61774996544,46.6193750048
8.400000000000001e-08,-51.874910720000116,203.50004607999995,24.6333749664,46.638125002879995
8.450000000000001e-08,-67.49991167999997,187.87504511999998,24.6333749664,46.65687500096
8.500000000000001e-08,-67.49991167999997,187.87504511999998,24.64899996736,46.669374999679995
8.55e-08,-51.874910720000116,187.87504511999998,24.680249969280002,46.6818749984
8.6e-08,-67.49991167999997,203.50004607999995,24.64899996736,46.68812499776
8.65e-08,-98.74991360000013,172.25004416000002,24.6333749664,46.6974999968
8.700000000000001e-08,-67.49991167999997,203.50004607999995,24.6333749664,46.691249997439996
8.750000000000001e-08,-83.12491264000005,172.25004416000002,24.61774996544,46.67562499904
8.800000000000001e-08,-83.12491264000005,187.87504511999998,24.6333749664,46.67562499904
8.85e-08,-83.12491264000005,187.87504511999998,24.64899996736,46.66625
8.9e-08,-98.74991360000013,156.62504319999994,24.61774996544,46.669374999679995
8.95e-08,-98.74991360000013,172.25004416000002,24.6333749664,46.67249999936
9.000000000000001e-08,-83.12491264000005,156.62504319999994,24.6333749664,46.6818749984
9.050000000000001e-08,-83.12491264000005,141.00004223999997,24.6333749664,46.6818749984
9.100000000000001e-08,-114.37491455999998,125.37504128,24.6333749664,46.684999998079995
9.15e-08,-98.74991360000013,141.00004223999997,24.6333749664,46.684999998079995
9.2e-08,-98.74991360000013,141.00004223999997,24.6333749664,46.6818749984
9.25e-08,-114.37491455999998,141.00004223999997,24.61774996544,46.67562499904
9.300000000000001e-08,-129.99991552000006,141.00004223999997,24.58649996352,46.67562499904
9.350000000000001e-08,-129.99991552000006,125.37504128,24.61774996544,46.67562499904
9.400000000000001e-08,-129.99991552000006,125.37504128,24.58649996352,46.669374999679995
9.45e-08,-145.62491648000014,125.37504128,24.58649996352,46.67249999936
9.5e-08,-114.37491455999998,125.37504128,24.58649996352,46.67249999936
9.55e-08,-129.99991552000006,109.75004031999993,24.57087496256,46.66000000064
9.600000000000001e-08,-114.37491455999998,125.37504128,24.61774996544,46.66000000064
9.650000000000001e-08,-129.99991552000006,125.37504128,24.6333749664,46.6506250016
9.700000000000001e-08,-145.62491648000014,94.12503935999996,24.60212496448,46.64750000192
9.75e-08,-145.62491648000014,109.75004031999993,24.64899996736,46.64437500224
9.8e-08,-129.99991552000006,94.12503935999996,24.64899996736,46.64437500224
9.85e-08,-145.62491648000014,78.5000384,24.664624968320002,46.62562500416
9.9e-08,-161.24991744,78.5000384,24.664624968320002,46.61625000512
9.950000000000001e-08,-145.62491648000014,78.5000384,24.664624968320002,46.61000000576
1.0000000000000001e-07,-145.62491648000014,78.5000384,24.664624968320002,46.606875006079996
1.005e-07,-145.62491648000014,94.12503935999996,24.64899996736,46.60062500672
1.01e-07,-176.87491840000007,78.5000384,24.664624968320002,46.59750000704
1.015e-07,-145.62491648000014,78.5000384,24.695874970240002,46.59750000704
1.02e-07,-176.87491840000007,78.5000384,24.711499971200002,46.60062500672
1.0250000000000001e-07,-176.87491840000007,78.5000384,24.711499971200002,46.606875006079996
1.0300000000000001e-07,-176.87491840000007,78.5000384,24.742749973120002,46.61312500544
1.0350000000000001e-07,-161.24991744,62.87503744000003,24.742749973120002,46.61625000512
1.04e-07,-192.49991936000015,78.5000384,24.758374974080002,46.62875000384
1.045e-07,-176.87491840000007,78.5000384,24.742749973120002,46.63187500352
1.05e-07,-192.49991936000015,62.87503744000003,24.711499971200002,46.64125000256
1.0550000000000001e-07,-192.49991936000015,78.5000384,24.695874970240002,46.6506250016
1.0600000000000001e-07,-192.49991936000015,62.87503744000003,24.680249969280002,46.66625
1.0650000000000001e-07,-192.49991936000015,47.25003647999995,24.695874970240002,46.669374999679995
1.07e-07,-208.12492032,31.625035519999983,24.664624968320002,46.6818749984
1.075e-07,-208.12492032,47.25003647999995,24.664624968320002,46.691249997439996
1.08e-07,-208.12492032,47.25003647999995,24.664624968320002,46.684999998079995
1.0850000000000001e-07,-208.12492032,47.25003647999995,24.695874970240002,46.67562499904
1.0900000000000001e-07,-223.74992128000008,47.25003647999995,24.711499971200002,46.66000000064
1.0950000000000001e-07,-208.12492032,47.25003647999995,24.742749973120002,46.64750000192
1.1e-07,-223.74992128000008,31.625035519999983,24.711499971200002,46.638125002879995
1.105e-07,-239.37492223999993,31.625035519999983,24.711499971200002,46.64125000256
1.11e-07,-239.37492223999993,31.625035519999983,24.727124972160002,46.6350000032
1.1150000000000001e-07,-223.74992128000008,16.000034560000017,24.711499971200002,46.638125002879995
1.1200000000000001e-07,-239.37492223999993,16.000034560000017,24.773999975040002,46.6506250016
1.1250000000000001e-07,-239.37492223999993,31.625035519999983,24.773999975040002,46.65687500096
1.13e-07,-254.9999232,0.3750335999999379,24.742749973120002,46.66312500032
1.135e-07,-239.37492223999993,16.000034560000017,24.742749973120002,46.66000000064
1.14e-07,-239.37492223999993,0.3750335999999379,24.758374974080002,46.65687500096
1.1450000000000001e-07,-223.74992128000008,-15.249967360000028,24.773999975040002,46.64437500224
1.1500000000000001e-07,-239.37492223999993,-15.249967360000028,24.805249976960003,46.6350000032
1.1550000000000001e-07,-239.37492223999993,-15.249967360000028,24.820874977920003,46.62562500416
1.16e-07,-239.37492223999993,-15.249967360000028,24.820874977920003,46.61000000576
1.165e-07,-239.37492223999993,-30.874968319999994,24.805249976960003,46.59437500736
1.17e-07,-254.9999232,-15.249967360000028,24.789624976000002,46.58500000832
1.1750000000000001e-07,-239.37492223999993,-30.874968319999994,24.820874977920003,46.588125008
1.1800000000000001e-07,-254.9999232,-46.499969280000016,24.773999975040002,46.59750000704
1.1850000000000001e-07,-254.9999232,-46.499969280000016,24.773999975040002,46.61625000512
1.1900000000000001e-07,-254.9999232,-30.874968319999994,24.758374974080002,46.62875000384
